!Keysight Technologies N9923A: A.12.45
!Date: Tuesday, 05 August 2025 19:10:24
!Timezone: (UTC+08:00) Kuala Lumpur, Singapore
!Model: N9923A
!Serial: MY61181427
!GPS Latitude: 
!GPS Longitude: 
!GPS TimeStamp: 0001-01-01 00:00:00Z
!GPS Seconds Since Last Read: 0
!CHECKSUM:1889363829
!Correction: S11(ON U)S21(ON U)S12(ON U)S22(ON U)
!S2P File: Measurements:S11,S21,S12,S22:
# Hz S DB R 50
2000000	-0.0628300963434788	-4.11382226445834	-74.6548721713219	84.9013974453683	-76.218892720541	117.565951441099	-0.073262799226885	-4.01864520335583	
2249500	-0.336327170715742	-4.99285457824081	-75.1963357543117	83.1001177172971	-85.9380881410932	172.582669109186	-0.344952107281212	-4.96240153880995	
2499000	-0.45780432179859	-6.83968867600412	-69.4001813721029	75.8596351245091	-69.9544903211339	77.1696667056185	-0.519733910301359	-6.60825378770549	
2748500	-0.327759980407941	-8.71369680511989	-63.6030183237811	40.8788711169305	-62.9438990134801	40.819460146487	-0.328960750084465	-8.20023522288643	
2998000	-0.0471257920887085	-9.26070104536219	-61.5317826036297	-52.9295239204534	-62.1835191201896	-56.3477541265267	-0.038642437813273	-9.18217847653953	
3247500	0.149638506106738	-9.24176299348315	-66.7619258327817	-90.2291951942829	-66.5399677574367	-94.4246844881987	0.133188584628582	-9.17437077662358	
3497000	0.0909952133917307	-9.02700191400383	-64.4817506860861	-112.830003695802	-65.1459811620019	-113.360146077022	0.0761074168582248	-8.94904526587139	
3746500	-0.215056914892691	-9.11610788510344	-62.4350384867793	171.026424740697	-62.9036061716451	170.954954926496	-0.178166069474872	-9.26280456730067	
3996000	-0.432113093193446	-10.5367733441685	-81.3857586297154	103.463195776027	-75.1059536959446	125.886304549254	-0.416430999455933	-10.6124529663455	
4245500	-0.457218136886972	-12.7183409090164	-77.1379851329938	-98.8826089923964	-76.0713323115837	-82.9135425239291	-0.444257788185977	-12.6189743540344	
4495000	-0.249311417243175	-14.4755214223201	-62.527661554535	-94.8033937356603	-62.4491057579043	-91.39886583441	-0.25848327598843	-14.141093053279	
4744500	0.0241051653194439	-14.4447143398696	-44.7783035346393	161.63855402606	-44.7746396301884	159.565618298257	-0.0894618190883525	-13.9366647806784	
4994000	0.094419411716875	-13.9141482289996	-42.5915716855543	51.04930826478	-42.5197475032701	49.73356302205	0.109459229321391	-13.166119234047	
5243500	0.00496590195750532	-12.9623659144785	-48.790777224575	-46.708433963909	-48.7444165898948	-47.577592026225	-0.00834645754948436	-12.6519055277677	
5493000	-0.265901638947666	-13.5365735797988	-54.4287825131362	-82.3245702919936	-54.4206752171736	-81.3236123837876	-0.274285607443943	-13.3489876560891	
5742500	-0.476193753918904	-15.3268217015847	-56.1593950428101	-101.214284389033	-56.0596373841641	-102.422100012932	-0.460956180277549	-15.1821872671025	
5992000	-0.435981374574223	-17.5777563335865	-54.6717998401967	-126.572497047774	-54.2701156840511	-125.728462255952	-0.403077030478118	-17.3869505638119	
6241500	-0.234875239827286	-18.899895784697	-50.2704065782692	-171.786481308405	-50.0924235529389	-172.569178729491	-0.165490828281	-18.7191527315253	
6491000	0.0185128298622281	-18.2223791600682	-49.6040153388688	117.160386294428	-49.5509149200743	116.833987124528	0.0880269435960225	-18.955637846276	
6740500	0.112653859864361	-17.8636764049149	-51.2034512166406	73.6048167916774	-51.2887410591281	74.7266706429378	0.0865345467393187	-18.6896271892058	
6990000	-0.0974055838025344	-17.9997807597647	-50.0741337902494	35.8475443023082	-49.9540676410297	34.2316073848892	-0.228956751519312	-18.578596024823	
7239500	-0.427991001236993	-19.1641639675712	-49.0947147169255	-24.3257501128811	-49.3970120527201	-24.472282611403	-0.57024509867275	-18.3514932546971	
7489000	-0.571907216691775	-21.1163874553594	-51.775437190316	-75.7130590652424	-51.8204310368649	-74.16202807968	-0.574844796728006	-19.8766829607623	
7738500	-0.413105617432759	-23.1443175253708	-53.8301195466829	-102.317563814354	-54.0651072475718	-100.71311612443	-0.377074476824184	-21.8512896052638	
7988000	-0.145296766612845	-24.1376463913862	-52.4710236226394	-127.187371394628	-52.3787950435533	-126.798979695149	-0.0674929785573273	-22.8221580971644	
8237500	-0.0364912805784168	-23.2739768405532	-49.4933165996873	-175.744100753636	-49.3344339247354	-176.11847932483	0.137960894312643	-22.7151398799633	
8487000	0.00629475216316101	-21.8066504179151	-50.6025269240758	127.22434510115	-50.6918487480679	126.898603311036	0.0833766176312718	-22.3620736007988	
8736500	-0.195767011743319	-21.9681793605832	-52.2168499057697	92.3495730873486	-52.3660486096249	90.9290580370239	-0.189830780937714	-22.7397798570281	
8986000	-0.465328206458498	-23.5588665059388	-50.8075913579841	60.2853528612122	-51.0819575853811	58.7538035305871	-0.504108288521205	-24.4368933460998	
9235500	-0.550765494546136	-26.1147621966916	-47.1933662189406	14.9886876987893	-47.1977389733542	15.1195467029235	-0.656260842497608	-26.6640213930709	
9485000	-0.418652766050573	-28.0413571965057	-43.6682492448975	-56.7498281079975	-43.7081305348944	-56.5463528794824	-0.545117345023975	-27.4812855110267	
9734500	-0.196732877715303	-27.8327389226135	-43.7958360380322	-143.721870701304	-43.7864277041168	-143.658188457998	-0.169764589936643	-27.0882965416781	
9984000	0.0280012541019896	-26.7283126737279	-47.6399997085406	143.721938976887	-47.6227881274953	143.816583678822	0.048118998692679	-26.4146180873834	
10233500	-0.0355716568206695	-26.4594243235625	-51.1968137878817	98.0393389307986	-51.3630522136941	96.8193389597296	-0.0234579308673505	-26.0492054201187	
10483000	-0.330882321382474	-27.3064920848714	-52.8647907417261	61.4907132895372	-52.9522133434731	61.1115770894891	-0.299106218427663	-26.671751014503	
10732500	-0.593455164368986	-29.4441938093533	-51.9770091669925	24.2783884662095	-51.7735624337532	22.5838401904593	-0.515428385636839	-28.6250948711149	
10982000	-0.63346897138737	-31.7898498037195	-49.0501974279101	-27.326314043762	-48.9950242274025	-27.8244726520481	-0.490553280532721	-31.0258848206216	
11231500	-0.392286520330881	-32.6205588077508	-47.4256748565081	-96.9770716969336	-47.2935596942155	-97.1401625525034	-0.247503546098238	-32.6278094128349	
11481000	-0.0920079988148744	-32.2532692032795	-46.5528833289118	-164.688880855233	-46.4553074551974	-164.625291144604	-0.0246578027575604	-32.8959043777318	
11730500	-0.00758124535430346	-31.1527123708696	-46.3626564170461	116.182547153199	-46.2869842900009	115.689351691568	-0.0583860072328541	-32.1568952164588	
11980000	-0.162205368960607	-30.6397188398187	-48.3998865604591	41.1640098138747	-48.2711614931197	40.5365080016903	-0.336032650306841	-31.3214138699658	
12229500	-0.462458043670328	-31.6638031072754	-51.5622404035584	-24.4671151879581	-51.3702502832974	-23.2941511934815	-0.624889346353065	-31.2573485075511	
12479000	-0.649261855589271	-33.9339683468026	-55.1335759118274	-70.905151008343	-54.8627746978031	-69.4184001036786	-0.68345697097675	-32.9232519493315	
12728500	-0.567644233545472	-36.2726168178438	-58.524787574301	-97.8946075863902	-58.3214081362569	-100.988133770367	-0.494792565582683	-35.0944803437586	
12978000	-0.310598328467426	-37.0523348397848	-60.3810118212874	-117.336311515979	-60.4453110077833	-120.050025959717	-0.159264404340471	-36.3203569009892	
13227500	-0.0784926653795484	-36.2698814441512	-59.5521307657636	-130.700476620811	-59.6053441928622	-133.498647916202	0.0605900230648922	-36.3253052608422	
13477000	-0.0619625297936063	-35.4078019258133	-56.812378946487	-155.067517056074	-56.8540697308032	-156.099315848344	0.00709185796983839	-36.0730363369245	
13726500	-0.295735802122904	-35.5833122531339	-53.3054194195684	175.474079158512	-53.3697674811471	174.100167928721	-0.324638434011089	-36.3822340594847	
13976000	-0.607493340623589	-37.2487343809203	-49.3266350872174	131.190179731892	-49.3683544970447	131.046127145218	-0.747026304262521	-37.6744179204536	
14225500	-0.751692166475871	-39.7906872534414	-45.4894247676342	68.6079591793034	-45.4702006682836	69.1071155635105	-0.905382451743405	-38.9461822470571	
14475000	-0.616377902875498	-41.0818025610485	-43.7745767694767	-12.8106929289804	-43.7923656723898	-13.2654166742731	-0.623589690045836	-39.8811490542463	
14724500	-0.203965539302732	-41.1758320183319	-47.9181298785875	-93.1868022349475	-48.0706210409053	-93.1459916516495	-0.192452415744752	-40.1787508443992	
14974000	-0.0751722307272058	-40.6191842675716	-52.8050034536686	-139.147359298869	-52.7714721659784	-138.671911482561	0.0408708627889622	-39.9797433820509	
15223500	-0.192943511308803	-39.4036011993762	-54.6162511872406	-173.161692302594	-54.4604691278512	-170.399097567378	-0.0712472679612209	-39.7544637258686	
15473000	-0.455138828847391	-39.5327210307436	-54.6264288390028	149.296642140902	-54.3344731363793	151.57322364471	-0.436011322913228	-40.5313583813555	
15722500	-0.700108415300174	-41.5623375652562	-54.1766191671197	96.3003033567671	-53.8066543734912	97.4106726343795	-0.823436159314849	-42.0952656028334	
15972000	-0.712465029281063	-44.2446468916674	-56.4398508502305	31.584534056197	-56.3989001170294	32.4619305487659	-0.834827801160664	-43.2173705326539	
16221500	-0.496247066160425	-45.8604244819928	-63.3560310141893	-25.1917580220868	-63.3299535022624	-26.5649923855567	-0.443736063089088	-44.4560876769343	
16471000	-0.244698219762243	-45.5903338404756	-72.0496236019509	118.425729435589	-72.3847393288474	109.154659798446	-0.0999368445572854	-44.9551703861526	
16720500	-0.138580218307416	-44.381051260068	-59.1483283806467	59.458653974298	-59.3120347188919	56.7564918066925	-0.0413046293569344	-44.7156100005499	
16970000	-0.288268322717173	-43.7481068981746	-54.733096892697	9.96084545900423	-54.6090098338829	7.78999010701506	-0.326383793950383	-44.4743740293628	
17219500	-0.601840399799485	-44.67362897504	-51.6175132204322	-41.9783803745751	-51.3935018507986	-42.0036319661036	-0.756446305373329	-44.8217474541093	
17469000	-0.81271454483214	-47.0048294412485	-49.7178434085271	-93.1248778630462	-49.774329309113	-93.9792452286995	-0.941728270006425	-45.9344768980361	
17718500	-0.751498735097594	-49.3015953298317	-49.093844982639	-142.867976533363	-49.1822573939736	-144.50768372332	-0.741278821430067	-47.8093378063679	
17968000	-0.477008793081704	-50.1054561773166	-48.7403452308215	166.583368878748	-48.7320929209144	166.596324322495	-0.357732841466938	-49.0233763518576	
18217500	-0.19549922512549	-49.2864673803334	-48.7461184507669	117.902275804505	-48.8101293271194	117.671398315619	-0.0565668363605689	-48.9315402745756	
18467000	-0.14608195244538	-48.1876609997297	-48.921221173938	73.0364355492099	-48.9825221193247	73.0903637357558	-0.0670708958893238	-48.3546593973485	
18716500	-0.377828931678344	-48.1492088449377	-48.5621328295266	29.4793083805922	-48.7874144211256	29.5453164972744	-0.363682295775305	-48.4072278908209	
18966000	-0.712776216996494	-49.5990795657643	-47.4297895472953	-17.4240823948512	-47.4643499524184	-16.9872018935757	-0.758966624206015	-49.6712675321143	
19215500	-0.865694555685247	-52.1241348973311	-45.8818998809123	-68.4529017830274	-45.8834704994828	-67.9766375717523	-0.966893006699359	-51.5977877189262	
19465000	-0.730601726835354	-54.178702093429	-45.1344303643619	-123.286301555731	-45.1571958094957	-123.547562408315	-0.807007815720319	-52.9945758774078	
19714500	-0.434943962521773	-54.5330273588671	-45.1162983157152	179.695864632117	-45.1457271184741	-179.747592400753	-0.416661186248469	-53.2596386491951	
19964000	-0.23811226995734	-53.4274009213855	-45.8038126772305	127.665677577419	-45.8500744805281	128.081713704133	-0.143858561113984	-52.5947481973767	
20213500	-0.313829360283956	-52.3727109918796	-46.8328232810212	80.3139465146108	-46.9806605190186	81.3182010698456	-0.172294568602491	-51.958003576727	
20463000	-0.630599909857863	-52.6222201986561	-47.8697693869401	37.4494642856513	-47.8339840595226	38.2008658399592	-0.452481079744521	-52.3071488491459	
20712500	-0.957787244038529	-54.4146213653185	-48.1891790306278	-5.01273219545557	-48.3954104972528	-4.75530643598621	-0.752693827485632	-54.1812334824055	
20962000	-1.03484073295547	-56.7625139691657	-48.3438761433836	-49.9170016962647	-48.4018264186	-47.6407060782936	-0.831153136883792	-56.6276368942184	
21211500	-0.778531023303327	-58.0785496984776	-48.1801000320318	-98.4390165458952	-48.1747059938692	-96.5457526320987	-0.664401202989048	-58.1979089680879	
21461000	-0.414415219556549	-57.75365086423	-48.1422414274761	-157.668107069624	-48.1900495811884	-155.112940588014	-0.399773869799883	-57.8875817905832	
21710500	-0.241292012458013	-56.5127956396258	-49.2394299882079	142.600998975209	-49.3414170745728	144.791604366505	-0.266188833938457	-56.5036817611207	
21960000	-0.375414534772392	-55.7867664593578	-50.5030576093483	88.5466580527375	-50.4560555275283	89.4808017428512	-0.36469465071244	-55.5552013593522	
22209500	-0.711667749687289	-56.4560611654543	-51.0618964986777	37.0359235132768	-51.0836691750398	39.7912286205356	-0.645438355219475	-56.1827941611277	
22459000	-0.981900650786239	-58.6609093975587	-50.3631946065212	-12.5197189600625	-50.5343580321832	-10.7586559804733	-0.837132297403646	-58.4440581477183	
22708500	-0.941656738591592	-61.0105594696482	-49.3166109478702	-63.3607466771016	-49.4885062815984	-61.8181450270273	-0.774755903835297	-61.012178714266	
22958000	-0.620809028615197	-62.0234834328605	-48.4552478779905	-119.680240001169	-48.6209178850482	-119.059101234998	-0.502763613242452	-62.4575948359092	
23207500	-0.312039370632628	-61.5377014738847	-47.7742774025489	-179.767851092095	-48.0179922496328	-179.753743992387	-0.265122605011645	-62.1206956127468	
23457000	-0.273649540329692	-60.3368933755195	-47.5483411838695	114.912251726544	-47.7808552604232	115.120833651686	-0.26137467687808	-60.9644612456026	
23706500	-0.522611733723389	-59.6141193774648	-48.3329466961906	45.374053490517	-48.7738858974743	46.046162411939	-0.511183221679702	-60.3843607194823	
23956000	-0.843914111911027	-60.4326975870969	-49.5962804879238	-26.7650768752775	-50.2262355364152	-25.0611384246998	-0.860682462819177	-61.1411982939952	
24205500	-0.981234430569254	-62.8683018029514	-51.6053925957518	-89.6677910350864	-51.9715968948524	-88.5326577664287	-0.990996507464708	-63.2232282801377	
24455000	-0.812717938373514	-65.1825747814394	-53.7971736856216	-145.864782066228	-54.0265390663501	-143.692045440386	-0.79100663068928	-65.2902496023724	
24704500	-0.466406273545692	-65.8984506302673	-56.1991783894222	167.960754482266	-56.7566777613678	167.931011270738	-0.417967901418316	-65.9674957489739	
24954000	-0.203975506888945	-65.0993491846149	-57.9257505798236	131.745483799241	-57.8181429150996	129.846678407938	-0.199773783646242	-65.418215415141	
25203500	-0.21316118232551	-64.1740441876854	-58.4609232056408	104.54483668066	-58.343363700199	102.87679335674	-0.285888760580977	-64.6373504230862	
25453000	-0.496272851883503	-64.1266666172703	-59.0387357626776	76.8825106840954	-58.788393905512	72.629628254726	-0.619770664526629	-64.5109186751564	
25702500	-0.818232682261035	-65.7987282495672	-58.3139691020318	49.3916490422349	-58.1912915562798	45.2156141744965	-0.972689421187978	-66.0200490692468	
25952000	-0.898222454168908	-68.556012667096	-57.6330178683463	14.9739049288013	-57.7080406949454	17.0016339670842	-1.07495633487057	-68.3053970891586	
26201500	-0.689542952464927	-70.5375469381691	-56.7941235996367	-21.4027557710534	-56.5826627365835	-25.7470766061502	-0.823531658923767	-70.0166992817185	
26451000	-0.372208673076043	-70.6354659223145	-56.967395965341	-63.9866075340162	-56.948099410269	-66.1480833348784	-0.466844983007311	-70.2330640694436	
26700500	-0.23070128395815	-69.4718320427497	-59.0882792303224	-112.449773187217	-59.0187851606425	-112.975935185052	-0.279512439170791	-69.1511441390727	
26950000	-0.372656452967584	-68.3758386228908	-60.7132428100973	-158.131920351775	-60.6579841741978	-159.930866735096	-0.384009728766928	-68.2804888474266	
27199500	-0.717056024596828	-68.7759655704003	-63.3200023116616	164.327586506677	-62.9045817329955	163.220912372834	-0.715739777215919	-68.5465712489639	
27449000	-0.990029109444815	-70.8311960841878	-64.1883366666483	117.704975515939	-64.8522466234108	114.164309554478	-0.97477776244308	-70.5763498640494	
27698500	-0.979991986991257	-73.4189452497514	-63.8394562549873	64.5753142682055	-64.435655174172	66.9178524093313	-0.961399164135542	-73.1156339588775	
27948000	-0.671957170219208	-74.817373907525	-61.6989341598764	17.2142650865719	-62.2946970287384	12.6000661885354	-0.693274105309869	-74.6794546882132	
28197500	-0.338247870287897	-74.3468844823056	-60.1609505185502	-25.9415868231166	-60.6412682002137	-28.9790596288089	-0.409614662597112	-74.3106485010566	
28447000	-0.251426956264455	-73.1095582903165	-58.2572642563488	-70.9669662893562	-58.4773072159029	-71.2897848254337	-0.351008314937936	-73.028431615755	
28696500	-0.464733508870026	-72.4684996920155	-57.2525640843969	-116.946155504309	-57.5342297563316	-114.350817912126	-0.559577249497654	-72.0429908360394	
28946000	-0.81676206316507	-73.3513857094429	-55.8705522047077	-151.311538659353	-56.1653485466889	-152.238867788138	-0.893784933323049	-72.6307510693598	
29195500	-1.02842349385274	-75.759006599072	-54.7944589228093	170.924851441332	-55.2778667850614	171.959649430349	-1.0620761235644	-74.920736530301	
29445000	-0.924563666727467	-78.2652338513583	-54.8316786239645	130.489575924728	-55.2672568564194	131.50390354477	-0.899431469854262	-77.373669981377	
29694500	-0.58389487568372	-79.0466285686634	-54.8275426696228	92.7140254149509	-54.4478778737722	91.8414529692127	-0.566910149845216	-78.5230869493183	
29944000	-0.334524546833787	-78.076863051125	-55.50169553802	53.7763442963371	-55.552328516482	54.9421991218085	-0.294905377103544	-78.0506353811474	
30193500	-0.361409574561006	-76.6888701619815	-57.0250744295201	15.971207059746	-57.1166554228182	14.3202407253345	-0.332395237042775	-77.0968979030075	
30443000	-0.641027164910245	-76.2256385519425	-58.8660988948578	-30.0331995894952	-59.5000676963959	-27.5417891363245	-0.650502759651583	-76.7158637379059	
30692500	-0.977760590104711	-77.5120600688854	-61.1283611181893	-64.1726071729726	-62.1666041773814	-77.0583021822174	-1.00006675967496	-77.9333802886849	
30942000	-1.10182792120411	-80.1774788900401	-64.5037243679829	-102.949617120707	-65.568173864188	-98.6351654502105	-1.1317198396223	-80.2696525048341	
31191500	-0.867253849634238	-82.4174191871005	-71.4881867041984	-143.500671985025	-72.1496402997334	-168.611242984524	-0.902732148737113	-82.2318627296823	
31441000	-0.480014287673023	-82.9105686470348	-87.0776773330712	67.8350769893344	-76.369864495997	104.720286557611	-0.540200608391726	-82.4975915248575	
31690500	-0.270253327564307	-81.9173913234536	-76.6670205502687	65.5787264737312	-79.9449726223571	90.2390369279761	-0.323271686801109	-81.4083332008704	
31940000	-0.369809788092151	-80.86457712859	-72.4439678453889	24.3913067198479	-73.9613662211851	26.1024634270516	-0.420650514496142	-80.344995643733	
32189500	-0.720895571385086	-80.917289508074	-70.0177659512775	-5.73852063168325	-70.080996900422	-19.2444905458158	-0.760699128351558	-80.501377646568	
32439000	-1.04748578570951	-82.7601596473105	-65.4184924508469	-44.0220534488065	-64.7099897683699	-52.4132682314934	-1.06193812787649	-82.4222640721426	
32688500	-1.06892253407993	-85.325659784909	-61.9691052834875	-69.2449222433255	-61.9013865960212	-71.6655479072326	-1.09739411113429	-85.0891816783752	
32938000	-0.804064312758538	-86.8020838162722	-60.4157006330318	-103.743227711872	-61.028827802155	-109.532988185653	-0.824284353405056	-87.0206392624745	
33187500	-0.480793940986229	-86.4814337071579	-59.6007366834525	-144.791649793591	-59.5748495962091	-141.759197207891	-0.497757109120015	-86.9262285317289	
33437000	-0.361749509204011	-85.1296153250807	-59.5036070625017	173.848288585783	-59.2422908632772	173.067207006751	-0.391306284372659	-85.6477122621597	
