!Keysight Technologies N9923A: A.12.45
!Date: Tuesday, 05 August 2025 18:50:56
!Timezone: (UTC+08:00) Kuala Lumpur, Singapore
!Model: N9923A
!Serial: MY61181427
!GPS Latitude: 
!GPS Longitude: 
!GPS TimeStamp: 0001-01-01 00:00:00Z
!GPS Seconds Since Last Read: 0
!CHECKSUM:1973578777
!Correction: S11(ON U)S21(ON U)S12(ON U)S22(ON U)
!S2P File: Measurements:S11,S21,S12,S22:
# Hz S DB R 50
2000000	-0.0693973646372327	-4.35533321304387	-73.2142135426104	-113.270466366137	-71.6828219719	-107.154582937998	-0.0784803491697215	-4.33906336813446	
2249500	-0.324047910663406	-5.225472583618	-68.1709251282466	-127.251221740311	-70.2429724662701	-103.330865063056	-0.322399107986389	-5.16548276741597	
2499000	-0.439112562691487	-6.98396970762965	-58.29495128604	-137.270374866374	-58.212057892851	-140.128076104391	-0.434455981776999	-6.83989013723974	
2748500	-0.311939534365962	-8.51411345001325	-48.1646968404345	97.5832472791821	-48.0990330223454	97.3604955025179	-0.320429436382581	-8.15722191904571	
2998000	-0.0594760907919478	-9.2294374728731	-50.2984628998861	-2.61335321165807	-49.8735384274121	-1.17012774323659	-0.0553824143858648	-8.99662412631417	
3247500	0.13528512177595	-9.10565714396876	-52.4240793910541	-21.7276350217734	-52.7110348266648	-22.7112614157758	0.0508828754509541	-8.96404713347416	
3497000	0.0883782717450583	-8.86549861862049	-55.2524734775043	-90.5732503266707	-55.2198325814453	-90.5931938233163	0.0562089124922771	-8.45064282648635	
3746500	-0.191855892988144	-9.30699120614348	-53.3071775824589	-136.087180114029	-53.1010004518121	-138.101837774102	-0.177113047802893	-8.91776286786502	
3996000	-0.420110321413627	-10.2806869737542	-61.0458691950154	120.74865491791	-61.0101953046107	122.873107788173	-0.397916048612643	-10.3210747977315	
4245500	-0.433492051801569	-12.4535449213549	-75.7289168312623	84.7809586319488	-76.0501891772623	83.5323511837968	-0.420775983019229	-12.3733923859912	
4495000	-0.226982685340337	-14.1458773853656	-74.7688775538573	-109.760210073158	-81.2776794819678	-132.840181103488	-0.216320855663421	-13.8832798134941	
4744500	0.0122742083582116	-14.7333004329693	-61.4149295149546	-127.604205007076	-61.2020935895541	-131.34892421346	0.0392824591457699	-14.3471445775614	
4994000	0.015483829448784	-13.7852513804896	-50.0802617091469	150.982726349636	-50.0919994651409	150.520836139896	0.132142530752396	-14.0352922909524	
5243500	0.000291340896918114	-13.2472874026092	-52.5715498971707	83.280193401923	-52.7164247496995	83.1854529466406	-0.00559103883706517	-13.813878053214	
5493000	-0.26213419120707	-13.9000699726766	-52.2722645172944	52.9133678314922	-52.1066705257229	51.9076164032837	-0.307710782575063	-14.4985637587299	
5742500	-0.461706685110886	-15.5922460977926	-48.1133582169586	10.738176256296	-48.2896130845617	10.8166166001211	-0.589387374421856	-16.015362450022	
5992000	-0.419413210680896	-17.5819947282877	-46.1281997749443	-56.360154408632	-46.049252792797	-56.2888336306383	-0.562956399948012	-16.6950189965481	
6241500	-0.211599931398772	-18.8602633716582	-46.5200345482964	-115.870955792145	-46.4815064605924	-115.319595168276	-0.220496037405106	-17.5887130703369	
6491000	-0.0230841098060445	-18.2570704513639	-48.0004691191866	172.00220492439	-47.9013707088883	172.710603879053	0.0600571077305343	-17.8037406202869	
6740500	0.0881816021040067	-17.668449603106	-53.5576658739441	125.919672250864	-53.3999528077917	125.628263899988	0.111855546014631	-17.5118772629011	
6990000	-0.09370876643495	-17.7989945479885	-57.3919029118487	102.087490302898	-57.0550848431799	103.675087444477	-0.0769175776938685	-17.6069742459601	
7239500	-0.395529259042466	-18.9539676687386	-58.2423682651426	83.850223478649	-58.5427628462627	83.2900921216326	-0.339991255820129	-18.7507392046837	
7489000	-0.537991548680292	-20.8420086869842	-58.6159196823821	62.4060979667894	-58.1467181781429	63.0560125661122	-0.461620659017245	-20.8644134878801	
7738500	-0.392757894750056	-22.8057204796716	-56.4222989550264	51.1933020629603	-56.2906663516879	51.147489779405	-0.338888268694801	-22.8512452181482	
7988000	-0.138246895866771	-23.9064614710013	-51.4395850756058	31.4599273354892	-51.3256226485158	30.7651867893914	-0.0889377607240583	-23.9022435265127	
8237500	-0.057358196249377	-23.4850448870169	-44.4023654047588	-19.5190380778073	-44.2765834908219	-21.0500538757995	0.0353029126832226	-23.9332227327934	
8487000	-0.0429665894911919	-22.0012579400207	-41.5832459993039	-102.473937640509	-41.6458636595831	-102.985080802289	-0.137679515414889	-23.3092552909496	
8736500	-0.221726781250237	-22.2481160624292	-43.135233897978	-176.908372346457	-43.1489939974118	-176.245836175426	-0.462423664296404	-22.1404312407311	
8986000	-0.458629831208159	-23.7765641911051	-47.2310082073927	127.97199027237	-47.1405299978034	127.301914200432	-0.561789556201069	-22.712603647573	
9235500	-0.516677202279143	-26.1754183819549	-50.1424689811267	90.1262853520572	-49.8777016570464	89.3746009416335	-0.514764346294763	-24.9026250932199	
9485000	-0.369954053397817	-28.0847798002672	-50.3617797164878	53.0366059077969	-50.4217674371169	52.566437171159	-0.285473526889408	-26.8141414824232	
9734500	-0.20934812225175	-28.0744418374267	-50.3328293753712	-3.57727875991893	-50.1515379661507	-3.97947897063347	-0.00171512920072007	-27.5072869326118	
9984000	-0.0264296528054336	-26.5902092828554	-53.1725822856229	-79.715563917918	-53.0287698044927	-79.0673676721947	0.10426592540839	-27.4659386466622	
10233500	-0.0572359465881349	-26.2035109035921	-56.6282133677808	170.850017462259	-56.3015683867725	170.468969465279	-0.183379382137162	-27.4214143672871	
10483000	-0.314346946076876	-27.0446587751975	-58.5037144516517	-20.7954895756755	-57.8592500912997	-18.39825473772	-0.386334393269896	-26.1745753448036	
10732500	-0.544053401013438	-29.1255933901904	-57.751771837063	-91.858090157875	-58.2176238425894	-91.4181350066951	-0.506682784154441	-28.4082405652544	
10982000	-0.568970779115418	-31.5703374469466	-55.7061073838603	-145.250489265667	-55.7943944722012	-143.488369914959	-0.464388813828172	-30.9391978539264	
11231500	-0.396496376757721	-32.5158150781498	-52.5437279028621	145.029876574912	-52.7342463383934	146.148109578672	-0.237341883311095	-32.7045190443494	
11481000	-0.106244844782969	-32.026576454218	-50.7467852732886	79.2473529572029	-50.9046540835227	81.0504679235009	-0.0481949775593247	-33.1824615033869	
11730500	-0.0286240285669364	-31.3745371573748	-49.4561014264941	5.10816460802915	-49.6590796044013	7.00369744575459	-0.169138595224236	-32.5012655669773	
11980000	-0.223004080100965	-30.9094979468328	-51.6778688412548	-79.520861683565	-51.4003114146713	-76.06299454498	-0.424472250122846	-30.609570699047	
12229500	-0.488181897883237	-31.8052507181207	-58.160420004575	-126.085247577133	-57.8393392907473	-126.007730778048	-0.52848568557504	-30.7169657078003	
12479000	-0.636203461150448	-34.0341269958065	-60.0012595227549	-146.596623920634	-60.3436603292167	-143.903864663398	-0.566958021668283	-32.9509767231312	
12728500	-0.539214477483115	-36.2977765996764	-58.0104468848598	178.150083901149	-57.5975335410111	174.750509893089	-0.420461355384297	-35.3518235860342	
12978000	-0.2957548639257	-37.1173409107786	-54.6114632758826	125.265824960353	-54.645693101968	124.029621880398	-0.143274655595554	-36.8168558805882	
13227500	-0.107139105860353	-36.3159830963121	-50.8900689073769	58.7308496911776	-50.8297276280393	58.5017098893786	-0.0265540885202234	-37.1668463328244	
13477000	-0.10411404947164	-35.2185440195177	-48.7043739720015	-33.2361766845669	-48.6878102174159	-32.1110303909112	-0.286086830099238	-36.0603336929996	
13726500	-0.301330788966097	-35.2499887864776	-52.5500016025084	-124.079590311271	-52.3021628933476	-121.543497461146	-0.414377503009412	-34.5350162431642	
13976000	-0.573159523957413	-36.8812465070107	-57.6578605635758	166.273061660163	-58.2593639190749	169.043238711204	-0.556063933224632	-36.0124346952714	
14225500	-0.693843943705367	-39.4925465404153	-60.4164621117603	69.8592775320781	-61.6254706457407	75.0581711089538	-0.583195264589434	-38.5631933248498	
14475000	-0.596565895011068	-41.007337370831	-53.6250295647661	-48.8860658075562	-53.8110248972771	-48.3334297599717	-0.393077293974894	-40.7055074590841	
14724500	-0.222990758756148	-40.9801990522799	-50.4402805040631	-145.704589892356	-50.3939225904811	-147.075139603901	-0.132147965748679	-41.5249986094856	
14974000	-0.0882510850782872	-40.6489102092506	-49.8821493621667	146.890052446706	-49.8309128556649	145.463908797562	-0.0397803098605293	-41.3699095466242	
15223500	-0.236803349262967	-39.6527358040949	-50.3395894474775	85.8923125497689	-50.5969261187062	85.02717185764	-0.270200790222787	-40.8292560612916	
15473000	-0.491218519877762	-39.6397899545821	-52.6642456227086	27.5355592364556	-52.9768143751678	27.9257791835427	-0.685979141174404	-40.5137213939886	
15722500	-0.700399365524619	-41.5280904284029	-57.0864855507847	-20.8612763818298	-56.7627925188274	-20.1449488372354	-0.91326138097815	-40.9335703160069	
15972000	-0.687080600148909	-44.0743040192943	-62.5446508025031	-47.9133223392444	-62.9232285526283	-53.3513035512612	-0.787379152998144	-42.4767668341791	
16221500	-0.464870560173128	-45.6874297846802	-68.0311079297911	-48.4242984049367	-67.8518399513901	-35.7690643122847	-0.436555374159464	-43.8994982387324	
16471000	-0.238435729056811	-45.558899073153	-64.6674525749628	-32.5872388701501	-64.206284904398	-32.9001172134002	-0.103867991350339	-44.2229062547894	
16720500	-0.164443982518253	-44.3522172538784	-61.0678581902232	-65.3990067920299	-61.1746846285983	-65.8778181666057	0.00388101642819191	-43.8860060492031	
16970000	-0.305758444937765	-43.6066251566194	-58.8148141281207	-102.439371223147	-58.9381219373942	-99.7298855997663	-0.172022511418802	-43.8332892559741	
17219500	-0.58414441673394	-44.4847304916509	-56.7235870551065	-137.911593917583	-56.7035658206812	-138.603721477175	-0.488351580709833	-45.0600685164934	
17469000	-0.767161010156106	-46.8128014101646	-54.4656880184237	-178.310436642469	-54.4317337127434	-176.327594359198	-0.71805361015654	-47.454367812584	
17718500	-0.707738287189433	-49.1872149508589	-51.0264598826989	137.387302153208	-51.092471209209	136.558226420112	-0.716420965635421	-49.9201889148169	
17968000	-0.473989330256373	-50.1615852818594	-47.5302166288531	82.4923352733953	-47.4987124230103	80.9117886871367	-0.566997967481075	-50.773387105633	
18217500	-0.250664377418658	-49.3691868328516	-45.5336341742677	19.4147000827962	-45.6886733168368	19.2129949227102	-0.401542440406867	-49.3941517708265	
18467000	-0.216527732063815	-48.1165861120455	-45.7305631280621	-41.4859509863405	-45.8607854231515	-42.0091123506716	-0.336112763219359	-47.3956865483911	
18716500	-0.41806964824846	-48.0027883779138	-46.8910998704693	-92.2062314311239	-46.940429117056	-91.8697357917983	-0.426737023791848	-46.851002958075	
18966000	-0.704132982194723	-49.4323920170501	-47.5023331278302	-134.550927815218	-47.5615489008362	-134.275669791822	-0.617664134877358	-48.2621061584139	
19215500	-0.829983333789986	-51.9681236511882	-47.6416790585638	-176.010153867648	-47.6616187441154	-176.390655429461	-0.694919727164971	-51.0161474416204	
19465000	-0.699318464235726	-54.0498415618362	-47.1931583670595	131.218654328146	-47.1464614809779	131.185974131963	-0.596725187646632	-53.7170701582664	
19714500	-0.434094149328149	-54.4682553911551	-48.5595680264107	56.14988731001	-48.79522286502	55.5454960619268	-0.472015627410484	-54.1776499222304	
19964000	-0.263239716671721	-53.3087375251557	-60.0865074503935	-40.2220463581813	-59.7146460471779	-42.1824553934869	-0.23587708403037	-52.4712935416669	
20213500	-0.322350813957177	-52.1948940501218	-60.1274459964204	134.415676186751	-60.1190886562537	136.532924022894	-0.199332405862335	-51.8154768885075	
20463000	-0.596334645935044	-52.4787101841168	-54.6711145766059	75.4840232160954	-54.5005212007657	75.4671114005214	-0.443186130736585	-52.3409283923693	
20712500	-0.88781921712488	-54.3737910012775	-51.2305437939945	27.0307801115058	-51.4419811759727	28.330339712054	-0.721695842479613	-54.3281183836714	
20962000	-0.97699411951566	-56.8696775611882	-48.3743535153189	-21.9888572154172	-48.7079409379454	-21.451506371521	-0.802312687751197	-56.8549257676989	
21211500	-0.785440214181951	-58.2180153269231	-46.6048338698813	-74.0542668570791	-46.813587703287	-74.0927969999248	-0.670723563257356	-58.5649667037044	
21461000	-0.477618263707739	-57.7146607066185	-44.7546196612532	-128.599283541791	-44.912565664612	-128.391961246151	-0.465326671601593	-58.3121926408812	
21710500	-0.312106809875086	-56.3774791631389	-43.7342070378595	172.67145321884	-43.8799817974667	173.059819708165	-0.363735313640729	-56.783926250433	
21960000	-0.428573390247321	-55.6638287417284	-43.6312985127177	118.077827075005	-43.7680489779125	118.885022924811	-0.443098629323446	-55.6036982507267	
22209500	-0.734544283693796	-56.3529733603419	-43.4952929562576	68.5082349570238	-43.6625504140362	68.913454764877	-0.671788542400623	-56.0424924247767	
22459000	-0.977064596101918	-58.5039707053244	-43.0019174778527	19.5546827985001	-43.1333487000991	20.0021625688627	-0.823738476089342	-58.1595592060917	
22708500	-0.923710121106074	-60.7479394467694	-42.3788011931196	-31.9230189050202	-42.4639740731541	-32.1528644214224	-0.758647763500121	-60.5793785583601	
22958000	-0.600159816307735	-61.7567086070031	-42.1385995948719	-87.6738307342296	-42.4910118204595	-87.6002614736676	-0.500102376013031	-61.9031923123897	
23207500	-0.308356376510004	-61.4217206567913	-42.6670140388635	-147.788499265875	-43.0252054189664	-146.769519599502	-0.257665106429299	-61.6175174138348	
23457000	-0.289340041420638	-60.2196351353081	-44.0228118234639	150.203561200658	-44.5624342998476	151.686579784099	-0.228573092077457	-60.7048592538224	
23706500	-0.509807905173695	-59.4642743760216	-46.2873557895927	88.7393329219051	-46.8744482411236	92.5058240286447	-0.446042512126786	-60.5264801172717	
23956000	-0.802816816724965	-60.4057054875188	-48.2383834336827	26.1209298312437	-49.0409258310583	29.4408910788467	-0.797054162487857	-61.741786469274	
24205500	-0.944802264976613	-62.8434838097257	-48.8819026892632	-42.4764746317293	-49.7370762489304	-37.9853601484503	-0.996391598520814	-63.9165280306273	
24455000	-0.799715399884748	-65.108482202402	-48.8531831294979	-120.728567455587	-49.7417742903268	-117.69329691719	-0.838156033550022	-65.5259735458799	
24704500	-0.492628992638589	-65.8991517366837	-49.6457910637242	157.580267276995	-50.4645743674389	161.935910517376	-0.458981376882296	-66.2501303531638	
24954000	-0.277775076269063	-65.0839249740092	-51.3040669148394	86.6153593487528	-52.0020371139818	89.6868087242173	-0.304874905226467	-65.8922282476652	
25203500	-0.293853342278645	-64.0230112586049	-54.1262930649356	26.0993433673467	-54.6121418320352	32.3308786546401	-0.442009726469685	-64.6900410864696	
25453000	-0.541307573122732	-63.9019049119921	-56.8762210947188	-21.4981992554728	-57.2918234040819	-18.2551781227532	-0.717384108980018	-63.8794877477965	
25702500	-0.818529335186646	-65.5651709997604	-57.7643222585701	-61.6008620934271	-57.9034468200118	-62.386108065925	-0.94468640116807	-65.006520389098	
25952000	-0.871749376952227	-68.2972804109472	-57.5605810178257	-97.6959413367266	-57.8805724414372	-95.9301643846714	-0.944824964017468	-67.3757949756905	
26201500	-0.661012126988735	-70.3027137081728	-56.6939295119643	-139.669106888017	-57.0169266651016	-138.315976215852	-0.663744133225789	-69.4966391623608	
26451000	-0.361767410548731	-70.4797523720501	-55.4991313150173	174.899733792823	-55.3223971808558	175.18149114579	-0.336160841536484	-70.3033900690877	
26700500	-0.240521060842944	-69.3738945432402	-53.9717587651431	127.949467766586	-53.878852816612	128.326218972394	-0.212591620293974	-69.7539701820685	
26950000	-0.380765472950088	-68.2257762556449	-53.2773495669596	84.2396365782167	-53.1231162031201	83.3632787998892	-0.388342703332244	-69.1971570012645	
27199500	-0.695757430303901	-68.5629900551465	-52.7823238455294	37.2192164940043	-52.695629837742	38.8775974181394	-0.786004458729997	-69.4342032851018	
27449000	-0.939464478460251	-70.5875491540105	-52.0614268301156	-6.77359682535025	-52.3006539941115	-6.0266608236661	-1.09752578910743	-71.0393158847865	
27698500	-0.931099159857467	-73.2256443454829	-52.0891272837571	-51.0256042157592	-52.1475839294265	-51.2644499608995	-1.10265800805682	-72.9410737705476	
27948000	-0.664713976385804	-74.7206511681818	-52.8266271847885	-95.6150084920974	-52.7952536610178	-96.2982173751065	-0.799052591692553	-74.0221179384293	
28197500	-0.385299767714361	-74.2717940374931	-53.8632165849228	-143.85726617265	-53.8207193764794	-140.229763895359	-0.444796182446942	-73.601976730226	
28447000	-0.3216122008296	-72.9369396542566	-55.3281403057933	172.270719020012	-55.2150786787644	172.194838191485	-0.313449548134481	-72.6663370110286	
28696500	-0.515229228447765	-72.2129777012793	-56.673216305871	128.013360448061	-56.9692968499002	129.452640842311	-0.469368522185468	-72.1489223694994	
28946000	-0.822135038330601	-73.0871315240064	-58.5795046134261	86.6767067032059	-58.3038929677979	88.3803857791645	-0.779847403941587	-73.0963671667569	
29195500	-0.990985609873402	-75.5320808801706	-59.2435286255701	41.4663647196277	-59.1264459626761	43.8162784664183	-0.966233069781933	-75.5118876908346	
29445000	-0.868713315682954	-78.124690004118	-58.8347082957106	-4.03519954169718	-59.0297357658481	-3.55299177587683	-0.870095357128789	-77.9290887085499	
29694500	-0.540235659849788	-79.0518414618055	-58.4177094024145	-45.280559569657	-58.347299924916	-43.4741981230755	-0.627433357590731	-78.9598895603332	
29944000	-0.32137837491039	-78.2041571553095	-58.247968473384	-91.4288161449379	-57.9976252307662	-90.7959171525074	-0.426911795285341	-78.2393691785391	
30193500	-0.369880458696941	-76.8094919425093	-57.1240078493834	-142.472561664697	-57.2249365019702	-139.718110589247	-0.478654835263502	-76.9447866884729	
30443000	-0.646451389082365	-76.2506070029001	-56.7858224482365	172.970848325369	-56.859144780116	176.551743444222	-0.751223682348926	-76.2693245570335	
30692500	-0.965067200832981	-77.4589012867473	-58.8160814215516	134.323060248759	-58.3306410252792	131.220636744526	-1.02372230331729	-77.335670494795	
30942000	-1.08839036106155	-80.1189319809757	-59.5424395021514	90.0465521368105	-59.8545574835968	90.1128838020036	-1.09316199764994	-79.7064270423029	
31191500	-0.885760829681337	-82.4095786799776	-61.2100121726331	47.8070150140114	-61.0029906913817	46.4249370758705	-0.843453031495533	-81.8936241919281	
31441000	-0.552662975578242	-82.8752133454622	-63.4031197812485	-0.713260216176467	-63.0944392539701	0.442239964109225	-0.496164174085724	-82.5261987000036	
31690500	-0.372160553628355	-81.7142063261489	-66.8941488087651	-51.3846692182894	-67.2276883542617	-51.7155818213267	-0.307909577555883	-81.8059417042612	
31940000	-0.456800653911543	-80.4378263747176	-71.513106927211	-143.698048354063	-70.1127504585482	-157.927113673381	-0.432072233212509	-80.9577982955023	
32189500	-0.757615208505062	-80.3695855791869	-67.6464545333808	147.785080705774	-67.5939235123418	138.945834676415	-0.786705460936343	-81.1143536242721	
32439000	-1.02847972765696	-82.2216607248262	-64.3849704227555	94.1463846751113	-64.1398858639406	83.2596979347487	-1.09901309562492	-82.7522148246314	
32688500	-1.01894218184233	-84.9448232175682	-62.5719605608134	35.0999244795168	-61.4087017893002	39.7280758559711	-1.15137829768224	-84.9530134531124	
32938000	-0.752015964082227	-86.7060251791921	-60.2008616423419	3.55031992971628	-59.8779419482751	-2.66520462241469	-0.889865973619531	-86.4653660583753	
33187500	-0.450746160104815	-86.668415017167	-59.2405211035322	-40.1267452802882	-59.9677910332642	-41.9325611976947	-0.552295878015162	-86.1927988312676	
33437000	-0.360994415803058	-85.4521419148121	-60.0465724335081	-85.0105168153918	-59.9325129903736	-85.6834785755756	-0.410558738207072	-85.0007210429578	
