!Keysight Technologies N9923A: A.12.45
!Date: Tuesday, 05 August 2025 18:35:27
!Timezone: (UTC+08:00) Kuala Lumpur, Singapore
!Model: N9923A
!Serial: MY61181427
!GPS Latitude: 
!GPS Longitude: 
!GPS TimeStamp: 0001-01-01 00:00:00Z
!GPS Seconds Since Last Read: 0
!CHECKSUM:0207145316
!Correction: S11(ON U)S21(ON U)S12(ON U)S22(ON U)
!S2P File: Measurements:S11,S21,S12,S22:
# Hz S DB R 50
2000000	-0.0769598574703712	-4.72518673331166	-72.3010794906092	-109.776706452573	-72.2978119276684	-101.272153447248	-0.086298977272952	-4.68332102664413	
2249500	-0.309491700672235	-5.59704210806064	-69.5388569760153	-100.532653289103	-67.7300204185815	-110.99358472269	-0.310837533212121	-5.52826487023826	
2499000	-0.411183047591084	-7.23753625233309	-61.5261553248571	-119.351192671139	-60.97771676459	-118.952416281752	-0.407549985567507	-7.08924068855965	
2748500	-0.287502284447751	-8.65285292679769	-50.0357625169835	103.675323163268	-49.9309912596528	101.445744745833	-0.30062214835901	-8.28804837034577	
2998000	-0.0464486727326199	-9.48158765544889	-58.2224814184195	54.656365455752	-57.5884468677974	55.4207680134412	-0.0363591357747668	-9.15087501697076	
3247500	0.116677054129201	-9.27091520733125	-60.2967861713441	60.9953093780077	-61.0710695078791	55.3846273673046	0.109149468576053	-9.10517076592839	
3497000	0.0685510849374419	-9.02613786378592	-54.4522388899926	33.8341588257768	-54.3082960118364	33.4790069005485	0.0356813915974782	-9.00510697554255	
3746500	-0.181942222106719	-9.29820945072129	-46.4591124699587	-37.5977119672839	-46.4468958752196	-38.514107734315	-0.271368688754892	-9.01690650470561	
3996000	-0.48459185438732	-10.3885272518875	-45.5139101127601	-153.363321396886	-45.544310218036	-154.905959666996	-0.440524240393637	-9.75079724090531	
4245500	-0.430602887397825	-11.897391062818	-62.1874622859101	126.844044128122	-62.40043999573	127.47808153354	-0.410713865040622	-11.6146175731727	
4495000	-0.260308970996275	-13.6620575050493	-60.2974778265931	-179.242669236449	-60.179505709349	-178.163608717719	-0.214562819222525	-13.1259533071093	
4744500	-0.0156816431311188	-13.7001410939099	-59.5196012935881	98.0612026702399	-59.619755577535	99.9037694728955	0.0283902193505234	-13.6672266270483	
4994000	0.117547073886329	-13.5723718021839	-65.3910873569485	70.4554895438535	-65.1672548900978	71.0259148562507	0.124289486360369	-13.5249675485429	
5243500	0.00315229697925841	-13.4720054352471	-69.0711253048202	56.5267510252486	-69.2684417545937	54.416165500537	0.00160055448290171	-13.4497752353693	
5493000	-0.249601185016213	-14.1190032595024	-70.7661465285882	38.7583675319227	-70.5805424888131	46.3950026265707	-0.252460429431813	-14.1679433622582	
5742500	-0.427277765398857	-15.7726366782233	-71.4976924802955	37.7878483911135	-69.8809944022571	23.3307343318844	-0.423177063180145	-15.8672236138004	
5992000	-0.375050875563385	-17.7158909860633	-72.9638466649972	-14.501862475847	-73.6960504792391	-3.19953562443733	-0.397862699794985	-17.1740289785476	
6241500	-0.141324033673791	-18.9880482217191	-71.2318617183907	5.39199904350406	-70.6688178036374	-4.59501506017444	-0.164055562549405	-18.7144617223921	
6491000	0.0620912496025547	-19.2640923690621	-69.0971088636903	-35.8839311973277	-69.2378248604592	-43.1249623772369	0.0506391205298899	-19.0747944764563	
6740500	0.0633899826811225	-19.1166642768226	-66.56170080574	-102.618442111377	-66.1186227794104	-102.595071559457	0.0451393691905341	-18.7672922911956	
6990000	-0.212215564192368	-19.3636896678189	-60.3597760959817	-174.88578353473	-59.7362394411513	-174.732602128276	-0.197457888969137	-18.8862091615582	
7239500	-0.689486752964604	-19.5033170668698	-51.7120866609207	72.9074195102669	-51.706061051703	72.5294459589933	-0.584266629838994	-19.3516701452143	
7489000	-0.683838439320892	-19.5775985278978	-50.812443485798	-45.1201097149404	-50.6725090329149	-45.6714942702602	-0.658209526425726	-19.8191467598707	
7738500	-0.423440146871579	-21.3910768129998	-54.33243847718	-121.379102660175	-54.4676591028933	-121.744656048108	-0.425922464303923	-21.2937871749499	
7988000	-0.113411413921588	-22.4331445091278	-58.6721131151622	-179.373704496328	-59.1698723928123	-179.230014826686	-0.119122636682377	-22.1664650505316	
8237500	0.0908333909410525	-22.4655283036869	-63.0899369811635	158.53419125301	-63.1876185098677	153.492252117232	0.0886925830796684	-22.154221488918	
8487000	0.0622752848875205	-22.2122092697748	-65.177038234482	140.804994132516	-65.0611340588252	138.849586842961	0.0611754350524999	-21.9243372143405	
8736500	-0.163247288431177	-22.5235336336948	-66.8720834796144	123.371233874538	-66.5799759900705	124.551292527516	-0.156836710591361	-22.2721321216288	
8986000	-0.400519220369047	-23.9491059305818	-66.4735328585336	108.207763851813	-66.8975368619001	105.33546979694	-0.392144932493669	-23.7469022662773	
9235500	-0.451564965051725	-26.1551195580009	-62.6165144587319	82.2669018935798	-63.4152268484804	85.0972803618863	-0.442156038843273	-25.8446470413716	
9485000	-0.279504824280184	-28.0146669063067	-58.2176536424289	49.7524481363764	-58.5325563921676	49.3309477806902	-0.282744948654177	-27.8114669692199	
9734500	-0.0723192540202505	-28.7971911958955	-50.463182368292	-22.2537483817522	-50.3691180461851	-23.8237176345439	-0.168893251957716	-28.7953212552976	
9984000	-0.0633233690361421	-28.2452064546657	-54.0991274819761	115.650865101255	-53.9710284931571	117.725699993752	0.00280498894829206	-26.3954107937784	
10233500	-0.167163103130833	-27.8390187148254	-53.5501107914208	-72.4764469648659	-53.568369098978	-71.2154123518092	-0.0181770182592567	-27.0273194866854	
10483000	-0.567344231861374	-28.6270796025057	-50.4615293873949	-143.247637822904	-50.4228279560126	-143.357637292595	-0.308431793047378	-28.0344837370874	
10732500	-0.94434371658404	-28.7579588110703	-47.8760806809706	142.336488513038	-47.8654598049147	142.050440109384	-0.585325817795938	-30.0799470683255	
10982000	-0.731144103139015	-29.3994451479579	-48.313726278021	68.1855345080133	-48.2106406746002	67.5311522400861	-0.746608877190323	-31.9848479369113	
11231500	-0.341050933107943	-30.7570317424255	-50.8698976319156	-0.623997873458753	-50.7982613908944	-1.88886368260506	-0.619011483063685	-31.5307590116781	
11481000	-0.027569156437431	-31.1662158916018	-55.1255551866427	-50.8943672308783	-54.6918320508884	-53.3982357200146	-0.210650718655961	-30.5898458029051	
11730500	0.0527096067803995	-30.9299453406064	-58.0553767967311	-101.846905020638	-58.0740056521859	-103.197252422042	-0.0352831991044583	-30.1397217990536	
11980000	-0.11375681283883	-30.8751666090105	-61.9703223285025	-157.096623265618	-62.1652606520641	-155.505161886842	-0.144147822152578	-30.1393746719658	
12229500	-0.376684554965484	-31.9473158288939	-69.1774749396687	158.417005997463	-69.0026249329645	158.475838331798	-0.37302348376642	-31.1588664084681	
12479000	-0.51931848144223	-34.0314300780394	-82.3028423585746	74.5245018992967	-78.8910011540964	127.006858424316	-0.491830306355721	-33.196332961713	
12728500	-0.41282250504878	-36.2349991334663	-80.0953116094254	-103.366140446838	-88.2168693427138	-135.780979469249	-0.39013314662599	-35.2730680547825	
12978000	-0.171087306974267	-37.3959634825113	-69.4285697139631	-155.733358928289	-70.3864985474586	-155.399891529933	-0.129395389191304	-36.479259132679	
13227500	-0.0359159132031355	-37.3201639376016	-61.0114396321446	156.941430499115	-61.6359811499845	151.717009011848	0.0454201941508476	-36.6153632258469	
13477000	-0.136761625885366	-36.6279220072535	-54.2686128161838	95.3055607534655	-54.2952328521263	93.7246116118923	-0.0117269122098042	-36.5452279572795	
13726500	-0.399286441630426	-36.6207595720404	-48.7161008679528	30.372790602763	-48.6990926923033	28.4346657447357	-0.324362633696957	-37.018454743721	
13976000	-0.73519340329502	-37.9888558389443	-42.8053895760953	-62.0126984896896	-42.8000365633749	-62.6831971590515	-0.791228567356145	-37.3004921990984	
14225500	-0.967150601646377	-39.7767310676105	-51.0948062894632	-164.278800350228	-50.8528727062871	-164.067683780341	-0.578225524523488	-39.2080923061442	
14475000	-0.778630514412053	-39.6795946870817	-54.0819834823821	-169.093703841899	-54.2690284026809	-170.357312395102	-0.540764026475559	-42.0492688890695	
14724500	-0.315667710836479	-39.8944076438708	-59.0773203472787	143.461174825348	-58.96907746393	147.291790940282	-0.566790989363855	-41.8085765898182	
14974000	-0.126455532445474	-39.5002776094937	-54.6320193066425	158.025912533564	-54.2281897060375	156.135799562324	-0.400027390904086	-39.1610017984118	
15223500	-0.164514540855179	-38.9472848811952	-53.36806349311	105.72589139197	-53.4579428547891	104.635864034593	-0.293302599958504	-37.9282594263886	
15473000	-0.381495192379463	-39.4734061908486	-55.0185817521391	68.1249118413506	-55.1494636212798	65.4622165462593	-0.419399080686932	-38.4915783907658	
15722500	-0.578617842064013	-41.4379158084403	-56.5599419154345	41.1576322431372	-56.5053541828964	40.2850055047802	-0.562833104707887	-40.3909574276515	
15972000	-0.55680984891217	-43.886473618504	-56.5038388339085	19.3838687162442	-56.7622270236843	17.7729524364427	-0.523169380039245	-42.7741805800733	
16221500	-0.32619565665637	-45.5976107087469	-55.8448928363707	1.66774811188802	-55.6457978233042	-2.56405504321527	-0.28211827642924	-44.4817568669493	
16471000	-0.101448118217724	-46.0301587171698	-53.5728976561644	-23.4045154571864	-53.6880309070334	-25.0404997810764	-0.032202487016402	-44.9826976858404	
16720500	-0.0916312575640293	-45.5969443348977	-50.809805687152	-55.0907717492644	-50.616275166098	-56.2996262186066	0.0240236123507561	-44.8148275605099	
16970000	-0.334502124709148	-45.1045797898094	-47.3158565416541	-95.0363617873155	-47.3549723213843	-95.5146342768424	-0.182640142860516	-44.8907354721793	
17219500	-0.665478338897284	-45.6743417611757	-44.2980843791014	-140.86217077322	-44.4259974987158	-142.483140422083	-0.533816094638653	-46.1654405000774	
17469000	-0.873837455843298	-47.5761983434074	-41.4458955657692	166.55998274888	-41.4336201335273	165.805890030937	-0.86719010892784	-48.3359577989376	
17718500	-0.854281807330118	-49.4643718105553	-38.9131379013398	101.963945177439	-39.0355690468866	101.018421095335	-1.0218417134721	-49.3640223322859	
17968000	-0.662623234842612	-50.0503534867278	-39.3665825501073	26.9036504770586	-39.47100633376	25.7998506176256	-0.663533205669186	-48.2122044322122	
18217500	-0.44960585645462	-48.7502068057726	-43.7622587517183	-40.0527360876196	-43.8602920832266	-40.9995157963764	-0.151598633911889	-48.1010940790738	
18467000	-0.338496389752048	-47.271703344961	-52.3353228419971	-79.2877368721323	-52.4023119635368	-80.9395662758612	-0.121282558054547	-48.9066671900206	
18716500	-0.457343522604614	-47.2030049574072	-51.8099071389952	-41.9136359062858	-52.0969760252831	-44.317189780319	-0.667905904598989	-49.1611313132356	
18966000	-0.670310550362	-48.6125543176836	-47.7225780597512	-90.5653567418662	-47.9005317309045	-91.3631673128559	-0.940944460137026	-47.6224793750876	
19215500	-0.732753707511786	-51.1120833592439	-48.5949951509345	-128.201461024349	-48.6554038861206	-129.507017114776	-0.802851683681111	-49.3268949833334	
19465000	-0.566758670167033	-53.3737298471277	-48.9191700988993	-157.28811516801	-49.0814355529753	-156.836583007466	-0.542924911953415	-51.7148768942453	
19714500	-0.292559682742568	-54.3322415621572	-48.3103639540132	175.887724348779	-48.398217976329	175.696997898348	-0.211326702080892	-52.9709639045107	
19964000	-0.164277142317754	-53.9505251052078	-46.8117729366288	147.46352500416	-46.8510131988261	146.786649623477	-0.0248036944113393	-53.0354412596077	
20213500	-0.306821490853643	-53.151179862354	-45.1646505333072	113.345029453292	-45.2221675583555	112.98913101986	-0.105164001371845	-52.8427811319334	
20463000	-0.604137874639014	-53.1423967228683	-43.7702236056349	74.6468457816002	-43.9138350184132	74.9783399005528	-0.392439689135147	-53.3644994074167	
20712500	-0.856454435458919	-54.6860562963713	-42.542217145358	35.6863400941429	-42.6266448505618	35.3987470162048	-0.694470056558066	-55.2069869537737	
20962000	-0.926096368556227	-57.1060238025525	-41.0869561446948	-5.42956128055365	-41.1197627007018	-5.31322032042137	-0.825530877776725	-57.5123853762266	
21211500	-0.790841195205139	-58.5579634091669	-39.2316440549348	-50.8219865443936	-39.2174451108444	-51.327180831612	-0.774823917666319	-58.8578661201351	
21461000	-0.561485853155872	-58.0515489859863	-38.0397162250632	-107.188111233119	-38.0297103886674	-107.206347230964	-0.615119395572141	-58.2051072961124	
21710500	-0.444644318014013	-56.4862032415234	-38.5397558084161	-165.54110000934	-38.5512202893466	-165.689941493253	-0.511406175524373	-56.3511680290881	
21960000	-0.527031662118748	-55.3823734877568	-40.3164879300328	142.130193594523	-40.3496266973292	142.075155235436	-0.525075254949665	-55.0228378057535	
22209500	-0.735224361791749	-55.8061061126986	-42.3190215986322	98.6679234750903	-42.4324016517661	98.574553917188	-0.675371257025327	-55.5720936342274	
22459000	-0.877616496500563	-57.9193442184485	-43.6209345148616	57.8231823068362	-43.5624300014614	57.6590744449356	-0.78468487434448	-57.9253017205135	
22708500	-0.784044151419249	-60.446369289738	-44.0830730032797	5.63795113323442	-44.1727439528573	5.39661317660854	-0.78453222068051	-60.685809956176	
22958000	-0.497518593586895	-61.9590735742671	-50.6879991817404	-70.6850323423884	-51.1391968998382	-67.9285822649033	-0.604163157807656	-61.0007747314623	
23207500	-0.286066095292226	-62.0459613075956	-60.9703956599846	17.4299639688862	-60.7216907673141	12.0467967462745	-0.216595255847067	-60.7878783169685	
23457000	-0.318941023694103	-61.0568648118821	-51.2151918924466	-20.2487961554466	-51.079311583113	-21.9398038208954	-0.139901027426218	-60.6143431287122	
23706500	-0.54101662134018	-60.4451427498398	-48.4827307327022	-75.3583781928034	-48.4731950783591	-76.4479805723747	-0.360747252722324	-60.9094789901559	
23956000	-0.859023387676586	-61.5550298623522	-49.5236102983016	-136.57193840847	-49.8542580834046	-136.549942669906	-0.70629803683633	-62.2432462519567	
24205500	-1.05996347697908	-63.434435771119	-55.5724645718746	160.128626519188	-55.9945494963794	163.990493110045	-0.917046016515719	-64.5698663471689	
24455000	-0.898738548764684	-64.9773756538979	-63.3386011203949	-29.8552311402297	-66.0457092294116	-51.2989466505673	-0.894296735779459	-66.364355096922	
24704500	-0.565572955293992	-65.6435022017348	-51.7364652535964	-119.989201944612	-51.8270105836043	-125.076425502242	-0.686111759577402	-66.2648012885737	
24954000	-0.358924587382657	-64.9926709729172	-48.2934419544183	175.745864650213	-48.533027208839	172.732078487948	-0.49466869163767	-64.8201648996849	
25203500	-0.373837357098376	-63.8970538380815	-48.1531905162285	118.260823563076	-48.4103476531038	116.851084475871	-0.481008241237129	-63.4756238370451	
25453000	-0.575509983486838	-63.6848604502231	-49.9009842949569	70.0724402622718	-50.2089100531778	70.4246622428902	-0.650819864331277	-63.1801231605488	
25702500	-0.797634122576352	-65.23972132912	-52.3655281532364	26.7769268564019	-52.4838656671655	26.4135679338308	-0.85069578054012	-64.67385676838	
25952000	-0.817068663257444	-67.8984264579113	-55.3975063407502	-7.9080317605089	-54.8950062680123	-6.60545130724851	-0.867828638964885	-67.0754271140511	
26201500	-0.597765060085317	-70.0295115053583	-56.4891283794289	-34.819936737369	-56.9983130027886	-34.7199549100847	-0.617196880047822	-69.171741826531	
26451000	-0.306356275732555	-70.6800198373124	-58.5334079557121	-59.1843072088164	-58.5298378243459	-59.3641625631682	-0.311656314044322	-70.0369893837544	
26700500	-0.222637625962528	-70.2700907564003	-59.3253515377925	-90.2253390471118	-58.8713535644265	-92.6558010298567	-0.184558430520132	-69.6690171517725	
26950000	-0.445027000235079	-69.6573335035173	-58.9065556379592	-125.582717892233	-58.8599435335897	-124.892426796366	-0.326355590178955	-69.3573738539776	
27199500	-0.869511537154967	-69.8475743425155	-58.3399535984263	-159.438212194174	-58.2421069997965	-161.287911899846	-0.677933808083736	-69.8845110486741	
27449000	-1.18975105913351	-70.8554756669661	-58.0320582645568	154.932136154785	-58.0959104979195	154.383014726193	-0.976792493201954	-71.7980524890838	
27698500	-1.15859021776119	-72.1103277236977	-57.9001398480991	98.6665582001249	-57.9170159328905	98.0362930987441	-1.05371889323946	-73.9036739344629	
27948000	-0.774361999376837	-72.8822333003558	-57.9550291110632	36.6507318835393	-57.8736257392859	37.4556757908322	-0.888697919697659	-74.8665719601358	
28197500	-0.371412596657594	-72.6939250193336	-59.4672727112596	-21.7345455083001	-59.292545368493	-24.0156252040584	-0.646828159785372	-73.9606536485404	
28447000	-0.234886383786275	-72.1005064169978	-61.163122871293	-85.0751775384196	-61.4218702942468	-88.6459260678541	-0.538150584468968	-72.4072346554987	
28696500	-0.395904491976945	-72.0730524979804	-61.7523400767647	-152.77444362757	-62.5211588817442	-148.903330063319	-0.63805806746096	-71.4026254693377	
28946000	-0.690911347547858	-73.3538562276917	-60.8796073125861	157.615804663269	-61.6538777281036	162.102736316614	-0.857755574403362	-72.0072461064838	
29195500	-0.875135556744419	-75.9348498725843	-60.4748080973646	110.72730539966	-59.6653381409996	116.069563837314	-0.956177609769532	-74.1899558267003	
29445000	-0.806879445378895	-78.5780164385067	-58.4110553526014	69.2386032437336	-57.9140570152815	69.4644830232581	-0.793127597956854	-76.5648602211212	
29694500	-0.563909910181178	-79.5551895415989	-56.1302185102654	28.1582235378548	-55.9420103082186	27.7391674220662	-0.499842235670356	-77.8854649832489	
29944000	-0.414217479663704	-78.6214437001141	-54.1422708553919	-13.7964212798974	-54.4160650516721	-13.9265681101118	-0.261309917966249	-77.8482369613071	
30193500	-0.465491409223704	-77.0383638939314	-53.5561762198225	-55.9965019898432	-53.5694815097719	-57.8812062838086	-0.308731188201964	-77.436276568675	
30443000	-0.692537815507832	-76.3786382598004	-53.328602060536	-98.6895010986877	-53.3300551036343	-99.7795202212262	-0.618589213223109	-77.4727483355676	
30692500	-0.96269239556746	-77.4796305710188	-53.2782410161981	-125.085314945496	-52.5989663575752	-123.7603865594	-0.943729886381563	-78.7835403975004	
30942000	-1.07472081785174	-79.8972147206732	-52.2280415043112	-161.9495946071	-52.1034967523225	-160.420996703401	-1.12262924998623	-81.1479863401241	
31191500	-0.889021608716248	-81.9414731724158	-52.1068294007625	163.732305382325	-52.0479809990962	162.77445892	-1.00950586001394	-82.8733795263346	
31441000	-0.557592411227967	-82.3808571022847	-52.2227692006591	126.404651466048	-52.0560790925509	127.139835483936	-0.764198006418792	-82.780432489562	
31690500	-0.361978464250737	-81.5324501934133	-52.8067064846859	94.1033362069489	-52.5267807205166	93.6706497101718	-0.590739067996161	-81.2684023038902	
31940000	-0.431138290769521	-80.7226104232815	-53.5920674214239	64.4676582618667	-53.3404066863977	62.4073577679737	-0.634209863464898	-79.785666870912	
32189500	-0.730299593791509	-80.9583519565643	-54.3529888249616	35.9533382259318	-54.644442979349	32.724947640051	-0.851481894582908	-79.6195966266117	
32439000	-1.01272166384598	-82.7923496668578	-55.1054526358132	8.16777107050828	-55.1888313252801	4.79027488791738	-1.02867606185442	-81.2186399841216	
32688500	-1.03616617691574	-85.2415231158765	-55.4435804922613	-22.6987038033214	-55.3940619659479	-23.2140053869414	-0.996805295607286	-83.6426070553169	
32938000	-0.813565673740996	-86.6997961785611	-55.6112786448621	-47.8829157649872	-55.9039922196046	-48.9808573427887	-0.716661377997871	-85.6544282874146	
33187500	-0.533547757068057	-86.5246774117317	-56.3004605551178	-77.9062751368233	-56.4773758827572	-77.9440414412834	-0.406260742636758	-86.0651306572322	
33437000	-0.426898900687252	-85.3743393375669	-56.990343329116	-108.224505224946	-57.6637791131044	-108.546110371027	-0.312234335119544	-85.5130272232139	
