!Keysight Technologies N9923A: A.12.45
!Date: Tuesday, 05 August 2025 18:47:10
!Timezone: (UTC+08:00) Kuala Lumpur, Singapore
!Model: N9923A
!Serial: MY61181427
!GPS Latitude: 
!GPS Longitude: 
!GPS TimeStamp: 0001-01-01 00:00:00Z
!GPS Seconds Since Last Read: 0
!CHECKSUM:1310365360
!Correction: S11(ON U)S21(ON U)S12(ON U)S22(ON U)
!S2P File: Measurements:S11,S21,S12,S22:
# Hz S DB R 50
2000000	-0.0676399952595388	-4.45687821690373	-70.9049013759402	-111.612842184443	-71.4429806049581	-107.236108067584	-0.0814276829794466	-4.44497446016757	
2249500	-0.31595545832154	-5.31320829069806	-65.6228746490409	-111.712972096897	-66.0308942639459	-109.027694808318	-0.320294121799076	-5.25939265294479	
2499000	-0.431327735021191	-7.02811527918761	-56.1937276989277	-140.431900040304	-56.5580813946667	-136.172801367701	-0.432009482854528	-6.90126235185135	
2748500	-0.301779646302381	-8.51753308673616	-49.6230996610897	92.7563685246504	-49.7299188209003	91.9234494533337	-0.306318834497432	-8.1914204492579	
2998000	-0.0618393923764272	-9.27991155702322	-51.6794343114336	12.6879600901204	-51.6132076616154	13.8769173971986	-0.045488048874651	-9.04510514110809	
3247500	0.132699325137711	-9.10646075706253	-54.2131395772305	15.9909303205197	-54.4673659210233	15.1776875643721	0.0791374195606384	-9.13308164599641	
3497000	0.0857975731840555	-8.83095696615223	-51.8466930217646	-72.4500669388668	-51.6756514334324	-73.4871127595494	0.0280388995287044	-8.29281588482105	
3746500	-0.177421495298299	-9.25168721425328	-51.683908030727	-123.853403288027	-51.7158920881555	-125.126994610465	-0.180474110645221	-8.75817681377683	
3996000	-0.415900540163706	-10.1943016976284	-58.1402986801666	130.506801226272	-58.0321455441355	130.068364358425	-0.397386779566535	-10.1345275448679	
4245500	-0.424120606784538	-12.3242848026496	-73.9690962786037	98.9451222674882	-74.4745708852997	102.714454446402	-0.417251326229322	-12.1961109294891	
4495000	-0.224125440060287	-14.012433898528	-75.1073282897373	-113.114852948997	-78.5580322611779	-142.800837019851	-0.218042495404407	-13.7348767526556	
4744500	0.0162732469415031	-14.6411634970151	-62.6316949385976	-132.019424566969	-63.2683631130624	-129.884919383279	0.0339807654000213	-14.2507557731024	
4994000	0.00526097731341274	-14.1464144249115	-51.1603988937756	172.22148581438	-51.321153830155	172.831943514567	0.128666631687106	-14.0054730718535	
5243500	-0.0180728192931528	-13.2882055733635	-53.3145060304635	93.7506308283831	-53.3486852472997	92.5882760320352	-0.00218530284088422	-13.808988328242	
5493000	-0.265322142689017	-14.0082995470046	-54.2546830107998	66.6287086891427	-54.7124919341951	66.4950326558867	-0.278476502886288	-14.4779499944679	
5742500	-0.454877455727218	-15.7168643947347	-52.0242011917871	41.7952484060515	-51.824194449473	42.4883432009662	-0.485018597251637	-16.1834064186591	
5992000	-0.413103398099326	-17.7153176463232	-46.9417640699642	0.302941925966182	-46.8094588985336	0.919024900892321	-0.54043608613016	-18.0176516045772	
6241500	-0.173774771761705	-18.9102561583013	-43.4292496451213	-73.3747473931293	-43.4017398735775	-73.3745385056499	-0.337818718173111	-17.8484538076772	
6491000	-0.0298791891698669	-18.5153028567544	-44.3905030383764	-155.038102466225	-44.4217941435385	-155.378052055503	-0.000266994067604912	-17.6414067806102	
6740500	0.0712831636413321	-17.6611928153266	-50.4338870252501	142.880148562091	-50.3195747256177	143.848485778288	0.0847055193071909	-17.2497116737367	
6990000	-0.0937476863697043	-17.7235020968383	-55.3897025816739	114.858734165586	-55.4581639648024	114.279120419455	-0.0840419018493096	-17.3211557725306	
7239500	-0.382742325530985	-18.8228252001514	-58.0877439609646	94.4476177675318	-57.9791208929969	94.7466294116724	-0.336538735461045	-18.4193032969352	
7489000	-0.523361616574833	-20.6828056982058	-59.0376880680924	74.281639901384	-58.8978095613316	72.8490586490364	-0.454443475189985	-20.4828906730888	
7738500	-0.382604560492183	-22.5831725988635	-58.7522238947049	66.542610208554	-58.470675676137	67.2580712541111	-0.339029247509882	-22.4461532871162	
7988000	-0.120967419826856	-23.6957089115387	-54.4615545094505	49.1323617956962	-54.4043318359181	47.8228374079654	-0.0742291273058483	-23.4449233790364	
8237500	-0.0221981492668795	-23.6702913007946	-48.5208890787686	10.5841916739283	-48.5128675923321	10.7800644404328	0.0840186975887205	-23.5866664554407	
8487000	-0.110000488493632	-22.1589657429756	-43.8138541649612	-68.5946201854346	-43.7419227827763	-69.2395615968451	-0.0745451991737854	-23.4577212402215	
8736500	-0.248382000414818	-22.1629627235059	-49.4176506122276	-178.810267697029	-49.4414692930081	-179.430291387155	-0.360081573170262	-21.7892493583219	
8986000	-0.459924738975064	-23.7782702123878	-58.3239685260424	-117.570867380321	-58.2880714926622	-116.615495467861	-0.437024805257151	-23.8709651411132	
9235500	-0.511532248531212	-26.2168026962333	-49.7002032070216	-141.713532742104	-49.5639650755815	-140.84109883053	-0.530220991228245	-26.5818128890268	
9485000	-0.362828385171605	-28.0838586983774	-43.3083557451378	156.723415214594	-43.2892272001169	156.310859678955	-0.537281514222978	-28.0024174006307	
9734500	-0.176819126075461	-28.2736624886687	-42.2294817385374	73.1575816237097	-42.1865815673209	73.3090299769603	-0.226666502753768	-26.9059661073495	
9984000	-0.0548267022721983	-26.8620485611825	-45.5136631242653	-0.448048893722837	-45.4532469554577	-1.12707384406362	0.0110344403332273	-26.2099226159259	
10233500	-0.0763020934649019	-26.2287126691452	-50.6033415860311	-52.2088600884286	-50.548826541784	-52.7121399445391	-0.0367566786021271	-25.8991573532276	
10483000	-0.314280209098602	-26.9492378093758	-54.1075625628167	-85.4566626558103	-54.1681594148351	-85.9382931445297	-0.282136411118691	-26.5257795246779	
10732500	-0.52567024827088	-28.9158992114014	-55.6512158427722	-115.035324803338	-55.6622832723009	-115.038758695634	-0.47451013427711	-28.3809597635211	
10982000	-0.5272933740326	-31.3204163900213	-55.3114371157191	-152.215605658373	-55.1928460881555	-151.334430839108	-0.445403900678927	-30.7006370869462	
11231500	-0.354227360287355	-32.5550051680719	-53.1309154482003	154.802815804459	-53.3502673294809	152.919415769443	-0.215849231658846	-32.354549065272	
11481000	-0.117965108794032	-32.152964670494	-52.075338220267	95.9119977831078	-51.8654393834559	94.1391839387365	0.00300822473480938	-32.8545852712126	
11730500	-0.0496885671408669	-31.4377553696357	-49.9813928479836	27.2619485934937	-49.846519281487	25.0695011275282	-0.0692912408934999	-32.7420295942067	
11980000	-0.246700232348646	-30.9708717375251	-48.515967786824	-69.6236520934771	-48.4279057600757	-70.5372097271592	-0.480226577739456	-31.2961890856825	
12229500	-0.509175494249202	-31.7980482704171	-53.2339768157371	-166.31984181478	-53.4116741204974	-164.040161444156	-0.503100408324745	-30.8444765750746	
12479000	-0.652470782551656	-33.9731740851228	-56.2594203303582	133.82507472136	-56.1091112965761	132.471008737443	-0.536131694483938	-33.6579927415454	
12728500	-0.546158840711217	-36.247271587818	-53.916150890314	71.9615215026529	-53.7961379991588	73.1679733440121	-0.460696197429528	-36.4092825196538	
12978000	-0.308521557063012	-37.1307102591278	-49.5244016110803	-1.2309236560822	-49.2966313039736	-0.668381614086181	-0.350722863464862	-37.7148958537274	
13227500	-0.120590784419609	-36.3626653225505	-47.7622211833022	-91.4500540658431	-47.6404996859381	-90.4457186052694	-0.277016537468874	-36.0476472906496	
13477000	-0.111630880864497	-35.3501143824889	-49.3448997653046	-167.390354543853	-49.3881120913934	-168.089989875082	-0.166677603997244	-34.5897018300988	
13726500	-0.304585060983287	-35.3592703015432	-51.4965136888111	136.296786895707	-51.548463016003	134.68360444669	-0.29882488486016	-34.6013073976024	
13976000	-0.558581135821758	-36.8717976156299	-52.4376367498514	86.3634844338103	-52.4956658051682	85.9321327548784	-0.513046007207528	-36.0703603007856	
14225500	-0.658026003929474	-39.3616840211686	-50.6995559038339	34.5469031460203	-50.5560084847946	34.4617899340745	-0.563624201182216	-38.4043023546768	
14475000	-0.551498365326219	-41.0015417998924	-47.6103336225922	-34.1024895440751	-47.6278043199811	-33.7669342678248	-0.380237271258379	-40.3672730790314	
14724500	-0.218882688513687	-40.9572069459858	-48.8676207981549	-115.363226654744	-48.664169657713	-115.695703266964	-0.103331866136283	-41.1240107995074	
14974000	-0.0869278863189814	-40.6555435500793	-51.5956832551205	-171.298188968123	-51.4981851951734	-170.935686491861	0.0180948804911596	-41.0967108794877	
15223500	-0.260058358799766	-39.7923056361994	-53.5321623593336	148.587631406611	-53.5076130062827	149.265011391266	-0.170959163596042	-40.9460418256541	
15473000	-0.533565603071702	-39.6811356595378	-54.8365276915605	116.765793183206	-54.7141577642587	117.672564964882	-0.596133271992634	-41.4921948039146	
15722500	-0.735393248285232	-41.4650004031213	-54.5029324517403	88.0262906424294	-54.1621235122696	88.0832053235089	-0.99022914999264	-42.3514159583674	
15972000	-0.713709786536991	-43.9733021925009	-54.0010104436454	51.4813008978296	-53.6115378194864	52.3727742722567	-0.974931223246009	-42.9898123061924	
16221500	-0.487728767048661	-45.5950940006475	-53.169085200867	16.4223938788894	-52.8791161728446	16.2295435116245	-0.578655605999323	-43.6625692039338	
16471000	-0.256623577379739	-45.5022718479843	-52.3732157040313	-21.1651617420661	-52.1358440537906	-22.5475101152652	-0.17761018329573	-43.7802373309517	
16720500	-0.176473171140567	-44.3095604226479	-52.2679909996604	-65.5983719997342	-52.1627342881967	-66.1796222354768	-0.0206160593891602	-43.4578678945543	
16970000	-0.301416789712091	-43.5380992647017	-52.8882529215328	-107.887130837393	-52.4225062861731	-106.321184819722	-0.163247682163366	-43.467606127192	
17219500	-0.558251489758253	-44.3653828769891	-53.2977590300086	-142.377794491066	-52.6097441258591	-140.986552364806	-0.4621599623129	-44.681887511949	
17469000	-0.720269884264529	-46.639171245638	-51.6334725997882	-176.891543381356	-51.338611818089	-176.382782604114	-0.669600954667437	-47.0541385302321	
17718500	-0.643980564477214	-49.0467387033804	-48.9548065625617	138.075918255361	-48.6017878412066	136.653599876816	-0.6812193501989	-49.6521737876885	
17968000	-0.411401622357807	-50.2864997054556	-45.8995780773614	70.9680032647047	-45.5070857043264	71.614193442542	-0.598743197000521	-50.2109437208269	
18217500	-0.246443140460862	-49.759359174554	-47.033064422399	-10.8241567210738	-46.6033311975318	-10.8811534530412	-0.282566482139498	-48.2632264896916	
18467000	-0.256404610513969	-48.3271070010428	-52.7031408215481	-80.7903018516179	-52.3243452368837	-80.1129937019432	-0.114818095415396	-47.6888127225328	
18716500	-0.448317401428677	-48.047105887857	-63.3156164016897	-138.609687933065	-62.2743948755376	-132.678236680077	-0.318745037467562	-48.2507179879004	
18966000	-0.726871725550615	-49.438793566347	-63.37374423837	12.7143829305718	-64.1113809694193	9.13291021901102	-0.679734282287893	-49.979740348196	
19215500	-0.856481594309593	-51.9595867192534	-52.5832632276792	-41.8258074028963	-52.937614424442	-41.3884165174529	-0.944385826667187	-52.1789128431187	
19465000	-0.743933088112686	-53.9847018590602	-47.7877510366317	-97.3299793973275	-47.7249569899453	-99.038175052971	-0.89272324941845	-53.0954550332434	
19714500	-0.482238126355285	-54.2913868805915	-45.6778782034146	-155.951406977301	-45.5373279829166	-157.699328681997	-0.501018742572153	-52.7872141271595	
19964000	-0.29139219001375	-53.1135709816502	-45.2210053963899	151.858503774076	-45.1723526111132	150.800134713798	-0.186446142447888	-52.1114411036759	
20213500	-0.324776106725758	-52.0142416000942	-45.4198598863691	107.271344383768	-45.5334640840251	106.415683749775	-0.173986380686576	-51.6551375159816	
20463000	-0.564193943040219	-52.2765880200337	-45.5437417122065	67.6468380502077	-45.6243000905852	66.9751679705518	-0.40653316628467	-52.1578160121715	
20712500	-0.818828462940877	-54.1641635595052	-44.6601721415694	29.0518491395077	-44.5683750024076	28.6728469401937	-0.673534632873462	-54.1784970673416	
20962000	-0.881424299146675	-56.7636038190438	-42.7296095698903	-15.3172823823279	-42.7110009995364	-15.4446614858957	-0.779040503086897	-56.794841821746	
21211500	-0.69786741531942	-58.38460029881	-40.6822462489393	-73.368122639536	-40.6657162821588	-72.8085301456551	-0.71947250645177	-58.1653032121788	
21461000	-0.437576609074164	-58.3011151531277	-40.6992220407132	-144.322835968627	-40.6345366074748	-143.650063356087	-0.436568917897566	-57.2431760566415	
21710500	-0.36968121433985	-56.9272715285725	-43.2728760205509	148.346631213745	-43.1111181086167	149.684171951482	-0.198483130894209	-56.2805017987957	
21960000	-0.497339436299155	-55.8056457587647	-47.0442965806927	92.8493214865313	-46.9631727330015	93.3462877306528	-0.274003090986922	-56.185422718483	
22209500	-0.765861702569894	-56.3404294719871	-51.5631678766974	44.9669870932878	-51.1332595419115	45.2611668883282	-0.593590275354044	-57.3391823323815	
22459000	-0.987292741690076	-58.5442467887414	-55.834796225127	-1.37647376019422	-55.2221440642562	1.44869524744248	-0.87286028960105	-59.6368718382263	
22708500	-0.963952591841292	-60.8539575599481	-64.7691408441328	-43.3854341292265	-63.4116147932332	-36.1540821632931	-0.935657387106597	-61.6464868066434	
22958000	-0.696592467660897	-61.5911840056522	-63.544751349963	54.2311864160958	-64.8635016808869	44.1533513881813	-0.733396118077284	-62.0197514388715	
23207500	-0.374362043445191	-60.7765140020244	-56.643333385929	11.3236322850216	-57.3149038569863	9.0169703719954	-0.426079364223259	-60.8813719033006	
23457000	-0.260951236834014	-59.7416863612514	-54.5990534921508	-33.4335573065766	-54.8015761817208	-33.3268769570106	-0.290806290245434	-59.686878454352	
23706500	-0.459140511327571	-59.5812449075048	-53.3755309033887	-72.1714595664848	-53.5553842893715	-72.5191317978377	-0.419936731731019	-59.4775126377057	
23956000	-0.787774798902589	-60.5816378340894	-52.9245729444552	-113.722209273098	-52.824743537865	-112.754708191713	-0.679554138560983	-60.7564335216021	
24205500	-0.899718230213864	-62.7936949735865	-53.8540806691752	-147.741180942084	-53.9651876027922	-147.018877631964	-0.797459520350022	-63.3658036531828	
24455000	-0.725196580114091	-65.1394235981544	-54.1153305807309	-170.950548180259	-53.9754417021119	-171.908436263037	-0.66578756507921	-65.7987387441323	
24704500	-0.435303172431512	-66.130242595882	-53.1663183474957	159.126522717541	-53.1159612564549	159.300538164279	-0.395039124369157	-66.7428386288038	
24954000	-0.266833140166886	-65.4794923833792	-51.6856244342687	127.091662131264	-51.7402037395922	127.010297337101	-0.27373688738609	-66.333317879256	
25203500	-0.331585892537152	-64.3599471638864	-50.798736658233	88.97988058404	-50.5673904019076	87.928804871989	-0.436167374134123	-65.4211520767318	
25453000	-0.597404254677994	-64.0624173989066	-49.970824775916	43.3690247500296	-50.2748007107605	44.7641115758809	-0.789472830998663	-64.7792200072334	
25702500	-0.871193008830265	-65.5780104028736	-50.3527520383798	0.782780483528458	-50.0841251488786	-0.486085409174348	-1.0908939254367	-65.5638910406775	
25952000	-0.918966965328421	-68.2380994523723	-50.8245721776153	-41.802726051007	-50.7515178937648	-41.1045334899221	-1.10528391834313	-67.3396751049686	
26201500	-0.707910324772865	-70.1954546944993	-51.5499746997962	-83.5031655939842	-51.2628110395337	-85.3341742272538	-0.789033553510731	-69.0066127604662	
26451000	-0.408162007900098	-70.3483759803542	-52.8069081082682	-123.959575840947	-52.7281214413143	-123.01453385137	-0.407730676632459	-69.5610842381951	
26700500	-0.278557869233323	-69.2170898734224	-53.6493005990175	-166.3061056271	-53.4895225616931	-165.935042545806	-0.218020539764573	-68.9389144850638	
26950000	-0.397746652206894	-68.0538388656346	-54.4298403707829	155.646045957601	-54.734711612788	155.683827715562	-0.321074345004686	-68.4376697865452	
27199500	-0.684704917024348	-68.3622100404707	-55.6379274629202	122.572907958635	-55.3829790947772	121.64785708993	-0.648175199522849	-68.9312218053921	
27449000	-0.899764392650979	-70.3833607331956	-56.6726660647172	90.6784768870642	-56.5644144970275	91.3959872802046	-0.921727967978203	-70.998626210593	
27698500	-0.872142805272483	-73.0861780090068	-56.5994446876584	56.6065256237854	-56.8061984308849	60.2862438408598	-0.958069810588142	-73.4651373970065	
27948000	-0.606908818434548	-74.78972183168	-56.2886856413927	30.1888304981634	-56.2713412973568	32.657980177937	-0.759693340556412	-74.9020997916794	
28197500	-0.357831261138724	-74.6435087380796	-55.6539863158	3.39218076661156	-55.5703302993377	1.45561115735665	-0.522921626745819	-74.4041426132244	
28447000	-0.346341067803558	-73.4574916821021	-55.157267393116	-30.5016499478019	-55.2435735305265	-29.3797169837664	-0.4606225956714	-73.0064672478692	
28696500	-0.581179490649528	-72.5962983949364	-54.5727217056867	-66.3136047814828	-54.7066647971747	-65.4183178232009	-0.61640318974277	-71.9715836102525	
28946000	-0.897374725888783	-73.1895878615265	-54.8979063587468	-101.284091473739	-54.720129118022	-99.3098993861235	-0.881631838694728	-72.5436661669491	
29195500	-1.06011788836316	-75.3636743107818	-55.179459945699	-131.90308609353	-54.7241184829189	-130.291967836769	-1.00696711662609	-74.7722371691647	
29445000	-0.933082043142702	-77.7707847715572	-55.3567810825248	-161.116941342141	-55.0691276094407	-163.71747461001	-0.84998532937995	-77.2081871215847	
29694500	-0.601088226616884	-78.6060382662533	-55.4072303786315	161.347777895434	-54.8205455414933	161.27281203685	-0.559161793077338	-78.4833963954833	
29944000	-0.370535584174468	-77.7499026034761	-55.6085209760323	121.649070332923	-55.4497875608764	120.827146943192	-0.356939146165113	-78.2014301053764	
30193500	-0.39506142862302	-76.4048952371029	-56.9721751468639	78.3823369283727	-56.8449699759339	75.8547250359715	-0.445040002261968	-76.7766484259077	
30443000	-0.638915935545754	-75.9263361864381	-60.9258968532893	52.9734059954904	-61.1215916306105	52.0394590894605	-0.618209531845627	-76.2982916962836	
30692500	-0.923362267872204	-77.203000437847	-61.781031296272	37.0214679957179	-62.9713505142323	34.0592558578597	-0.920288224946617	-78.0177405398063	
30942000	-1.0214362317538	-79.8898108619159	-61.9483141499193	4.15200810964124	-61.5207559671945	-1.09423302395545	-1.0869759653916	-80.5244929373784	
31191500	-0.808180291208363	-82.2922652553508	-60.9902353912352	-27.4387254861623	-61.3278413769289	-23.5977573575102	-0.935547649215663	-82.4157562369294	
31441000	-0.486398226826756	-82.9830908303924	-60.8917890635344	-56.1906710071843	-60.5983962188279	-56.1130325326049	-0.639961146150155	-82.5151701961051	
31690500	-0.34100765651824	-82.0479521312348	-60.7024608090039	-100.730509469325	-60.3940056946038	-100.244801895283	-0.440291630997191	-81.2864542550473	
31940000	-0.467721038144672	-80.8476707019542	-59.9310983215566	-145.230709503567	-59.3388978989324	-143.225391889434	-0.503842868251349	-80.1243169335344	
32189500	-0.797350910510996	-80.6710610237412	-59.2242001534356	176.610096380173	-58.4161539546774	179.605965158916	-0.774835310523177	-80.2350864766786	
32439000	-1.08124106298783	-82.3092465193202	-58.5314338650836	144.802384066	-58.3176143497406	145.778123520996	-1.00945363010793	-82.0781693477183	
32688500	-1.07554587470459	-84.790845489375	-57.8787588148279	104.254192486426	-58.0284555519699	107.480100064768	-1.01504822382428	-84.6687239138793	
32938000	-0.807272113182647	-86.3325650772134	-57.0943523435721	66.9042863398148	-56.4973326838953	66.545789758515	-0.751741318481559	-86.6862157375741	
33187500	-0.49440860926416	-86.1881563175751	-56.1287527806364	34.8273659659864	-56.3182401860797	31.8512213388627	-0.457327920356022	-86.8820398690039	
33437000	-0.379088416556821	-84.9853476167	-56.1174367038527	-1.63870406214701	-55.8517239569981	-3.29026528654799	-0.391897696629449	-85.9369116815844	
