!Keysight Technologies N9923A: A.12.45
!Date: Tuesday, 05 August 2025 18:44:31
!Timezone: (UTC+08:00) Kuala Lumpur, Singapore
!Model: N9923A
!Serial: MY61181427
!GPS Latitude: 
!GPS Longitude: 
!GPS TimeStamp: 0001-01-01 00:00:00Z
!GPS Seconds Since Last Read: 0
!CHECKSUM:0523907680
!Correction: S11(ON U)S21(ON U)S12(ON U)S22(ON U)
!S2P File: Measurements:S11,S21,S12,S22:
# Hz S DB R 50
2000000	-0.0677897028719251	-4.5142457078528	-71.3010795467688	-106.120585337362	-71.2711283472574	-109.676819741281	-0.0834185152297527	-4.49683595833567	
2249500	-0.313687439163512	-5.37436825113036	-67.9506763518712	-122.443739239009	-67.6487702536372	-105.16864038767	-0.319355021427842	-5.31473521892904	
2499000	-0.421651428356793	-7.0630452759989	-61.2330826291926	-122.548878894228	-60.7343693908217	-124.352786256061	-0.42079949023859	-6.90419559727652	
2748500	-0.318272603701017	-8.48104608053606	-46.0666919381794	129.625483570166	-46.0324162826299	129.597148312337	-0.331605521930513	-8.22939253629478	
2998000	-0.0511162595225347	-9.32828963817465	-51.4005755003709	39.6684417570689	-51.5125408676799	37.9779203392968	-0.0421990299225164	-9.05484421078234	
3247500	0.135234212839786	-9.10013651102828	-56.9772592176538	39.5950339398708	-56.9971345175995	38.8362011865635	0.107769175515136	-9.09593564416642	
3497000	0.0822225140935562	-8.81678325423474	-48.7933695364408	-28.9166141991697	-48.5959428039689	-29.0106338417551	-0.0282259973236782	-8.5147347597083	
3746500	-0.1637139560493	-9.18571754248396	-49.984595551462	-103.1107726086	-49.9666319707879	-102.94517709332	-0.193320318442236	-8.61973562888025	
3996000	-0.42559107151389	-10.1218630947372	-54.1861907082327	147.695924381972	-54.0463766806689	149.231963502752	-0.401247328597644	-9.9681120649262	
4245500	-0.419823480650834	-12.2020645032099	-70.6267940913806	117.230592637657	-71.3209414663943	109.366182042361	-0.415895397685526	-12.027197041465	
4495000	-0.22101587812087	-13.8895258591929	-79.2672783519559	-101.795370416599	-78.2958767952391	-112.075190905506	-0.217963962453827	-13.576502153536	
4744500	0.0195768139190964	-14.5120428855202	-64.5651161791527	-125.81339755973	-63.9947120609025	-128.004350553931	0.0314804840385429	-14.1140148797912	
4994000	0.041253626232019	-14.359691833481	-53.5789327586993	-166.821724970266	-53.428300572086	-168.53787019094	0.128130957374886	-13.9110250464875	
5243500	-0.0364106588248252	-13.2732379501254	-53.5590658745866	103.61046940331	-53.8323536904975	103.287052022023	-0.00019663098255286	-13.7370579977047	
5493000	-0.26553179299666	-14.0249101740515	-56.4102304701263	75.6437087409	-56.5241032689713	75.1440480736282	-0.266634953813257	-14.4016137929057	
5742500	-0.446530868493511	-15.7342566619613	-55.4933235156238	57.2449514478348	-55.5041905233575	56.1310200295679	-0.448439442353898	-16.0626406747576	
5992000	-0.39596498043421	-17.7250980500366	-51.6330107231438	34.5212077200066	-51.5520266888919	33.1682072392014	-0.433107570471389	-18.1233570254724	
6241500	-0.152519422813933	-18.977060178691	-44.6704167029373	-20.3294181451604	-44.6601217262194	-21.3214495098825	-0.36426685480399	-18.903023369811	
6491000	-0.00787605553503686	-18.9452632102525	-44.4229591567552	-119.484837400939	-44.3837954950161	-119.254620937947	-0.0200748025880449	-17.6465212249926	
6740500	0.0226033225766003	-17.7491672449029	-52.140124239688	153.505970563536	-51.8738926017673	154.354027570231	0.101691777457873	-17.5000633924837	
6990000	-0.107543406082978	-17.6785769943543	-76.329175071838	-34.9244055039411	-74.7930415471129	-24.0928853074922	-0.0811127565936942	-17.9314611952035	
7239500	-0.384076682876488	-18.799796720573	-49.8217170312547	-138.274346851931	-49.7096036461666	-138.550268749236	-0.536292855154961	-19.2559094259445	
7489000	-0.530704590634345	-20.5847536486561	-50.7163575659278	123.135878549865	-50.7626520661375	123.801109449538	-0.554240846769208	-19.5484332009172	
7738500	-0.383583325649642	-22.3656495279166	-53.5532874658842	89.8823406499742	-53.8104868717077	88.8817259692727	-0.357556392458107	-21.6239724995656	
7988000	-0.110330309347605	-23.438167231659	-53.2292329466289	67.5648200734021	-53.2264393559648	67.2114077531604	-0.078140878491297	-22.6934102607362	
8237500	0.0221601504466012	-23.5265976934232	-50.4232644660416	39.7457235784767	-50.255803880098	37.7767937406994	0.111156448265921	-22.7393052097959	
8487000	-0.123861233827592	-22.4807022584039	-47.5076139571989	-17.5931895968466	-47.6401874804125	-18.6496744698379	0.0616365837143588	-22.5088672457117	
8736500	-0.266557929643669	-22.0854540412618	-49.3046413861161	-71.3107770761615	-49.2850228837709	-72.4054808324137	-0.176783188443854	-22.8811889237125	
8986000	-0.462024232538165	-23.6644542695001	-50.6763162099502	-100.845475498567	-50.627283491304	-100.861551740787	-0.433505747566311	-24.4534630776804	
9235500	-0.500511391881446	-26.0641042341617	-49.8034227216026	-125.354557936458	-49.8104353041603	-126.21187761735	-0.502240386606537	-26.7011194681409	
9485000	-0.322335168030204	-28.0031441385756	-46.7995501353678	-157.62544991318	-46.7448371546348	-157.972867646251	-0.387368502021081	-28.6098315355743	
9734500	-0.125976089554415	-28.6071624242303	-42.185112351624	149.048463990855	-42.1648202181214	148.541094981374	-0.292133955773911	-28.6954987501266	
9984000	-0.104437882743117	-27.5869527915768	-40.7112287643671	65.646596795864	-40.726456582794	64.7427613356502	-0.190042309378736	-26.5821627365931	
10233500	-0.168736967398045	-26.2403479077463	-45.3107955735937	-13.089584879478	-45.3667890384481	-14.0819774059011	-0.141377106743776	-25.5491677831956	
10483000	-0.351752925109816	-26.7283545551824	-51.5237538014839	-66.0288445129779	-51.4311648289943	-66.302224480707	-0.311090861494301	-26.1812521694493	
10732500	-0.532049784999777	-28.6553474631511	-56.1606417716295	-108.582296530975	-56.005744196109	-109.473292945633	-0.473528135015718	-28.1684147949518	
10982000	-0.509671512451963	-31.0244382250303	-57.3332188540697	-178.32052640129	-57.4876221324137	179.493340792171	-0.441063841404935	-30.7182112601393	
11231500	-0.318657882356467	-32.3898080281839	-49.8072960375905	73.6958157480815	-49.8533346370281	72.9347791365952	-0.322765964663802	-32.9112606547199	
11481000	-0.106502704357487	-32.0165407543871	-46.5829906687191	-71.2075864914931	-46.5768909835066	-71.4030905011228	-0.196054126347102	-30.9088784802069	
11730500	-0.0185965299938767	-31.253293597515	-52.2254059832969	-146.887693054689	-52.1762762511579	-147.618316646091	0.0336540153917784	-30.5998594085163	
11980000	-0.205455316115621	-31.0201799378834	-55.637049241406	175.13810096027	-55.3317449603912	174.256992168138	-0.109590258384398	-30.7645318048299	
12229500	-0.493051207462213	-31.8566743702773	-56.6560766717008	143.400455725133	-56.8123206550722	142.673863717082	-0.374278443004841	-31.9577451642155	
12479000	-0.627992731264763	-33.9245348299559	-56.9249670310812	111.937836099886	-56.9732967536018	108.480729593838	-0.52069900844111	-34.1992997753695	
12728500	-0.512659353715823	-36.2380887705578	-55.0153049441925	79.793969998805	-55.2716262241476	77.3519816892013	-0.439391064938486	-36.4812773236125	
12978000	-0.273667128235043	-37.3778909744882	-52.0222202611133	40.9051557622092	-51.99929456992	39.5841928119112	-0.215597344845634	-37.7872222861981	
13227500	-0.148369022857743	-36.9384854002479	-48.6772403456613	-11.1758996829673	-48.7039068790467	-12.3372310425771	-0.132154406207298	-37.7578507762481	
13477000	-0.211957359601974	-35.6051156834535	-46.3415802780044	-79.9981010658868	-46.3717133505429	-80.061397288049	-0.322040661011535	-36.6862944842241	
13726500	-0.386649079127573	-35.1799745559313	-46.7238132893029	-154.906369257467	-46.8279109480722	-155.017696138173	-0.594890513234904	-35.1653374640365	
13976000	-0.596665722541584	-36.5283198606778	-48.7179586786684	136.625786023604	-48.8340523910316	137.028632623374	-0.714986429007924	-35.482701657301	
14225500	-0.658350809410765	-38.9873609176408	-48.8950508048986	68.351752683953	-48.891667469054	68.5195062419366	-0.654361901726228	-37.5740434139274	
14475000	-0.528219076769224	-40.6750213234727	-45.9881046857864	-17.5074769043807	-45.9252101104697	-18.1122155250043	-0.416982366025419	-39.6284603588672	
14724500	-0.186486609474513	-40.7068895245121	-45.1203121047076	-106.993794395321	-45.089636490378	-107.847870537486	-0.110562235806438	-40.5763001505706	
14974000	-0.0393019064175227	-40.3819923913801	-41.4006790619111	175.070666735793	-41.4180432306858	174.022663319605	-0.119581164490371	-41.0492601325122	
15223500	-0.162739674336879	-39.7346026618189	-44.7499389953915	71.2155948485494	-44.7964696115014	70.2327960808601	-0.217986390557856	-38.5043341775585	
15473000	-0.454852107505073	-39.9186313258764	-50.1111802978082	20.1113042277937	-50.178483334504	19.6756190925909	-0.370045793290864	-39.2992421494746	
15722500	-0.674662196810706	-41.6932221442516	-53.3851590131039	-17.4664550659775	-53.5263835523575	-19.3202305094678	-0.568051110282058	-41.3802605740714	
15972000	-0.655054777212357	-44.20162683992	-55.2126811651164	-51.880280138978	-55.0073104471076	-52.3461212423002	-0.560284334051585	-43.9145886713564	
16221500	-0.431360302444919	-45.9947381953204	-55.4555568899488	-89.5729011298626	-55.4640066599818	-90.789420584271	-0.342612497631955	-45.7317259438932	
16471000	-0.242704103464722	-46.3058194362058	-54.569391903826	-141.288248694436	-54.6212350731072	-139.356143167466	-0.134816715567696	-46.2245714777442	
16720500	-0.281130164160165	-45.2460078958401	-52.479300105038	161.114133992875	-52.7229319025857	159.599483810001	-0.163967317056923	-45.8339881530999	
16970000	-0.486333571311839	-43.8025120611476	-51.2623954731272	93.3082625935862	-51.349518031154	91.8753305963246	-0.488171185650718	-45.1672037465084	
17219500	-0.703077410789286	-43.9952357862043	-50.7940383915109	23.013733583155	-51.2949273301196	22.1126186231816	-0.885689415789486	-44.9199617869819	
17469000	-0.798388450766875	-46.0675384401965	-51.7420723014497	-37.9769140036757	-51.8799566869749	-38.8138243452681	-1.02410756124015	-45.5849720583279	
17718500	-0.669234702903252	-48.489212963904	-52.5728439759872	-90.4309069993809	-52.4479677661152	-92.5050784107668	-0.805501482419884	-47.0943225748698	
17968000	-0.401791642093151	-49.8351715387384	-53.0502438175128	-140.76934538778	-53.1819696487145	-141.34129842761	-0.415273330525926	-48.1437244892701	
18217500	-0.211577723918195	-49.4605600724358	-52.7954711015839	169.177851448998	-53.0305024231162	168.707786155562	-0.0958118412424079	-48.079022182304	
18467000	-0.218953550930617	-48.1884153826222	-52.9979901202339	122.140300995942	-53.068565370348	121.16345316202	-0.0585762294334485	-47.6057751375559	
18716500	-0.405281481671073	-47.8919126765161	-53.1149676599396	80.5705777035783	-53.2115065318598	80.9829316788471	-0.271263699484137	-47.8011468536429	
18966000	-0.660191323437382	-49.2716804999888	-51.5411502848869	47.3473970712152	-51.5779880942279	46.0726107854816	-0.562919481297239	-49.3615101726315	
19215500	-0.765491580413293	-51.8935820376763	-47.7763223421494	7.52170191170687	-47.8642037460717	7.71229685250461	-0.741029776242788	-52.0813522193965	
19465000	-0.649107733620777	-54.21662934599	-42.386323783952	-52.0697808498834	-42.3837402398092	-52.554810420798	-0.821619810394455	-53.9369842626752	
19714500	-0.419031580201481	-55.0682121313945	-42.8751476628015	-140.103205939781	-42.8594940829344	-140.035038100894	-0.395349620313754	-52.9014868738403	
19964000	-0.380173841231958	-54.2255392786509	-47.2095616715097	161.891781342666	-47.1668335299507	162.153115500777	-0.0835158338258938	-53.1920963827913	
20213500	-0.544820147294783	-52.2875639015206	-52.5946267225399	124.14937420508	-52.4434119222448	123.859587052004	-0.182142882913716	-53.2209666817959	
20463000	-0.743462892821764	-51.5577794471891	-57.1242420035011	129.259072784034	-57.0156386541538	126.611750675626	-0.544004625797839	-53.7043580158942	
20712500	-0.897769886885334	-53.0765468647111	-52.8699877115255	128.395754921394	-52.9720289982689	125.446018112965	-0.925068931737757	-55.0824321267347	
20962000	-0.873546497894149	-55.7252461609272	-49.128231740704	88.3392980963335	-49.2625206649314	86.5321479928381	-1.03597051820295	-56.4659142599909	
21211500	-0.636968847170911	-57.6629700813249	-48.0785513458632	38.6629839107298	-48.2008249172183	38.2963049945907	-0.818364515650662	-57.1725903248481	
21461000	-0.373014035514271	-57.8378767526099	-48.5539874251261	0.756554360699259	-48.58500335482	-0.397222801828335	-0.456995507858568	-56.6911291677204	
21710500	-0.280677477457811	-56.575889304162	-48.4980714372522	-39.4625958041215	-48.5875097746449	-39.6531973332148	-0.247572000726975	-55.7757458759882	
21960000	-0.381003244180912	-55.6639572812902	-49.2305173334271	-80.4260181433566	-49.1841497532401	-79.4299285896002	-0.312962423462354	-55.2694101940609	
22209500	-0.627400228748637	-56.3781754806929	-50.2683504198089	-112.531410826233	-50.4235642719951	-112.939699096331	-0.565538487543086	-56.0212745577928	
22459000	-0.823792623932017	-58.7917369948508	-50.8321799711139	-141.96565700484	-50.6938297926226	-141.333334262919	-0.733135296341486	-58.1809473741012	
22708500	-0.795872953140876	-61.566198236738	-50.248522900386	-170.913281633144	-50.3691345154531	-171.007494643364	-0.670141658534839	-60.6849477291614	
22958000	-0.619259253135253	-62.9125246092514	-49.497447075462	154.396880344352	-49.7041524459205	152.9714826996	-0.4230339274253	-62.3374097967842	
23207500	-0.442435747706096	-61.9517146302905	-49.619679244737	121.336982981817	-49.6394976906383	120.078455965847	-0.230899804315573	-62.5292879318331	
23457000	-0.3914612824283	-60.5738378304355	-47.2336520449757	103.179152070138	-47.3558494431356	101.446027836733	-0.316289382694619	-61.9027006790165	
23706500	-0.659136083189972	-59.8068781928195	-42.0221932195848	54.7268328288006	-42.3444291254557	53.690947604848	-0.661165828927862	-61.0528221951653	
23956000	-0.933204714567854	-60.1596063780316	-40.2630761854946	-13.1377709818822	-40.6513316174402	-12.5531246500524	-0.949826946962381	-60.8852109393156	
24205500	-0.997005761977276	-62.2051568049151	-41.3783084250783	-75.1245390702286	-41.7037498093836	-73.7602385055837	-0.922319644775103	-62.8679555954563	
24455000	-0.773838029359875	-64.4193475044669	-43.8940354217062	-125.56774311268	-44.0879144104097	-123.637892790951	-0.710558420605581	-65.7024551557194	
24704500	-0.427218587955125	-65.4865195060224	-46.5346453168313	-166.675699882638	-46.5424742346347	-163.77022244149	-0.498546059309453	-66.8777331460523	
24954000	-0.216003516361626	-65.1070693958747	-48.6096697466326	159.61121991661	-48.4736018294429	162.970214402693	-0.428938966506883	-65.7255302197221	
25203500	-0.274325440886029	-64.3013933755339	-50.0670283264243	127.658663397844	-49.8592498246433	129.577219020679	-0.482165487094261	-63.9888897225748	
25453000	-0.548774194900876	-64.1142011058031	-51.9887229258393	94.3716553904346	-51.6945066210534	96.094077352553	-0.673184647197332	-63.3736460897378	
25702500	-0.820079884758625	-65.6020733209735	-54.455199598923	66.7424388906487	-54.1986341646006	64.4564381581965	-0.879169610499409	-64.7634833326289	
25952000	-0.854661050732174	-68.2520739694867	-57.1103289144973	48.7428700761293	-56.7267618263816	46.929049064172	-0.892748848597735	-67.2375833390897	
26201500	-0.635243264896113	-70.3570900145851	-57.10647320949	31.5976977694594	-56.8103167838883	32.0887936457535	-0.631013654048816	-69.3994810021973	
26451000	-0.350579487761059	-70.8616415723895	-56.0669556057728	19.7137346321434	-56.489497385	16.9267615851987	-0.32066775290367	-70.2715229184561	
26700500	-0.286665538745376	-70.0919984399994	-54.9191479305125	-5.46610856280872	-55.0319241939154	-10.0270064905537	-0.202606838107124	-69.8325062893215	
26950000	-0.512602459344922	-68.8724059098545	-53.937425227581	-39.4547006977659	-53.8727348742763	-38.5892479516555	-0.377088462315783	-69.4076663364627	
27199500	-0.863830719455644	-68.5756027646428	-52.7102673745803	-76.3778528801059	-52.9125309801483	-76.9211353303781	-0.776749131459836	-69.7673220187698	
27449000	-1.06038344583261	-69.9323826663452	-52.633354749106	-116.208893657113	-52.5210099185791	-116.811979367245	-1.11023678727355	-71.3948348243285	
27698500	-0.972332545904837	-72.2509902089788	-52.8560848859515	-156.768081094686	-52.810152360596	-159.153986902844	-1.14932214445705	-73.1093019682411	
27948000	-0.641914702570215	-73.8739420894119	-53.2620818127576	159.671403075615	-53.1090092116586	156.370557734704	-0.86564865435618	-73.9036312694657	
28197500	-0.336404568953956	-73.8476184365466	-53.8428491334521	112.923999414118	-53.7361953652112	113.097069275914	-0.497112486871628	-73.3101035713014	
28447000	-0.287825714789117	-72.9173083820483	-54.2080092362312	69.1800744547139	-54.4469128869141	71.5236787267936	-0.33412049238808	-72.3834667855376	
28696500	-0.507905705744387	-72.2928568601823	-55.9576129151381	29.311588656654	-55.5134908159158	28.7657573543947	-0.457967168233617	-71.9744682064866	
28946000	-0.816101049323562	-73.0009550148092	-57.2738159973585	-13.4542152049714	-56.7958812974489	-13.4221768918364	-0.745605492340414	-73.0304491992795	
29195500	-0.966753528885496	-75.2271108702845	-59.2092763546137	-49.8854579022692	-59.401698731554	-55.5029783070367	-0.925745524694797	-75.5282841230434	
29445000	-0.826639862358908	-77.7662960587389	-62.9645390394536	-79.8416974983591	-62.0160970193465	-82.0999226792977	-0.850190774223984	-78.0046815854886	
29694500	-0.496334301721511	-78.908988425891	-69.5586702543263	-88.0411048560114	-68.152545124365	-85.1358737882353	-0.65310041195463	-79.0014114213336	
29944000	-0.302043342743509	-78.4451786337382	-65.3461456608272	-54.5943366971522	-64.5813612840745	-66.232762984746	-0.483098591252501	-78.0044863557596	
30193500	-0.40384217069807	-77.3236986395294	-59.0730023694078	-91.2981274999042	-58.496720925024	-89.9983502053301	-0.489099445216817	-76.4125292349398	
30443000	-0.727426856555689	-76.6543054385731	-55.6612960197124	-136.251085636562	-55.3250092464925	-136.082254384343	-0.67689286330733	-75.8680561407304	
30692500	-1.04797422425926	-77.4421447341383	-54.4949712297167	179.713485044135	-54.7278594349109	179.441253845339	-0.90545408431677	-77.4308156727696	
30942000	-1.13046037605411	-79.6777022201431	-55.7574339069983	137.709203488501	-56.050892786815	139.1963279835	-1.01740961504017	-80.3429428962739	
31191500	-0.881836156834281	-81.8309664109997	-58.4868169123464	102.004486752415	-58.4581690174885	101.765535394729	-0.898115910814743	-82.7242478450347	
31441000	-0.521859276305974	-82.468789244203	-61.3025027457247	96.1732284548687	-60.7992434079066	90.4001652671304	-0.670240740570883	-82.7078612844678	
31690500	-0.344967447127726	-81.6138865357601	-58.082785832754	85.3560244002285	-58.4226965256374	85.4617301694318	-0.441312523180755	-81.1585007373879	
31940000	-0.447974825839286	-80.5150300213715	-56.2597519877858	56.406533052264	-56.5621242957536	55.6333165821751	-0.450616598606312	-80.1643590786179	
32189500	-0.757878420476872	-80.387131300595	-55.685547245458	20.457708596156	-55.4296412727084	19.8495766872048	-0.710636827395712	-80.6007410492534	
32439000	-1.01709012372445	-82.0529370448514	-55.5060231293653	-13.7259233351831	-55.0129223351753	-15.8544189414847	-0.970086757599459	-82.6480972526213	
32688500	-0.991655951436754	-84.6152373375469	-54.7931028285754	-44.5119613786099	-54.7011614683781	-47.4463589867624	-1.02491967897453	-85.262839633182	
32938000	-0.717914689314453	-86.3701753851374	-54.8354764772212	-77.6922020989274	-54.8030568301277	-80.2872230101554	-0.821608770625469	-87.1011537490266	
33187500	-0.419601490956471	-86.5020348964574	-54.8826477880955	-115.480261574038	-54.8508074666546	-114.768183780889	-0.57150736807044	-86.9321058979038	
33437000	-0.33935952976659	-85.5455311659725	-55.2467830642952	-156.097967538774	-55.572113122477	-158.882715727328	-0.507794046211452	-85.518017537425	
