!Keysight Technologies N9923A: A.12.45
!Date: Tuesday, 05 August 2025 18:27:40
!Timezone: (UTC+08:00) Kuala Lumpur, Singapore
!Model: N9923A
!Serial: MY61181427
!GPS Latitude: 
!GPS Longitude: 
!GPS TimeStamp: 0001-01-01 00:00:00Z
!GPS Seconds Since Last Read: 0
!CHECKSUM:1820471814
!Correction: S11(ON U)S21(ON U)S12(ON U)S22(ON U)
!S2P File: Measurements:S11,S21,S12,S22:
# Hz S DB R 50
2000000	-0.0754479946907702	-4.85113635274364	-71.7132562213463	-102.961339270106	-72.208925215472	-96.6523920931733	-0.0893585729444943	-4.82244402203288	
2249500	-0.300108713645045	-5.76402025748683	-69.7227219961165	-100.739822392526	-70.3249810737978	-97.8439041919009	-0.302737131447233	-5.69266945496055	
2499000	-0.393432044621579	-7.37855694115338	-63.3195587216312	-112.717271843718	-62.9204952809398	-112.18878601881	-0.390922310479657	-7.2280421942145	
2748500	-0.272797749281561	-8.78858706145555	-53.9439309353471	96.8973777123435	-53.4837737493843	96.7719813986175	-0.284684619647285	-8.46208066156889	
2998000	-0.0409317272596027	-9.56240783166123	-64.5226161690793	75.5016239750381	-66.0436824181579	70.2185031932833	-0.0402764631129646	-9.27793725679267	
3247500	0.114747752288286	-9.42818905483188	-67.4693565860307	77.8490000496437	-68.3760322283259	66.2856680009475	0.103027453783604	-9.21291352375638	
3497000	0.0729564583359581	-9.17937939291454	-66.5488829831376	65.0548109287115	-66.9221583226337	66.7154347075774	0.0497093557743311	-9.0286004817541	
3746500	-0.145720376849232	-9.46938424771968	-67.3330631806535	40.5073758048667	-67.0239422800914	43.0455222841011	-0.161036759171348	-9.2294533575971	
3996000	-0.370404946962317	-10.7514622233113	-60.5431279698212	24.2627003841862	-59.7930804930086	22.6110095007236	-0.366624382980075	-10.5779822493892	
4245500	-0.448313272149919	-12.3954653089092	-54.5695555256985	-29.4358982104387	-54.3451868649929	-32.3065738506693	-0.418732920253091	-12.4958848256484	
4495000	-0.26280139738832	-13.885149764214	-48.982254224069	-69.5224586148244	-48.6077306094364	-70.8696648693014	-0.359173140368209	-13.7645945085119	
4744500	-0.163669015335273	-13.8153995737718	-44.6311510403735	165.800440433873	-44.6244107345915	163.882154770744	-0.124975617476318	-12.9204970672775	
4994000	0.0600249198065303	-12.9669650497077	-54.4679682258369	75.878313935462	-54.5339201931649	72.5902532780905	0.0742187137511124	-12.7626083909925	
5243500	-0.0097567738570175	-12.9931807681162	-62.8256215385129	36.5308217126911	-62.7656568869693	36.1711695267611	-0.0148325859115713	-12.8032916045903	
5493000	-0.239520373985968	-13.702442722116	-69.0162867982019	8.12430070442433	-69.2079394644057	3.63998025391987	-0.246276038387277	-13.5235710322842	
5742500	-0.405893045697907	-15.3234494963375	-71.8881667281933	-12.0517254825487	-70.5207408895081	-16.8844050594004	-0.39908283131674	-15.1144103441506	
5992000	-0.353194389279474	-17.1931168495354	-75.6131525976549	-49.815391178482	-74.4230334259957	-33.7911734070785	-0.350811713866472	-16.9900495020179	
6241500	-0.113918898565962	-18.4190129491998	-75.5859038288734	-77.4421874804199	-75.1916693079305	-73.5101874003144	-0.147460311218359	-18.1698587645324	
6491000	0.0778582315429168	-18.6552900309298	-74.4119536486667	-152.580983467388	-72.4692812984779	-149.737854259155	0.0615042485925774	-18.462376060516	
6740500	0.105014796101758	-18.4534992104445	-73.8239572653071	142.956700521385	-76.5537106823865	132.832663972534	0.0846870404976707	-18.2261581083347	
6990000	-0.074401039161899	-18.6073791492649	-77.6762633964904	124.567922845822	-78.857439123678	118.96773224512	-0.0870238234624619	-18.3390911036019	
7239500	-0.330014440108819	-19.7468724929176	-74.5185995730375	153.58697465211	-76.8499219197314	135.466775997306	-0.319381380336413	-19.3731614566591	
7489000	-0.461140192279591	-21.8029035697476	-66.8386658416973	135.624150376164	-66.760380085268	135.632782040347	-0.428613416869177	-21.2384197247345	
7738500	-0.436148081258379	-23.7523246898639	-56.3358075778191	85.6959289035985	-56.6156332895998	88.246017637165	-0.324920564730358	-22.9769907642826	
7988000	-0.338506398318704	-24.603424235109	-49.4341028697896	33.3518104340622	-49.0613889878072	34.257059530282	-0.11638567264635	-23.9561294474041	
8237500	-0.196722166729181	-21.8622135570321	-46.549753700952	-49.9304593075165	-46.2794325606714	-50.4463514018744	0.0189810779730393	-23.9904067995039	
8487000	0.00208669058429556	-21.7686352625259	-47.7681637699506	-108.924193255579	-47.4511753297639	-108.780582796083	-0.147705425993544	-23.9236709434992	
8736500	-0.177147031034354	-22.4595884055648	-47.7727913217692	-161.905509579475	-47.4207521265761	-161.538749861495	-0.601785998143435	-23.2108278511412	
8986000	-0.407630480234525	-24.0552016902011	-50.3248111887333	142.365014615803	-49.9987392423348	142.268609901735	-0.729882010833073	-22.2920666884266	
9235500	-0.486775876146222	-26.2314006718363	-53.4748701350641	111.832767736074	-52.6500945729969	108.498817486287	-0.572924914089078	-23.9653553673306	
9485000	-0.331511465442033	-27.8981840928336	-52.8646161418224	82.2670003017353	-52.51153611896	81.1221881346978	-0.319628552263192	-25.8042351349286	
9734500	-0.179359287385548	-28.7711531996965	-50.5360220874422	42.6442236636174	-50.4462412525346	39.7449875785961	-0.0411426046373442	-26.5406598353827	
9984000	-0.287224844032442	-27.0884090826032	-49.20046071789	-33.2752747637909	-48.8980839332166	-35.0178763439524	0.0835294437292352	-26.4344651529154	
10233500	-0.202463600841778	-25.5302502068174	-53.9829431387986	-116.810593428696	-53.6782781060823	-118.173223723099	-0.0133481316277284	-26.2862742974599	
10483000	-0.328225535289025	-26.215913584429	-62.086063791312	-161.056549327359	-62.4234585047829	-161.972577138341	-0.251780130544141	-26.869161273377	
10732500	-0.469645922710012	-28.0899792466575	-69.6159187597159	-174.370738322144	-68.7368448151593	-171.421597891938	-0.426447927222278	-28.5835025275362	
10982000	-0.41660473701528	-30.3114862749059	-71.6036907159581	176.299106356094	-72.0914730304966	174.740643683628	-0.399887816439135	-30.7071310248326	
11231500	-0.185892830079335	-31.7616127375498	-70.742738599981	161.552799875532	-70.8894583379112	166.76775928862	-0.191290319562939	-32.2631529229779	
11481000	0.0476389199643838	-32.0785601702545	-68.3630132229407	161.057764054357	-67.7814691058092	156.085341320263	0.0165857172650337	-32.8043298311617	
11730500	0.0939575398684617	-31.8379134694217	-63.7344249058051	141.134214011537	-63.9641910162601	140.558765470227	-0.00543655298654527	-32.9365416986394	
11980000	-0.0873837996385795	-31.8966036917921	-60.6714052352216	104.736410762969	-60.488005284517	107.991227020071	-0.363220832293513	-33.3991461417719	
12229500	-0.360862450012438	-33.0848698198822	-57.6602275457206	56.3489244035507	-57.9479851691088	56.3293150923721	-0.985488925641506	-32.036006635971	
12479000	-0.52378827585365	-35.2873774704911	-58.5349771175763	17.5789739124492	-58.9294643642829	15.4356572766083	-0.727777436220801	-31.8142762177456	
12728500	-0.464468906202555	-37.6962602334921	-58.123773619369	-8.51377992117211	-57.923218687017	-6.46880448412703	-0.454182758299652	-34.345022081802	
12978000	-0.341686708062497	-39.1624626496113	-55.8034866321165	-39.896700724619	-55.8674079728916	-39.5278632736033	-0.153693272408996	-35.9632895938245	
13227500	-0.46022395350081	-38.677774774205	-58.4300290809006	-75.0160493215295	-57.6779436233045	-74.6120554458034	-0.110850386365492	-36.0018937227807	
13477000	-0.636796592819268	-35.4900549217851	-52.2350724003989	-138.213584543071	-52.2252427818921	-139.262447349151	0.0177763705718181	-35.6609957308439	
13726500	-0.660346306847218	-34.0721362456834	-56.0246258737078	149.569865496109	-56.3232719310052	147.991732981574	-0.198175891712498	-36.2279407051388	
13976000	-0.740221120838157	-34.8850037282967	-71.3904563698683	55.7763099138743	-72.6625053309541	50.0807968590264	-0.472054555491021	-37.8640083192997	
14225500	-0.665514924433986	-37.0211845150045	-62.6849879075642	-132.098688750609	-62.0922535006611	-132.651122774673	-0.614009924278996	-40.1836007854663	
14475000	-0.401802961935245	-39.0969634227903	-55.9260468854224	165.176771508654	-56.1101461246731	166.757390820615	-0.60486558790287	-41.9664396987363	
14724500	-0.101113246657147	-39.9406569873529	-52.9697041597494	93.6186569489534	-53.4473312064535	93.3682201061598	-0.577134290660135	-41.6749543279281	
14974000	0.050614291385352	-39.7684035367086	-56.7915218555817	13.661889392406	-56.9324610570541	13.7546213512038	-0.47349809134365	-39.0872606896405	
15223500	-0.0304884846664102	-39.5234990255487	-64.4520327530045	-36.7452256895387	-65.781975415933	-39.3163340394469	-0.349197026293758	-37.6409275772108	
15473000	-0.278589785566025	-40.104770275867	-72.0490048075928	-54.9463070912527	-70.340296410575	-58.0058544528991	-0.449041813663886	-38.1778760368601	
15722500	-0.490211871116363	-41.9993114669915	-74.6398080673835	-84.7020613324299	-74.1934009979891	-85.7868995480937	-0.572513929331918	-40.0355795952038	
15972000	-0.479740572134406	-44.3545413384686	-77.3212367171911	-70.0493827819266	-78.6387122909066	-71.5953545987049	-0.525247565361067	-42.3720745012373	
16221500	-0.263313622252269	-46.0392625274911	-85.8591833920215	-82.41178903797	-80.7762348924762	-100.719922817443	-0.286497364194151	-44.0783686727	
16471000	-0.0478638704813214	-46.5851161285509	-83.7609268910437	-63.7396816014026	-79.0084198295286	-107.054004079024	-0.0383482873998057	-44.6475420188105	
16720500	-0.0400701372403728	-46.4718878368251	-74.4996286255764	-115.749889564317	-72.2582929800574	-113.081550042342	0.0262713440447961	-44.6369684784878	
16970000	-0.315362801311167	-46.5393199660354	-62.347122208106	-137.43246536774	-62.0061071065332	-141.740055108241	-0.180812759764336	-45.0613768737919	
17219500	-0.763203058952074	-47.4431194017805	-49.5769259771386	143.132308625235	-49.6200547355877	141.393677660898	-0.798761088309237	-46.2984985638852	
17469000	-1.11340136603614	-48.9457826012908	-51.3146649425481	2.53359886606459	-51.0162715027416	-0.0652789935084516	-0.66567534357672	-45.4198853738404	
17718500	-1.20243430870698	-49.5844539206016	-58.6610866393245	-79.4174913918691	-58.3297788901501	-81.9310107437657	-0.498467391123145	-48.5474401736899	
17968000	-0.907375793980584	-48.6554721970267	-64.6867048344385	171.834455251503	-64.3221389817694	174.858312408889	-0.279362440040463	-50.3843981574446	
18217500	-0.500205466566252	-47.4038001734101	-59.9893131127667	72.3427525548745	-60.3626190627231	72.2272059081203	-0.161860955823001	-50.9050897498978	
18467000	-0.330982509194945	-46.457321905737	-55.0770031021951	9.05289373304255	-55.2593727238726	7.51420239480046	-0.429298844206903	-50.4814916372612	
18716500	-0.423822902642897	-46.562641632618	-51.7514297416248	-63.0051427134403	-52.0675428537096	-62.4546672257456	-0.848926553506908	-47.5885572274648	
18966000	-0.612221373731308	-47.9977314425714	-53.3066467385847	-125.178293826547	-53.2708500217252	-126.898604134968	-0.652276215935906	-47.7061520311917	
19215500	-0.656814787237149	-50.421647967427	-56.7087230868758	-166.313377883817	-56.6648399833473	-168.385922640674	-0.654633771662561	-51.607842873887	
19465000	-0.478962808243414	-52.6235854602939	-59.1178719688628	159.63877124702	-59.07924456931	156.31711886538	-0.752510432202912	-54.599743245037	
19714500	-0.187330855864254	-53.6285309774044	-62.3543309052107	130.04504575514	-62.2207304155781	128.249061041661	-0.768837055489937	-53.9036518520593	
19964000	-0.0227520085325647	-53.4767475153914	-64.7762155845678	129.238749330825	-64.6562880931311	132.012939323003	-0.501336835129345	-51.462177311636	
20213500	-0.124281025190824	-53.1453964216201	-62.597260735029	129.816093172666	-62.1247968415775	131.670652403164	-0.366274658098805	-50.3740494902753	
20463000	-0.411452696446655	-53.6492399547335	-59.0854745679557	105.444682749483	-58.9564124823313	102.585839477012	-0.480810369330095	-50.6532465824122	
20712500	-0.671919095954188	-55.4230477748058	-57.1755551176924	67.5048996242445	-57.2894214960729	65.7293087091361	-0.637447959135676	-52.3394447316408	
20962000	-0.734111910584563	-57.9770954421665	-56.040215333958	30.3664687224546	-56.1733812924295	29.3210956620023	-0.614864035244309	-54.6361453019156	
21211500	-0.604163812619185	-59.9498528101914	-55.7738518819742	-1.2324392142712	-55.8848427652911	-1.35786484716225	-0.398852567839717	-56.572249197868	
21461000	-0.481217010026568	-60.2854749026744	-55.2173442127916	-28.8417669203366	-55.289538751857	-30.4536030137454	-0.131587149676989	-57.3149734581171	
21710500	-0.581188425909225	-59.0079110591201	-53.7852797613155	-59.2699935483892	-53.7362203201341	-61.4323366988851	-0.0396439992285278	-57.3091614396838	
21960000	-0.853547795466744	-57.0752754480611	-52.1432206205894	-94.482221822854	-52.0734050220461	-96.9877661061761	-0.20138513398739	-57.4387090794458	
22209500	-1.09799187709438	-56.1329533225636	-50.5469210485618	-129.675744981473	-50.5922072697162	-132.715083194935	-0.541573957129514	-58.6450896776368	
22459000	-1.16633659217749	-57.1772489869627	-49.2811464975462	-165.999473370273	-49.2685947943344	-167.879978028384	-0.863629183399416	-61.0344999931898	
22708500	-0.970390778035637	-59.1303140626565	-48.9903245227579	149.557430679024	-48.7829289142736	148.83617253817	-1.11447449880307	-62.5994995907096	
22958000	-0.606389238792948	-60.4505964069955	-51.4195103618395	123.737871696937	-51.2776284568027	122.941919127054	-0.888930684736054	-61.0233951621446	
23207500	-0.308325160779836	-60.4529964455744	-46.5656672904958	112.210000335437	-46.7213644347725	110.92344119454	-0.405768025036281	-60.4866424413769	
23457000	-0.225977255245628	-59.7435439706824	-44.0170575113807	61.739669738246	-44.0791413990744	60.7114372029663	-0.263558397287941	-60.0973892631562	
23706500	-0.388818852835166	-59.6945308317257	-43.9365798874726	18.4777999285341	-44.0357796892703	17.2228711334032	-0.400170501183455	-60.5957262778118	
23956000	-0.653837301011924	-60.9432832268931	-43.7378860338723	-18.3203509489488	-43.921678889613	-19.4474222808861	-0.732508294784608	-62.3222128672084	
24205500	-0.784096376176598	-63.3069695050355	-43.4025879483039	-57.9318356830705	-43.425218949193	-59.0424177759658	-1.02226085579049	-64.6846638171804	
24455000	-0.657383363162717	-65.4907104865582	-43.9807769387681	-102.639283228725	-44.0062936467523	-103.054845954752	-1.09553102468796	-65.4654871745713	
24704500	-0.388135352004829	-66.5194441734223	-46.9968587694572	-141.778568409126	-46.9768792847717	-142.163161764385	-0.726735730679334	-64.1041554404279	
24954000	-0.226163877450763	-66.3667260935607	-50.1187981621179	-162.250843857649	-50.0121172047885	-162.566633096799	-0.311586690015795	-63.2928636198606	
25203500	-0.330892612631489	-65.9851260401759	-50.6741295595105	-171.602082336126	-50.5902775128907	-173.283187556749	-0.224190152454416	-63.1780637112419	
25453000	-0.688385516001997	-66.0727032942092	-49.5604316489049	173.310182773105	-49.6046292199311	172.857352891466	-0.407081199772886	-63.8491448252936	
25702500	-1.05522685867772	-67.0324339538961	-48.3182613535551	146.927830200318	-48.1241185978617	147.031623075652	-0.659527510286517	-66.0046627890648	
25952000	-1.15322860956533	-68.7707313015633	-46.9221953239078	118.644704472263	-46.7022648369814	118.838605844731	-0.778529758846813	-68.8670029384714	
26201500	-0.933316028522241	-69.6365089536529	-45.3743127321998	83.1284919901161	-45.1849898751268	83.0083822820245	-0.708726539088109	-71.1793396347223	
26451000	-0.542061204958105	-69.4522708702032	-44.7024186921252	41.8144369878242	-44.4331290038061	40.6796156286707	-0.652297837172462	-71.4966962762619	
26700500	-0.320524709729179	-68.8343524840782	-44.8984092792376	-4.31526083197239	-44.7891417470646	-5.69476538026914	-0.657629269962974	-69.2547273041583	
26950000	-0.564871608062047	-68.5863986987608	-48.0250378472658	-62.4299194627165	-47.8772228234113	-65.2075279694056	-0.654045296497829	-67.1966333994333	
27199500	-0.774739816337161	-67.5692546462356	-53.6460487419509	-75.8163098799897	-53.4581776069052	-77.1024101159517	-0.773425217362147	-67.1084100939031	
27449000	-0.887082278618326	-69.3809733237159	-55.4416111580585	-90.2831743757749	-54.945427402023	-91.1436935784425	-0.868196787002126	-69.0513694502768	
27698500	-0.821652601876738	-71.8348816598992	-56.2672923338513	-107.012299976891	-57.0800580681606	-106.0650914187	-0.782544955352769	-71.6317684990737	
27948000	-0.536942049871747	-73.4634100446528	-57.4274724818271	-119.889826365431	-57.0722529664522	-123.900039424534	-0.512678428374328	-73.6110540691661	
28197500	-0.251396610398117	-73.5835079553338	-57.7400996406549	-138.244953069782	-57.9898415506452	-138.893187897831	-0.25100367637382	-74.1040767157203	
28447000	-0.1918654343225	-73.02132432815	-57.603105611078	-156.577994737413	-57.0956768399256	-160.087491940494	-0.208067404935058	-73.9094960039252	
28696500	-0.391069244965158	-72.9201423326881	-56.9951569144429	-175.82124341139	-56.6924641690545	-176.454495803052	-0.426326435502988	-73.8900211695299	
28946000	-0.700203602040476	-74.0527977451844	-56.190554582712	163.89768085827	-55.5889686531397	164.425602536097	-0.785187063401744	-75.0065590940804	
29195500	-0.88969252625574	-76.409971335378	-54.8041143713738	142.107340397213	-54.651325032901	139.172997471842	-1.04330810630001	-77.2089054362791	
29445000	-0.826058197092086	-78.8558181905959	-53.2075162532361	110.084010198665	-53.2812990012107	111.411235004664	-1.06390869146049	-79.0704807142053	
29694500	-0.582487924990957	-79.8238499900248	-51.5726527894988	77.5027103999436	-51.5309445499522	79.1275078224263	-0.938230645846147	-79.2467111132861	
29944000	-0.444893834363292	-79.1222369316277	-50.4831220374933	44.9121584177446	-50.1896306219797	43.6291461042428	-0.760013371283908	-77.5732929472699	
30193500	-0.545102710498297	-77.7141190683747	-50.3211956612196	6.82321255814828	-50.057853017021	7.16771784658898	-0.713922318013574	-75.6648408654325	
30443000	-0.816364108604391	-76.8063714477691	-50.4831676988859	-29.4231562964579	-50.4647494535767	-29.3471580739426	-0.840112644935159	-74.7927810033935	
30692500	-1.07980071467419	-77.3561332727493	-51.0350234593925	-64.6893935545253	-50.7772673350437	-62.9397103293292	-0.987326383482695	-75.8088449579487	
30942000	-1.14047533988874	-79.2543193686774	-51.4037289934053	-96.0634564801002	-50.8858281769067	-95.7592944828624	-0.989711511766964	-78.2379759605709	
31191500	-0.896011296699075	-81.0945608845718	-51.6723397204915	-131.668386333944	-51.1271214207143	-131.27185210602	-0.823622114889838	-80.3400068450802	
31441000	-0.526395741362533	-81.646880993318	-53.6354941126357	-166.528287781436	-53.3121042544724	-165.668272266752	-0.450891884284143	-80.9958482562604	
31690500	-0.306312530178204	-81.0236904180042	-55.9174640680331	168.072274639338	-55.0676044134525	167.503595442848	-0.240949672768214	-80.7178846034305	
31940000	-0.348213838057175	-80.3941283969402	-57.6993290816073	146.680513275202	-56.8040962211212	148.596157790811	-0.313819664796933	-80.3887356065442	
32189500	-0.603019258044704	-80.758423480943	-58.9777653963099	135.968234858358	-58.128305906156	134.476189301716	-0.593201170173206	-81.0311028648822	
32439000	-0.838888933673534	-82.6984018898319	-59.4540803759234	125.138323724231	-59.386275934412	123.751882854128	-0.846371797641758	-83.0517905457034	
32688500	-0.831730829795151	-85.3221457325224	-59.7707958492413	112.612903125291	-58.9649359168654	104.713954051537	-0.905761595451681	-85.6248624032892	
32938000	-0.611560406636392	-87.1475706942816	-58.3436022943285	96.5651988963655	-58.3440704603741	91.0364313980295	-0.738948768018763	-87.6456336019149	
33187500	-0.368490508705492	-87.4939239239513	-56.3661563014704	77.4654731162593	-56.4966197064896	73.0615899804617	-0.558021982323331	-87.9159782658707	
33437000	-0.326102478064883	-86.8702492888238	-54.4609611846912	50.8336411821014	-54.8197194096688	46.4690790664329	-0.590123285646793	-86.9152301309358	
