!Keysight Technologies N9923A: A.12.45
!Date: Tuesday, 05 August 2025 18:07:05
!Timezone: (UTC+08:00) Kuala Lumpur, Singapore
!Model: N9923A
!Serial: MY61181427
!GPS Latitude: 
!GPS Longitude: 
!GPS TimeStamp: 0001-01-01 00:00:00Z
!GPS Seconds Since Last Read: 0
!CHECKSUM:1503813481
!Correction: S11(ON U)S21(ON U)S12(ON U)S22(ON U)
!S2P File: Measurements:S11,S21,S12,S22:
# Hz S DB R 50
2000000	-0.0696229671912199	-4.84944213483397	-89.5960687687958	59.0561324257457	-85.4988996693704	-87.3850105139197	-0.0795006190643844	-4.84472409280676	
2249500	-0.257889031935226	-5.77034508184365	-76.2969654752433	77.7884611574621	-78.4555591925356	53.7081111837985	-0.263067381496092	-5.76129026567075	
2499000	-0.341059525261133	-7.25152363585285	-63.2891426253948	-39.5220348129505	-63.4447894823874	-33.5255464537004	-0.35649234784209	-7.0847399022841	
2748500	-0.240405127390082	-8.67806048188272	-67.1208797754345	-70.3201733461654	-68.2595032202763	-74.3070640398848	-0.250222516321705	-8.50795893255188	
2998000	-0.0466676308547496	-9.44042134384992	-68.3828656368445	-163.757182742174	-68.9683648841592	-164.82970913357	-0.0599446664948431	-9.14611166744974	
3247500	0.0779578276943965	-9.51312905958442	-79.7882079541636	-131.73516495086	-78.8499109498047	-118.142555934618	0.0709670314366842	-9.2598966926455	
3497000	0.0415637810135558	-9.44032073075259	-74.6737236173516	-122.779683983774	-72.8586753442818	-121.606080165175	0.0267373148234781	-9.2316522540917	
3746500	-0.143481655291141	-9.82364308221444	-68.0162788355854	-125.506356869009	-67.2858417581201	-127.730792165682	-0.153853375946477	-9.63022065886998	
3996000	-0.328718510666274	-10.8846340369031	-67.5329879251581	142.293535391333	-67.4479357273649	140.277138777569	-0.31962068583537	-10.7576630046154	
4245500	-0.340727001729698	-12.468780161396	-80.4667354601514	58.9223778418297	-79.2861805162282	90.9619865691619	-0.335885592826294	-12.3624807107082	
4495000	-0.189075077367389	-13.793037538004	-69.3134686612259	50.2222747057046	-70.0615873081677	35.1708814269137	-0.190863793105511	-13.6143109328859	
4744500	0.00169269100273926	-14.2838754050572	-68.5379104459216	-107.837966036956	-68.344926249928	-105.116599597212	0.00400534255381513	-14.0146972536901	
4994000	0.0781995857071231	-14.299629112794	-62.5869715912826	-112.70672950717	-62.5653265766749	-115.975351936369	0.0795023832614555	-13.938262877976	
5243500	-0.0589720630292859	-14.5403185580226	-53.6773749857231	-138.603379999854	-53.6860548835022	-138.537882570399	-0.022342934610943	-13.9510559774101	
5493000	-0.339951211148603	-14.1451055967171	-48.2031165232729	126.995311935347	-48.1376167102675	126.62125888506	-0.228375460113179	-14.5227926253944	
5742500	-0.376204891646967	-15.6949063946773	-53.7459571391214	81.4152791660952	-53.6815956466803	82.2027190115786	-0.352998734263316	-15.9086638651596	
5992000	-0.321219199188327	-17.5107931580453	-55.9713503736658	66.4026770633603	-55.7968977329573	67.9206530932015	-0.313273274847058	-17.5480951777195	
6241500	-0.128098931156087	-18.7517908725879	-55.3633253624528	57.4244107327665	-55.7011671958311	57.1482308391198	-0.144271509901342	-18.6104296438119	
6491000	0.0264821770916227	-19.2311282862416	-54.9576186384206	40.9094837364945	-54.7882798671256	42.0038817332233	0.0250837652878212	-18.9976367209858	
6740500	0.00584275150809815	-19.6122116347305	-57.6567630822804	79.6598297136002	-57.911165755087	80.9771188985572	0.0168657369393086	-18.827917811756	
6990000	-0.426292866319119	-20.2444565469813	-44.5559861482013	47.3516057673368	-44.5013033822369	46.7724034837107	-0.128797699198235	-19.120180858357	
7239500	-0.635741162668376	-17.8330319794685	-42.1090089345558	-23.0163959810002	-42.1222333763217	-22.9366144374668	-0.361037284560401	-20.2719716083385	
7489000	-0.515039406378692	-19.6403434531759	-41.7155599087782	-52.2418353825129	-41.5416838467002	-52.4175416577137	-0.533900112707869	-22.1486559365861	
7738500	-0.382523716495306	-21.3106177161176	-40.63840152868	-78.979741506301	-40.5470669458485	-79.6112651364489	-0.465352166230531	-23.4973222207704	
7988000	-0.126739945407997	-22.2013229260048	-37.6951125934534	-134.706820962343	-37.5926254297496	-135.547602699719	-0.489296740429147	-24.1077193509138	
8237500	0.036361673705537	-22.2876236843941	-38.674366895773	167.154053014024	-38.5426591934204	165.976926594009	-0.453541688850025	-21.6992716340463	
8487000	0.0236458103054625	-22.1762317881454	-42.7285281678025	127.334838363064	-42.6271486256623	126.080445315996	-0.227000599460539	-20.522121604573	
8736500	-0.152980549951706	-22.5605564526193	-45.648730005864	108.629775002508	-45.7180751357481	105.804019471189	-0.281876019706919	-21.0233071059861	
8986000	-0.341677269949676	-23.8397295552902	-47.0958523247308	90.9730494850721	-47.1979609499026	89.3193196025343	-0.407813896848757	-22.3917857371509	
9235500	-0.382455919324598	-25.7215263828137	-47.7421816073788	76.7986512818574	-47.7819444315882	75.6986476804613	-0.406685847846247	-24.2606623123228	
9485000	-0.247673097374029	-27.3084960599022	-46.745405366033	62.3736208800168	-46.9289971169979	61.8558317394519	-0.247754183011559	-25.8908853941547	
9734500	-0.083730427047132	-28.0075660228228	-44.2573811403328	40.0499721875103	-44.2902430875116	39.4619326628783	-0.0379567030509817	-26.5816743203288	
9984000	-0.0813876573503239	-27.4390779812277	-41.8362816374507	-8.94891371352279	-41.867285221595	-9.60002323459634	0.0422701522699935	-26.4977023145045	
10233500	-0.10027083311978	-26.7945714719362	-44.8041070792755	-60.5184575793393	-44.8535077598302	-61.0370408641056	-0.0298806948612285	-26.3087552390339	
10483000	-0.266876753371231	-27.5686913221393	-48.2261708450838	-85.1965046888741	-48.3812282035068	-84.9740839144855	-0.224234808672808	-26.881979163155	
10732500	-0.421910455658477	-29.2782896602545	-49.9466460119265	-101.516897112997	-49.9744854078844	-101.856825549027	-0.368440060141645	-28.3974625891373	
10982000	-0.428767070860467	-31.3775276843301	-49.9088327285568	-118.190562041862	-49.8720190288151	-119.266552452528	-0.344912480095	-30.224631604048	
11231500	-0.381822534013004	-32.6853793105622	-48.0090957525224	-152.604520895855	-48.0863802760643	-152.785653627837	-0.166614358281015	-31.5817121548667	
11481000	-0.259516138682693	-31.1476926423166	-49.2723118844976	144.119401323872	-49.3716375201898	142.697266276428	0.0184692040605366	-32.0669119692754	
11730500	-0.0218037533731457	-30.6137211097684	-58.9968460781443	144.255406734892	-58.7127867990345	142.487291073239	-0.131356637414258	-32.1944254879323	
11980000	-0.101141933960866	-30.920291905325	-60.7141368146272	73.3045467002237	-60.4010613665171	76.9313776666863	-0.0875141538595659	-31.5654982829986	
12229500	-0.296367551917763	-32.116607924981	-70.7032348670475	81.4453508542349	-70.5484095073962	82.7402839705857	-0.307885851973703	-33.0260945195909	
12479000	-0.408913377945211	-34.0406712267005	-70.2324785593738	126.551624460047	-70.1669307092673	126.410154525204	-0.516168673302634	-35.6917245653672	
12728500	-0.313641480281719	-36.0238778203524	-59.7930163359792	71.5549927805575	-59.663794531141	72.4884524332489	-1.09974073680752	-36.128017905107	
12978000	-0.109206912584938	-37.2069319269349	-60.4514665250589	-49.0250930254209	-60.7243255924631	-47.7196913333979	-0.318498110588644	-34.1819978429922	
13227500	0.0110179679761614	-37.4894523320758	-54.4519514875512	-138.014980087058	-54.4245223608888	-138.313175884447	-0.0119799449543038	-35.3215899905929	
13477000	-0.083955589689218	-37.3378159575531	-47.1738521115426	146.566698564043	-47.2207893032417	145.248081726937	-0.0488514121276991	-36.2232487652614	
13726500	-0.298781797433211	-37.680918063546	-41.2605542235503	62.3277187401816	-41.2112201250577	61.0239854555215	-0.449940256645323	-37.2731636624985	
13976000	-0.571152049442016	-39.1571536540171	-39.7360798098465	-63.2099344129065	-39.4349095005109	-64.6941604215161	-0.850561999789198	-34.6627145803743	
14225500	-0.757273745532733	-41.7299223218218	-44.0192591742286	-139.558737221594	-43.5428297918309	-142.465106609228	-0.546411434907135	-36.6434159426766	
14475000	-1.03841514071463	-42.3229329895569	-42.4468519141331	151.694027480286	-42.0834400851775	148.170286123352	-0.342222188407494	-38.6642557174725	
14724500	-0.651396202132446	-39.8747986125008	-43.1016527054186	73.1448235304155	-43.0905488055756	69.8204740233157	-0.103687231325067	-39.5301587076971	
14974000	-0.459101937120007	-39.2014473393571	-45.3510888190552	15.6577941230394	-45.4687217251961	13.2916226499608	0.0289228579158464	-39.6488582018385	
15223500	-0.42211310410853	-37.9970250592485	-48.2670615034164	-29.2249601891662	-48.3647731588492	-29.5617612361208	-0.0480351831658059	-39.611129456508	
15473000	-0.484540487721428	-38.3366862148903	-51.2126522273775	-58.9872493423473	-50.9035772375152	-57.9914340840513	-0.25253824696007	-40.3148001739453	
15722500	-0.574363203814069	-40.1975245990974	-52.9408445671674	-77.092514022084	-52.9822226322194	-78.2646379653747	-0.417431531963188	-41.9320513586662	
15972000	-0.513891528959876	-42.4735913471635	-53.587602485455	-92.7729971072606	-53.6862590519586	-91.660121723459	-0.412858043466415	-43.930473325664	
16221500	-0.293640149349334	-44.165518331595	-53.6460532995393	-107.691379797064	-53.9502907624161	-106.470639789955	-0.244784232832336	-45.4282829830986	
16471000	-0.0700796599888969	-44.8692280241372	-53.8933321479401	-124.797333121448	-54.0577358084633	-124.066331890365	-0.0583132803472814	-45.9397849398797	
16720500	-0.0140500594850626	-45.0487770489326	-54.5880484774217	-140.076357546601	-54.1238047376961	-140.323531148034	-0.030478350652303	-46.0455967679145	
16970000	-0.238589745367313	-45.9084347683515	-52.4161387596319	-92.2838813637383	-52.6141787416	-93.1249513299008	-0.233213686381864	-46.4404966342834	
17219500	-0.782333248436397	-46.1555482789818	-40.2216475782759	-151.688933850368	-40.054333420296	-152.478670372269	-0.557746734269736	-47.8932388797227	
17469000	-0.945145584653143	-45.8636244415255	-37.0276598672741	134.609719855326	-36.9356000416581	134.071182924446	-0.973756137493487	-50.1186198485579	
17718500	-0.677031628224571	-46.9657003696062	-36.7634093191313	55.6461194703882	-36.6668849536456	54.828649055187	-1.37932855618606	-49.5500922969914	
17968000	-0.361535323266694	-48.2718389573455	-42.0163683873925	-32.5655687699983	-41.746799144472	-33.9142306403023	-0.6695873198084	-46.5677380109259	
18217500	-0.123288089718571	-48.5609552241228	-50.9100796564243	-114.693350297977	-50.580766150884	-117.735696622568	-0.123943414872042	-48.7850645380914	
18467000	-0.103010100067572	-48.4480292248421	-51.3071687631725	144.769424237446	-51.1168477026413	143.26802290509	-0.246454113784531	-50.5275434533866	
18716500	-0.283632830072201	-48.9459560191075	-46.5858072737476	69.1636495067502	-46.51825707729	68.435585290672	-0.925821310072503	-51.1441903844744	
18966000	-0.533051024779787	-50.4146445845343	-44.4815574279836	6.97487187509102	-44.26373062115	6.43172202061184	-1.48553907247182	-48.8505299597028	
19215500	-0.667068471138067	-52.6050491685539	-44.3873804009612	-47.8190355070932	-44.2180469622707	-47.9565827830843	-1.30120816094153	-47.4745997431607	
19465000	-0.639612779122969	-54.381874295707	-45.1666281750954	-95.3405481479582	-44.9427930332141	-95.8236136855332	-0.849850389109698	-48.8071857932989	
19714500	-0.517827051405805	-54.5892563588428	-45.8877352705652	-147.33994962309	-45.6092749751979	-147.596018504467	-0.430341236506491	-50.0320594071933	
19964000	-0.384669566448707	-53.2455274800795	-47.1052531691648	155.767178308315	-47.1474094667101	155.05213208045	-0.182443645551928	-50.3095409638488	
20213500	-0.353030314647275	-52.3626919231177	-49.3236844466318	101.580021591127	-49.3147855974137	100.437600161801	-0.167887638963119	-50.286149023159	
20463000	-0.50604044310698	-52.9217237055156	-50.7472341503634	55.1091913655527	-50.6747764291251	53.6387742844121	-0.324708811457079	-50.7895678430781	
20712500	-0.698009417272741	-54.6540940990107	-50.6887787403291	13.6806458168592	-50.8110035828053	12.6545536863133	-0.485567032685338	-52.3315337700603	
20962000	-0.753280620854819	-56.7485813763089	-49.8828384546292	-24.9394870084137	-49.8254472988421	-24.6031673365778	-0.483591177471903	-54.3257981900843	
21211500	-0.589187957408356	-58.0737350663105	-48.9142614600622	-62.9491172192781	-48.8763186341455	-63.2652311771924	-0.311488792438755	-56.0705417394328	
21461000	-0.302823498612415	-58.336060695516	-49.9310142958379	-106.847137547958	-49.9464367186823	-108.360766057463	-0.0877455777135722	-56.9401013360576	
21710500	-0.197495909784428	-58.8844135580023	-45.7263413333198	-84.751258136732	-45.5278479984124	-84.6270971695433	-0.148357112439824	-56.9275004102378	
21960000	-0.516578512346318	-59.7946795494575	-44.2822647809631	-165.348254123036	-44.090753129457	-166.942126019698	-0.177459924525485	-56.2481624443109	
22209500	-1.15271477508895	-60.0246149604453	-46.1073625435416	146.448896823483	-46.2311101111879	145.499146338983	-0.374232661940789	-57.0809196761276	
22459000	-1.52213828573627	-59.0273031691195	-50.2786843757757	102.498414297303	-50.1088960544304	102.108828920657	-0.502589965659957	-59.0103082369963	
22708500	-1.30914968057287	-58.6669405565677	-58.4078325409501	72.9371346918443	-58.2099496917841	70.490438504945	-0.473068446797068	-61.1874319954431	
22958000	-0.844396352966545	-58.9616971220464	-63.8276984158308	176.737640163125	-63.7313126376915	175.170611941028	-0.335344068411897	-62.7748263576766	
23207500	-0.456187586095634	-58.8829098014851	-51.1323010930572	148.913357420752	-51.4578108706362	148.339565459375	-0.292817208450683	-62.7386894604861	
23457000	-0.306235952123573	-58.4686182594169	-48.601401082111	94.5898635429811	-48.6955230690647	94.474229842147	-0.273388258170856	-61.2668738731623	
23706500	-0.393865687428527	-58.5731250798629	-50.4824718030638	54.8477507668105	-50.6522488373077	54.5439494888453	-0.323303685399875	-61.378066294524	
23956000	-0.570122210965651	-59.7671198393226	-53.5503316847741	24.5497637191998	-53.5558423838529	25.0231357344248	-0.522727736890437	-62.9354098485766	
24205500	-0.631289464047019	-61.9831201645021	-60.5151415755978	8.88303703006443	-59.8721897801694	7.44686332504443	-0.623917818999105	-65.5061589607979	
24455000	-0.496048407909692	-64.2785037221877	-56.9423861125717	150.935475978648	-57.6992035703261	154.696612463786	-0.608007542538989	-68.2521570571718	
24704500	-0.308843867320271	-65.6050426242324	-45.5205957576366	80.4575964842626	-45.4457421489474	82.7414512829342	-0.531535249248532	-69.5713697433603	
24954000	-0.219819553167885	-65.4495700203556	-41.7143432675998	35.0604755626112	-41.3992444541376	35.7087280890517	-0.702511932159098	-69.9992209321472	
25203500	-0.281635516846182	-64.6570002673431	-39.486406132116	-13.7090545771552	-39.1416350044734	-14.3611179974776	-1.32474459724395	-68.2701114049078	
25453000	-0.452965328684264	-64.5557365641617	-39.9434794172105	-61.6704871924528	-39.6465954186958	-62.3979294963897	-1.72068780495821	-63.2778660484266	
25702500	-0.628806939340644	-65.9392436874654	-42.063144932956	-96.9256660034102	-41.8768592458908	-98.2271907052199	-1.50165173878867	-61.6993759161006	
25952000	-0.640288173224744	-68.1644724548414	-43.9210563112641	-120.359823911546	-43.8363093278416	-122.408917539582	-1.19039939687148	-63.4246625902539	
26201500	-0.462558468404842	-69.9222878993635	-45.384824718797	-137.676790481718	-45.3468783439903	-140.419664732083	-0.798703732112671	-65.5312404717543	
26451000	-0.211433570006256	-70.465349941855	-46.1886363260059	-154.987784698595	-46.2853018630848	-156.131179814361	-0.428253136675575	-66.7211773656143	
26700500	-0.112725805832093	-70.2286512253638	-46.6781822371925	-171.188218778942	-46.8010860044642	-169.9500582431	-0.231358317863572	-66.7585711073995	
26950000	-0.23900466977726	-69.9611817504986	-46.690435985226	175.934169077736	-46.7070203981202	174.700814526136	-0.258342506683077	-66.7912720544424	
27199500	-0.513321362961284	-70.6945869793922	-46.3438062004391	162.205145185983	-46.4401877846621	161.384826259013	-0.457705138465056	-67.5029414540672	
27449000	-0.729034282677403	-72.467468157526	-45.565480087801	144.911509008651	-45.5167238374097	143.686686640674	-0.61035690419341	-69.4196506359745	
27698500	-0.758965443756328	-74.5512371178992	-44.6877384229268	123.461546220829	-44.8569385641666	123.050618468328	-0.585498662505661	-71.6768474861743	
27948000	-0.579119066868088	-75.8568087056038	-44.4117150503022	99.705969548688	-44.2692377928962	98.453484972278	-0.390454797395472	-73.4453746157836	
28197500	-0.379714472579061	-75.9390889699868	-44.6166874350812	77.8558983801514	-44.5739860757422	77.4387261604519	-0.181335195604186	-74.0178721913928	
28447000	-0.37824036227954	-75.6064735050826	-45.2658186896266	63.8582457815483	-45.1828190462422	63.0929596446516	-0.192615346772627	-74.2404541293972	
28696500	-0.616663058365755	-75.7804723937097	-43.1697678269824	37.2396065953567	-43.2425435967819	35.5727579152421	-0.316362007341791	-73.1530044979116	
28946000	-0.974160675124506	-77.011144021462	-44.0114087191489	16.112877165636	-44.2277775505497	14.489632496419	-0.537661353832783	-74.7296174674617	
29195500	-1.26724621647548	-79.0728266059255	-44.0441367687587	-2.98011663769892	-44.1511722088171	-3.12050521496477	-0.697474809184119	-77.1557590206355	
29445000	-1.3730508452222	-80.6858597393709	-43.804073091208	-22.008539157535	-43.76320826423	-22.292199401883	-0.662603918880281	-79.5256763880567	
29694500	-1.27711814510257	-80.2051596069674	-43.5974398234648	-40.9681430586876	-43.4661485318907	-41.5746070235628	-0.565200911774112	-81.1524309258328	
29944000	-1.12376717614586	-77.8648016855811	-42.8861490517486	-61.6359124343942	-42.9294247154386	-62.6108786768383	-0.608077649988836	-81.4794809420376	
30193500	-1.02750869833697	-75.4948172097799	-42.5836147429906	-86.4130809872573	-42.5242130967478	-86.1461693885649	-1.00970911310918	-80.4137927135556	
30443000	-1.0493244033107	-74.5998789377688	-42.3281784270635	-107.613836892234	-42.1496627590408	-107.383396873685	-1.51195606890356	-76.952683039705	
30692500	-1.14054791133287	-75.7626138075202	-41.0722426511316	-132.053100274922	-40.8460667156342	-131.799229485996	-1.29407280354075	-74.6541880703872	
30942000	-1.19335100570706	-78.4107982572015	-40.256226427333	-164.452233214835	-40.0239670790771	-164.542019665178	-0.888174690944635	-77.8289638833391	
31191500	-1.13518048113308	-80.696252814048	-40.1298227000329	155.209395731147	-39.9182504054369	154.862152067948	-0.638985397995315	-82.0904542637774	
31441000	-0.992674182203601	-80.1337111104357	-42.6955336098143	103.454028705822	-42.4140238477398	102.02581170195	-0.619707953373535	-84.7524936816125	
31690500	-0.638310535890564	-78.2804451797687	-51.3212838321417	99.1383020457294	-50.9589708463423	97.26347887991	-1.00820555680627	-84.1634493791216	
31940000	-0.529866119423609	-77.9055135379892	-49.6901921313898	99.7069620221038	-49.7028193498661	97.8617171407512	-1.23853191711647	-79.4349015877204	
32189500	-0.674282008067189	-78.3228706443256	-47.9884465580982	73.5950552984427	-47.832126945582	71.7233231218502	-0.979708732956282	-80.6301816929819	
32439000	-0.818632159202346	-80.0424520588939	-54.2838885113697	28.5731126843896	-53.9639865240565	26.1008681829921	-1.68667790684507	-80.1495711807214	
32688500	-0.768047803795585	-82.3647398206293	-59.486368289941	47.8008780166637	-59.3709354562127	44.9143186458416	-1.37661026562226	-80.4174269204526	
32938000	-0.540275586903346	-84.0592246529078	-58.0305626217258	60.5678258753142	-58.2160603260476	56.9711846294677	-0.958465854509115	-82.0655920269079	
33187500	-0.281950874400163	-84.5615093665152	-56.5773094694991	57.4325635656653	-56.1097476647012	54.7751116455932	-0.578550177330368	-82.5915256150467	
33437000	-0.183498696424327	-84.2666184075225	-54.7952922003802	46.9408823048002	-54.8350089710502	48.629675395733	-0.394164115883347	-82.2642877846208	
