!Keysight Technologies N9923A: A.12.45
!Date: Tuesday, 05 August 2025 18:01:08
!Timezone: (UTC+08:00) Kuala Lumpur, Singapore
!Model: N9923A
!Serial: MY61181427
!GPS Latitude: 
!GPS Longitude: 
!GPS TimeStamp: 0001-01-01 00:00:00Z
!GPS Seconds Since Last Read: 0
!CHECKSUM:0584122966
!Correction: S11(ON U)S21(ON U)S12(ON U)S22(ON U)
!S2P File: Measurements:S11,S21,S12,S22:
# Hz S DB R 50
2000000	-0.0659876695622447	-4.81316417212019	-81.2945461673165	108.507127925854	-81.3924680177438	76.5142746597025	-0.0737880529319005	-4.81861256966732	
2249500	-0.242025805242827	-5.71605296096217	-66.5686473149911	39.7624437964237	-66.9830129888304	39.1884124439554	-0.251974072278749	-5.74674298121814	
2499000	-0.321509874381572	-7.15337627989526	-59.4027931540651	13.274323605379	-59.6825858887223	8.97903918452129	-0.334954748411965	-7.09563394904153	
2748500	-0.226301553562465	-8.49132457050208	-63.6012010391023	-76.5682864844482	-62.12262815029	-75.3177323464598	-0.238405319521045	-8.34715734713281	
2998000	-0.0449252023102912	-9.25457485157594	-68.8311773574161	171.412889088006	-67.136252075314	-177.793909158571	-0.0606840801338682	-8.90329873647302	
3247500	0.0679473772403263	-9.36202918103337	-75.6282166548473	-112.314966542604	-73.1828413320302	-111.553904735149	0.0644579809942308	-9.08469356366123	
3497000	0.036514418065004	-9.34740545662527	-69.063044793329	-118.424587814043	-70.1342019763038	-111.855448165469	0.0241184898057539	-9.11434851674865	
3746500	-0.138225818102289	-9.75722019966297	-64.2377559509673	-139.438148843116	-64.3861426890727	-135.698633664921	-0.145622317703284	-9.53142120329766	
3996000	-0.303041627167566	-10.8082986073708	-68.4376462420811	87.3793123759953	-68.624942935396	86.5148316690562	-0.297783021718327	-10.6062573537254	
4245500	-0.322399995052215	-12.2723345769378	-85.3498250285153	23.0153274060955	-84.4806318587292	119.791079823702	-0.314524047744584	-12.1526728794017	
4495000	-0.179203385101915	-13.5409090752789	-81.7981467377731	-66.283685952226	-77.7413714219153	-126.452521737947	-0.174926941760481	-13.3184354150886	
4744500	2.42952215394516E-07	-14.0481757602054	-71.1432791971759	-111.12724866166	-75.4228542596846	-110.268279696867	0.00208472418200754	-13.7954091808695	
4994000	0.0727902097403698	-14.0782433144066	-65.9542794942686	-117.555188086879	-65.8917634276301	-110.811341464467	0.0733269520723334	-13.7627840801931	
5243500	-0.0380947637093639	-14.297415815974	-58.1473611287129	-129.668503624804	-57.8117268599197	-130.766866803093	-0.0192880843307938	-13.8051312649626	
5493000	-0.34295235000645	-14.4058181637723	-50.5323074826689	152.071112252832	-50.4554545377994	150.082738905791	-0.21154834625742	-14.4049138942506	
5742500	-0.37074357574931	-15.4856595571374	-55.2518532911601	99.9539873509272	-55.3887621068159	98.7654452474599	-0.329313650260336	-15.7039136268396	
5992000	-0.309072650603801	-17.1953939070887	-58.1674900795895	78.0526978660495	-58.5179926491055	78.1357381766231	-0.290248735668669	-17.2451119739811	
6241500	-0.113111968994877	-18.315251845223	-58.6201285730677	68.6087816836519	-58.7875503050187	71.7834006112549	-0.13868223129278	-18.2210624582331	
6491000	0.0288354228719397	-18.7066347644567	-57.5915949682742	60.2521612744704	-57.7987291377943	61.1573125014533	0.0361653190210952	-18.5578738091352	
6740500	0.0360863388822797	-18.912396208209	-58.2952770615618	46.5175201585187	-58.9451342389216	48.9128186510809	0.0498019312386813	-18.5352413413122	
6990000	-0.217280673243057	-18.0924792647141	-48.563952691074	-4.87152648739332	-48.2488297291881	-3.98943693211719	-0.0949718959643431	-18.7374209778116	
7239500	-0.29733828383375	-19.0656341370209	-54.2601836108014	-50.2463261492507	-53.9610413067824	-49.7967685341346	-0.282789308344495	-19.7196186099823	
7489000	-0.368290092419085	-20.7519468613817	-60.7376268814647	-48.0692189876641	-60.5574565978849	-48.8092501919952	-0.351898847542404	-21.0087430883842	
7738500	-0.27969393879259	-22.2487729024059	-57.9377649940983	-50.5591996497385	-57.5085208332439	-50.8400268795226	-0.265890228426946	-22.5637866104376	
7988000	-0.079641630200663	-23.0146258805836	-56.5082825915271	-83.8982071667318	-56.9004060740689	-83.0631186920583	-0.0839520107557645	-23.4029543272884	
8237500	0.0612972960983888	-23.1190144640877	-58.0490353345684	-107.621110872084	-58.2473747654711	-107.889534024999	0.0431099739995475	-23.617697530913	
8487000	0.0300991027410532	-23.0550768979141	-58.4055613960715	-124.594930688675	-58.0888129695253	-120.695205362862	-0.0120955595136447	-23.8677439463108	
8736500	-0.144956187412761	-23.4378078449471	-55.715720169584	-141.15061758115	-55.4121014961386	-140.15064344808	-0.313193214452512	-25.3378465002902	
8986000	-0.323069243310816	-24.662821500092	-58.1448223762068	92.5874460371889	-58.7874429365662	89.2149393286202	-0.494499854251939	-21.5200972295475	
9235500	-0.361893219883888	-26.4787634991426	-76.9560016744796	65.2771153286439	-81.4506330272428	50.7812579654551	-0.346296930493412	-25.2123324780518	
9485000	-0.234119364713282	-28.0082827562516	-72.6357358953195	6.86684376577515	-77.6065014405952	8.48641949265332	-0.210937674414952	-27.1404508596717	
9734500	-0.0638780005928352	-28.6336227341403	-62.1065460629768	-37.3379642558408	-64.7234882976779	-37.3209525234808	-0.0296861473847394	-28.0150472094819	
9984000	0.0180538742428717	-28.688402549844	-57.0609859941998	-77.2892130410127	-58.8635450530118	-77.150577014564	0.0251150258881524	-28.2582503558471	
10233500	-0.0888240686462583	-29.0437488438267	-52.7575152086701	-113.187034520649	-53.7095639851376	-112.705896116924	-0.0954296515366524	-28.3134782852682	
10483000	-0.345860889976305	-30.3231394589257	-50.4799302346522	-137.200545422003	-51.3097252367002	-135.487920287628	-0.310887688656688	-29.1606202411533	
10732500	-0.663605124380502	-32.7478430072347	-46.2581332025711	-157.655959263829	-46.8653993337185	-156.365644663885	-0.50436754416675	-31.0842369119729	
10982000	-1.11236214949109	-34.9885479180531	-40.9247280800857	167.263290268812	-41.3126400544199	169.805836270718	-0.615252541918318	-33.426371935866	
11231500	-1.46918156438161	-29.949869164682	-35.7648905755149	107.3989696098	-35.923074456884	107.94768689678	-0.75771346717567	-34.8493355109983	
11481000	-0.444912387909615	-27.881712351244	-35.8072033784148	35.1616111974693	-35.9736425184074	34.5658778688643	-1.02357353879413	-32.5529460916353	
11730500	-0.129828982942651	-28.77661471279	-43.101488865872	-36.8998655483372	-43.3391011507811	-38.3375357416138	-0.439410825588316	-29.0961878693028	
11980000	-0.162884432934073	-29.5731323495764	-44.5047967027927	-41.2000086047047	-44.9093945244882	-42.0345988571751	-0.763799590725324	-28.0596865734315	
12229500	-0.321747856792657	-31.0665901755451	-48.5141643763463	-61.4987592260259	-49.0045168519414	-62.1783152986793	-0.609714943302475	-28.5571763530004	
12479000	-0.415419438903942	-33.2271289102613	-50.4219475111726	-77.3057634377994	-50.6411352306617	-77.1931938777691	-0.554478566383774	-30.5657912059145	
12728500	-0.330552671128184	-35.5306385486782	-52.1876224021149	-95.8440511694879	-52.3344561540834	-95.8415390390318	-0.406873665648951	-32.6254482004018	
12978000	-0.162726644456691	-37.3848923421975	-55.2929317565619	-115.566246204538	-55.7473596321846	-117.390774560467	-0.163095802663894	-33.9609875699702	
13227500	-0.331926512892815	-39.1018244312834	-58.6796255444068	-52.8521272449971	-58.6939887401574	-49.8417476824192	0.00643037514245884	-34.4422729476285	
13477000	-0.775900197619356	-33.8320503119265	-42.1297417494842	-80.5131971793021	-42.1511345460442	-79.1587645731316	-0.121424675809205	-34.585985301408	
13726500	-0.451454239048287	-33.2136296390418	-43.8299223564456	177.35472876211	-43.9072714982557	177.463985725026	-0.198293096048132	-34.4879656797958	
13976000	-0.492372386888271	-34.934391787962	-48.3899140557875	129.27064593385	-48.1932270508947	130.016169702918	-0.363917068843027	-35.6079878569637	
14225500	-0.526492744467003	-37.2575694829495	-52.3885281450727	101.165550347208	-52.544906051008	100.489276585439	-0.396297532503888	-37.2907498894425	
14475000	-0.323051769874807	-38.5364801152454	-54.8301002588055	65.4482473910219	-55.1466829614761	63.0442038207194	-0.259165964174843	-38.786578098579	
14724500	-0.120901793091912	-39.4387552712504	-63.1869332986348	22.5271545695542	-64.3063378646187	22.0039579147969	-0.0559197261084079	-39.4542610118845	
14974000	0.000281421776119841	-39.2788976474443	-65.3653984480491	110.77374739427	-65.3878004415261	112.847207641971	0.0620090402832693	-39.4992940580438	
15223500	-0.0561391437612734	-39.2732583745124	-60.9815248974302	87.635602736692	-60.8595872678451	90.5865076405666	-0.0118448271155394	-39.4343181124402	
15473000	-0.260783461062159	-39.9736212213615	-58.8355731860504	64.0619755135267	-59.102813470899	64.3090355256741	-0.201176304986539	-40.0611925768213	
15722500	-0.474549263329355	-41.768143988332	-56.0241423666375	38.5913712838888	-55.9425913357781	38.0724300595555	-0.351689528989335	-41.541416105541	
15972000	-0.606801039332261	-43.1309402817595	-52.5241374232324	-14.5093892031796	-52.5891229604616	-17.0483328178736	-0.348840445459844	-43.3892226614504	
16221500	-0.294505066193874	-43.4570320416483	-58.4643054197961	-89.7724584117241	-58.5876462090073	-89.5422699035244	-0.19392673368402	-44.8944167957457	
16471000	-0.0307496491193252	-44.131825791859	-60.2279545802102	-71.4679494035453	-60.1711797277994	-72.6149942261196	-0.0898558309753429	-44.3018525106587	
16720500	0.0440079464881289	-44.1081737797644	-67.2360628487038	-109.934813935521	-66.1095163395667	-115.600495621122	0.0502519762145866	-44.6244443114865	
16970000	-0.0757961306145271	-44.1253900400681	-69.7082213749114	-96.2953034825639	-69.6161912173284	-100.76153237963	-0.0755198309187894	-44.8502615714837	
17219500	-0.285727673333328	-44.9820317181016	-66.775153097692	-82.6056218767193	-65.9919435148176	-88.9276516864014	-0.282343467950613	-45.9052568544617	
17469000	-0.407398414773669	-46.6622439235553	-62.0598205127217	-98.0878089870555	-61.7362195091717	-101.275093551807	-0.413453613723058	-47.6932752902648	
17718500	-0.342085655865418	-48.4110247978126	-59.8697784742513	-125.719523238953	-59.992456543894	-128.212553432457	-0.36393189682601	-49.7188005843595	
17968000	-0.142786852998573	-49.5454234086358	-58.8817913862695	-155.418372140172	-58.6214306927325	-154.419703567017	-0.207746530536794	-51.2329268651151	
18217500	0.022536778172759	-49.7386736439742	-55.3143219488366	175.903215686662	-55.5919521806477	178.111664702319	-0.18171428053137	-52.1071451136283	
18467000	0.0116837021753164	-49.5247318382758	-62.4380302272599	125.657227650226	-62.2289736841198	126.679696262209	-0.136303621369685	-50.0182223083421	
18716500	-0.16275389532497	-49.8836974330846	-57.9266342651296	151.345550739992	-57.8344571004146	153.419347911033	-0.37943788033407	-52.1768611702645	
18966000	-0.37324942353	-51.1341070605384	-54.501721541233	133.429380602229	-54.3730262385181	135.621145915391	-0.860393462921185	-54.3691141221189	
19215500	-0.447480550648328	-53.1006107885189	-51.1938475871202	106.518306220461	-50.8654692009831	106.511718503166	-1.45429415866164	-55.9172101796684	
19465000	-0.347238677965113	-54.927008613176	-48.5508514654844	70.8907467250941	-48.2765263581371	69.6447607787995	-1.74493543387488	-53.6200478322925	
19714500	-0.157770072579389	-55.8781642245679	-47.5593208950906	33.7029976442806	-47.4630108779307	32.1297807124738	-1.26994145746103	-50.5717072556803	
19964000	-0.0731379392582637	-55.952315430595	-47.2387067039668	-4.94512988898868	-47.4669438589908	-6.87073433453854	-0.789283292974899	-49.2713524191816	
20213500	-0.195449786373976	-56.0224881317193	-51.9687780237573	-57.2631010318416	-52.2955315319173	-57.5165669953161	-0.593706700196228	-48.5229472058422	
20463000	-0.524512242785259	-57.2099031104133	-51.1324968709453	25.3159558737981	-50.9418882269054	24.9033132976094	-0.563378136163727	-49.0312383913874	
20712500	-1.0187895619031	-58.4625653295961	-42.6053288927474	-26.9861582313237	-42.4743935916754	-26.5082075573991	-0.650630788869356	-50.844877089837	
20962000	-1.05566179004878	-57.9693327754207	-41.3434256804201	-84.0535855898883	-41.2865376334712	-84.0818298272809	-0.622793408185951	-52.8654507917139	
21211500	-0.702365424339271	-59.5738838927761	-41.8625119815143	-115.216549700066	-41.8980443223514	-115.821779627792	-0.450729537896319	-54.5180267320479	
21461000	-0.507354253979971	-60.7942568181657	-41.4018315992514	-152.016526954068	-41.3390846702389	-152.190858906014	-0.20291656848794	-55.1050401296732	
21710500	-0.673932240536931	-61.0746303354475	-42.3155400296985	174.706002592561	-42.245203471597	174.574596622238	-0.0829397476292105	-55.1623354483671	
21960000	-1.03099146644045	-60.2847306904264	-42.4428348880617	149.252396874602	-42.4681494614327	149.521230490535	-0.159572651267063	-55.2322821291777	
22209500	-1.5798138281617	-58.9317748202394	-42.8221438182492	120.650969858529	-42.8010130761927	120.286130136344	-0.357585171330625	-56.035031538232	
22459000	-1.69582712057938	-57.4619828183243	-43.3101009440137	93.6830249426649	-43.4128512823257	93.261732258492	-0.477415474600979	-57.7283063959429	
22708500	-1.33907350095077	-57.7126120037037	-43.7122842032941	69.6564482506853	-43.8181677195848	69.1986789014498	-0.432075445981932	-59.5968822721701	
22958000	-0.845209123207461	-58.8146135832557	-43.0924463624224	47.4338831612224	-43.1406369787687	47.113818796838	-0.245486362309551	-60.9449763421826	
23207500	-0.502602908452094	-59.6619704034164	-40.8804805766045	17.88918824874	-40.9776957137163	17.535967546807	-0.0797661600546998	-61.3259892447969	
23457000	-0.531963172549115	-59.7376631433228	-37.9643915216135	-38.8171811850981	-38.1415567086358	-39.0083454728483	-0.114618499419529	-61.2215678488007	
23706500	-0.63537365593408	-59.6416457101028	-38.1344697316423	-124.903965218738	-38.3445613148936	-124.951407779647	-0.323195593512859	-60.9952532490124	
23956000	-1.2213128450465	-59.8180907939443	-48.677389001582	85.772727315916	-49.0367093482394	83.1471101197737	-0.486500580445759	-61.339197210314	
24205500	-0.927485065267862	-59.8745393234733	-61.4882008150507	64.2263598998796	-61.8700434096047	62.3189852402032	-0.504119258387773	-63.3705337095995	
24455000	-0.693078444717322	-62.330133700239	-60.6853262765005	-20.7613209472157	-60.4297280642422	-24.6329541389815	-0.394901251062446	-65.2862965786511	
24704500	-0.441440863079682	-63.6543359422537	-61.4010636918232	-53.2108558653423	-61.3136115679947	-53.8946762237097	-0.179355996684587	-66.2300077232136	
24954000	-0.27422736512651	-63.6763035603653	-61.5745296776382	-58.9032139100816	-60.862028328393	-66.3859747416324	-0.0587121272008591	-66.3037891698151	
25203500	-0.274320427856587	-63.4306951284598	-59.5017949351881	-77.3424608378814	-59.2090907974852	-86.0761263518523	-0.121659636618872	-66.2325316225145	
25453000	-0.43988676473132	-63.7109351661826	-57.8843692994879	-106.364528748594	-57.7368325220212	-110.301353005821	-0.321174275654109	-66.6056266600311	
25702500	-0.617093420090951	-65.1237663146244	-58.3624489001787	-124.591533126632	-57.6248352587158	-127.280899221896	-0.519747245717928	-68.1671652928351	
25952000	-0.63360313242921	-67.2482498795588	-57.8393619695572	-135.906266766347	-57.8292586777705	-144.69317947849	-0.57452791549979	-70.2416463066154	
26201500	-0.466839202187342	-68.9052093646828	-57.6739005125647	-158.848788523832	-58.2543184237609	-155.776646528567	-0.426710041307232	-72.0646786243473	
26451000	-0.223077399766929	-69.4427692439856	-57.3505288399505	-171.916844283057	-57.4147059329414	-175.857706207333	-0.24282751429088	-73.086376706316	
26700500	-0.114284453248008	-69.2313804963737	-56.9417165975972	167.361284188362	-56.6217169790317	168.00469422331	-0.20361318918263	-73.2287401392021	
26950000	-0.211749279761136	-68.993063451977	-57.1465267532033	157.689919572375	-56.1424066051741	155.337142321533	-0.392857008416622	-73.7409209333059	
27199500	-0.442223760095214	-69.6995506722466	-54.7066486898432	150.566500750961	-54.3513367435138	147.299669008	-0.714231314996955	-74.3935269438401	
27449000	-0.615057391056213	-71.4160978803065	-52.6123365777761	126.923862906944	-52.3150205116878	125.943379649002	-1.04571878784281	-77.2724860066638	
27698500	-0.620678968278804	-73.4987040963851	-50.4918225349621	100.956986119855	-50.4483853234366	99.3311868418672	-1.3585982666506	-80.1617737954608	
27948000	-0.440649801238568	-74.9255275246311	-48.9674378983921	65.4198911899755	-48.4954219640872	65.7884538567243	-1.76025358552214	-81.3664603923784	
28197500	-0.245626545278802	-75.1702071923017	-48.433731447861	25.0368160381459	-48.0360004606896	24.7514154922729	-2.25781022774446	-77.2410315700293	
28447000	-0.224391559841308	-74.9599827679	-50.4281982458692	-13.4946488486232	-50.1889358898186	-15.051481767908	-2.08585057708871	-69.1084169187274	
28696500	-0.403292848071836	-75.2357394690177	-53.7126216000235	-41.4002788929119	-53.1127598875959	-44.43446170572	-1.38913138755457	-65.7481210685318	
28946000	-0.664955384542952	-76.5956924682748	-55.8107446393293	-60.9224444108557	-55.4592984167748	-64.1331391654857	-1.02563292128965	-67.3746435598856	
29195500	-0.845422021664283	-79.030155635516	-57.8734056128776	-65.4378499991176	-56.7671682052728	-68.2004330214204	-0.849648085770441	-70.9643406899183	
29445000	-0.870338738568039	-81.7039468234798	-56.1906999351625	-73.298471056703	-56.2713966069937	-73.6951565853819	-0.614468502077874	-75.0439239676857	
29694500	-0.850397151166474	-83.3219216221978	-54.4655867651806	-81.6715501199843	-54.0534814626988	-83.678377064822	-0.563656333318594	-79.0122939803297	
29944000	-1.13716258736128	-83.0704686875154	-47.8223143115345	-120.399214040291	-47.6096930438605	-122.65731861749	-1.10033149694786	-80.5973207814216	
30193500	-1.76161779715027	-78.9648096020406	-45.2619741142427	157.922535874971	-45.0209046178092	157.856539862538	-1.50507140205267	-72.7024822938313	
30443000	-1.71824330659471	-72.635092059154	-47.3720360907126	85.7128028944163	-47.2364965652602	85.348101195433	-1.00381931222654	-70.7715713522134	
30692500	-1.27651017096851	-72.6687416205443	-49.9004840038627	25.4616999625248	-50.0479644715576	26.10018692687	-0.898126318110404	-72.7157093915194	
30942000	-1.11882729724326	-75.8341658201581	-51.2178606396967	-17.9901751456244	-51.4821670850605	-15.1131606914194	-0.87710277986826	-75.1008616615277	
31191500	-0.832572174826513	-78.0283426061168	-50.4381902444795	-63.8110735095813	-50.76037074841	-61.6525322240808	-0.641218790681446	-77.3499682777528	
31441000	-0.481759887704329	-79.4384235244812	-51.4319530813772	-104.411093792473	-51.5139634093977	-104.519540760094	-0.35412103470192	-78.4685705825415	
31690500	-0.292017088530965	-79.7084494460763	-52.0811356889585	-136.855590977147	-52.3404273736934	-138.049324516307	-0.164956052419573	-78.6121391443218	
31940000	-0.33271398327042	-79.8084822074586	-52.6113144434733	-160.940752655307	-52.5786036256232	-161.550478746864	-0.195305975532666	-78.73391872903	
32189500	-0.562239837009307	-80.5100575023331	-51.2883714843276	-177.489812825172	-51.8793943661239	-177.204561729198	-0.496154347938259	-79.8548985314546	
32439000	-0.791143545827028	-82.195852646032	-49.4776350434078	146.214744521162	-49.6617932950929	145.899385670694	-0.608274482824224	-80.3663146357693	
32688500	-0.814699148319387	-83.9518021127529	-49.4663404318871	106.17127529705	-49.5152788894123	105.513881550464	-0.581157591040018	-82.5810366455581	
32938000	-0.555621990568307	-85.0700673886795	-50.7819149822879	58.856359512296	-50.7719491972976	57.4297717125982	-0.389329044654148	-84.4165331398108	
33187500	-0.264423896271147	-85.9595637497548	-55.1585657517665	20.2968088245391	-55.4692404082586	18.3431742219933	-0.156917600789008	-85.0118706369665	
33437000	-0.212736032019478	-86.276991388772	-61.6446556000569	-5.92455765875855	-62.6041096921643	-13.5473699392654	-0.074528121858749	-84.8801657939699	
