!Keysight Technologies N9923A: A.12.45
!Date: Tuesday, 05 August 2025 18:22:42
!Timezone: (UTC+08:00) Kuala Lumpur, Singapore
!Model: N9923A
!Serial: MY61181427
!GPS Latitude: 
!GPS Longitude: 
!GPS TimeStamp: 0001-01-01 00:00:00Z
!GPS Seconds Since Last Read: 0
!CHECKSUM:1790990942
!Correction: S11(ON U)S21(ON U)S12(ON U)S22(ON U)
!S2P File: Measurements:S11,S21,S12,S22:
# Hz S DB R 50
2000000	-0.0778068594123713	-4.8881483366929	-71.7563727116887	-93.6537631124514	-72.3920066655126	-94.8742614279941	-0.090138878002721	-4.86130926116206	
2249500	-0.294494099754658	-5.8113125242493	-70.6450022486926	-114.434225391682	-71.9450845037081	-92.4747167686325	-0.299120493288731	-5.75124315692362	
2499000	-0.386826616226727	-7.40597142241623	-63.2540242635677	-111.959541000988	-63.3726708212108	-106.274100987549	-0.386530401041583	-7.29085247898895	
2748500	-0.269124714441201	-8.81156037591882	-53.7755837759693	98.6879735584807	-53.6046444766436	99.6534490980388	-0.287583821461185	-8.51936106596252	
2998000	-0.0425433328429798	-9.60195533657299	-66.7204998161915	68.1186493572235	-66.5273048679117	73.688410006641	-0.0452882682015021	-9.35724704102654	
3247500	0.10685746360662	-9.5243188767818	-69.1133659624897	74.7950569558017	-70.9621670638615	84.7053717602103	0.0911425310937215	-9.30944064232479	
3497000	0.0647318408197163	-9.308615801185	-71.0725205246462	64.7419351453032	-68.0623428305355	60.5907625952916	0.0431136209162739	-9.1474024988698	
3746500	-0.146071285623899	-9.60964284834615	-66.4314783595655	48.5597719508304	-67.3620556862092	50.9127550502619	-0.166488350751047	-9.49451291668715	
3996000	-0.357036398173779	-10.8455480419915	-68.2637385773294	37.7405861248249	-70.0988571669709	22.7702200213098	-0.356178505746422	-10.5710055251506	
4245500	-0.406137109914453	-12.5751804195039	-63.3920899324264	17.4210315414609	-63.0283423927834	22.8248912450299	-0.392738028864619	-12.4923247044368	
4495000	-0.247993299830708	-14.0743754784737	-53.1885480997409	-26.1904922204667	-52.767713031108	-27.4395992430846	-0.276442273418102	-13.9824538974702	
4744500	-0.145539941234012	-14.537553643895	-44.5261538351869	-130.439843709714	-44.5379997022024	-131.203748108794	-0.200581043503528	-13.7842004403377	
4994000	-0.023669626402627	-12.9419768481723	-50.3811947148663	97.8794794203192	-50.2716509743738	96.1137673067817	0.0168295957740973	-12.6404604368637	
5243500	-0.0362927904311794	-12.8654607895335	-59.4059789222216	32.5154127090769	-59.6605294939373	31.0727300080034	-0.0321910209581939	-12.6832787756024	
5493000	-0.244868795811846	-13.5964637903834	-65.3558976852651	-17.640450411945	-66.0520995215002	-12.356057472247	-0.24759144542654	-13.4063464105526	
5742500	-0.400782092813684	-15.1871620599992	-69.9754670021984	-34.7508669096348	-68.852271978771	-43.8720539881189	-0.39282130173665	-14.962521998225	
5992000	-0.347838908655526	-17.0006002112099	-69.9533159683426	-59.2152947185742	-70.5791915226084	-73.921946791919	-0.344975626557922	-16.7908541347811	
6241500	-0.116916105803379	-18.188872839094	-70.5474377628157	-104.576376534295	-70.0054632869123	-105.4040178275	-0.143231386314302	-17.955730800911	
6491000	0.0722945652429241	-18.4180612053149	-68.2336498490826	-168.205395683106	-67.7553180369584	-166.603719839248	0.0537728123184665	-18.2262059928979	
6740500	0.100472198867798	-18.226157997481	-70.6453708333589	133.855579876984	-70.4567444283957	131.767205408062	0.0810258520726599	-17.9878664499999	
6990000	-0.0707969100659368	-18.381791715512	-73.7679397694946	131.425355969429	-76.2547649329894	113.524031492392	-0.084934562741619	-18.1118922156514	
7239500	-0.31637191691133	-19.4961080262095	-76.4656514281099	112.592113528612	-75.7714071026214	113.069301682733	-0.310262299637448	-19.1347996292512	
7489000	-0.441531194617561	-21.5476737896867	-68.7147732558644	113.572541276248	-67.4591973553736	121.214994421106	-0.415716771051013	-20.9781353670979	
7738500	-0.529130248247763	-23.7018929006249	-54.4685447126542	64.8521365909154	-54.638414920286	63.8078681052286	-0.311557384658267	-22.702330266359	
7988000	-0.115336926404104	-22.6086100702094	-59.5842010543407	-63.3290841149986	-59.673580025968	-65.1224672915876	-0.0949222335747821	-23.6561651207015	
8237500	0.0918337222849438	-23.149654162468	-67.7858392929373	-99.5553559217796	-67.5984757533523	-98.76512929283	-0.00663962360622461	-23.9113539176384	
8487000	0.0474108957824601	-23.1820781206498	-76.6325677324505	144.829596539656	-75.8338657351187	149.056980830469	-0.0097656503269045	-23.5700202632439	
8736500	-0.190869636628849	-23.7770385757613	-61.8555426411414	51.1119783755557	-62.1958749023841	53.4429883844917	-0.351839902046177	-24.3969300691809	
8986000	-0.472474808467688	-25.5573822694619	-50.8053328808406	-10.6532613091938	-50.5510218221328	-11.0514047193407	-0.890493672790769	-24.8124657966958	
9235500	-0.710051164835206	-28.0057951747941	-44.7151843505111	-91.159043605744	-44.7092369114334	-91.8769409342439	-0.791883759146787	-23.8949413792893	
9485000	-0.8414519359053	-27.5766021206976	-43.0064711347099	-175.476689156187	-42.9210689614984	-175.846476126206	-0.399902648440421	-25.5020724121992	
9734500	-0.32846087717948	-26.1051062701648	-45.4399191554255	113.451059949115	-45.3966402648954	113.061830556141	-0.0808164712393224	-26.3400273720446	
9984000	-0.0686147303551529	-26.1060093724186	-47.5810041013769	58.9761264624564	-47.4468402087261	58.0048623334004	0.0580709221364214	-26.34466686987	
10233500	-0.131881719199462	-25.8018022631215	-51.1276104262749	-7.26030253150236	-50.9906168779013	-7.21220399202744	-0.0281288323500139	-26.2131890183535	
10483000	-0.304957041278515	-26.404711742722	-57.6881353842646	-53.8225226624696	-57.4774932141218	-55.4791218746489	-0.252049417582922	-26.8100299496499	
10732500	-0.453604133031954	-28.161515557633	-62.2932733785668	-80.5365231650826	-62.1005164644415	-78.7938285710033	-0.42031685014237	-28.4945183979266	
10982000	-0.404933090233529	-30.2872602382405	-65.8839709767304	-105.186642134497	-66.2453849852115	-102.146913980161	-0.39669103528538	-30.5463344235111	
11231500	-0.183105566621702	-31.6674154473761	-68.5929307636045	-128.689121039958	-67.9540727876808	-133.920606490203	-0.198164987421764	-31.9985281385257	
11481000	0.0440745174976903	-31.94408731939	-69.9769568851547	-153.863903363753	-68.5325255050281	-149.357173701651	0.0105752564274166	-32.3339683363939	
11730500	0.0894966797866433	-31.6728111310431	-67.0582935891933	173.377361592579	-66.7377907894429	-177.322325711754	0.0331241664759219	-32.2409460182982	
11980000	-0.0815896558756038	-31.6600311699296	-65.9694322398001	145.405985935832	-65.2020155827225	147.590605466086	-0.18050316884104	-32.5875775359556	
12229500	-0.340394806026844	-32.7391816660076	-63.7851048152267	127.23601082485	-63.8487632317628	128.767793924963	-0.588742401938435	-33.9058648141187	
12479000	-0.48442045824477	-34.783693689032	-57.8794401603952	83.9361069525163	-57.6747246650545	83.4863025576273	-1.02100384232842	-34.3600306975796	
12728500	-0.400882723144984	-36.9857503090913	-55.0606409630486	23.6916962008161	-54.971267078643	22.4415522393402	-0.739358042209636	-33.8113536438824	
12978000	-0.211443875729517	-38.3121696422306	-54.5058274543547	-24.8149250154888	-54.3638355269787	-23.0994513559557	-0.302671269479594	-35.2164739140471	
13227500	-0.167971434554287	-38.4376959434534	-52.4237402417253	-68.4233338807451	-52.158068270762	-68.0543459620422	-0.0391619797719689	-35.0568024727428	
13477000	-0.372407820428301	-37.5043451061626	-51.250286807814	-131.252796256162	-51.1740959535002	-130.508103159939	-0.008552664818804	-35.135365551751	
13726500	-0.691975682114284	-36.9501805870471	-52.5389623996343	161.641377612792	-52.476617594297	163.814664326331	-0.200830389250242	-35.6051109186728	
13976000	-1.08249654817844	-36.9541203610824	-55.4589818607244	85.7292274600502	-55.805549237296	86.3542702366562	-0.434192316032451	-37.1275753001985	
14225500	-1.0336866926032	-36.8128073208602	-58.747405908558	-21.4822688126649	-59.4720621383152	-19.7028844638619	-0.511504880061359	-39.3679663559013	
14475000	-0.59395494056713	-38.2040887905699	-57.5206946311297	-132.692240541696	-58.1512589365238	-133.171614135499	-0.395729493255673	-41.3578537575046	
14724500	-0.220282519089094	-39.2205913959415	-54.0303821237746	136.730066034079	-54.3687465440691	134.556567190531	-0.258994808161248	-42.3421938679603	
14974000	-0.0415661121275728	-39.0832211651971	-55.0421900894011	46.0330406678354	-55.6925010096814	45.2240414202031	-0.365898826723791	-41.9994506675443	
15223500	-0.089686453608864	-38.8920795839142	-61.2662914895607	-26.5277870550738	-61.9577795578386	-25.1452192786056	-0.66349291545465	-39.2896371877802	
15473000	-0.310630238576671	-39.5194682434115	-69.3976587438066	-81.8906690204349	-69.6469483132888	-76.383289651073	-0.64471400405859	-37.8970869045555	
15722500	-0.504748924555076	-41.4089978876252	-74.4288626519434	-75.0826731967442	-75.4265537630681	-74.4453844248488	-0.632210980154315	-39.646701076285	
15972000	-0.486247918516172	-43.7167868725942	-79.3036684403963	-85.829175194608	-80.3780396648672	-39.9438521390382	-0.542800423226235	-42.1189468510664	
16221500	-0.265853740236334	-45.3395209837572	-76.5429912120683	-48.0282135574961	-76.6686531963168	-49.5872618772089	-0.303923329387621	-43.8918690341981	
16471000	-0.038717377608141	-45.804138084909	-76.0689100094377	-47.5398253582779	-73.0976136961979	-55.9604307958621	-0.0637461557806101	-44.4171876923997	
16720500	0.00144775969907498	-45.5715920832228	-66.0566211665266	-75.8082153219576	-65.371393405634	-71.7026051687686	0.00790871734997717	-44.2659285345906	
16970000	-0.202010371365777	-45.4740475846557	-59.0291014534339	-106.757867500207	-57.9798024235715	-106.275501901317	-0.152351931820879	-44.3634938518878	
17219500	-0.518939001146997	-46.3877339542259	-52.8852586691217	-145.386750278561	-52.4997189430812	-147.421569495775	-0.431803169358819	-45.6643434781611	
17469000	-0.721157785124393	-48.4241379642312	-48.1430061554041	165.353247233359	-48.0172222132449	165.128309186878	-0.679872405353633	-48.0803853867471	
17718500	-0.716947631304188	-50.633390169494	-43.683562849713	107.975111796302	-43.6230208240953	107.105503313863	-0.864807161463741	-50.2357656064481	
17968000	-0.622140621330554	-51.8406988452668	-42.5954064430887	27.9382185588025	-42.5905762012389	27.6444539778312	-0.748121035328439	-48.4860983170565	
18217500	-0.635481986706972	-50.7684188300008	-58.8794377467897	-15.7492778292271	-58.8620325303328	-16.8149515467636	-0.144445234825637	-48.8761282401795	
18467000	-0.702177441826392	-48.1943424924479	-40.455873245636	-5.96897457871743	-40.464261609738	-6.74371107936124	-0.632565835898687	-48.7457760555235	
18716500	-0.770771248485687	-46.6087448138967	-42.8470391263148	-87.0887893236999	-42.8052823248279	-87.3273182036653	-0.549919103928893	-46.185220588369	
18966000	-0.848453457932208	-47.3400256610808	-46.7573986152995	-126.664538274294	-46.7258790314006	-127.640486250059	-0.620428283327002	-47.6307660869632	
19215500	-0.815551597220288	-49.5499776437596	-49.8850183521822	-153.034224457148	-49.7450706860679	-152.093997033226	-0.64474516488071	-50.0775509637322	
19465000	-0.595111870743697	-51.6884961884194	-51.7123241065914	-170.265558803465	-51.668704075849	-169.941400062567	-0.485545650942934	-52.3998180467821	
19714500	-0.278301602994233	-52.702818754964	-52.3640059979731	175.831670079091	-52.189816922822	174.615050801994	-0.225174193569845	-53.6439174139615	
19964000	-0.0911233746763196	-52.567142645022	-51.4682076937074	160.688687947656	-51.6100292198567	159.199216609959	-0.104949602834755	-53.7590415609177	
20213500	-0.168338736625355	-52.2157308840006	-49.5879615906806	137.591705768178	-49.5642940010456	136.726557471269	-0.221270487278581	-53.4740288111536	
20463000	-0.424035935002293	-52.611850724074	-47.8598792426304	106.170087574853	-48.1059331561904	105.450828136819	-0.54473018337483	-53.925204790982	
20712500	-0.642984368551333	-54.2022606665908	-47.1026126645115	66.5555506966406	-47.1582779986393	66.068092307095	-0.946708366763664	-55.251550227758	
20962000	-0.654499854976674	-56.5912925275395	-47.6384813018101	21.6416218914583	-47.8657061787637	21.8202420327264	-1.10883854242891	-55.1579018048251	
21211500	-0.456357061861578	-58.5101373095164	-51.4658728986348	-9.39400359629939	-51.3253700640797	-10.0970804704066	-0.616589031832857	-55.4848341535379	
21461000	-0.22890762483434	-59.1004035073336	-53.860673003304	-16.1281395728211	-53.4604109881429	-16.2510717382639	-0.189741485069736	-56.7051807725159	
21710500	-0.206002861108581	-58.7962382066387	-52.650425489224	-24.6581848939896	-52.3735309790497	-25.0108813525272	-0.0827157138945108	-57.2473392262068	
21960000	-0.464084910657451	-58.562726546577	-50.2281769260109	-46.2934801366811	-49.9099434769688	-46.999172893051	-0.295213904805861	-57.6086116772264	
22209500	-0.882988287256063	-58.9560971224528	-47.7741337380206	-76.2569962659479	-47.6867412404697	-78.3815371810037	-0.713192676822351	-58.5094577737935	
22459000	-1.19436076657815	-59.9889160573082	-45.9893246099825	-116.001269043297	-46.0976912073029	-117.19852491001	-1.06739929526275	-59.8357714531367	
22708500	-1.14900557525598	-60.914757526874	-45.9418768749872	-158.779739791834	-45.8561102515537	-159.783702194903	-1.11796438189574	-60.4877250759441	
22958000	-0.803713133589426	-61.2116333215288	-46.4113036384906	163.50233932267	-46.421861203209	162.618430138295	-0.810447434725657	-60.3935704545049	
23207500	-0.47160748954903	-60.7484988803608	-46.9145738530814	124.09328559508	-46.9665674609077	124.353037119	-0.444001014352989	-59.7141322997843	
23457000	-0.390087340854407	-59.8620087416311	-47.8253980481105	86.7419907740561	-47.9842182115421	86.1094884924977	-0.28872935711166	-59.0863905620256	
23706500	-0.533081841262521	-59.3368539727784	-50.1665577607338	45.6740151811779	-50.2300316191126	44.9486251651002	-0.391258352718033	-59.2005877924733	
23956000	-0.728768492419826	-60.348921101106	-54.6912461310435	12.0503442802771	-54.8879700525473	13.7101458087194	-0.615194128364533	-60.4709931017499	
24205500	-0.814835470195441	-62.7027409917893	-61.2503782142046	11.682303182889	-61.5229240332611	10.9780658413147	-0.706767837660379	-62.8215405336538	
24455000	-0.680728612678651	-64.8734149860749	-58.2722287064554	47.2702925175454	-57.2628092331035	49.0826484776626	-0.572456354218133	-65.0411617699653	
24704500	-0.403961496585994	-65.8268013362001	-52.6942557787234	24.781698744597	-52.0053405019717	23.4463041903486	-0.305696384758026	-66.1217830062517	
24954000	-0.212486917541122	-65.709180313801	-49.8007614598514	-9.6133955410257	-49.7514524629149	-10.7286641002444	-0.170808452646423	-66.2030697113161	
25203500	-0.288470516885044	-65.6092247057426	-48.090070635084	-41.9836905160631	-47.9799226261196	-42.0937612543223	-0.311676238905051	-66.1068305709987	
25453000	-0.728449528514489	-66.0036139970445	-44.5885848444817	-82.7535163030747	-44.3168151912546	-83.0606004684466	-0.73727544036953	-66.290340504737	
25702500	-0.888387821812825	-64.7487358658842	-48.5720651034577	-171.795692301685	-48.4742227642713	-171.628434482208	-1.11725777472793	-65.2401269792452	
25952000	-0.769905326591733	-68.4568137075945	-54.2157536509876	-150.755299535999	-54.611120839574	-154.246360310498	-0.830858577362075	-67.8075294781672	
26201500	-0.621917589024182	-70.9340032972343	-52.8451181737208	-158.332898242341	-52.9179468393959	-159.740700765311	-0.676703648130339	-70.6556612461686	
26451000	-0.433153783076014	-71.5946459183914	-51.1137242930517	-177.767944937867	-50.8255867370069	-179.480979378722	-0.552328445251439	-71.5387548048339	
26700500	-0.440892816430988	-70.843208856218	-49.2104998838624	156.391545811616	-49.1442735600659	154.139644246366	-0.598091589115264	-70.4384077245227	
26950000	-0.680235176583292	-69.4518161390671	-47.8341521731387	124.539741746606	-47.952711771732	124.694000963875	-0.801634980307624	-68.6242314112154	
27199500	-0.990140003429478	-68.874299244783	-47.4300424361106	92.0265618754145	-47.4339871786756	91.3864873956004	-1.03618427546491	-67.5432645815493	
27449000	-1.14970768113647	-69.8369963473826	-47.4725226283029	56.7753794367211	-47.4916416972904	56.9249900472634	-1.1137389522722	-68.4843020874393	
27698500	-1.06231607167696	-71.615623544668	-47.5612958899819	24.1376148392361	-47.7809671462307	24.1004946580431	-0.968193979868576	-70.4624526135336	
27948000	-0.739538136633449	-72.7414745133833	-48.5574060389983	-9.74658476933988	-48.5990161896854	-8.64890107752598	-0.640753728863613	-72.1327390663989	
28197500	-0.393807458754226	-72.5247825870903	-50.1900203353364	-38.543082882671	-50.278273341204	-39.8132936554738	-0.318870955021568	-72.4799840237772	
28447000	-0.264376175116551	-71.8310476215361	-52.444007826757	-66.1415048515917	-52.3674030220677	-66.6749669360326	-0.208434808950983	-72.2259677703317	
28696500	-0.393782421460585	-71.6976271488091	-54.3801241036722	-88.034098913316	-53.9856717595687	-87.0332278197496	-0.346956870579354	-72.2147307675972	
28946000	-0.638227433447176	-72.8282452705669	-55.7349673979037	-105.477102967816	-55.4710525591198	-104.23508117064	-0.619656756654837	-73.4037130868703	
29195500	-0.768635851158974	-75.1983595133192	-56.291217892666	-120.730647242898	-56.8221058737285	-121.746689917128	-0.773374104398184	-75.7818887239368	
29445000	-0.656280338797063	-77.754412292769	-57.7975304567279	-136.697262188542	-56.8705170792137	-133.279260766243	-0.69109598734802	-78.2705394790658	
29694500	-0.365942140374346	-79.0511058308194	-57.633719819379	-153.690221266634	-57.6396960987867	-151.350587356492	-0.509902931056943	-79.7451124072716	
29944000	-0.190387246536343	-79.0008569370096	-58.0711744516295	-172.730546032148	-57.2908741787628	-174.486738826908	-0.418544491124189	-79.8075355967988	
30193500	-0.286604820653386	-78.550403239191	-57.9398208162454	164.75192178024	-57.4986493415431	166.361343493759	-0.623663995545734	-79.074603388864	
30443000	-0.630097137477348	-78.6953225213954	-59.5942119772905	151.821244232935	-59.6029656313005	147.051820766449	-1.05877125546883	-77.9956733209395	
30692500	-1.06838537655625	-79.9211745449979	-58.2422514817879	165.060203865343	-58.0786837690272	167.538235010311	-1.36537332798381	-77.5045620894109	
30942000	-1.36440910995464	-81.4051011643859	-52.6514196315005	136.722474708607	-52.7429530046995	136.010127899356	-1.34044555950358	-78.429480948211	
31191500	-1.2309465667582	-81.7482363293508	-50.7020644798852	86.9951191884927	-50.7666362386091	85.9073431975534	-1.0096146912959	-79.9338879761868	
31441000	-0.78785692549085	-81.1004455756757	-51.5278060095236	43.7536980155031	-51.6419393522394	42.4558919889412	-0.590462602093875	-80.4818978753459	
31690500	-0.445108432090459	-80.1711766948076	-53.3878089126237	12.9751596566549	-53.2846156284594	13.8899291946398	-0.337950287282551	-80.2142847382722	
31940000	-0.40191152604072	-79.7519680482452	-54.8702190701598	-6.69653200427293	-55.038000272215	-11.788660697559	-0.37838992366479	-79.8795989017153	
32189500	-0.618178819568751	-80.4326800882501	-55.1759306228417	-32.3903665234141	-55.4397366067716	-33.1823276587832	-0.631049688399339	-80.4677574050388	
32439000	-0.854209902918267	-82.5908446083232	-55.0603527760504	-51.9198767196315	-55.1930985944467	-52.108421980135	-0.858459212396837	-82.356102912907	
32688500	-0.881850252050585	-85.27169019985	-54.4620091988897	-75.0469265355187	-54.4054718862131	-75.7638727819636	-0.893467313428481	-84.759527419973	
32938000	-0.711241479485399	-86.8980840437905	-53.517181211099	-100.418891692422	-53.666943046723	-101.374201359552	-0.695447650758169	-86.6950387375705	
33187500	-0.485841425994898	-86.8027606994268	-52.7621430607816	-129.807592533366	-52.5797622608534	-132.410994254238	-0.467413027630539	-87.0716899746778	
33437000	-0.400570677909095	-85.7230373910984	-52.0135289439705	-161.627310148613	-52.2052539209693	-163.155128001406	-0.447030255354246	-86.4667699863121	
