!Keysight Technologies N9923A: A.12.45
!Date: Tuesday, 05 August 2025 18:12:02
!Timezone: (UTC+08:00) Kuala Lumpur, Singapore
!Model: N9923A
!Serial: MY61181427
!GPS Latitude: 
!GPS Longitude: 
!GPS TimeStamp: 0001-01-01 00:00:00Z
!GPS Seconds Since Last Read: 0
!CHECKSUM:1430332135
!Correction: S11(ON U)S21(ON U)S12(ON U)S22(ON U)
!S2P File: Measurements:S11,S21,S12,S22:
# Hz S DB R 50
2000000	-0.0733293317289478	-4.87849016208105	-85.8085181483517	-130.433207599988	-82.6851093343091	-102.488141689645	-0.0851086557312684	-4.86756905110708	
2249500	-0.272083612739094	-5.80792896873938	-84.1432165861354	113.197137444753	-85.7887283494596	71.0580727572508	-0.278462560618893	-5.79711815014899	
2499000	-0.358528721589221	-7.35125517344963	-65.3061824539545	-14.6060047033244	-65.1595567996785	-24.2276311716157	-0.381366873621336	-7.18259311052202	
2748500	-0.25282716919773	-8.81225184929325	-72.741123333245	-85.37531836763	-71.3845378862672	-77.0056839772747	-0.261512566327923	-8.61651730571397	
2998000	-0.0459536713807697	-9.57692357626716	-76.3664142263654	-80.2480204428478	-78.0216128585908	-105.518430018225	-0.0530331122222231	-9.37175089944765	
3247500	0.0833418168128557	-9.60536025561091	-79.0467570080241	-136.995116049377	-91.7372527127276	-179.333512943355	0.0758503389224853	-9.33932251920064	
3497000	0.0457005768868793	-9.48278587735533	-73.3506085599178	-119.024247306305	-74.0241688990409	-126.15837975646	0.0296932510000934	-9.27721720853022	
3746500	-0.149462867712773	-9.84315422265658	-70.1677345842853	-129.853763318948	-69.829313500959	-123.491382587002	-0.159155918312348	-9.65143429994227	
3996000	-0.348276624999357	-10.9317653750313	-69.0483357919455	142.459733810583	-68.6695326902666	150.763649741133	-0.33589484682866	-10.806868390861	
4245500	-0.357681366137608	-12.5749148508482	-91.6744888546451	-22.5499697136775	-89.6118375902589	-53.4156914883224	-0.351201502139979	-12.4610121227677	
4495000	-0.196964359991317	-13.9377867663712	-72.9049010317132	-94.4004075953559	-74.2567950345151	-69.7094353326548	-0.193402666685125	-13.7082054199669	
4744500	0.00170189168342466	-14.4683810469672	-63.6980847126593	-104.249412267983	-64.2965838490136	-110.85432632	0.00553762026790297	-14.1801994644161	
4994000	0.0659052474752389	-14.5445069301302	-54.4378804833853	-123.932094021792	-54.2698372428802	-123.779279152637	0.0810614446715454	-14.1209339560491	
5243500	-0.2089996348151	-14.4779400595147	-41.8252878245546	177.283170473564	-41.8180743211647	177.373422492965	-0.0604254980287912	-14.2039327669064	
5493000	-0.296255477050263	-13.950923842868	-40.5839790310837	78.0707673822408	-40.5588414120704	77.8532355476348	-0.308874145414889	-14.8713853861651	
5742500	-0.421259822013177	-15.4161374436801	-42.2642298256992	-50.413922937513	-42.1395262243203	-50.1303518358524	-0.497707089576756	-14.4943178435963	
5992000	-0.345001921898644	-17.4070481298964	-71.8650552169884	-76.7202946852609	-72.6652045316692	-72.5880422940317	-0.321344039399431	-16.9992275550487	
6241500	-0.166118016820938	-18.8302306015349	-54.1837037440742	48.1366252730544	-53.9587272053167	48.4870587793851	-0.140021160702019	-18.3445278322617	
6491000	-0.114919717505241	-19.3394715734103	-44.2627700786278	11.6390086451775	-44.2948197870712	10.9671812133896	0.0212571955564592	-18.8902905930534	
6740500	-0.138273739962505	-17.8168004137135	-39.6134478872788	-79.7990794858066	-39.599115797622	-79.8013824962219	-0.0199262337624637	-18.9138366774801	
6990000	-0.180774584606354	-16.9488505896691	-61.8311639442608	165.840298757865	-61.7175800631845	163.706560145377	-0.274010526743809	-18.8555915059814	
7239500	-0.317132341101505	-18.3699405706045	-48.332147573535	-113.027666696656	-48.110765072056	-113.779268914984	-0.647488410497826	-19.0224699210415	
7489000	-0.408042338214475	-20.2300381128901	-47.4620675440501	-157.141657442715	-47.2772835005022	-157.224911301449	-0.632545872499076	-19.2581227299712	
7738500	-0.313423123555906	-21.8339484692634	-49.0637903712413	169.155626001676	-49.0267417325112	168.338496319739	-0.413012111453406	-21.0563583255013	
7988000	-0.086590793331799	-22.5891824399148	-49.3403508006914	126.397396078394	-49.2337096659775	125.851736821552	-0.153402889521003	-21.5226617595754	
8237500	0.0782927427213717	-22.6110109085894	-52.0577786628163	105.022523744209	-52.1334955889073	104.399198131227	0.0398475552829711	-21.6546232853181	
8487000	0.0480141080811982	-22.4393783913841	-53.911333626285	90.0688897874348	-53.9345020571647	90.3679399100855	0.0236513809077589	-21.554175154539	
8736500	-0.147016686333667	-22.7715452202871	-54.7479393009884	81.1136811995053	-54.6348811257781	81.0678639974787	-0.155090809825382	-21.9181880115295	
8986000	-0.350849122212272	-24.0739179618381	-54.075785278469	69.8870397230331	-54.2677613127517	70.7977231325265	-0.348882277746177	-23.1980818288756	
9235500	-0.400428229457222	-26.0391916807052	-52.3562476174639	60.9311995892349	-52.4976811144838	59.7966586312515	-0.382791121443893	-24.9769609441629	
9485000	-0.275100742223561	-27.7153713757954	-49.0041021376995	44.9709525186191	-48.932989650047	44.2908546680105	-0.233140196780698	-26.5263639230319	
9734500	-0.15350061998823	-28.1678421243749	-44.6537526293313	6.20831001792586	-44.6999851671703	5.43595981220697	-0.0254430683799439	-27.1060615204997	
9984000	-0.0310514449386134	-27.136255136978	-45.3424977967186	-52.6121945919013	-45.3904080802005	-52.8226210178909	0.0697851242444727	-26.896574641543	
10233500	-0.0611156334922329	-27.1155369538864	-48.6140548038397	-83.3081707560286	-48.5895919485317	-83.2534509614606	-0.0142975458775436	-26.7803546723743	
10483000	-0.272873699375415	-27.9761143079032	-50.24071602614	-98.6669499690524	-50.0455920861317	-98.8917295957797	-0.230898884033872	-27.3643327190197	
10732500	-0.453789592314806	-29.7904448148827	-50.3782942908998	-110.754641177114	-50.318096224415	-112.05633058382	-0.389687301894172	-28.9373178153796	
10982000	-0.474059701319323	-32.0286804740093	-49.2726591879283	-126.20992604046	-48.9677278811159	-126.178242682132	-0.367782599253196	-30.8441859493498	
11231500	-0.412017159491697	-33.4390706945104	-46.7227918830451	-151.510391454238	-46.5600715239092	-152.997911275069	-0.181304359123445	-32.2193286171315	
11481000	-0.373876784745404	-32.6463375869979	-44.9573504460672	168.188104350032	-44.9434149542521	168.424394813858	0.0103412289264582	-32.635218104397	
11730500	-0.268690740740958	-31.1450369325202	-46.2842529381042	127.639953830797	-46.1978364186916	126.851754654816	-0.00625353851466652	-32.6892834446228	
11980000	-0.374602362358988	-30.7163160106846	-48.6192616386965	98.0620035846999	-48.5902241682707	97.6284722397693	-0.118667676870111	-32.3093418171301	
12229500	-0.535270018113378	-31.1276540135214	-50.4878146336353	89.2732234354289	-50.419850248158	87.1638364276362	-0.356121921097864	-33.5907709910908	
12479000	-0.568918672122676	-32.9545997529279	-49.5970073328617	78.5849098551401	-49.3771056722596	77.522132361565	-0.50420203535424	-35.7365812305279	
12728500	-0.428354901364108	-35.0650470807812	-47.1866331290763	61.9923059681048	-47.099745485362	61.6013256586193	-0.506833776427006	-38.0550705632678	
12978000	-0.187240975818058	-36.2801310612092	-43.7360246261656	35.5027920379189	-43.6736289625399	35.7228505188469	-0.485318210717955	-39.6688373179931	
13227500	-0.0360621409404982	-36.4528072753992	-39.6544689551363	-8.60445406622234	-39.6692562387799	-9.03463829883529	-0.791125887372529	-38.7703447074008	
13477000	-0.0974110512077099	-36.1915627195472	-40.6180813385049	-87.0162615795279	-40.6038777812824	-87.5803428186916	-0.562265202916401	-34.8236966282781	
13726500	-0.3469427406769	-36.309248350161	-39.3708587883966	-115.843776997812	-39.3728718432327	-116.345809799985	-0.952057954910782	-32.879796656542	
13976000	-0.563161869373606	-37.0931679551468	-42.0600144599841	174.019535171555	-42.0894764497641	174.332667852594	-0.780923444555359	-33.5218663882296	
14225500	-0.553212177468349	-39.0758434421176	-47.0892549714956	113.945266870005	-47.1361684705088	113.739395831871	-0.656540253974841	-35.6678589150571	
14475000	-0.397684651193435	-41.3148599097248	-51.8395149637033	47.3968410886855	-51.6705179618482	47.4535474015482	-0.413786506856207	-37.6541119483341	
14724500	-0.32741620758598	-42.1450980473308	-55.408954271462	-50.6275237317165	-54.9868743585661	-51.7302402752341	-0.132452594123033	-38.6073166552981	
14974000	-0.334202468355589	-41.2073196194054	-57.79480826559	-139.738399632127	-57.938340375356	-139.31456453559	0.0276052125792288	-38.7739218929198	
15223500	-0.596210475809501	-39.3546399997978	-60.2907069940789	177.062998328755	-60.274843088031	176.654336786862	-0.0399930655371877	-38.7627337648644	
15473000	-0.497750028301725	-37.8793775329656	-62.1445282111876	149.902707926534	-61.7857759634061	145.254559029279	-0.248828473071617	-39.5143613567539	
15722500	-0.500170237260356	-40.3850378848274	-64.6517142111256	124.052046218804	-65.634409500673	128.109406228916	-0.421733392169916	-41.2747207986935	
15972000	-0.450827260238897	-43.0772006379923	-67.6369837337714	109.027152703271	-68.4259855545394	115.091950288893	-0.426111894299904	-43.5645772859636	
16221500	-0.244701368243007	-44.9557677976239	-74.1437534685455	176.080346490836	-74.8104627249543	-172.387543019462	-0.306151065100055	-45.6780219021445	
16471000	-0.0458773189435196	-45.7232316212631	-54.2334821224141	164.957669103225	-54.3969821711568	165.727719064511	-0.607782834930285	-45.4679978766773	
16720500	-0.0395173802446776	-45.8276359451909	-53.0375031109528	78.7990009842015	-53.1627537903422	78.8754186668075	-0.134954706135798	-42.1648652699359	
16970000	-0.300876849345618	-45.9604467999943	-54.3657000339308	29.6507332345312	-54.0618024247225	30.370753416512	-0.133439194340224	-42.7658724267251	
17219500	-0.690969743924023	-46.5393475620832	-55.3493128055347	-30.5324680841475	-55.8582666487215	-31.3580264737885	-0.329790710590162	-44.0080236632369	
17469000	-0.926638193236017	-47.8510863072419	-58.0980530931915	-96.2277883322407	-58.5209988999349	-97.4561697282318	-0.458585113927236	-45.9744967810898	
17718500	-0.972318023966347	-49.0259280700787	-59.4110240309357	177.58095799954	-59.4823158699465	179.1316433525	-0.386330481434851	-48.0793703746786	
17968000	-0.775638527613012	-48.4086491916079	-57.9178666842718	96.3785395788736	-58.8456844289772	97.0861174527737	-0.168947996277851	-49.3952449549049	
18217500	-0.392626824582263	-47.174500595822	-58.0269564455586	43.2021575896347	-58.4078557603628	40.4295227984467	0.0201341630634963	-49.6491041068392	
18467000	-0.212736389260653	-46.6277676503361	-59.4005540382275	6.50494452372733	-59.3033741349776	7.28011999788477	-0.00767300356541156	-49.543918904799	
18716500	-0.29825384306875	-47.0695690457228	-59.9756394477642	-29.0290589934094	-60.265634560616	-29.3263478945085	-0.220511255923949	-50.0272279164226	
18966000	-0.473445252242746	-48.5897073379892	-60.9536323032423	-67.5276878709016	-60.7918326253939	-65.5082985860029	-0.488728856541983	-51.6435486700138	
19215500	-0.520461535872639	-50.9803948800821	-60.5048204143203	-120.466697116443	-61.1231482113299	-119.372288706904	-0.653679372803409	-54.1445382082369	
19465000	-0.378183162987433	-53.2670222593511	-54.2449253383537	154.745769009359	-54.5183683404224	154.160014046288	-0.685133746459632	-56.5229445688496	
19714500	-0.178320863777545	-54.6145230734688	-43.7701830097219	86.5592955300519	-43.8434106135662	86.0387254523451	-0.689776231139774	-57.4470126035829	
19964000	-0.158258096028586	-54.382021110592	-36.4231931681129	8.50689710762786	-36.5896917400232	8.15172019933364	-0.894475246365561	-56.7298164564031	
20213500	-0.263738412877939	-53.4617970619052	-34.3991658901507	-67.0537396733853	-34.5155237594631	-67.0644922515944	-1.29451806770606	-52.6588161046744	
20463000	-0.49186975832925	-53.9359429416595	-34.8288415319328	-122.358000836333	-34.9582404399882	-122.269916889733	-1.20389155676102	-49.5677653992501	
20712500	-0.77079521754474	-55.6471635685459	-35.193582438045	-164.148528806366	-35.2799554034557	-164.148735736677	-1.08008010504183	-50.4251200747011	
20962000	-0.904194637850007	-57.3359581848657	-35.377107235146	156.468793385111	-35.5021047741912	156.673016620719	-0.91179875225331	-52.5563573167977	
21211500	-0.718890775397164	-58.0843992358822	-35.6611812078247	121.081172494786	-35.7004816545754	121.595906174528	-0.625489763501244	-54.4621459215058	
21461000	-0.40810608155394	-57.967517006266	-35.5558466962462	85.1252730806899	-35.5904767906505	85.392017695263	-0.295378765054165	-55.3479870883145	
21710500	-0.253455887950017	-57.6997432599085	-35.0193747973009	47.4278466181933	-35.0773519193909	47.8183836520834	-0.21957882715205	-56.2475715292974	
21960000	-0.399054426566806	-57.8745323745425	-40.1546472755626	-5.40566304039828	-40.119489119609	-4.45365901150749	-0.458875515883772	-53.9093071976467	
22209500	-0.737776608114416	-59.2705343934066	-41.2001207998847	-1.13600294481312	-41.1699578148905	-0.884962751412195	-0.491394744397139	-54.9122130824456	
22459000	-1.1848919750276	-61.4272453756753	-39.1626596896726	-21.1342030935885	-39.1311655652916	-20.9161447225022	-0.595106767197433	-56.9986944296053	
22708500	-1.45837159734518	-61.1166277050215	-37.5306841195206	-58.0058498150036	-37.5913229208766	-58.0215963496192	-0.531712673982239	-59.1307805947035	
22958000	-0.962974508584483	-59.2919199606144	-38.3399583103735	-98.7081684400234	-38.3369758993731	-99.2837268696127	-0.301026020909041	-60.5372906125384	
23207500	-0.427458431714213	-59.2160878324994	-39.6474360984627	-130.233251183762	-39.7266761310707	-130.817190467238	-0.0885552997114413	-60.8205974650557	
23457000	-0.282370132389118	-59.1813745208035	-39.9004383537123	-162.930303992141	-40.2052179011893	-163.181489840595	-0.0693741254240137	-60.6273259256606	
23706500	-0.4144270979363	-59.1355957730213	-41.1911146784796	150.201719426784	-41.6143088725486	151.898669590368	-0.264962308149074	-60.730680702252	
23956000	-0.564924673371064	-60.5186117330148	-47.0034859818806	112.979763228036	-47.1386303531994	116.53431794539	-0.503658464326964	-61.7163702000259	
24205500	-0.652721621289264	-63.2479170908183	-52.2465873187095	115.931450736619	-51.8422457167515	119.154944334911	-0.603224197845494	-63.8922787612508	
24455000	-0.552836387113819	-65.7475779431368	-49.2143751431857	79.0529698281663	-49.0684877756609	82.532985566331	-0.54223958195127	-65.7747072390762	
24704500	-0.372024021657794	-67.4077500065364	-64.9784165854925	87.168059543188	-61.9543092706647	94.006674857383	-0.282648755495667	-66.6071299552567	
24954000	-0.369188725085625	-67.8565779708886	-55.2996282509905	133.724531171361	-55.6444979457806	130.412359426523	-0.1603541466762	-66.5866249098462	
25203500	-0.754265847412958	-67.2202985209397	-50.419291823805	109.127158079759	-50.7115244451328	107.652321503281	-0.262213514553201	-66.4198595353903	
25453000	-1.21484956593895	-64.4436487995072	-48.5090362041351	74.1139889896526	-48.5724342559256	73.7966333101203	-0.5438083789123	-66.8084222919882	
25702500	-1.20959246258625	-63.4663014053741	-48.2491152568585	39.8341934900712	-48.3277399889457	40.4889524170477	-0.85344557233202	-68.4992890245302	
25952000	-0.987711254369078	-65.3589663030226	-48.9279050394266	12.8743496130029	-48.8769017043463	12.790118051349	-1.02629493651245	-70.7017144920105	
26201500	-0.655040120638708	-67.3572101157159	-49.145258263951	-9.73404947496926	-49.3688955332823	-11.5918449780493	-0.996649727255084	-72.2720518730243	
26451000	-0.295974132833102	-68.1203984040939	-49.8665054650734	-32.7114685575576	-49.7972478804199	-33.1191014799653	-0.931739176964738	-72.1775045720872	
26700500	-0.120571452206252	-67.9815700387162	-50.6275147018994	-58.0950794898743	-50.700005913765	-57.4570091100246	-0.96492203842201	-70.1982258030877	
26950000	-0.194215520589771	-67.7421040742874	-51.1969790937007	-78.9921915123797	-51.0673275629002	-79.3359511984567	-1.08282729940193	-67.8767251401582	
27199500	-0.425646986188471	-68.5003501214455	-51.9463888059923	-99.558004026629	-52.3340190505803	-99.4871752923045	-1.22843561609518	-66.6380621584255	
27449000	-0.597944873804447	-70.414457012156	-52.937443130044	-116.875406972516	-52.9711464487716	-117.585568396989	-1.24244215853707	-67.4598660781867	
27698500	-0.575600527324941	-72.7747281049081	-53.4113573485515	-137.983019711317	-53.3944347565996	-137.739686293215	-1.05647842554713	-69.3216381122489	
27948000	-0.351512832058409	-74.4314931312466	-54.1140113377315	-158.97908206492	-53.9616718593972	-157.408081637758	-0.707379608494506	-71.0271254729926	
28197500	-0.121797369126963	-74.7750942810543	-55.9949529533108	-179.467244594216	-55.6959017860345	176.124918283859	-0.36912036772539	-71.5546730388911	
28447000	-0.0945863420094672	-74.5772015115966	-58.1218532696882	164.351259793691	-57.3275963946416	161.633816031821	-0.229570930456897	-71.5699427684761	
28696500	-0.29751356134954	-74.8773506081103	-60.1097768621646	162.323446548459	-59.9844325597705	162.409168491985	-0.327330382394685	-71.9318782986224	
28946000	-0.602100056343995	-76.3997645703881	-61.7422668053469	169.838700687789	-61.0413423078697	166.783255429936	-0.568717155894701	-73.7961706979496	
29195500	-0.836271853756604	-79.1691081816615	-58.2839857732221	-168.490032866253	-57.6865823591157	-170.998610673354	-0.914748173276469	-77.7204793187152	
29445000	-0.964034649535031	-81.9972192679879	-52.1480932413824	170.645208792959	-52.3572360786527	172.973167520233	-1.47754493863312	-76.3153408796079	
29694500	-1.11728075257703	-81.6002444336872	-48.5683754052366	147.767904626234	-48.3546770282543	146.966391404333	-0.744311579036139	-75.0668355064028	
29944000	-0.748743715746705	-77.537219245427	-45.9668640898379	106.188946946519	-45.8254106147164	106.130621056116	-0.328501518459893	-75.4187365870471	
30193500	-0.461428777474258	-77.5579443686043	-45.6855614664719	74.1133761543741	-45.6551878092587	73.421878758376	-0.262460576467035	-75.4308032963981	
30443000	-0.737347836305061	-78.8890068423484	-45.1783665654911	48.9661911828652	-45.1665173611518	48.6063916534189	-0.443516184390394	-75.7885848231038	
30692500	-1.24983626779631	-80.5039733842682	-44.4618683554647	16.5730266469304	-44.359176436289	15.8027035148662	-0.652033914231842	-77.2072293297079	
30942000	-1.59896991231233	-81.4366642231071	-44.0576145691582	-13.257139589539	-44.1169761546295	-13.4579523929783	-0.72730307526752	-79.5284413035925	
31191500	-1.44455309281332	-81.6087234301554	-44.1854778959242	-41.8987489700238	-44.3102269785741	-41.8954581261155	-0.561854373569831	-81.6306157227772	
31441000	-1.07555831549099	-81.2185181839481	-44.5795841740016	-68.0299739652658	-44.5444669981972	-68.1619510022252	-0.317332582569323	-82.5219529368296	
31690500	-0.859510509505411	-79.8446454693937	-44.9827940167572	-96.2364684818457	-44.9112438473377	-95.3131727545595	-0.188798472713517	-82.4237691973384	
31940000	-0.827116052274869	-78.2243705535079	-45.5036312654319	-122.090489441238	-45.4521243114389	-122.216906932158	-0.326411935443865	-82.4292958857344	
32189500	-0.911375142952327	-77.8415371413171	-45.0889016059943	-145.181371156975	-45.0865417343557	-144.066646655908	-0.791240928851308	-83.3850534273498	
32439000	-0.982822210485345	-79.4594795557163	-46.5299254267932	163.239165181592	-46.5060222173496	164.633526517343	-0.899858210493692	-81.8825571978628	
32688500	-0.875935626394409	-81.9785565395494	-50.5630454274094	153.150976026382	-50.5754418501486	154.428125853008	-0.776911256550383	-85.5675005882465	
32938000	-0.601288407841624	-83.8923899038228	-51.884973066151	144.231541019712	-51.5653972349141	145.447448205903	-0.623702832268364	-88.0149955163106	
33187500	-0.309501031800497	-84.5200628507486	-52.1748845298961	133.171411244174	-51.339701600202	131.859420923176	-0.47274116669074	-88.7556142882041	
33437000	-0.195601723017784	-84.2726360558404	-51.1595635321805	118.447594107348	-50.9015674682085	117.446575134956	-0.541083229129902	-88.4769890014747	
