!Keysight Technologies N9923A: A.12.45
!Date: Tuesday, 05 August 2025 18:16:54
!Timezone: (UTC+08:00) Kuala Lumpur, Singapore
!Model: N9923A
!Serial: MY61181427
!GPS Latitude: 
!GPS Longitude: 
!GPS TimeStamp: 0001-01-01 00:00:00Z
!GPS Seconds Since Last Read: 0
!CHECKSUM:0049925977
!Correction: S11(ON U)S21(ON U)S12(ON U)S22(ON U)
!S2P File: Measurements:S11,S21,S12,S22:
# Hz S DB R 50
2000000	-0.0745567577151146	-4.88335538300981	-72.7733657792901	-109.034194871683	-70.895423432235	-105.790211672248	-0.0877638067050889	-4.88032135727359	
2249500	-0.283554571356962	-5.81801186279169	-69.780563081335	-103.878198199897	-67.8655805987608	-94.1660684855718	-0.290524755690313	-5.79385647394617	
2499000	-0.373585393217353	-7.4065866297609	-60.9166885729128	-114.396837302395	-60.2107954416973	-116.998286859089	-0.37804765493442	-7.35946396848445	
2748500	-0.261242177813821	-8.84869460444639	-64.0132822379924	85.3297477948949	-64.1940391894585	80.4651131191897	-0.270860938929686	-8.63891637423085	
2998000	-0.0474078424484745	-9.60588512999547	-71.3799976319179	98.2856577039874	-71.1228601172564	96.3475521351901	-0.0497202253949591	-9.41367226550415	
3247500	0.0945963953829121	-9.58407593168395	-72.8001888221408	42.4122375445889	-74.3173043022791	35.5789442937569	0.0737665024766364	-9.29748663189382	
3497000	0.0554080898837272	-9.41235420475966	-75.6391595348519	59.1988378041864	-76.4157822267202	64.9401440978159	0.036220362653575	-9.24532452435231	
3746500	-0.145438556905164	-9.71860230183587	-75.8507784996074	64.9874597334909	-76.5944290086338	45.5971673537193	-0.161938323213365	-9.59037793044925	
3996000	-0.344549111933874	-10.9033660056493	-75.3115836618021	23.5584124371574	-74.056864705508	30.308162396498	-0.344982227944612	-10.7668743882247	
4245500	-0.368979381865484	-12.5779029379888	-72.2946686284533	20.9982627949062	-70.4212128297323	8.28456860783511	-0.365038851250856	-12.4590608292699	
4495000	-0.203587870814025	-13.9545557510457	-70.9857244995264	-1.15973045921677	-71.4583320894633	10.5907050985116	-0.201873446309915	-13.7478926190645	
4744500	0.000368040521237743	-14.4713765523683	-66.2741285834801	-28.7056056192703	-66.1015586019283	-23.3309152729962	0.00271027060625593	-14.2568304406511	
4994000	0.0642679595502181	-14.4579923679625	-61.6631146252107	-70.2291876808537	-61.162133352326	-73.8894096086011	0.0629740577170775	-14.2344877218227	
5243500	-0.123968033803472	-14.5960146534012	-51.7239492713479	-116.395972721549	-51.6039437295722	-117.823519700332	-0.126146151899572	-14.3887284523981	
5493000	-0.536018402003561	-13.987193936606	-43.1768028541242	118.357259570538	-43.0756385145614	117.876859498321	-0.539322048722393	-13.897381540283	
5742500	-0.514286630968088	-14.545883282721	-49.6750243774014	-0.619828679853563	-49.4120869805802	-2.22191317001668	-0.510180719369103	-14.290955329629	
5992000	-0.391247569251831	-16.4165557560799	-57.5559673986221	-53.9971939644018	-57.4149745885196	-56.0268582694541	-0.379239397561876	-16.2242695908195	
6241500	-0.1304757559385	-17.7173016702777	-64.1653878395404	-92.9981746491564	-63.5676966118992	-93.5832633250592	-0.173613364717957	-17.4832716079975	
6491000	0.0586944017413832	-18.0643050342746	-79.3867323417968	-36.0086510532931	-76.8963363950965	-31.8178716470902	0.028796537851078	-17.791637440208	
6740500	0.0850142693777674	-18.0876348944796	-60.6183911153052	-61.9512429112419	-60.1046574642874	-60.8378350998602	0.0709376810449323	-17.5620890273677	
6990000	-0.148336615109368	-17.5620040162289	-55.829919736741	168.470505894586	-55.686979736862	168.724842997072	-0.0837356195148329	-17.7425765553246	
7239500	-0.307744689244338	-18.709059622255	-67.3766123568845	129.143454730095	-69.1315897904531	136.480115104609	-0.296204945834864	-18.7781155186304	
7489000	-0.403622400726803	-20.4973210125652	-72.8518547326277	126.817595977778	-74.8026596772504	124.868582613192	-0.397632868437009	-20.6521042315989	
7738500	-0.296875069001831	-22.1638698626718	-76.4060060141259	78.6329159722969	-76.6497104733481	70.9756470514191	-0.309093578086072	-22.520924425761	
7988000	-0.0661046670532807	-23.0105872897446	-72.2013277976872	-48.6948711551612	-73.8225403267852	-44.558067778022	-0.206333881364008	-24.1121070360719	
8237500	0.0940180773095094	-23.024522854818	-62.9656942039428	165.287422224031	-63.2197911285873	167.449295384179	-0.19346710962654	-21.1858147417693	
8487000	0.0558136522393846	-22.8487022609402	-66.045734115269	122.462334667799	-65.2687697238669	122.362650683629	-0.0054768887302629	-21.3809996593986	
8736500	-0.153392377104441	-23.2174447041238	-66.6828846681433	100.098174676523	-66.1021676310185	97.8736901894577	-0.171169323685998	-22.0023738042497	
8986000	-0.368904157175713	-24.6161739240099	-64.5775018289369	84.3837518104616	-64.3563911677975	85.1529801642826	-0.374470242039308	-23.4206720266922	
9235500	-0.425059162013456	-26.7435179409567	-60.928749278811	69.0125243116314	-60.7701077564127	69.5357101473745	-0.40439119899101	-25.3020691817524	
9485000	-0.301242223914988	-28.6112948220647	-55.4141365099046	53.282368295691	-55.2745021523018	54.7733252035544	-0.242648390810053	-26.9452885930307	
9734500	-0.21362585810287	-29.2907117013973	-48.3212098904967	10.8994681703797	-48.3548938452401	10.5856872975083	-0.0198858091403847	-27.5897827287716	
9984000	-0.145314834369871	-28.0395521568872	-45.7388267665739	-59.1134230798685	-45.7559885520023	-59.4127585454765	0.0720812182554702	-27.4471141607443	
10233500	-0.249817785084177	-28.2802359615461	-45.9006381205007	-105.438248072094	-45.9660041869929	-105.695768450803	-0.0275116673178555	-27.3578228639539	
10483000	-0.760090475763005	-28.7077543131857	-44.4814884171324	-151.202342482369	-44.5155624181957	-151.447759630724	-0.267340802075733	-28.0237715280428	
10732500	-0.934904782148813	-27.2460118905509	-45.4593671342931	150.424618888196	-45.4573541635134	150.374999306995	-0.449139336439241	-29.7169713548986	
10982000	-0.617923135207652	-28.8417847626763	-48.7608830709328	112.773242430228	-48.7060625033759	113.470800253348	-0.445066826702982	-31.8022625780383	
11231500	-0.300691014313427	-30.4521748592678	-50.0713151339857	87.6694846176175	-50.0477064406672	87.2575301714207	-0.288472399243408	-33.3578458692082	
11481000	-0.0300825957783924	-30.9364586070961	-49.9114893222792	62.6042655530455	-49.7766482150518	61.9090406309607	-0.172669260839599	-33.9047888229082	
11730500	0.0379516932133835	-30.8198988245475	-49.7237854092155	21.4653754140175	-49.635621757233	21.2955366436812	-0.342389464824411	-33.4634688822489	
11980000	-0.110268636242692	-30.8559264365773	-52.6156536021685	-23.4033376881104	-52.4741602321774	-25.3300990964273	-0.686111410847577	-31.358045447446	
12229500	-0.341219100558117	-31.9227687500328	-58.9352481593992	-33.6804900394358	-58.8249432750617	-32.6706736194574	-0.873930821791898	-32.0286360586417	
12479000	-0.467898654867337	-33.8707275242124	-56.168318018754	-29.0711975427084	-56.1092965866101	-30.2747779420045	-0.90691399185125	-31.8156364688796	
12728500	-0.36798318154276	-35.9140765232343	-54.3739164755074	-53.3495174691404	-54.413886701768	-54.4258924289876	-0.632866478535911	-33.2057039275522	
12978000	-0.143749080973206	-37.0407951841179	-53.1651132538467	-80.5465675923272	-53.1933194328697	-81.4282510616638	-0.278960405873536	-34.3421750683944	
13227500	-0.00405876275682853	-37.1278063309579	-51.3888635906928	-113.451736032457	-51.3529989967994	-113.167241837	-0.0400936316885333	-34.5631018307927	
13477000	-0.0889819346916807	-36.8125766894463	-50.0255138790889	-155.143719163955	-50.0301217129636	-155.424438133592	-0.0176387605170442	-34.5435948254773	
13726500	-0.330340881942914	-36.9656833957566	-49.986595299706	153.582967125492	-50.1107248053327	152.719734938809	-0.197078332981898	-34.9225873200317	
13976000	-0.606075804580072	-38.4671057429873	-50.7009825083614	89.6019020374719	-50.9255722916824	88.6303470372448	-0.413584865727445	-36.4227639402311	
14225500	-0.819463307469416	-40.5386544508999	-44.6296927025434	-61.1325339885921	-44.5772297801026	-62.5033065707836	-0.680448651510295	-38.5689716792308	
14475000	-0.877601241727861	-40.9004890408397	-49.4478359127331	138.075462880445	-49.3306551713843	137.333902073388	-0.352606261720192	-39.0237710404178	
14724500	-0.463638750822099	-39.5995291963989	-51.7121802638008	81.8571419524207	-51.4113335676845	80.6948587093263	-0.0826624332871637	-39.9047110964394	
14974000	-0.214756745627738	-39.0670861319138	-53.1789014388442	32.9218594145986	-53.1814033601204	31.7483645264477	0.056067481718281	-39.9156727192779	
15223500	-0.209858669766872	-38.6099465591247	-56.2056798923721	-7.39383497106932	-56.1986353710618	-7.7395983773924	-0.0345155828862141	-39.7921179841346	
15473000	-0.382465922826112	-39.1865444419318	-58.5342978179007	-39.271952803637	-58.5298019030961	-37.1065540002173	-0.268197878741807	-40.4948632097349	
15722500	-0.550688244012684	-41.0473773534838	-60.4133406066423	-60.9213905608027	-60.301311349562	-61.8190180957526	-0.459195660253557	-42.2744889975158	
15972000	-0.512683632922697	-43.2471233633734	-61.5611474044486	-82.5971878246389	-61.198503260552	-82.1143453898031	-0.468860817346993	-44.5321032808504	
16221500	-0.287971677408341	-44.8909906843914	-61.7467487501492	-107.102121581019	-61.7401462551561	-104.876275568832	-0.308429208633399	-46.2844557423712	
16471000	-0.0607257095117541	-45.3685474235888	-60.0214168946859	-146.249538335188	-60.3071564570141	-148.545275985108	-0.179561350940627	-47.0683473180801	
16720500	-0.00483450042430278	-45.1485926254544	-58.7234755236843	156.859056010675	-58.9674060208305	157.753269911528	-0.329153738887487	-47.229404022981	
16970000	-0.170767001279989	-45.1616541349468	-54.9548229534008	79.6513457003049	-55.2910894735727	76.8744275020931	-0.933233866276798	-45.9055911067071	
17219500	-0.45454298693688	-46.3005241877021	-51.0781511807356	-19.0774732340979	-51.5068295386037	-22.5806232230798	-1.12668532541641	-42.2518625434243	
17469000	-0.644408698987365	-48.5552665536188	-50.2029070309426	-97.6205293424468	-50.1767947772879	-98.1961451036211	-0.813290961033945	-43.3520743836509	
17718500	-0.643933184918971	-51.0344674986377	-50.1449253044608	-151.765184067054	-50.2700896032698	-151.750838208042	-0.536380986797991	-46.2570026234424	
17968000	-0.594001230532081	-52.7122827747618	-49.4954321231673	165.818416712565	-49.4209012555354	164.892126575065	-0.237523120295407	-48.2468764802016	
18217500	-0.773756486137901	-52.163372743953	-47.6118296721106	123.708422329012	-47.540004754452	123.409946709175	-0.0270932338259538	-49.0263327035785	
18467000	-1.03742085412007	-48.0687993570493	-46.4929973513924	55.2158465407639	-46.471050434299	54.964497683235	-0.252789414682539	-48.3745807285218	
18716500	-0.91621141219511	-45.1776041385544	-49.9264851125812	27.2420762517669	-49.8648615857478	27.3396521282687	-0.255350224670184	-48.8821079738832	
18966000	-0.836065919364545	-46.1168963304214	-50.8473729531705	-6.85178450472738	-50.5697974103073	-6.59289565670896	-0.564465957770734	-50.8089254298908	
19215500	-0.748920852076089	-48.6875236348661	-51.4937533304624	-36.6212469548659	-51.276167629579	-37.2716188533828	-0.81003107943615	-53.3784261130893	
19465000	-0.519633809316134	-51.0830007056523	-52.3034379389756	-69.4121509375489	-51.8780349436755	-69.6823642950076	-0.950440235238358	-55.0817689843642	
19714500	-0.208364638857913	-52.2885416362637	-53.9049556422113	-107.082042918606	-53.5211540951601	-107.82882700637	-0.918120801361673	-53.9648509328913	
19964000	-0.0242006721970611	-52.3223976401689	-56.8695480764599	-142.299323274183	-56.4161231807782	-142.03061897024	-0.666078995743154	-51.4030323282549	
20213500	-0.088079642353682	-52.137213078525	-60.1060096415682	-166.326555754713	-60.4516692566026	-164.047933031443	-0.50383990107641	-50.0329131305241	
20463000	-0.325737550199877	-52.7578813454047	-64.1909510379839	-179.137195189313	-63.7492682731678	-176.432814082645	-0.567719432458259	-50.1771232614734	
20712500	-0.547810949719022	-54.5669517202307	-66.9817468304451	-171.541910393709	-66.2443882894887	-173.571935433271	-0.684303030070151	-51.7649699326374	
20962000	-0.579384442847612	-57.0625829468845	-67.3660204397973	-166.89860808643	-68.0450958649174	-173.050548160103	-0.645269712650689	-53.9184415288638	
21211500	-0.414678818002214	-59.2440879353364	-68.0402223195671	-172.885938873804	-68.8856753428369	-178.547011683963	-0.431634062999929	-55.7281375048699	
21461000	-0.293331136778015	-60.3394000965786	-66.91860214662	-175.695172251186	-66.2074868219349	-177.208189924116	-0.158861077004458	-56.3815134355051	
21710500	-0.564142818644371	-59.8774378441066	-65.3689582515594	-172.194285691411	-66.0939486064491	-177.358214822377	-0.0469059517958749	-56.3273859659368	
21960000	-0.929776707013417	-55.996313188681	-61.7078590848029	-164.34936771501	-61.6644075128734	-161.31771045424	-0.16590087673772	-56.3483179083092	
22209500	-0.812578869397309	-54.9003985784322	-54.244925105592	177.805640505655	-54.4110864011331	177.132415674226	-0.454418832704384	-57.310356140091	
22459000	-0.767669989359744	-57.1845240920387	-51.1557974342882	94.034236486887	-51.2397235338585	94.1921269837527	-0.637540618057723	-58.5915353118454	
22708500	-0.609906088303842	-59.9790683288121	-58.7158710890919	64.1928100965638	-58.6538742664052	64.3207201712191	-0.533360793290225	-60.9322999264068	
22958000	-0.331380442953293	-61.8358550716626	-60.6003510671569	98.3514263338382	-60.5718687333773	96.8531925385078	-0.32811429087963	-62.6153635766675	
23207500	-0.116486591784916	-62.3693962558744	-53.2583142415242	100.172498391982	-53.3499477261569	98.979844411489	-0.184740916501725	-63.0313987393193	
23457000	-0.125133611532191	-62.2840966852033	-47.1313841140284	60.7470354066474	-47.2243581994022	59.4869119275811	-0.261449256459407	-62.6163747522373	
23706500	-0.389399138307821	-62.8786822061569	-45.2905286283193	9.86903757477156	-45.3588535404028	10.5502220122013	-0.502880022942704	-62.7297631613183	
23956000	-0.824045975402296	-64.7666100915317	-44.3573004701054	-29.6086352918415	-44.3829236981221	-28.9240530574195	-0.902871703129431	-64.1503210995121	
24205500	-1.28833830756996	-67.1470321170422	-43.2097241052398	-74.3987664478787	-43.2522890281894	-72.9154124558992	-1.26101954057913	-66.0872883520499	
24455000	-1.57937611644641	-66.8527657987835	-44.2755812955949	-129.891124398467	-44.0972893749586	-128.492025082317	-1.42677333754029	-66.242344235809	
24704500	-1.21515817065411	-63.6094772851734	-49.3145329444842	-176.18550058313	-48.6634593901685	-175.714273258543	-1.1080069220728	-63.6823281224447	
24954000	-0.6032731279488	-61.9629607744661	-54.9290289149279	166.188785030015	-54.3763383082731	163.291850544636	-0.572696897334284	-61.9927066213685	
25203500	-0.366606780529143	-61.8225279952694	-57.6509990502128	160.188418521481	-57.362395958613	160.323696186883	-0.360094959399099	-61.8475709429524	
25453000	-0.467005235396821	-62.5343209543905	-58.3493613185663	156.485284920937	-58.1777950360789	160.834056726966	-0.454404214211372	-62.6319762276221	
25702500	-0.64539685167162	-64.5295654845112	-59.9985522136113	152.324562733729	-59.5406784062771	151.778322882141	-0.636741670648012	-64.8051856097944	
25952000	-0.655314469728555	-67.3104658868996	-61.0208076602816	148.401845480295	-59.6712277389043	149.874498844678	-0.689902699085132	-67.6020297746562	
26201500	-0.458384217493033	-69.5180646224698	-59.5837503112975	143.896071855521	-59.2032342179582	142.694556352876	-0.527855207938557	-70.0534997042507	
26451000	-0.189799472265181	-70.3933798414601	-56.4748833365134	135.769826766321	-56.719294123917	136.61346090546	-0.36541944629694	-71.392919699011	
26700500	-0.110930315882135	-70.397235396635	-52.7242175341722	125.852923500756	-53.0219387131512	124.027591022794	-0.45144297870006	-71.2623304817985	
26950000	-0.329298865599804	-70.350237365174	-49.2389346823368	96.4439780124547	-49.53351792033	94.9395116368235	-0.840456932441275	-69.8620622254006	
27199500	-0.794472410586529	-70.8809388035289	-46.8822012565416	55.995149669512	-46.9304483664315	53.9007851474348	-1.18040576700591	-67.7229179383013	
27449000	-1.13353253331613	-71.4587544528599	-46.4313890257282	12.7506274064492	-46.6622045841056	10.6175211242241	-1.16865149310486	-67.889610198675	
27698500	-1.09340691106172	-72.5090042302043	-47.3714267966227	-22.1548546209353	-47.2333449164776	-22.7975283674022	-0.944922825005917	-69.8472549998171	
27948000	-0.766864198500564	-73.1826757615188	-48.3316491770223	-52.8856957964316	-48.3981664390854	-52.2958476508363	-0.589745655646081	-71.7329816259016	
28197500	-0.393590212383366	-72.8975066530203	-49.3015273872875	-80.0378465672318	-49.6304004521495	-78.1680369541045	-0.263870046710445	-72.3631081831234	
28447000	-0.244778936199743	-72.4324134948729	-49.6066852560698	-100.069036338492	-49.7755016318262	-100.368356299976	-0.156953666638864	-72.4240677972339	
28696500	-0.372147576820491	-72.6114353986326	-48.9834721708587	-120.798672314466	-48.947344408795	-120.946457981395	-0.30869788632156	-72.8469962716525	
28946000	-0.625723503228838	-74.0512413925096	-46.3746110070398	-147.912745474773	-46.1409788013707	-148.053193747669	-0.675936557850416	-74.7726381953345	
29195500	-0.800050042455942	-76.7249145274697	-44.336573289361	150.415247032766	-44.3514907214503	151.112297973557	-1.26761459693087	-75.6002322898799	
29445000	-0.781605020132536	-79.5532960821346	-51.4966407388267	102.88085787557	-51.5339008956459	102.865801330572	-0.826552902323172	-75.5343995490063	
29694500	-0.707937359161429	-80.7562703020232	-54.228339869097	113.335862290572	-53.8990528756679	113.97513562733	-0.443030900396157	-77.2034061136065	
29944000	-0.727185868969587	-78.5671391810971	-50.807749485627	93.9193649781971	-50.5953435101151	96.0145693463736	-0.19090986864843	-77.6135017441537	
30193500	-0.579232535811259	-75.9663563175704	-50.2939231036487	61.1360036313188	-49.9542726292511	60.9685233150794	-0.218657329802309	-77.6611767577216	
30443000	-0.620443207275541	-75.8691021346526	-49.861650116376	32.1190232584848	-49.8441979442346	33.6469516520591	-0.490827799269626	-78.1766902776751	
30692500	-0.812795668529176	-77.550869137885	-49.0848600584639	4.92991641424616	-48.8200694756097	6.16929625622831	-0.819547366973019	-80.0080189555873	
30942000	-0.915200505354715	-80.3137748382624	-46.8647344938533	-28.8910823263597	-46.7316310051264	-28.0906976733625	-1.09406350693628	-82.6050108622805	
31191500	-0.783221280291857	-82.6883956615416	-44.9258994293628	-81.9022322295824	-44.5574050646826	-81.8210692573765	-1.26413828645482	-83.1853000679932	
31441000	-0.544468136314048	-83.5710336809121	-49.1760940766077	-149.317976897845	-48.9672359115052	-150.028642448906	-0.665323682189719	-80.9476048649133	
31690500	-0.458280320079095	-83.2017420284997	-54.7242388933331	-145.224831913079	-54.3045187580284	-145.620903208938	-0.316226211542925	-82.224556784184	
31940000	-0.654641538564116	-82.6879419037881	-51.4481146310779	-164.875015605163	-51.0400031185095	-163.711691753825	-0.556314808918115	-82.8335596533457	
32189500	-1.10194430693436	-82.5653870388841	-49.7276900961218	159.108794912883	-49.3871676354265	158.485010765094	-1.07722131801892	-83.2678601627358	
32439000	-1.49035102919244	-82.9212467848935	-49.5191895698627	112.939621402819	-48.9795071088209	112.23885819263	-1.54193907070396	-83.7954303530881	
32688500	-1.46215397882952	-83.53671614824	-50.1762008193965	68.8212654611703	-49.8966008195728	68.4205989127592	-1.64446592899405	-83.9988938773805	
32938000	-1.08812659020059	-83.9937804851476	-51.6507767048161	27.0133884663306	-51.6309898112251	26.8651827110102	-1.31349454373552	-83.9900614758302	
33187500	-0.65536207870927	-83.8020400935227	-53.8928836149913	-7.85159840519063	-53.5064528039558	-8.9185656776316	-0.852884874659587	-83.2730950992039	
33437000	-0.427401959670607	-83.130139802647	-56.0133725140627	-38.7759632827025	-55.7953858046775	-39.3847311133469	-0.579276418152537	-82.3057049811786	
