!Keysight Technologies N9923A: A.12.45
!Date: Tuesday, 05 August 2025 18:32:42
!Timezone: (UTC+08:00) Kuala Lumpur, Singapore
!Model: N9923A
!Serial: MY61181427
!GPS Latitude: 
!GPS Longitude: 
!GPS TimeStamp: 0001-01-01 00:00:00Z
!GPS Seconds Since Last Read: 0
!CHECKSUM:0275604769
!Correction: S11(ON U)S21(ON U)S12(ON U)S22(ON U)
!S2P File: Measurements:S11,S21,S12,S22:
# Hz S DB R 50
2000000	-0.0747182567753589	-4.76548009724259	-72.9347714431837	-118.02316611015	-73.229109848794	-107.793062873132	-0.0877679822880489	-4.73778464730933	
2249500	-0.30476556297054	-5.65413598852428	-68.6788349347317	-98.3495199817493	-72.4492963311111	-116.546288363576	-0.308672491239931	-5.59485753032408	
2499000	-0.404056731338264	-7.28784248658514	-62.759401584079	-115.016236145202	-63.3729529962288	-112.137823541759	-0.401096594887308	-7.13550175778651	
2748500	-0.302001793201381	-8.67472009310277	-46.527517880805	132.834563504178	-46.4477642879796	133.396080684293	-0.331177443985355	-8.37144921866627	
2998000	-0.0440866697477553	-9.51873977233006	-59.1905028837592	66.7834295538832	-59.3195329545621	65.1031705984476	-0.0395405679546061	-9.1920745540652	
3247500	0.117005128070013	-9.3349562645013	-62.6049788018839	66.7953455503152	-62.7312459822659	65.9879662768486	0.10576460421823	-9.12885605844774	
3497000	0.0718062090138469	-9.08247301400329	-59.1330565600334	50.3173325589926	-59.2965220301068	50.0078988089142	0.0476699921491546	-8.96795842600715	
3746500	-0.16588934999037	-9.41710247218057	-52.0681561265631	14.026077242001	-51.9799072789571	13.9713493994557	-0.20398069513314	-9.38607435713825	
3996000	-0.440317866724531	-10.5967378858632	-44.1219480945811	-75.5421193518687	-44.0204036055314	-76.1798845456612	-0.487943770837355	-10.26335795803	
4245500	-0.443357558859379	-11.8656920753639	-52.6481801202559	152.309603842766	-52.9755777869187	150.156423616921	-0.455690009805328	-11.3853834261087	
4495000	-0.269552864811149	-13.6148314781304	-62.2702220548575	132.201600691791	-61.8576594825384	127.812511959235	-0.220756837721503	-13.0085183617091	
4744500	-0.0297117080612437	-13.5554214715658	-51.6652341340271	125.124698204994	-51.5567394656233	125.469357756885	-0.0254127812284686	-13.1695845997787	
4994000	0.115015746142965	-13.4343817276199	-62.4903029316254	68.0517974994013	-62.8266166716388	66.9400644975136	0.113781232677207	-13.2036594252257	
5243500	0.00522982345912237	-13.3605670254186	-68.4166849727323	51.6289184492902	-68.5285908106707	47.8521089434653	-0.000348849156176901	-13.1739475200494	
5493000	-0.241509526291222	-14.0197932740575	-72.7156691531959	34.0238353400279	-71.7252938261031	33.0743479029908	-0.247334902682628	-13.8805679561792	
5742500	-0.416956735981378	-15.6548680850981	-72.2410465257848	32.324785053615	-74.3944555336399	16.1318367526229	-0.408877309875837	-15.494846769829	
5992000	-0.365313331805575	-17.5742705555438	-73.5423496361863	6.32794829825391	-74.9886051561262	3.73982340871076	-0.358959048218876	-17.4086857262717	
6241500	-0.139072049632848	-18.8140097346774	-72.9975207751418	-30.2279177201534	-74.2814959964783	-16.1656410980768	-0.141551087128942	-18.5933065797621	
6491000	0.0712321107199601	-19.0856522119141	-77.441833195995	-87.276994174265	-75.9092754012939	-98.5786092335293	0.0625207854612091	-18.86837519232	
6740500	0.088223890943178	-18.9105770613932	-77.7329144157678	-155.665283117861	-77.6260638362826	-160.06373957366	0.0785808992591376	-18.5905879050978	
6990000	-0.122110697432904	-19.1526944094081	-73.1110919714578	177.200402861941	-73.261688246663	-176.472282936005	-0.110615840914902	-18.7118591897123	
7239500	-0.470035138240413	-20.4701233117441	-61.7599137011837	139.045280119183	-61.3715462827823	141.745498184799	-0.379052622797418	-19.8303325167052	
7489000	-0.817759174944511	-21.6428506072857	-49.9001819180638	69.556812826645	-49.9089402359646	68.9262014781497	-0.560257142486601	-21.8050167981173	
7738500	-0.617119280988979	-21.4117707206118	-45.201301842237	-33.1920251063744	-45.1218249977795	-34.4004625570566	-0.589304222078968	-23.0906965440353	
7988000	-0.188542912476793	-22.0775698145252	-47.7921453549111	-123.022896162302	-47.7875074448957	-124.899409643392	-0.375322585923043	-22.4368873343896	
8237500	0.0607997147568892	-22.1958155560133	-52.8765311870196	-179.035783554826	-53.0529416212909	-179.046089996467	-0.0515013258382303	-21.614314028433	
8487000	0.0505138407663774	-22.0143498618051	-58.4426281513337	148.736398189128	-58.2041133849328	148.653549054779	0.00567915910009245	-21.4676297438796	
8736500	-0.163544429779967	-22.3495904984476	-59.1376318969444	138.648493519954	-59.1042991747101	137.138690186389	-0.204118495733535	-21.5829172265887	
8986000	-0.39103244617334	-23.7511524370191	-60.7777589695316	117.217444116795	-60.602898479966	115.660716650682	-0.405943634838206	-23.0370891662481	
9235500	-0.43649145601317	-25.8867342151445	-60.4289152560439	101.077336285143	-60.1718602197911	97.6835209845157	-0.43561314221799	-25.0622838751353	
9485000	-0.258946008628613	-27.6509028985766	-58.1160016057822	77.6398256992743	-58.0016253361479	76.9583781728736	-0.255757885485705	-26.78936439781	
9734500	-0.0327470208382049	-28.3608521499091	-54.0228269255402	49.1509904870691	-54.1172501264588	48.3088851444547	-0.00505803835342196	-27.4327264992517	
9984000	0.0118421162218874	-27.9478889197585	-50.254010950396	-12.8018959190439	-50.2365588519162	-13.3884433827537	0.0972092349986681	-27.2712589850382	
10233500	-0.086519040998299	-27.5277951096081	-51.6307159385809	-75.0455756569821	-51.3532599383869	-75.8571814342547	-0.0145200426433794	-27.1067628758765	
10483000	-0.370503509379256	-28.4687778156457	-52.4201960987218	-113.350751376612	-52.6253880816925	-115.4901000256	-0.278422493451047	-27.7956748780746	
10732500	-0.692031158339161	-30.5423598115562	-51.0361430675279	-149.692136670427	-51.1019706418328	-149.842327308153	-0.484682548494962	-29.6648273856976	
10982000	-0.911883861697235	-31.7332742202193	-48.7211892605343	158.075913379235	-48.5788153379917	157.964983602383	-0.49960669817443	-31.9761400438047	
11231500	-0.588837644931989	-30.8327262128184	-48.3734157710304	93.3768987530909	-48.3274204180225	92.6399665928699	-0.374746226477935	-33.6015829476325	
11481000	-0.147188316839129	-30.7426593483119	-49.4131578175207	42.0294237774775	-49.3708289057399	40.1619749632406	-0.341459401883778	-33.5924946066457	
11730500	-0.0112046088003632	-30.5744936933414	-51.2920668694097	-22.5006848171067	-51.1460052637363	-24.7607028630084	-0.430707465569156	-31.1930024465811	
11980000	-0.152835320877196	-30.5882639350946	-57.0522200392513	-86.4291518523841	-57.0770451896799	-86.2551911274787	-0.417801670675034	-29.5859383358372	
12229500	-0.395675857317934	-31.6892152428542	-66.0071732954157	-102.253920395598	-65.4671456944224	-106.317661111985	-0.509230249656034	-30.3574025584249	
12479000	-0.523113442994703	-33.7941605554394	-67.1098280819865	-88.6874075705907	-67.0771221115598	-87.8061605908756	-0.556491340903161	-32.4709608805317	
12728500	-0.411495534962202	-35.9782809703433	-65.3412394046075	-109.696308343182	-65.4134040600457	-110.817328485509	-0.416813925532047	-34.6542439195709	
12978000	-0.161746778431851	-37.106988791987	-63.9206721366272	-158.821749586517	-63.5796535376526	-160.016088288444	-0.135840147976745	-35.9949905516649	
13227500	-0.00932905708363781	-37.0359912670821	-58.9943906252853	95.5374275799979	-58.7996545926116	97.5120852247016	0.0117600107458032	-36.5910225454569	
13477000	-0.0913477534845279	-36.3832172050677	-54.5607416137095	-141.774514688972	-54.3582436510499	-142.908476774446	-0.0573343899524765	-34.9161704695439	
13726500	-0.328309985818447	-36.3540309656169	-54.7360904952038	119.293283488219	-54.8696053950141	120.481171946813	-0.204631645823532	-35.4609850512262	
13976000	-0.59789062241182	-37.8096445628721	-53.145128307755	53.6601490491038	-53.3691524563879	53.3912110196723	-0.444464414835018	-37.0129946372437	
14225500	-0.759601931187283	-40.1831237533411	-49.8534760852742	-4.02453295922762	-49.7237213664162	-4.34146820602888	-0.522109399003609	-39.3067557265049	
14475000	-0.741037162393515	-41.1119061468025	-46.2787043623862	-72.3831793598378	-46.2803345202826	-72.0253522297149	-0.388091217818154	-41.3406920071727	
14724500	-0.377579389369031	-40.4437039003093	-46.4779912154774	-144.406786025126	-46.3439480780135	-144.81668063328	-0.218700807556145	-42.3682006822278	
14974000	-0.199521134796335	-39.8866161624736	-47.7221113039043	166.356706010415	-47.590467015213	166.382678621044	-0.301623679494706	-42.2188706508194	
15223500	-0.254165481928691	-38.996054518693	-47.4826652732079	117.900869518845	-47.3974905501289	118.385451795506	-0.664005628405555	-39.8291061499455	
15473000	-0.443776206865669	-39.3170269239863	-49.4735248290277	66.6577489229064	-49.3617487970463	65.9408430386132	-0.720760293894106	-38.0374075468273	
15722500	-0.617643661838844	-41.2454204108967	-52.286512765358	30.3196236712117	-51.956979624528	29.7133374096229	-0.699247521896388	-39.6090101181933	
15972000	-0.583619977354139	-43.7064284403294	-53.8297996888867	5.63093023429328	-53.7387738380047	5.05501519151585	-0.587273670793081	-42.131858144456	
16221500	-0.346061626188512	-45.4408867777866	-54.2406840882237	-15.3668739971293	-54.0437498637122	-15.8007660189617	-0.316198695004106	-43.9727811712695	
16471000	-0.116566539880784	-45.9095575897172	-53.3369641507131	-37.2705996269578	-52.9441004576904	-39.0445917937356	-0.0513410816256608	-44.5574134720742	
16720500	-0.0993533061105702	-45.5195927181312	-51.373112219249	-66.3278882276599	-51.1493004023224	-67.9175320720141	0.0184323715325561	-44.4349575990993	
16970000	-0.33972051546785	-45.0557305470674	-48.5806932074391	-100.812313067656	-48.4436407941157	-101.045659891664	-0.167406328797466	-44.5100251759002	
17219500	-0.664587760518998	-45.5061935713587	-46.0178600380011	-142.129877788401	-45.9760329702233	-142.463068754218	-0.485990290575917	-45.7211759045272	
17469000	-0.831834385402896	-47.2790047553096	-43.7960142055416	172.376768042363	-43.8157364022855	171.838577203738	-0.749157035531782	-47.9157728006256	
17718500	-0.769402299475046	-49.3369134952551	-41.7757864587472	121.055016204904	-41.6784008643659	120.901390175078	-0.834851061327773	-49.8893802741865	
17968000	-0.577680995014338	-50.2642358414534	-40.7578542727156	59.4572505735968	-40.6808511964424	58.8103750554046	-0.728793521140598	-49.7076187024124	
18217500	-0.411957431893132	-49.17645997867	-46.5499902206806	30.0024307336568	-46.484291124019	28.5932785692743	-0.329371209203161	-48.4734469515018	
18467000	-0.365625027716765	-47.6623767810832	-41.815506755751	-37.9336361335156	-41.8047356195621	-38.414467416784	-0.370743624941087	-46.8823729405297	
18716500	-0.482745695888936	-47.2744757677531	-45.3528529286511	-85.9618577193058	-45.2522264344817	-85.671280961874	-0.428544791786755	-46.6112075451602	
18966000	-0.678029840452215	-48.5608704986693	-48.1972679012832	-118.117691756214	-48.167443699379	-117.98897057476	-0.610208644443815	-47.9186804900686	
19215500	-0.729183299958083	-51.0003132834081	-50.7357536445389	-143.628791418274	-50.6138711585788	-143.761864933898	-0.662211861421687	-50.250083534441	
19465000	-0.556620362994147	-53.2597732532523	-51.8751081236236	-164.930147691495	-52.1866486306065	-164.4898975099	-0.496556486341201	-52.5039203246432	
19714500	-0.278766161828215	-54.2818784248229	-52.8546150278156	173.605302519115	-52.5106285435992	172.846032067002	-0.214784470840977	-53.6266128591421	
19964000	-0.150985218121297	-54.068397725582	-52.6798816513365	150.338135034261	-52.6729632029789	150.734118361887	-0.0592854967851925	-53.6160389892288	
20213500	-0.31895791147286	-53.4761071343532	-52.7009743457751	128.604334298761	-52.5074617476081	128.117325375725	-0.163538192337811	-53.3847463728609	
20463000	-0.662604584073564	-53.3911108692117	-52.9321314328118	106.528191297126	-52.598223285001	105.740796228381	-0.479070461411338	-53.8321104173537	
20712500	-0.913980413460503	-54.5788627092875	-51.8842963408053	88.118295075654	-51.6904982466718	85.7716733143279	-0.81171410131328	-55.4509988790178	
20962000	-0.941978304291656	-56.8599633707664	-48.6184247363403	60.7206360020126	-48.4739172585218	59.5634008297288	-0.955971757107538	-57.28741843613	
21211500	-0.783669124096453	-58.4409021618857	-45.7182865296765	12.3938594023188	-45.499777945727	10.0141709198331	-0.861608384053213	-58.1929248716952	
21461000	-0.576882498699795	-58.0575476810616	-46.4216204320347	-48.3517192751287	-46.3542570212043	-49.5710778390755	-0.639264217763286	-57.3650265631576	
21710500	-0.468730714308116	-56.2358052384763	-49.7008441304868	-101.097543727481	-49.5307649235061	-102.283589204783	-0.458572097687934	-55.7080299570738	
21960000	-0.503592003553376	-55.0088006778247	-54.0586022773722	-146.19309024139	-54.0452189528111	-149.0922143678	-0.455334715031044	-54.7908130238715	
22209500	-0.674774044070131	-55.5166234876416	-61.1864591789728	133.84236361888	-61.033353886567	129.799308119596	-0.621461487892622	-55.5661916589053	
22459000	-0.803463458078754	-57.6208806059855	-52.1729708174148	-73.6107851712125	-52.2958537614098	-72.9124467403494	-0.830354708849495	-57.5851674969423	
22708500	-0.685513204612768	-60.1807265860206	-52.9267581583947	-136.330168142893	-53.1127965306927	-136.22077871139	-0.697558915344256	-59.5771006267094	
22958000	-0.396224238478391	-61.814569239999	-51.9234311849867	-164.605462702834	-52.1618178501722	-166.665830451037	-0.407897294105747	-61.1466220108875	
23207500	-0.168983772846571	-62.0318542930737	-49.2579006961808	162.877523312462	-49.4014655960336	162.656838702525	-0.166065137528084	-61.3971074688287	
23457000	-0.185972562234762	-61.3986524938084	-46.0837199185055	117.846506032781	-46.3161214764979	117.339368294556	-0.159301676112331	-60.9881481805477	
23706500	-0.417560903233404	-61.2324671293804	-45.5378459611073	60.8562543187872	-45.728321612754	61.0856534208517	-0.370769635352817	-60.9686453082733	
23956000	-0.758034973286945	-62.664611679419	-47.3397203036458	13.632287669968	-47.5052176834152	14.2213082985056	-0.673131728247835	-62.2889007300148	
24205500	-1.01314430842132	-65.0741216417073	-49.4300397117843	-19.9816185233463	-49.2949224048241	-19.219597704461	-0.854959030779964	-64.8036236275887	
24455000	-0.998488901653277	-66.6828555566433	-50.5801581791054	-35.441001519619	-49.9549927028744	-36.1089328198942	-0.834897634054364	-66.9816939126646	
24704500	-0.767735803178276	-66.7515280563566	-47.3054483195269	-60.2672018272319	-47.0908642113112	-61.6647336505718	-0.710048651403069	-67.2551076565624	
24954000	-0.600335516275291	-65.4366625331878	-45.3247181564735	-112.169092633097	-45.2115874456622	-112.90073411421	-0.628361771130229	-65.3839933126535	
25203500	-0.609428496277896	-63.6160815269284	-46.3471311504153	-167.844665615658	-46.3130514858288	-168.231720892017	-0.593393177647462	-63.3120840136561	
25453000	-0.737852888038303	-62.8512736054421	-49.8102438830012	150.018575819543	-49.681158896596	150.595289770824	-0.670352204612614	-62.799170684196	
25702500	-0.878220736770206	-64.2200350320398	-53.1388657630365	125.290703343641	-53.493069652656	124.07966672016	-0.797173501130033	-64.5607004351937	
25952000	-0.83640356590315	-66.8554504362739	-55.6734121939359	107.503960403637	-55.7716860171896	105.614097970107	-0.799495500632469	-67.4506859707012	
26201500	-0.57308364937481	-69.0199189242755	-56.6454987705919	85.3369576870935	-56.5470721155854	85.6662576676575	-0.609024612716974	-70.0630936346288	
26451000	-0.23745220597595	-69.7318691598375	-57.1565313965609	58.7691931375538	-57.1376738615683	61.6614344807791	-0.46293331783798	-71.1415189541366	
26700500	-0.0975627072921582	-69.4641849539282	-58.8152996254742	34.963167190194	-59.2134589142137	34.6125151228846	-0.516005760067392	-69.7079011811928	
26950000	-0.246527877539157	-69.1694030084009	-62.8354711710649	13.2620300131159	-62.8245727574764	14.8549683506949	-0.598841346009939	-67.6386160526987	
27199500	-0.60088866329413	-70.0492950551672	-66.9998248993826	-5.90680779292645	-67.9769134135427	16.2272862362235	-0.752560703502051	-67.4272480178979	
27449000	-0.93640455158455	-72.1574008657617	-67.5684758915025	41.1863910487067	-66.8015839599161	35.0292190989032	-0.868139039079197	-69.3469125734898	
27698500	-1.07386853501061	-74.1427928211182	-60.0795862506274	38.3911594472676	-60.4207207900497	35.29090947418	-0.792894329353992	-71.963513271266	
27948000	-0.882965932568996	-74.5225988279535	-54.8210029389764	6.77473496064992	-55.2350033464457	3.55417905694557	-0.529983875766038	-73.959565128101	
28197500	-0.556981149359489	-73.4320354832082	-52.3061287449357	-34.2601404647612	-52.4481089284413	-34.2696380627782	-0.276562756169328	-74.4294019422282	
28447000	-0.401627335279682	-72.1591082980099	-51.2609378955211	-73.035090186991	-51.1360014768264	-73.9874871643221	-0.260241094552123	-74.1776748210056	
28696500	-0.513103673743874	-71.8214059603467	-50.1379635401205	-111.667533809225	-49.9416763723583	-110.704102528959	-0.529154165804435	-74.0304997933424	
28946000	-0.76651666625314	-73.0171880079291	-49.0310372747577	-146.740035232136	-48.8200369928688	-147.83790279946	-0.956966612973442	-74.8092684679757	
29195500	-0.925371662176738	-75.5969435737998	-48.0939342652849	173.166982265591	-47.8343405352571	172.830471319013	-1.25443186944078	-76.2415918443325	
29445000	-0.8442084032915	-78.2301293010037	-47.6648745015792	125.804948830043	-47.3693979924445	125.4563094631	-1.16690561747906	-77.0616960506542	
29694500	-0.591836911754272	-79.1884605026005	-47.9562124443688	76.8089767613042	-47.8205682588131	76.1765906696101	-0.775884939361133	-77.0864980230807	
29944000	-0.425861470368262	-78.2236683666841	-49.5190268340413	28.1922795827651	-49.2301084964184	27.9154846032437	-0.386013993727452	-76.6541446383361	
30193500	-0.451608620989369	-76.6021865751514	-52.4401439085755	-17.9844610781482	-52.2763217759508	-20.7148531728517	-0.320862418240525	-76.4680751022999	
30443000	-0.640561236583511	-75.9047641021589	-57.3859128289057	-62.4384178001529	-57.5152881715105	-64.4653673170612	-0.589104494414157	-77.0140549852414	
30692500	-0.86939411275836	-77.0170741935441	-66.2471669040564	-74.5463402076207	-65.7779332554126	-73.8566718563417	-0.991585496769103	-78.680452027643	
30942000	-0.946168393710373	-79.5517596239239	-60.465582299449	-35.585268877946	-61.2508375824237	-33.7595270257785	-1.24554322625718	-80.2877530489622	
31191500	-0.75043630057177	-81.8906213175571	-56.3934722569113	-68.8901999609532	-56.0463328707067	-70.0606324732553	-1.04701462987992	-81.0938879322545	
31441000	-0.449474219867953	-82.6663370289338	-55.0506157723158	-116.252039800869	-54.7032160650879	-116.146920210751	-0.634503013464138	-81.0565373056047	
31690500	-0.296172908155965	-81.9869407687201	-54.9883586784156	-158.788631830861	-54.5795889471982	-158.878629601859	-0.353268213023734	-80.404145693047	
31940000	-0.386342672719373	-81.2058308381481	-55.6660843946379	168.616043042581	-55.4031734562749	165.386811977353	-0.383713917383024	-79.9527806267939	
32189500	-0.680744031942781	-81.4789800095214	-56.4418694782004	137.968606509528	-56.644428789354	135.6848220276	-0.649131256009606	-80.594776626707	
32439000	-0.953883443658307	-83.4199574076097	-57.709221968645	111.650737800687	-57.6997049638547	111.234719661727	-0.906932453690562	-82.7142455373413	
32688500	-0.983575124312665	-86.0443750864449	-58.5542814448929	87.0982404580548	-58.48082754469	86.898054751324	-0.982599658087921	-85.3899845612848	
32938000	-0.80097860174748	-87.698450334634	-59.4131125118415	61.9258354667217	-58.7881679298948	58.5737748707565	-0.840102366168865	-87.335671001647	
33187500	-0.592391096893156	-87.5866270742304	-59.3846743514459	38.2542145780231	-59.5338836111447	44.4883228615004	-0.670713367242918	-87.1006574912286	
33437000	-0.561431550592117	-86.1847163455879	-59.476444983362	23.771057618549	-60.0170242050446	21.1582352905553	-0.625268408633483	-85.2723592340502	
