!Keysight Technologies N9923A: A.12.45
!Date: Tuesday, 05 August 2025 19:44:36
!Timezone: (UTC+08:00) Kuala Lumpur, Singapore
!Model: N9923A
!Serial: MY61181427
!GPS Latitude: 
!GPS Longitude: 
!GPS TimeStamp: 0001-01-01 00:00:00Z
!GPS Seconds Since Last Read: 0
!CHECKSUM:1247075594
!Correction: S11(ON U)S21(ON U)S12(ON U)S22(ON U)
!S2P File: Measurements:S11,S21,S12,S22:
# Hz S DB R 50
2000000	-0.102258272376114	-4.38142660790709	-78.6704426096421	86.3563460192002	-79.6389177621699	73.6573373147526	-0.131269138034108	-4.20665394869634	
2249500	-0.410273296503601	-5.37889578602094	-63.9032694629657	49.281415581178	-62.9408271508723	46.432012437888	-0.435558224967486	-5.24714338720789	
2499000	-0.539656845479995	-7.34288490047084	-64.7520842610449	-84.3739967381393	-65.5385647288923	-86.2621911054627	-0.556386655230366	-7.00336713883421	
2748500	-0.3774215312289	-9.2253139101775	-71.9419745163476	-135.331017409247	-71.2283586762703	-123.324958132499	-0.397267759131979	-8.93909075267505	
2998000	-0.0589261493599487	-9.97224336370159	-79.9021043291506	-65.4781503476699	-78.2467089297857	-88.3368174182751	-0.0829334411105856	-9.72833888966905	
3247500	0.140857122426567	-9.62574037629266	-74.4170139092002	-106.344401413256	-72.9350783942338	-91.1324285280572	0.105988066421357	-9.42087481675314	
3497000	0.0822372282542677	-9.04089188305394	-71.8740613457928	-119.483286914443	-73.6387683277036	-118.035467836105	0.041329656199449	-8.81923847702524	
3746500	-0.213338097338341	-9.1570416359918	-68.4508318383517	-130.922432176349	-68.5958176982203	-125.470351483582	-0.242596299079558	-8.9189888438432	
3996000	-0.507058561115524	-10.393187682591	-71.4468807699843	155.57207252969	-72.129581506032	153.165749649809	-0.514204951007226	-10.229337685886	
4245500	-0.528396618411561	-12.5078169210761	-93.0759717254106	-105.781624051256	-78.9685004761698	-115.857665498406	-0.543045324049918	-12.340093086366	
4495000	-0.279698433684154	-14.1230559853696	-73.02187459785	-96.377314069272	-73.0837163530746	-91.0074674768565	-0.302473666755062	-13.8880035385171	
4744500	0.0284484142195703	-14.4215447487767	-67.8313138350861	-108.631207541787	-66.347154208246	-107.599093061499	0.00291857922013724	-14.2175160548296	
4994000	0.142810794729465	-13.9405359862261	-59.0565318039171	-120.930930377263	-59.1496575815844	-123.093682853502	0.125211740547972	-13.6834719887474	
5243500	-0.178851848771787	-13.2003056424189	-47.7674596835229	172.293135566531	-47.9035375276202	172.230570061155	-0.0340393478117977	-13.213143027398	
5493000	-0.337022210421334	-13.1928663980364	-57.9728305652086	89.5515511883435	-58.8097662715121	87.442434605909	-0.349867768084782	-13.7009371869147	
5742500	-0.55767122444646	-15.3009488127288	-88.3477136716248	149.3303819484	-75.6724997894758	-167.537623507323	-0.571740398223828	-15.4641417197612	
5992000	-0.522300171840668	-17.688302758451	-50.3899562755341	172.102010052773	-50.2071356545797	170.33002944691	-0.521485203295031	-17.5483732104651	
6241500	-0.182374561181177	-18.7324146975398	-48.4479947856112	97.3753153492055	-48.1702442209366	96.3735320638566	-0.242629733369898	-18.5904420787486	
6491000	0.0812652733250705	-18.7710794348295	-49.8159066582736	71.2166179035631	-49.7026343045322	69.6005470114526	0.0433353420071492	-18.5894706226471	
6740500	0.105210112680178	-18.26642213485	-47.6852951798619	61.8118737839049	-47.6445993481526	61.1809954454516	0.0687333206617058	-18.1242926348503	
6990000	-0.192873633018958	-18.2734180620996	-43.1663150100582	46.1848601691013	-43.1559528113539	45.6183279481538	-0.197725955017301	-18.1819954204326	
7239500	-0.684530742416832	-18.8454997906187	-37.805190349761	3.70779521958643	-37.8823916504824	4.00322286719379	-0.623843321215906	-19.4954185291631	
7489000	-0.78339732177243	-19.9946453029665	-36.4559624094463	-46.2129631661386	-36.2710430883193	-45.0870125744905	-0.935838785776763	-21.2982096905259	
7738500	-0.562057572624216	-22.0611669474071	-34.8556465027201	-90.2800626389924	-34.6643091245113	-90.6085300457418	-0.874147583773204	-21.6016966639282	
7988000	-0.260413148717835	-22.9674934748999	-34.4242692825913	-141.336091031631	-34.2536337304482	-141.416059397061	-0.38353455743066	-21.5702875451487	
8237500	-0.0461221798115374	-21.6940766200152	-35.7352072905577	160.284376593075	-35.6418164394059	159.755698370209	-0.0800728287596759	-20.7290252066777	
8487000	0.0175558869221595	-20.748721712307	-40.654265474985	117.510303672007	-40.608226190584	117.091534225366	-0.0151250873893538	-19.9365546328155	
8736500	-0.236194586421483	-21.0004907816117	-45.0798683938215	96.0734859251101	-44.9628784255182	96.0042618791731	-0.248632534210155	-20.1615477360156	
8986000	-0.536792359022798	-22.6935774281653	-47.7562330741484	82.917357324194	-47.8055264050678	81.7130347510702	-0.535775161445784	-21.776361100346	
9235500	-0.600437986582991	-25.3705456022388	-49.132056359026	71.5051480381744	-49.1816994218009	70.8205178752392	-0.585373633660452	-24.2410750099243	
9485000	-0.371152995589166	-27.5291467704776	-49.0678983079948	57.7821319663947	-49.0734512560826	57.5971945944024	-0.350618142561352	-26.3165143278651	
9734500	-0.11380498920677	-28.2323635938166	-47.9840416135325	31.5178692509791	-48.0029753261491	30.7829567331826	-0.0256578950420972	-26.9937777041929	
9984000	-0.125471122743339	-26.1174902715128	-50.2837017385635	-44.2691624110108	-50.463062199621	-44.823218507005	0.105207216982731	-26.7242805155085	
10233500	-0.023728364835682	-25.1948385715151	-60.5366283349648	89.2174453679926	-59.5705429731089	87.5635885611872	-0.1334072979851	-26.8382126604047	
10483000	-0.339832731183692	-26.3184688955827	-55.3729330331292	85.0012435283399	-54.46792150599	85.8591965115763	-0.798799446078532	-25.4673031512639	
10732500	-0.688891046270241	-28.0725740078332	-41.6893563754027	-1.53166516461218	-41.7632083201777	-4.46012794543885	-0.803444740286006	-26.3186734847239	
10982000	-0.599206979120418	-30.5213651284387	-45.4185483691711	-60.797246130483	-45.7037400825429	-58.5254266433447	-0.671292447911644	-28.8865728674287	
11231500	-0.29613860640003	-32.2521843213005	-48.0575098039377	-91.1733217867203	-47.4554905548462	-88.6146887931877	-0.337083173460529	-30.6467613456494	
11481000	-0.0360262312886697	-32.4534005179388	-48.3156959377558	-108.268073723516	-47.679447422273	-110.29885508489	-0.0471238581378335	-30.6200750212065	
11730500	-0.0742734747156796	-31.4519829494264	-47.4903327340201	-159.805410940844	-47.2723397417119	-159.836775460422	0.0790257294915219	-30.060882920583	
11980000	-0.387020109363212	-30.3923375158246	-53.983378415056	119.302236341284	-53.3465574728129	123.609168322309	-0.206155009944241	-30.6468313650415	
12229500	-0.746836561382166	-30.0177383132753	-53.2132092496529	159.585694027375	-53.4023636714161	163.151455235817	-0.573728727339206	-29.6438878282267	
12479000	-0.778390332832828	-31.9549646641657	-58.8140520236213	118.816625197871	-58.3904331688716	121.09552537088	-0.663354911161685	-32.21477427132	
12728500	-0.552988616127977	-34.6007812627465	-63.1668925879498	105.151031211991	-62.6163187996434	103.172141600144	-0.520140213705564	-34.7051935030358	
12978000	-0.164431660546998	-35.8742241030078	-68.1102099918136	93.2105522242318	-66.9742678916433	85.0399670116059	-0.173830115215572	-35.9026031765163	
13227500	0.105746109946399	-35.6182941604486	-75.931821934102	107.398263054378	-76.3824862283265	86.984699715221	0.0755525359284132	-35.6518200923069	
13477000	0.0778310449637591	-34.8744285562478	-69.8403205026242	-161.499329793891	-71.337092699238	-148.431318885262	0.053462777260563	-35.0422373654329	
13726500	-0.213718721606326	-34.9099650888779	-60.6514949354067	-174.434638412666	-60.1875565357812	-173.122058205708	-0.233435001694382	-35.0976260579796	
13976000	-0.555650310703633	-36.4152906019904	-55.4404012146153	139.290753178593	-55.4945064584342	139.754927400124	-0.566812291014652	-36.628067236871	
14225500	-0.636969859201816	-39.0064355787079	-54.0343360863238	92.6760648321966	-54.1810902792669	92.9244813161047	-0.657519702378809	-39.1620223939046	
14475000	-0.39001336526993	-41.2346599304305	-52.8891579449655	52.7915430742126	-53.1124183296425	54.5279371316149	-0.449455287994297	-41.4563423746797	
14724500	-0.0654786145053195	-41.9129567808561	-50.5107611536089	-2.82811591726176	-50.2002113504684	1.88257346981642	-0.237689147634069	-42.6576223239101	
14974000	0.0362628838588763	-41.1458387269822	-49.1761188819005	-154.047785338427	-48.987244389937	-149.833006588165	-0.404834845959092	-38.9357047793858	
15223500	-0.102848252188352	-40.2570498939635	-53.5734427091724	93.9223828741623	-54.1768563566051	94.6786615490997	-0.0794994083803675	-38.2367845058967	
15473000	-0.501106598385053	-40.8179388816261	-50.8951817563964	50.907782852489	-51.0219030291537	51.1923812648024	-0.391085290106209	-39.6292989043166	
15722500	-0.906161847462835	-42.749006985289	-46.0329931772948	2.52545616768915	-46.0296694935835	2.32027577663683	-0.707800020939464	-42.3890044824088	
15972000	-0.763448593218514	-45.042654085897	-46.8634033997247	-68.8494622898121	-46.9744208031277	-68.9619215156281	-0.808200969090991	-45.8988859947305	
16221500	-0.470634821320041	-48.209394230143	-51.2235792682608	-59.2800378109071	-51.1914822596269	-57.1845537506044	-0.827345983992838	-48.4096824713598	
16471000	-0.477473535103656	-49.2806569206988	-39.5546011044854	-92.3763337101317	-39.0805598209534	-91.9316832599076	-1.14717167368254	-45.540110831754	
16720500	-0.93447293445417	-45.7566837403986	-37.0603231578803	171.204204636357	-36.8421429208225	171.239668590256	-0.502038600033115	-39.7513228546231	
16970000	-0.905829229606895	-40.779668903296	-40.9034621230483	96.455670236443	-40.674690576122	96.8999991082394	-0.296604095907968	-39.8373484138505	
17219500	-0.931772526810332	-41.2900958319099	-45.2913968529598	45.0372130962549	-44.9910871337209	45.2341702656175	-0.522782265051588	-41.6290716538638	
17469000	-1.03708463535937	-44.2943450424083	-47.7986837218287	1.78251098771077	-47.5884740578319	0.879761167206968	-0.710398998702178	-44.5678148068287	
17718500	-0.925432809652396	-47.3678331332261	-48.3478978935768	-45.6218075497057	-48.1775997580679	-46.5578542141308	-0.602842953422078	-47.67786971706	
17968000	-0.651694999671133	-48.4351666585591	-47.3006484020991	-104.16974364925	-47.277911482796	-106.469735932831	-0.296343530300989	-49.5660943199449	
18217500	-0.335591619403426	-46.9350685061278	-46.2763786222365	-170.41909496046	-46.1621867166413	-172.401624767005	-0.105374615619127	-49.9399106727311	
18467000	-0.187172987885744	-45.2966502548523	-45.904067012237	128.209037817631	-45.4947615997112	126.628320731709	-0.368959641302217	-49.4663073552156	
18716500	-0.365016994321516	-45.1053132379606	-45.8176877136957	70.9764388704046	-45.3728951055083	68.7539205337772	-1.03289833157187	-47.7837512699036	
18966000	-0.675887475364189	-46.6482466176336	-50.2325026542974	17.5545326782143	-49.6571095482972	16.0550060371915	-1.26622718204504	-46.5731566641332	
19215500	-0.780310057821672	-49.5567479453229	-47.5208715640386	-8.25345565315905	-47.0718430442888	-11.6193626335457	-1.50905579193571	-47.3970333211901	
19465000	-0.558961933865476	-52.1799860989369	-48.7059207491875	-46.0401498615281	-48.1681126897223	-48.6371997215462	-1.06254584948962	-48.910413103953	
19714500	-0.176650155449192	-53.1564569163173	-49.525291994629	-73.9296265062986	-49.0036106161327	-76.9338851164814	-0.527465540618583	-49.6806601313964	
19964000	0.0421949095194814	-52.6068267915545	-49.4735589009144	-100.233839507074	-49.0695872195044	-101.922875245535	-0.161603140779513	-49.0076023586815	
20213500	-0.0879219158519256	-51.824916293066	-48.7352101471171	-126.392661231572	-48.4329522402608	-128.247128509067	-0.137198818769191	-48.232436642514	
20463000	-0.494820319438276	-52.1464304566702	-47.7556191888239	-157.621692227933	-47.5991641185695	-158.594300750984	-0.409507404971191	-48.4275090070098	
20712500	-0.921885016696059	-54.0516791662569	-46.8071264311185	175.06914443928	-46.4032743724773	174.916965395039	-0.716535995662225	-50.2062585512088	
20962000	-1.05079783628097	-56.3640908744615	-45.2589743755613	135.559481418624	-44.9981412057258	135.913344036807	-0.735041401155028	-52.9290414126034	
21211500	-0.765758185170203	-57.8936785777083	-45.1282031630966	96.3647797555336	-44.8001244028476	97.1413551950353	-0.461127427124237	-55.0993413591648	
21461000	-0.463595754770674	-57.9150116124086	-44.2942457371889	55.2062049018962	-44.0587796409848	55.3206625744024	-0.0996263389286275	-55.5914832418649	
21710500	-0.512290223946709	-54.7575670708349	-45.5646617217215	-12.4462250984522	-45.4299124689272	-11.615794569818	0.045491326741342	-54.9683239466828	
21960000	-0.272960793498242	-52.9118918295164	-62.2063911858722	-51.5367032865931	-62.4373189070948	-47.2360593794804	-0.1143675819155	-54.3865726462938	
22209500	-0.540304925247259	-54.3524259626158	-56.9353590978085	36.8416615066601	-55.9294176109544	33.3695109200138	-0.477165303722117	-55.1402901536822	
22459000	-0.782321967363784	-57.1808001406289	-51.2722733847922	17.3968428601198	-50.7917353019831	15.3534022447386	-0.727741582802509	-57.5282519351534	
22708500	-0.697699046206641	-60.41895445683	-46.6820480879181	-9.80267049120143	-46.5813497222017	-12.2796808753871	-0.681797206213948	-60.2722771324968	
22958000	-0.374868896241231	-62.1700019674589	-43.3167248245232	-53.9971162022942	-43.6405409013668	-56.2933497134048	-0.387341773676796	-61.6349901897721	
23207500	-0.0649598095973014	-61.9722235842313	-44.0410184440645	-102.659284397642	-44.4695939024019	-101.924871303843	-0.0596976390980663	-61.2256889886621	
23457000	-0.0459025278814255	-61.1479946489341	-46.0124619168265	-132.152173281159	-46.2898549007047	-130.396629371035	-0.00497530039916132	-60.4334131727774	
23706500	-0.382043772208823	-61.0364636621899	-46.8592973913839	-150.621446797346	-47.3140770214078	-148.704138509536	-0.270299708932465	-60.3791189420502	
23956000	-0.876357408016854	-62.5289064218077	-46.9611948615005	-166.470470465018	-47.4222144093934	-162.570937652849	-0.66835802719031	-61.9570238601013	
24205500	-1.21080561449175	-65.1713212881892	-46.4619883378896	177.759083809772	-46.8286380934968	-176.573503424519	-0.877192046631742	-65.1457340385638	
24455000	-1.14572199679194	-66.8986148892721	-45.3686656087556	160.693294981472	-45.5034691986258	167.213779686565	-0.770986255474873	-68.1669827732823	
24704500	-0.762159377861277	-66.6588450134539	-43.9411498150346	140.424241522482	-43.7742220657394	147.658364687326	-0.522941389174952	-69.3729083437218	
24954000	-0.433947586526884	-65.3284282342617	-42.0501631820598	120.074373814406	-41.6076486603554	125.828539381889	-0.522315568426446	-69.0270220421255	
25203500	-0.46898537462203	-64.1229604155806	-39.7340383090604	95.6115594417021	-39.2257311927313	100.067970186187	-0.98397462783258	-67.71876581655	
25453000	-0.855633589203637	-63.7771728569227	-37.4071222835465	63.5161413287099	-36.7668594024551	66.59623797785	-1.76421538109949	-65.3837165324809	
25702500	-1.2988122313778	-65.1012771727464	-35.7899010235458	23.8517047101953	-35.2779132103729	26.0378938697075	-2.28419112827146	-63.1978239053595	
25952000	-1.4381296421788	-67.3507159219572	-35.5662476733421	-18.8963286978601	-35.1372703757165	-17.4886435246192	-2.09742370969325	-62.9071038723856	
26201500	-1.13932316408621	-68.5580963978182	-36.799144142129	-55.8859652620038	-36.3973663785698	-55.1335067545336	-1.43391580953715	-64.4986600974319	
26451000	-0.62620507965793	-68.0930908363609	-38.6074137784859	-91.4648188088892	-38.3131983927214	-90.6630810548571	-0.723668323075183	-64.7534872436161	
26700500	-0.314580379616674	-66.8221854805348	-40.8971711590292	-117.361871556316	-40.5489495445417	-116.489180638678	-0.319197327566485	-64.1351694528934	
26950000	-0.37151133211055	-65.7885182332156	-42.7375982936561	-136.688445207799	-42.4462514862067	-136.164897185262	-0.320483784446955	-63.512928127553	
27199500	-0.69244179308425	-66.3519603388146	-43.969327281303	-151.690500123187	-43.871635312293	-151.065022929339	-0.623896999091194	-63.9762470651584	
27449000	-0.958358487334871	-68.8135286203204	-44.5099492621612	-166.833209422457	-44.3329022765695	-165.489326308676	-0.883873547540942	-66.3487415669082	
27698500	-0.923763182544169	-72.069400857688	-44.5790240561133	179.693524964949	-44.2234494317426	179.425611890208	-0.847013447762099	-69.4758059791316	
27948000	-0.602611370920114	-74.1704488952197	-43.7535423009542	160.633342082975	-43.5295094929704	160.237561008638	-0.514594936075892	-71.6827061417453	
28197500	-0.310206604192243	-74.0207307544952	-42.753258446279	132.948411772671	-42.5806158959903	132.632240074579	-0.158127812508115	-71.8643180485396	
28447000	-0.215417086135357	-72.3883505011192	-44.7154970820416	92.6902572231688	-44.4951709819485	91.3781128393191	-0.0548604330200159	-71.0195566146221	
28696500	-0.457859501325372	-72.8928765467853	-47.308974475186	113.570843153012	-47.2404619527366	112.826761275566	-0.278467382229301	-70.5428837623328	
28946000	-1.07066462048797	-74.1016200612256	-42.8888127691507	86.4368920455793	-42.8447967369744	85.7074400565168	-0.686632467082396	-71.6415939421178	
29195500	-1.4676245014039	-76.5458255288041	-42.0636064421467	49.4478355965335	-42.0999023157868	48.5172688801862	-0.953200042074246	-74.6342936338688	
29445000	-1.67414402758964	-78.3083707380098	-42.2367020050693	9.64241151971214	-42.4532083802131	9.61275072979675	-0.943119338162059	-78.0543587113703	
29694500	-1.13361697457209	-74.8067677019072	-44.8831333465323	-26.1888476118422	-44.9910773716628	-23.2669273562661	-1.02051707670242	-79.1349770741019	
29944000	-0.374375082854988	-73.9013004732803	-48.6033102488235	-63.5237865064677	-48.5557593925403	-60.6227339459641	-0.752875983051218	-73.6897567804905	
30193500	-0.251231859993626	-73.4129948648142	-56.2875002605726	-69.597972000414	-56.6492319271458	-73.4613504198714	-0.268858757677797	-72.5200551041164	
30443000	-0.527750903961967	-73.5484922970674	-58.5666982881174	-43.8885454948461	-59.0536576442261	-37.8084146137628	-0.460330358160641	-73.1781380710064	
30692500	-0.901660568494498	-75.4321660408936	-55.9214366101465	-31.9226717042801	-55.7037323200321	-27.8494276333393	-0.819450995154811	-75.7494930231863	
30942000	-1.05114360260957	-78.8078861692928	-53.4256360622551	-34.8551379560643	-53.0959190901346	-36.2374799869185	-1.00215411241695	-79.5292778286835	
31191500	-0.806805815508076	-81.7745990909462	-51.0792878814743	-48.9383348992745	-50.7350769526104	-46.4959747468196	-0.839972412258323	-82.8656407512282	
31441000	-0.434408030588044	-82.7680523226838	-48.7144455098929	-68.9918566724166	-48.3408257668096	-66.6980944600273	-0.628257441933973	-83.9597711178076	
31690500	-0.297188142651188	-81.9232598052912	-47.9595593264461	-91.5784697595785	-47.5618787639519	-92.0124696416122	-0.60692242746028	-82.1258053946503	
31940000	-0.524333633635115	-80.6755924868127	-45.7236709399303	-106.499368340677	-45.5580876058378	-107.903481946738	-0.854685904714762	-80.7487172866912	
32189500	-1.01666057338605	-80.4020538502242	-43.2628573367136	-141.112428191218	-43.1430229284342	-141.613821344058	-1.57571959834878	-79.3560526076532	
32439000	-1.46217967258061	-82.1023370072582	-43.1227520560444	179.664189660228	-43.1368112317137	-179.894460846957	-2.00533377891537	-78.2458134458074	
32688500	-1.55162891718817	-84.5609168347058	-44.4012026331287	147.419333574539	-44.4889354342588	148.683517785306	-1.79698603769531	-79.2049392583942	
32938000	-1.28794215339279	-85.373291552933	-46.2194689351299	121.522148484286	-46.0487499051755	124.071321735944	-1.17514862041932	-81.0975823763688	
33187500	-0.877727466228889	-83.760499013898	-47.3683787088844	100.274623239196	-47.2359403363229	102.902014594282	-0.547934385622093	-81.6528753736807	
33437000	-0.601880371126881	-81.1793048299613	-48.1096800464823	81.8209100863019	-48.0141244469137	84.4489151520394	-0.24552340142542	-81.14782594333	
