!Keysight Technologies N9923A: A.12.45
!Date: Tuesday, 05 August 2025 19:53:03
!Timezone: (UTC+08:00) Kuala Lumpur, Singapore
!Model: N9923A
!Serial: MY61181427
!GPS Latitude: 
!GPS Longitude: 
!GPS TimeStamp: 0001-01-01 00:00:00Z
!GPS Seconds Since Last Read: 0
!CHECKSUM:1878240274
!Correction: S11(ON U)S21(ON U)S12(ON U)S22(ON U)
!S2P File: Measurements:S11,S21,S12,S22:
# Hz S DB R 50
2000000	-0.107384399646582	-4.23270983041915	-76.9325465868097	61.2843172171201	-76.0219801891632	72.5090048308856	-0.141772907995342	-4.10293934644743	
2249500	-0.426375453670285	-5.24554410568813	-64.1955463822715	54.7885230495553	-63.104057569186	55.8745211202411	-0.457196046212528	-5.15641965966739	
2499000	-0.562023133373524	-7.2544279967349	-60.9214200552742	-79.8914309001227	-60.4874282445945	-78.6705946588944	-0.593990764585771	-6.91920897973463	
2748500	-0.396704590944127	-9.17870875233336	-71.5661958730461	-142.072608102914	-68.6419801015166	-137.392353080247	-0.423969172656918	-8.94991239937656	
2998000	-0.0654272338070251	-9.94077430480636	-74.327770004695	-78.4007393167337	-73.9383815216743	-95.0073126378939	-0.098131422738568	-9.7624913356885	
3247500	0.142013738932455	-9.5768174764873	-73.9607878363027	-121.768521622548	-72.6790154271223	-116.424111964423	0.101729312254432	-9.32302540647042	
3497000	0.0777719048490084	-8.96231027786006	-70.4868548059064	-115.854600325278	-70.9176333603048	-116.304542296887	0.0328659684305425	-8.74936382135838	
3746500	-0.227478570623211	-9.07921583752452	-69.3717201183303	-132.659810101655	-67.8580979218579	-119.795232786838	-0.263942932571129	-8.82576844014019	
3996000	-0.532616377359369	-10.3817732229864	-76.3583178896184	159.61642627124	-72.3922340374232	153.454216107707	-0.548350907621227	-10.1940640226817	
4245500	-0.555492778184276	-12.5590675456264	-83.7958784417522	-124.947757286916	-81.5335641274135	-126.277288071958	-0.582590168970195	-12.4051572546608	
4495000	-0.2977068193555	-14.2076067009958	-76.2764016715838	-113.939483106373	-75.3654513534591	-93.6949140974366	-0.331571710990616	-14.0129657187641	
4744500	0.0183496744787001	-14.4813845727676	-68.750504563254	-102.565245103341	-67.1834292791916	-112.040878235672	-0.0151025981994089	-14.3512191542613	
4994000	0.139829142414636	-13.95199007048	-61.292336846114	-120.562517995181	-60.9919016308774	-120.0225321446	0.112767293434042	-13.7696437773551	
5243500	-0.0297246036142722	-12.8004571345688	-61.3922999663803	108.534319177193	-61.8630488056714	107.701687238697	-0.0467958888011366	-13.2490903566001	
5493000	-0.350749142195933	-13.6582938288861	-66.3948105040234	-126.4767095084	-66.1122982885792	-119.155211145438	-0.38151674625462	-13.76663327639	
5742500	-0.616054706402944	-15.7185220353774	-56.2723745160982	-149.480430666989	-56.4464913978364	-148.556334006508	-0.609254902267349	-15.5596930552023	
5992000	-0.584201036081032	-17.769689261331	-47.7917073070099	154.372698740828	-47.7533062920905	155.247420388125	-0.555825377258179	-17.6756250969875	
6241500	-0.201255838200762	-18.8414392881074	-50.6326043020889	99.0319294587935	-50.6538685621425	100.688012683963	-0.240319709286808	-18.8071575547715	
6491000	0.0822811729740258	-18.8007344082267	-53.0609742048282	84.6642042953777	-53.0002613449752	84.9011933044048	0.0461064878362195	-18.7217922709157	
6740500	0.118948059110896	-18.1366835374422	-51.5609941238184	75.5509951743496	-51.7582475736441	75.5687837218639	0.0770670928613957	-18.1629627653813	
6990000	-0.140501883550394	-17.9471579643247	-48.3426557035232	64.4585571512938	-48.295678815829	64.4883117954132	-0.182125903019871	-18.2168378234982	
7239500	-0.538661524999638	-19.0278358738445	-40.0293442427145	36.1542217718059	-40.0972871523664	36.644185856127	-0.663718781762148	-20.6219679255386	
7489000	-0.692928007881432	-20.7981831521592	-42.3001707781856	-112.072698569962	-42.2004565254623	-111.577929135019	-0.762648631717486	-17.9552042676028	
7738500	-0.516066650758438	-22.9194631284034	-54.6480039195212	-129.938165425247	-55.0392199511251	-131.273117235946	-0.479976370949936	-21.5520079512895	
7988000	-0.206906944004206	-23.8653817548333	-66.9098791757825	-130.846968503713	-68.0195346755188	-132.561213102185	-0.13494975116122	-22.6534729919005	
8237500	-0.110866179156698	-22.6424553155834	-57.7781091197312	-26.9486475277254	-57.6113488940118	-25.9543651163588	0.100940876612418	-22.2533363392551	
8487000	0.00959281484633441	-20.9825702290265	-54.9451700669073	-83.0106842837181	-54.7026787602027	-82.6844388409755	0.0477223440460645	-21.4669448837455	
8736500	-0.242635451687369	-21.3385133689411	-56.1822372800292	-104.082365012437	-56.1219427270352	-102.042488288994	-0.248765808554605	-21.4470142660662	
8986000	-0.556143241408422	-23.0667626333203	-56.7639330709932	-110.436816244563	-57.0122809047026	-110.451215972722	-0.56689605919745	-22.9303224712892	
9235500	-0.614508753098873	-25.7429502041141	-56.9620161505812	-118.169786908105	-56.8970097420386	-115.723538761682	-0.62646304024651	-25.3323331557836	
9485000	-0.356777978671382	-27.791853164617	-56.8015596176506	-125.198752452572	-56.5871547959709	-124.114479729698	-0.385397146059099	-27.3185411742437	
9734500	-0.00799291489096124	-28.3068792325501	-61.1759052259627	-116.938282059963	-60.2916234983192	-116.514587530558	-0.0640914786397014	-27.814322433207	
9984000	0.131417367027037	-27.7298207221314	-50.690812883595	-117.002868969948	-50.622638257083	-118.985981345521	0.0898289790297233	-27.1082302552012	
10233500	-0.0475276650544229	-27.3598220623785	-46.868155248462	-133.3416343903	-46.8049069808454	-133.409367077592	-0.0702811410670871	-26.6422922472993	
10483000	-0.484868323667418	-28.3634861486755	-40.6491123342986	-159.698978962306	-40.6283029330478	-159.535151817417	-0.473135376430403	-27.4184718806422	
10732500	-0.865332626058031	-30.2393248794041	-37.4083366644427	126.90136594037	-37.3632570465282	126.876932226736	-0.850155666669346	-29.1101120291083	
10982000	-0.98054551201132	-34.4255917778897	-42.071679932873	84.9504531928266	-41.9483819144043	84.679375564978	-0.834094671508006	-31.8982561399966	
11231500	-1.68623786388518	-32.563501744145	-41.3898949152759	95.7919473483855	-41.3480019711199	95.5283662019503	-0.770466396292061	-33.9308681445934	
11481000	-0.419750623373158	-27.4009127420907	-36.8079203333426	17.4615522542011	-36.7527684938039	17.3781119328813	-0.805304095792297	-29.6143996839093	
11730500	-0.0387401116219072	-27.6712754120216	-48.1299728941255	-53.7069083749788	-48.1109743253083	-54.3923223014955	-0.00447770992679453	-28.4913493273552	
11980000	-0.17750057196661	-27.7925461693148	-49.3453447908254	62.8665835799903	-49.3296487482984	62.2251839594811	-0.290597092690405	-31.005225987786	
12229500	-0.513687002043276	-29.1896103178296	-40.023249792045	-9.15500478495538	-39.9741103266585	-9.3325443605604	-1.43314626696023	-29.1633453884679	
12479000	-0.699906354684034	-31.801270048231	-44.0151497051481	-65.6195796802525	-43.9627306466497	-65.8946462382641	-0.954400143054255	-29.0485820290423	
12728500	-0.545084714996452	-34.4968361262169	-47.5692576647676	-88.6969550351345	-47.471406519395	-89.0784445499507	-0.624488704220684	-32.5834290380785	
12978000	-0.18126536203172	-35.7089637627024	-50.1407879103827	-108.868579041579	-50.1700729994718	-108.945200167261	-0.210025244649454	-34.497851133037	
13227500	0.0767513987247183	-35.3407753952734	-53.0173836273629	-134.158418807726	-53.1071680761922	-132.212259780313	0.0696080326860369	-34.7799516986344	
13477000	0.0163300865123547	-34.4982830474647	-60.3797223455956	168.26326792496	-60.1190233795963	166.113265342447	0.0351292026996679	-34.7456847186075	
13726500	-0.350390356161443	-34.2615369794705	-47.677686359301	14.6351928038138	-47.5207221878778	14.052684510507	-0.368532591369205	-35.8764018196425	
13976000	-0.699616655810683	-34.865204906719	-36.2999709980048	-81.232680389863	-36.2845175415297	-81.832874809806	-1.31513038937413	-37.5029362694419	
14225500	-0.711056576093018	-37.5422100145492	-37.6904639828218	-174.138637756573	-37.6101321849397	-174.166856323163	-1.40440993927297	-35.148856444452	
14475000	-0.431833371948312	-39.8523564801991	-42.8781200912325	133.214669163145	-42.8645227665492	133.437971377347	-0.789860367490367	-36.4596495035989	
14724500	-0.0866022559249641	-40.5935622536577	-49.3619853052549	103.038741710949	-49.1433510555439	102.091811770173	-0.24846015342768	-37.4125724577973	
14974000	0.0300725036895149	-39.4401213850855	-51.2636250080619	121.191189057865	-51.2215296148738	118.817009858748	0.0389488424704674	-37.211822151108	
15223500	-0.0622332485169392	-38.3766567941259	-50.6930850549653	88.5555740483272	-51.0667532995699	87.5933794776371	-0.0417720714298002	-36.8518428136884	
15473000	-0.416644012924349	-38.6635921751316	-53.9120080321392	41.9305511770232	-53.9490719354834	40.2766050908738	-0.376746354387716	-37.9478233741561	
15722500	-0.670251942093447	-40.9579327453403	-67.5890364019263	-121.016551944978	-67.1529750425364	-119.866288707749	-0.879969380763457	-42.0210531036044	
15972000	-0.670843010205614	-44.2279802942531	-50.4103053003654	129.657845757551	-50.3144042122589	130.233334331732	-1.18241050185591	-39.4354426287246	
16221500	-0.38379545996399	-46.3399120596797	-49.9121742626509	90.8665504352204	-49.8521174346164	92.5833438493396	-0.516366062539349	-41.723087706095	
16471000	-0.114258714314186	-46.71950687018	-48.7370364733964	70.0448049987993	-48.5484517798362	70.0812888771276	-0.0937655280162006	-42.2565066610793	
16720500	-0.178333132751948	-45.9645573272193	-46.8326363046669	47.7765289303996	-46.7372528411021	47.371497303289	0.0505134234821634	-41.5832288863084	
16970000	-0.673904963216922	-44.5045249626529	-44.5721157470095	15.9234292014633	-44.6013669355248	15.3143274481887	-0.138086408495021	-41.0329597148247	
17219500	-1.14883800239712	-42.8633742884889	-43.9259108712185	-24.7106513043047	-43.9252866695483	-24.7469985271661	-0.492409128132348	-41.8773840987758	
17469000	-1.16442073016457	-44.1367268069234	-44.943506800308	-59.7582313632391	-44.9476300728842	-59.4798112019775	-0.718499076437805	-44.16940868973	
17718500	-0.899902185570594	-47.0392259229986	-46.1067618052356	-85.2544236067362	-46.1061637189274	-85.5787036652763	-0.60575089958016	-46.7847337220029	
17968000	-0.512861274773584	-48.7654149446349	-46.5874176389125	-110.238216484395	-46.4917864141725	-111.067823203649	-0.252163772290241	-48.1030026059342	
18217500	-0.283475826450398	-48.2975621677069	-46.4799300946393	-140.520213147152	-46.4356943748508	-140.360490688594	0.0559970855232873	-47.7368701538805	
18467000	-0.347364085664106	-46.1652104945143	-46.9944843103303	-176.390945390674	-46.9082972869613	-176.486810371943	0.0548933376640215	-46.7584965352343	
18716500	-0.553581160264123	-44.7369345588075	-48.5485974671593	147.586683869868	-48.5240560505876	148.572838077401	-0.233428742463548	-46.549468626606	
18966000	-0.801622961517577	-45.7891714369141	-52.8188519521058	126.826563871444	-53.0710483274555	128.184725972941	-0.642879701321779	-47.6415678164158	
19215500	-0.851184836634809	-48.6980737912817	-52.4527028525307	101.069784636667	-52.8437223484551	101.159777211933	-0.732782691031087	-50.6011417522504	
19465000	-0.581764864615224	-51.4138398494858	-53.2459126575763	77.8443113018689	-53.4136260905538	77.5327485786847	-0.532950600732119	-53.3970251217932	
19714500	-0.157144382347	-52.4094972634453	-53.0283634201173	54.5402570371373	-53.0565895649846	52.8713577301559	-0.17899236442145	-54.7632698805995	
19964000	0.0990542058155371	-51.788545259737	-51.0056274707173	16.2590506670419	-50.9981195880365	15.7603237819236	-0.11352557202938	-55.1914669746063	
20213500	0.00819433730052659	-50.9097728063474	-62.8537111624766	-4.34042082542787	-62.9659506535816	-7.44826142028547	-0.164973964794995	-52.0320661245651	
20463000	-0.342989709390787	-51.2272314505638	-51.9879884020008	-27.7438443400699	-52.1091554195926	-27.289925184989	-0.788221920515377	-55.0535284356214	
20712500	-0.678810218494121	-53.4865472569608	-50.4829162724948	-106.828718019148	-50.5885224878043	-106.692906833755	-2.13682167975228	-51.5000750797217	
20962000	-0.77027291764686	-57.2610736125405	-53.6215732620578	-102.163669575421	-53.6817814555538	-101.973622255299	-1.21115039681673	-50.5520132646422	
21211500	-0.813701940972274	-58.7097961529336	-45.5851250949008	175.088386853098	-45.7297172558009	174.042102533033	-0.62171195672982	-54.0576907897098	
21461000	-0.323610604355745	-56.958427933315	-48.0866603330896	83.4420197145309	-48.1371929963623	82.8686883236004	-0.15908022828477	-55.2202698935144	
21710500	-0.02489176074102	-55.5892851685451	-52.9852947573742	13.7622329370708	-52.9404357860598	13.6887512014731	0.0240189261035869	-54.9416317667518	
21960000	-0.136993016405457	-55.0401661106828	-57.5044337758862	-41.763242292683	-57.2206369202876	-44.1060255749113	-0.140493428663458	-54.5524839162315	
22209500	-0.490309101965028	-55.9773622499153	-59.0254730654564	-92.3151134467633	-58.8201530069665	-90.4448932400542	-0.51809480745711	-55.4334213391295	
22459000	-0.746361800974052	-58.7448451071275	-58.0374530793638	-130.934171594213	-58.2004883685366	-130.946472255509	-0.77410792018377	-57.9791735368735	
22708500	-0.65185364342465	-61.9738317603126	-55.5344913741911	-175.051910892072	-55.8149822764346	-176.968188276432	-0.706667046640879	-60.9027030160156	
22958000	-0.300922803065551	-63.8028907947674	-52.7227621703965	132.337153670502	-53.2632487099995	130.986031978411	-0.378258721453057	-62.5557011775814	
23207500	-0.00286094071742955	-63.7794227428663	-52.7080423645502	76.4709857807632	-52.8947274763976	77.1415339447365	-0.0661565841534482	-62.4073885215175	
23457000	-0.0161746346231458	-63.1045490327148	-54.3226541474977	38.7392850912294	-54.5637410587976	38.7048784418978	-0.0461049386935566	-61.7530610284527	
23706500	-0.388614236561299	-63.3700173753084	-55.2104298473882	14.3623501625037	-55.694499572665	15.3436655349383	-0.364221824761497	-62.004961871479	
23956000	-0.925505184552619	-65.6994498932471	-54.8886568982875	-6.77526653977158	-54.9741780121709	-8.1909870158592	-0.841365516882694	-64.188992022882	
24205500	-1.35280102028927	-69.8912985377772	-52.4294347467759	-31.0109792648263	-52.4803423723614	-29.5584072279961	-1.16753016491901	-68.4006571176036	
24455000	-1.63272428194134	-73.3281023005223	-48.7804533563158	-61.2550815968874	-48.6678294045292	-60.227439375609	-1.30366095855486	-72.6891766031868	
24704500	-1.9578464874102	-71.8287322373659	-44.5665335694423	-114.403470906636	-44.4442754895107	-113.837816730731	-1.67621962374837	-74.1285083696866	
24954000	-1.92441278182478	-64.1646292865143	-42.804328560739	168.388920966799	-42.7647053370027	169.188332951366	-2.51638643623993	-67.0476866746054	
25203500	-1.45629941865714	-58.2490009043128	-45.7381811774374	90.1768624683254	-45.6348205982141	90.645458250491	-2.13778662230436	-55.3909193196397	
25453000	-1.29956894433541	-56.8584733454782	-51.8113569894649	31.7543799956668	-51.5633529364313	32.386284601697	-1.50652940190531	-52.9931271394331	
25702500	-1.38791837846869	-58.7965094087351	-57.7265550494397	-5.73776980870948	-58.5168574320599	-4.74712489895553	-1.37872898133156	-55.8957322772063	
25952000	-1.30091206869917	-62.4555417469475	-64.4436099070505	-23.3045224266705	-64.1230453266416	-31.3103501862477	-1.30360242205936	-61.4547829356277	
26201500	-0.901300284264598	-65.3747175356993	-61.4123382715556	-29.5950425680525	-62.0060629845552	-32.5123375895878	-1.03565143926671	-62.4810600451578	
26451000	-0.39850164821819	-66.1774007586428	-63.0359032013759	-47.1584939271188	-63.6347018765361	-59.0766755022722	-0.425364215662073	-64.0479265280319	
26700500	-0.138380209897753	-65.4845264760148	-63.5478854021169	-68.83218691554	-64.7086571383606	-72.310496031638	-0.126174815674835	-63.5956135049629	
26950000	-0.248121918554112	-64.6565444948645	-63.9160080321237	-82.6188699338399	-64.6108226743261	-87.6479013143935	-0.194761164235032	-62.8433703536699	
27199500	-0.621751914117506	-65.4881716597816	-61.7316645568802	-73.2111450957235	-61.3199488295857	-75.7426852874663	-0.547950632304437	-63.1435017041293	
27449000	-1.15744157374324	-68.630595572228	-48.3699123744724	-100.171622920289	-48.6637883619415	-101.006806235483	-0.848985846048325	-65.4242343073321	
27698500	-1.01060862445979	-69.7903406418974	-50.2169537134238	174.643107709774	-50.0810587371703	171.22372614434	-0.832047430527912	-68.5881789424368	
27948000	-0.6015291461491	-72.041426937161	-50.7240510358258	135.692769028076	-51.1472572138157	134.589586020685	-0.497610780319414	-70.8105375730427	
28197500	-0.233363466133533	-71.6987141662287	-51.9365271562765	76.2157129325474	-52.2170585114527	76.6849644785379	-0.119245568616256	-70.9314462918794	
28447000	-0.0852985300289052	-70.4294083952481	-64.7919473459222	33.1155235182701	-65.8581932391955	38.1338244815945	-0.0059288116071279	-70.0301929086883	
28696500	-0.3216804807961	-69.8825422608342	-60.9724828621324	115.419446576914	-61.4013289742656	116.898379740004	-0.231628072609064	-69.2609966712382	
28946000	-0.728762761276832	-70.8717997868352	-56.8494496684592	82.0456844871368	-57.0512578611298	85.2542159846115	-0.626786535748026	-70.0739724127228	
29195500	-0.957902700340779	-73.5856593560144	-56.4856064163017	49.771608325923	-56.7381927422085	52.1650144836007	-0.862028276565256	-72.7783968126398	
29445000	-0.801664866945172	-76.5270573318126	-56.2407414478708	24.3168461620683	-56.7502949056286	27.2498620197236	-0.732506836784896	-75.7874658377625	
29694500	-0.383451293583304	-77.6659403743789	-56.0909664712133	4.32856724617093	-56.0547614632308	3.65173472555221	-0.447371087927618	-77.6117995520472	
29944000	-0.0981444798215978	-76.9223741312297	-60.5522619958302	-14.9714544560388	-60.7520927312654	-18.9419315605985	-0.22423260398642	-74.9666795451674	
30193500	-0.158203968910074	-75.6451940308517	-59.283321594923	-14.2434202574754	-59.2254783206982	-16.0755062334943	-0.0886805133569789	-74.7610072456677	
30443000	-0.524020723534959	-75.3255116217629	-57.5148764450381	-30.3315775059097	-57.75787473786	-25.9690199753089	-0.433796653057529	-74.9010068665426	
30692500	-0.954055161173721	-77.0267790318105	-56.636713217842	-42.4998369932029	-57.2775533952658	-40.6419299975037	-0.843294701985619	-76.9113487362066	
30942000	-1.12936566575392	-80.3759913000655	-55.0926255384651	-55.4370382070396	-55.1802419395066	-56.7974023852393	-1.02147950854073	-80.4133852316033	
31191500	-0.898101136781549	-83.224560967562	-53.2460167649728	-68.626535501366	-53.6394125900807	-68.41017616193	-0.811124575293418	-83.5235142424278	
31441000	-0.529884553405847	-83.8765806546376	-50.8613498322587	-81.7643142450918	-51.4396518264761	-84.9932295150098	-0.50290843878185	-84.5748553334956	
31690500	-0.393293346793392	-82.5972186928993	-47.1742890217711	-107.519073825131	-47.6109258834379	-106.849802241739	-0.422716011727958	-83.5930754870327	
31940000	-0.618851363453426	-81.0062810838757	-44.948456453786	-142.97966928255	-45.0308708501038	-143.504812393702	-0.741629675006424	-82.7330640038981	
32189500	-1.11987857608514	-80.6479877473134	-43.0793800710394	-179.98156093454	-43.2832997141066	-179.362924814862	-1.53601567744469	-82.8859400231246	
32439000	-1.57391573275079	-82.4661927900712	-41.9686325771651	137.922041219785	-42.2235672893656	137.518480485079	-2.46751021305194	-83.3013382870812	
32688500	-1.64318569696323	-85.1928106766887	-42.4609996373428	88.8763849606677	-42.7065988721456	88.7157506656758	-2.77979909073055	-81.1979109940993	
32938000	-1.3453417145089	-86.4182178181028	-45.3020808305307	40.692520600474	-45.5797341282791	39.8668700817627	-1.86446275545363	-79.2399817372006	
33187500	-0.971212930148303	-85.1792732461963	-51.0314298771256	1.77413108696241	-51.3589679317239	2.5409374387014	-0.771003402608807	-79.4728237026288	
33437000	-0.815219711182274	-82.4709633067928	-62.7461831384506	10.3562302973103	-62.8118224174155	13.1958959093573	-0.240496804424624	-80.2996349620809	
