!Keysight Technologies N9923A: A.12.45
!Date: Tuesday, 05 August 2025 19:12:35
!Timezone: (UTC+08:00) Kuala Lumpur, Singapore
!Model: N9923A
!Serial: MY61181427
!GPS Latitude: 
!GPS Longitude: 
!GPS TimeStamp: 0001-01-01 00:00:00Z
!GPS Seconds Since Last Read: 0
!CHECKSUM:1487571111
!Correction: S11(ON U)S21(ON U)S12(ON U)S22(ON U)
!S2P File: Measurements:S11,S21,S12,S22:
# Hz S DB R 50
2000000	-0.0631005526040077	-4.09089809331322	-71.4822933159564	89.2357196365603	-71.8070101305282	90.9478989619212	-0.072646802795261	-3.97992487994862	
2249500	-0.337941736030341	-4.97173487003182	-71.091225819054	70.2078535899135	-70.1340931001542	58.636269085119	-0.351700900212561	-4.96537762854337	
2499000	-0.461770062112817	-6.82548914602085	-67.3903918381736	7.31600653081435	-65.7293997487247	10.2317114099199	-0.509855682296623	-6.41071602769306	
2748500	-0.330453788787884	-8.70924533412389	-68.6001915910887	15.3249136371021	-68.9891688409505	11.6596472534061	-0.324893603419619	-8.31855305953176	
2998000	-0.0483836633867901	-9.27552144300313	-63.8669221809618	-60.9343930865537	-63.7364483148149	-54.2814039410236	-0.0373713880359566	-9.3028122372553	
3247500	0.154644716678492	-9.26112975123476	-67.9092926965549	-97.3777026269246	-66.5818614651572	-94.4260977239084	0.136641384908911	-9.2725384751493	
3497000	0.0925353470262776	-9.02718316837926	-64.5950302537809	-114.008080594422	-64.9073989068402	-119.596881892784	0.0777319475727467	-9.00802863550545	
3746500	-0.223178901653652	-9.15674332217248	-61.3910539910953	173.832099821649	-61.4119714557887	173.067684367719	-0.17733456078188	-9.27017234743739	
3996000	-0.437595503252014	-10.5139597154836	-73.2831129130636	132.757418996341	-71.3096722230675	116.025135878338	-0.417861951448388	-10.5826501512946	
4245500	-0.461202240133486	-12.7002834389999	-77.0938120781095	-111.744872550723	-79.906118535491	-99.506437793379	-0.455230167767644	-12.6029667412007	
4495000	-0.239517526879368	-14.3869900771901	-58.9870790733488	-162.162820291386	-59.4710945285368	-157.740055026539	-0.321757412037118	-13.9852678832628	
4744500	0.00112495652421041	-14.8244582499411	-49.976984117347	105.102763144929	-49.8886865697047	105.317618934934	-0.0229676885240052	-13.3529704754148	
4994000	0.0896090790579811	-13.4292392886862	-50.9202099662485	-7.18718032854782	-50.7930194137012	-7.91315152859244	0.142489805352977	-13.0300497311535	
5243500	0.0218841094185618	-13.0131065267601	-59.7147999375842	-59.5546618111652	-60.0534353560013	-61.0811439029858	0.0200503165421421	-12.8618982559288	
5493000	-0.266131395181973	-13.5884038613451	-69.3851261100255	-36.8607097914557	-71.0858870847423	-9.56714845503039	-0.270791270086781	-13.673637587232	
5742500	-0.488074995685004	-15.2856963051952	-50.6326410080418	-75.9450456970543	-50.5939982513047	-84.5545013583298	-0.483920598741359	-15.2873702558931	
5992000	-0.441031183542715	-17.5676119698033	-52.0318566911085	-125.885714004879	-52.8410732969447	-124.79129028677	-0.411497633465942	-17.5847597520034	
6241500	-0.244582368841392	-18.8802293458841	-48.3597592426009	-179.341543869704	-48.5903510601828	-178.192197644705	-0.165345287112253	-18.8955727186919	
6491000	0.021906668225397	-18.2292423236149	-48.1501464415788	106.192304823387	-48.2971443864221	107.043403616585	0.0700089301439897	-19.070465136596	
6740500	0.113354973324196	-17.8746759175476	-48.8946473814901	54.9021139196588	-49.0480513099906	55.8995587911468	0.0284939803029972	-18.6585737569826	
6990000	-0.1002479374297	-17.9898190965505	-49.5440979798019	-4.04578174494478	-49.4818357593268	-2.08733833032962	-0.269568898914772	-17.5672108447572	
7239500	-0.429885398626629	-19.1565243053282	-52.0026400949015	-51.6767283878849	-51.7353443855895	-50.8295503534063	-0.446197146928777	-17.894876959159	
7489000	-0.575792760826005	-21.1331966611695	-54.1003277366407	-84.8691773660429	-53.889666544626	-84.4236299684086	-0.514376225182345	-19.9993149997061	
7738500	-0.417247287933488	-23.1737786836668	-55.0717624127629	-110.693502270334	-54.7350237341959	-108.003782214679	-0.355417371066627	-22.0403172785949	
7988000	-0.149395270724849	-24.1597670067555	-52.5389286480279	-134.051947307629	-52.614178950554	-135.042339082938	-0.0603326336824801	-23.0706873084354	
8237500	-0.0374918466683309	-23.2386644793537	-49.1257436340061	173.806094069892	-49.1077464421946	174.607134510238	0.134506441568091	-23.0294644622811	
8487000	0.011532230153341	-21.7948966148221	-49.6653116011705	115.778448037292	-49.7024232614534	116.543779216962	0.0643105271733993	-22.7404421501982	
8736500	-0.195489348558593	-21.9626102860428	-50.057990238901	75.8257128445677	-50.2308536480521	76.3471014573072	-0.243456368574614	-23.1457140523427	
8986000	-0.471831311579713	-23.5558321851869	-48.2720085165443	28.92862086179	-48.251400758999	32.5110911942994	-0.629415053814542	-24.5307374444772	
9235500	-0.558184858383827	-26.0870877461734	-46.6719836231564	-31.9199205235139	-46.4458762281836	-29.5406712133984	-0.746026385894798	-25.5805385222516	
9485000	-0.418092624678172	-28.0628752610994	-46.3666116374583	-97.3555543219241	-46.275376261746	-96.1198897595653	-0.426270861662935	-26.5974316186227	
9734500	-0.205030285210538	-27.8192181756765	-47.2215501019178	-169.752200275264	-47.1897955776974	-168.901003799478	-0.0545148853951567	-27.0045344918502	
9984000	0.0317735923563934	-26.7135232039028	-50.7965660705464	128.240860219094	-51.0142215827294	128.84155464618	0.11455146356005	-26.5942496850028	
10233500	-0.0344741348062413	-26.4610450431833	-54.0761303090659	87.2181455963668	-54.3012957928922	87.6095746177803	0.00561757105579323	-26.2832436119598	
10483000	-0.332720595192956	-27.305017214703	-55.0469973617826	52.6663041242278	-55.556221218655	55.065784799035	-0.29484682746499	-26.9562794525035	
10732500	-0.597368543826769	-29.4512632943796	-54.1732340326814	17.2619239104949	-54.4890609969768	17.9277015977135	-0.53101134173533	-29.0027169421737	
10982000	-0.640366038084557	-31.8486008116445	-51.6281185737504	-33.7023114128775	-51.9960316541324	-30.9488079029794	-0.529026648392559	-31.5163999244236	
11231500	-0.411113877570577	-32.5811195445226	-50.0735791643501	-107.743562341219	-50.7264709816032	-101.413379972647	-0.330754131038371	-33.1006595348664	
11481000	-0.0793993095161247	-32.1403923690158	-50.3823566432477	177.058873632212	-51.2292777184208	-176.317219002668	-0.162362344867975	-32.8030897375407	
11730500	0.00512682383889549	-31.2579740262004	-51.8757547908638	93.8535663017794	-52.7250872791743	100.746391938046	-0.119893270012204	-31.1282100524054	
11980000	-0.174993667435673	-30.6659761109281	-55.6526836415106	17.7883041598003	-56.9417170682329	23.0363088033052	-0.224810283196284	-30.2841040766198	
12229500	-0.471802756237771	-31.6190889700779	-60.224209391016	-38.3560483180023	-60.6989105856974	-29.7388356695585	-0.455650513505737	-31.1309771812906	
12479000	-0.659009041001172	-33.9117005900578	-63.8825672446808	-61.8268832709732	-64.1622542275838	-53.3687197743026	-0.576169636391593	-33.3162916551385	
12728500	-0.567964655440877	-36.2514240220747	-64.7245312793348	-71.4103672277042	-64.5598173649358	-60.21994728987	-0.451875652537505	-35.6164875274294	
12978000	-0.308651906326118	-37.0566323215915	-61.4745941020175	-81.2574505930248	-61.0812056243629	-75.6110724255335	-0.160067556374542	-36.8889104322067	
13227500	-0.0775665234156691	-36.2764038351528	-57.3443828772108	-113.782790351006	-56.9747005996662	-109.374436510294	0.0108365561135031	-36.9128496337634	
13477000	-0.0635233468532523	-35.4011239589478	-53.5847979547705	-156.738912282621	-53.3157734397578	-154.066602732284	-0.110069079060705	-36.5001743382914	
13726500	-0.30050714600424	-35.5570879750822	-50.829155380482	156.234765372853	-50.5542333678377	158.564965689057	-0.494175904443071	-36.115160142248	
13976000	-0.612549715467806	-37.2183011191469	-48.8196085494019	102.639127473842	-48.4996987948123	104.858415474746	-0.810817124857665	-36.4719701685075	
14225500	-0.751739020307421	-39.7871675371744	-46.9167136178147	46.1792682747704	-46.8631325137497	47.968703650562	-0.791607189982846	-38.1296389757308	
14475000	-0.622975523810763	-41.1944416954864	-45.5015627150736	-21.088735167398	-45.2587531852131	-20.0176807527749	-0.50267426787819	-39.9005977203499	
14724500	-0.211995840933745	-41.0671491802269	-47.7134861587841	-96.1558233089731	-47.5216487702085	-95.9279885605368	-0.137023910821377	-40.44250765022	
14974000	-0.0597967132002753	-40.6364700980705	-52.2432906715591	-149.069308530055	-52.0002694116278	-146.926459760885	0.0577778943072419	-40.131106180878	
15223500	-0.197066770503446	-39.4457853146533	-54.686221895709	-172.98255998519	-54.7617630220198	-174.70903790506	-0.0689865984409912	-39.7502049514261	
15473000	-0.463600479384907	-39.5057337309886	-53.745322000745	159.34551227756	-53.7981112819405	161.15177809349	-0.417591803247546	-40.4291386461917	
15722500	-0.708888983849336	-41.5131078229917	-51.9287977486391	122.347687927534	-52.1000633683969	123.330785536025	-0.753565001324671	-42.3573877017469	
15972000	-0.71566043390551	-44.2008083714555	-49.5877096922998	76.8100606722714	-49.7720994880289	80.6440857244511	-0.849978161669148	-44.4184226068338	
16221500	-0.493642195837705	-45.8629232990938	-48.254602616233	25.8592750882285	-48.1068919716931	27.9230626065684	-0.63402998222241	-45.1321746912782	
16471000	-0.245694242374381	-45.6206037243136	-48.3725167351092	-28.6879312234577	-48.1128039777344	-26.4738938423454	-0.280383853784432	-44.4447758277817	
16720500	-0.142782879922154	-44.3825772613161	-49.8249745744426	-77.576479016281	-49.5986818599269	-76.2825915980711	-0.0987524287881144	-43.5073183906574	
16970000	-0.292525655152241	-43.7081831095204	-51.8847760124769	-117.791525323635	-51.2729315723842	-116.157900095675	-0.22869163729642	-43.1770199126627	
17219500	-0.605146387788257	-44.6364480661613	-52.9205310266748	-150.323735031165	-52.4298335240004	-147.152136940956	-0.524348508488901	-44.2397831480302	
17469000	-0.816168888740981	-46.9984562773517	-52.6070434786412	179.910490333649	-52.1388519031519	-178.391463202316	-0.723182842739196	-46.5510549903751	
17718500	-0.755380000483614	-49.3171900153315	-51.3570869410674	142.001404645317	-51.1307740443808	141.611949807531	-0.655336693957619	-49.0782084488535	
17968000	-0.477919270848228	-50.1260465274177	-49.8260715219414	92.3533649080173	-49.3921390433817	92.912692430254	-0.423853449541834	-50.2920950884753	
18217500	-0.196634547750273	-49.3001343646032	-48.8869340793496	36.3186855089304	-48.4658572257661	37.7048393347498	-0.250479350132806	-49.5722870689402	
18467000	-0.149838630015447	-48.1642495553382	-49.402498636645	-21.4842484823234	-48.9665360890837	-20.4126706106998	-0.281103110727238	-47.8661534170564	
18716500	-0.382185992814406	-48.0939008991388	-50.6444420462633	-74.1745327195042	-50.1899239131728	-73.5131622745736	-0.461468858891373	-47.1256828812703	
18966000	-0.712292827928455	-49.5448112926868	-51.6857506030152	-116.739487148602	-51.1573789310164	-116.856608740235	-0.700391216308047	-48.3488627861741	
19215500	-0.865844315068715	-52.1391775749414	-51.8196358039806	-156.298238317987	-51.5991049085113	-158.048633963128	-0.781735211929573	-50.9432168341498	
19465000	-0.738234157986044	-54.2252152592679	-51.5389608642057	160.10320253287	-51.4487097918887	156.469897061407	-0.60678823159987	-53.359184906733	
19714500	-0.445832200870946	-54.5243526853092	-51.3309767631968	108.938187201095	-51.3491112722505	106.726969854865	-0.314860750517175	-54.2768240564896	
19964000	-0.239782567985077	-53.3719250944879	-52.4774128056169	55.3369467462479	-52.7797846027296	51.9969559162797	-0.183588871158752	-53.5642951071677	
20213500	-0.310459528578987	-52.324881744487	-56.4160073431141	0.481506276512956	-57.3853121046685	-2.03195715576791	-0.304863787860954	-52.2037684715476	
20463000	-0.626285328272073	-52.6042345762906	-65.4681910503398	-49.7148614486095	-67.5062150933509	-41.5377065582467	-0.570563661635858	-51.7634334436119	
20712500	-0.958547959731765	-54.4518418275957	-70.5536853209068	31.2533566869374	-65.4915520203091	49.6832745354606	-0.801884336434121	-53.300965301035	
20962000	-1.04580731323131	-56.8192979214182	-60.0259283443273	4.5355665018216	-58.4525242292046	2.78241341625737	-0.799494825609418	-55.8269690237878	
21211500	-0.792564505589042	-58.0896883698841	-57.3876517706713	-38.4135427145519	-56.4287329725114	-39.1819409566135	-0.56746565457991	-57.8369702621259	
21461000	-0.42002622869398	-57.6729472053365	-55.5168919886616	-78.0228426972615	-54.2563823315711	-81.6072321116367	-0.289494669173958	-58.1809361476147	
21710500	-0.230819140307475	-56.4362146707842	-53.3843132385246	-131.236634488991	-52.5188772913597	-134.526062200236	-0.223301586383689	-57.2657999497961	
21960000	-0.363783222146783	-55.7877024330956	-52.2989177635852	172.947818723768	-51.3572581274596	168.946635610881	-0.408696727779044	-56.1802806197897	
22209500	-0.713889065582609	-56.5144297027642	-51.7761282596844	117.811918963348	-51.0300483597847	114.333147516837	-0.719164669829467	-56.3359536266604	
22459000	-1.00255751551907	-58.7038817003557	-51.3566615657795	57.3410546909534	-50.5739532838644	55.4433298575988	-0.892065561518898	-58.1930786517144	
22708500	-0.964342366712344	-60.9422986777722	-50.9545626646278	-2.11381755300754	-50.0987457717314	-5.51891375230576	-0.792163082223793	-60.5583643540078	
22958000	-0.620003912435101	-61.8954672574221	-51.5243383068206	-61.6203438457266	-50.6306727999724	-64.3994512970862	-0.480040686835574	-61.9618949850273	
23207500	-0.292843844880351	-61.5342644306692	-53.0623987499115	-120.03170549983	-52.1775298474368	-124.17499616134	-0.209047679782281	-61.7888366892458	
23457000	-0.272880031261129	-60.4410312501385	-55.8977917974739	-175.086477714391	-54.9364569078224	178.270242136718	-0.198938555177841	-60.9564055228615	
23706500	-0.538165448482747	-59.5806913617961	-62.5320467800267	145.176265514786	-61.6297964457245	134.337937539439	-0.472695091191891	-60.6688175097727	
23956000	-0.847834010377326	-60.3638426674594	-64.4200548930884	171.263043575687	-66.6766774614224	163.578675177701	-0.857046041739493	-61.6479687769181	
24205500	-0.985187291530013	-62.8625264445148	-60.6277001636678	144.362746068569	-61.8709206511019	150.265761399865	-1.03707100897805	-63.7988424019713	
24455000	-0.818833721388209	-65.1889172370422	-60.2654674657995	106.243915593053	-60.3689359268939	107.458030137445	-0.871039695928568	-65.6035440418395	
24704500	-0.469703291845593	-65.8959337375844	-60.8090278236728	74.2888782491307	-61.2110224787221	76.4390405581214	-0.485683815043027	-65.8626684965272	
24954000	-0.202795030837644	-65.0863286035688	-60.2747588861494	51.2276418521901	-60.5356063600633	52.8220739863792	-0.225698064460265	-65.0271978982628	
25203500	-0.211033063199808	-64.1527192836293	-60.7127105330858	17.2159414225081	-59.8410245727369	19.6287493760996	-0.266146596062788	-64.1416539291989	
25453000	-0.49736640489105	-64.0935685483583	-60.5140631113821	-22.0224734002566	-60.3379536299221	-18.1251432540389	-0.563923522114079	-64.1050962085731	
25702500	-0.822965911484149	-65.7688427077318	-60.4503449827697	-59.0960843986949	-61.0091671236232	-59.2869529217226	-0.903098429304616	-65.842888648206	
25952000	-0.906780839764279	-68.5349293790812	-61.4247907427633	-109.483666694806	-60.9878692197242	-114.42305226228	-1.01959923217018	-68.4666506026142	
26201500	-0.697145601119067	-70.5194528158694	-60.918086850104	-168.325626368527	-60.8494796034961	-175.594769423005	-0.808957435848997	-70.4244322957919	
26451000	-0.375529300626647	-70.6033412035782	-60.5562507389221	121.654085167013	-60.5262286146395	123.411550331527	-0.499003888082979	-70.6487442412665	
26700500	-0.228214386011295	-69.4466029958816	-58.5255837249367	57.0161262704407	-59.0285967101878	56.9369816561418	-0.340824463409225	-69.3470757768386	
26950000	-0.370880933746085	-68.3669110621395	-58.2813997369387	0.0652129033081685	-58.2964367823154	-3.72083334100409	-0.440056434588812	-68.188651090403	
27199500	-0.720344807924525	-68.7817792092305	-58.3065499577903	-51.9786270661722	-58.1602154047957	-53.9652475022307	-0.745891422487858	-68.2675208320686	
27449000	-0.998314819126888	-70.8421674759376	-58.5240608040569	-91.8223385373207	-58.4154353494523	-90.8534478387211	-0.972538668612685	-70.2129466132664	
27698500	-0.988611132733112	-73.4207299102828	-59.0346374465419	-130.231972886536	-58.2896530809243	-126.779032504474	-0.928438185974255	-72.7802609910292	
27948000	-0.677150673204644	-74.7944706968538	-60.9454290707741	-164.210922049565	-61.0793687149636	-165.344483422199	-0.640947683614296	-74.4752744358549	
28197500	-0.337429098238466	-74.3119487772385	-62.8810625551275	156.251902548717	-62.3337251852596	155.166653953863	-0.356927006514516	-74.3022815809143	
28447000	-0.248482229519886	-73.0666445131425	-65.3610614097962	139.105057613879	-65.6077355165359	144.17098528121	-0.322349363388728	-73.1900080442099	
28696500	-0.463517727721159	-72.4283173234088	-66.5360412089639	140.094439765234	-66.9333525827524	142.487417724219	-0.568888756540189	-72.2608356897983	
28946000	-0.821077284527116	-73.3190535538998	-64.9119766426681	134.411362496341	-65.3679156076693	140.595299633243	-0.931405633382739	-72.7754102323258	
29195500	-1.03761324893104	-75.7342428089019	-64.9560839521764	105.362536926628	-65.4843184706008	110.541719515284	-1.10669697848963	-74.9548698492861	
29445000	-0.932694377364322	-78.2490089425669	-65.6102602525964	72.2829530466091	-65.6144196130489	89.1543390189845	-0.930422635883761	-77.3066444415464	
29694500	-0.587232163049707	-79.0309022556721	-65.1121275665763	57.5923150120123	-65.33951913996	59.6448008578612	-0.575290141951929	-78.3773066613866	
29944000	-0.333462136333883	-78.064666921225	-65.903291239559	37.5652452747687	-64.8398862655661	40.3810145589959	-0.281114137056813	-77.8703369832162	
30193500	-0.359746901126123	-76.6783074667889	-66.4678679983509	24.4487803763558	-66.007117159209	25.3194937235086	-0.302290961897108	-76.9267324602263	
30443000	-0.642416796492298	-76.2013603330137	-65.3465719542158	10.9380926543905	-65.0658476055827	0.814638867050918	-0.616433760328652	-76.5992389286392	
30692500	-0.982086856034467	-77.4964876645456	-64.3080714123091	-23.2332536666066	-63.5946225708376	-22.6698617572404	-0.973057152014266	-77.8925566827091	
30942000	-1.10955627939461	-80.1533608673408	-64.0535677599156	-55.5508506952316	-63.6343004334518	-59.4745046871153	-1.12218746523827	-80.3101332866517	
31191500	-0.872109153680184	-82.4028767052567	-64.1588968970369	-87.6047418504303	-63.467896486844	-93.3393438070082	-0.908718045214585	-82.3077193321003	
31441000	-0.482755440346564	-82.8912430684931	-65.8220152749757	-128.196283849361	-65.8708800505163	-138.007087000563	-0.552316805650937	-82.5487713438082	
31690500	-0.270754092917109	-81.8963821749778	-68.5083444367254	-172.826769275768	-68.7000071646418	169.807907097779	-0.333472475716589	-81.4299046251935	
31940000	-0.371094946168208	-80.8269572877554	-74.1246747937817	141.257033468103	-73.2047705639801	128.383094888957	-0.425430082168951	-80.3328252847427	
32189500	-0.723619223639295	-80.8764917754902	-80.1916224501308	21.8729261677623	-78.6932450807261	9.53847999597991	-0.758394391449598	-80.4931739146176	
32439000	-1.0529001974145	-82.7183649438615	-71.243903506096	-71.535853713518	-68.6570665110857	-75.7864294306814	-1.05586877830888	-82.427517183046	
32688500	-1.07632994211924	-85.3065585934617	-65.818435148811	-111.660531314751	-65.7106784463893	-112.238826796044	-1.09182188226153	-85.084509736872	
32938000	-0.808068745455582	-86.7898970408062	-63.8454681076098	-156.730945833186	-63.7151148601743	-154.153155645088	-0.822005639117012	-86.9656098635712	
33187500	-0.482207503317917	-86.4630456606605	-62.9067529265942	162.857365015643	-62.9640368371501	166.468187284325	-0.496646032993412	-86.7927053620925	
33437000	-0.362727349962545	-85.1080896173728	-63.0443927422359	128.424680749422	-63.6835535229713	127.986308244111	-0.384162108964278	-85.4399107624681	
