!Keysight Technologies N9923A: A.12.45
!Date: Tuesday, 05 August 2025 19:45:57
!Timezone: (UTC+08:00) Kuala Lumpur, Singapore
!Model: N9923A
!Serial: MY61181427
!GPS Latitude: 
!GPS Longitude: 
!GPS TimeStamp: 0001-01-01 00:00:00Z
!GPS Seconds Since Last Read: 0
!CHECKSUM:0856985365
!Correction: S11(ON U)S21(ON U)S12(ON U)S22(ON U)
!S2P File: Measurements:S11,S21,S12,S22:
# Hz S DB R 50
2000000	-0.103460997308967	-4.35511243363845	-77.8817600134296	81.4775299705736	-78.18303430584	93.5930670534374	-0.134237933269571	-4.18738972642282	
2249500	-0.413441879408141	-5.35929310153732	-61.7796674281747	40.8267779664685	-61.6531398136502	42.7960856959239	-0.445896143281986	-5.25114326167319	
2499000	-0.543019731437815	-7.33262729613207	-65.375135094825	-89.4427076026	-65.2484772123958	-87.5326015639057	-0.564939046772069	-7.00478387158602	
2748500	-0.381130239718353	-9.21670257513881	-72.6407157288796	-115.394356403131	-75.2168942163949	-127.57809709338	-0.403669927061349	-8.96490567679393	
2998000	-0.0606674162363614	-9.97148719882329	-77.8867468820932	-81.8612555522645	-74.418134685428	-82.0644431949724	-0.0859114674070297	-9.75510009168668	
3247500	0.138861636523901	-9.62295901073458	-75.0799454818951	-93.0741136185417	-74.2070020621711	-90.5963699551183	0.106087798013395	-9.43459950723094	
3497000	0.080655073942662	-9.03849932001269	-69.8985707102747	-125.756390932016	-70.6822557317943	-113.630168439748	0.040973221685622	-8.815879994672	
3746500	-0.217120514317557	-9.15523006140033	-67.7361005094938	-128.549850871426	-68.9194552136112	-128.292459927742	-0.24720564342556	-8.9001325047471	
3996000	-0.5142330871946	-10.3988771270299	-78.5377097838347	151.725966954515	-74.8888063139949	156.577200688491	-0.52193823400287	-10.2286460831032	
4245500	-0.533382873111783	-12.5186489713998	-78.813558068077	-74.1646381029677	-77.4072812308953	-74.6132534234497	-0.554298872158868	-12.359376406259	
4495000	-0.283228889941369	-14.138659936398	-71.7558535927919	-94.5548822855492	-71.9484881585371	-91.2431952252023	-0.310051905979301	-13.9209379152952	
4744500	0.0268189119600232	-14.4241983569802	-66.3526675845832	-105.971225350723	-66.9200040473642	-105.646821534896	0.000106489383339434	-14.2554472186439	
4994000	0.143688625490357	-13.9199433551468	-59.5037091194839	-119.934402336911	-59.177565128813	-119.382651693524	0.12381980616392	-13.6993275746334	
5243500	-0.163588143415257	-13.1145202313879	-48.0521593991096	167.2882225951	-48.1161234079488	167.775300657479	-0.0370792195098858	-13.2028031323768	
5493000	-0.332312319733123	-13.3684483114465	-65.2054215853073	88.0764439906344	-65.2964846074507	85.9483279957554	-0.355094251463174	-13.69424677543	
5742500	-0.572129408973794	-15.4816714152637	-60.0003650319245	-144.542176088308	-59.7835750740913	-144.802004539266	-0.578221375764202	-15.4474456498366	
5992000	-0.555540260209772	-17.6001196548468	-47.0242258507015	150.812362547889	-47.0648120495536	149.752675575832	-0.532411903939947	-17.4849137533161	
6241500	-0.194583423588807	-18.6959653447099	-48.9003129177092	94.7907907729797	-49.0303861457138	93.8469396254247	-0.234196455621921	-18.6014798230588	
6491000	0.0839130020397917	-18.7274943381771	-49.550543771737	78.7343928056519	-49.6841138923345	76.775961617375	0.0523719325923667	-18.6093269309118	
6740500	0.112547104572433	-18.1750105601958	-47.9677268524448	67.1238324434844	-48.2344629650431	67.1247848030354	0.0815105282176403	-18.0667408403087	
6990000	-0.165478769544324	-18.1059050161446	-44.4535466247553	52.7815358834053	-44.7442703561507	53.0392371498434	-0.172129152015511	-18.0463817268347	
7239500	-0.617475158785767	-18.9549174264538	-39.6889568193375	21.1424688322747	-39.8899865126083	21.9978328953447	-0.548869532213171	-19.4412144953049	
7489000	-0.769421156052686	-20.2746861327889	-37.1550336510838	-21.3175912961357	-37.29827943161	-18.6015479696586	-0.84642264000665	-21.9506377864942	
7738500	-0.558486035305367	-22.1667258368437	-34.193888030325	-64.2621770355172	-34.0391933251807	-61.9175599754491	-0.978088297800637	-22.7041913876727	
7988000	-0.216939372672811	-23.1414968267117	-33.4945264038011	-118.582203393069	-33.296683356565	-118.28279580762	-0.450536679021553	-21.4168778990661	
8237500	-0.080786658379307	-22.2625151406545	-33.4236920016978	-173.916349974495	-33.304609998733	-174.358549878357	-0.127598973306765	-20.8664562522359	
8487000	-0.0262597564360519	-20.6434952964976	-37.6951156327227	127.656398224535	-37.6465437463658	127.305097194764	-0.0549058886544095	-19.6665383263388	
8736500	-0.2475565447615	-20.8829684585539	-43.2234824775893	99.3162025076059	-43.2858366472977	99.4478870879065	-0.261160215701867	-19.9042528032144	
8986000	-0.542144648254345	-22.6126166644128	-47.0810009140307	85.0811028030237	-47.1619997865789	84.450150456544	-0.545123046333927	-21.5582562185363	
9235500	-0.602827428540417	-25.2940810833084	-49.4187496935187	74.0360424691161	-49.456523104019	74.191844178413	-0.597534589181145	-24.0366876006194	
9485000	-0.36381547740802	-27.4241928418425	-50.1390006270356	65.0912233570381	-50.3377795381382	63.9701435131017	-0.359556282243202	-26.0981210823828	
9734500	-0.0654929424113086	-28.1458144318452	-49.3895928108687	48.4813886784961	-49.5809906564614	48.6660996440937	-0.0272436289518619	-26.6890247948798	
9984000	-0.127469544931282	-27.2006142747088	-47.0911810902163	2.08325030004989	-47.166585648119	3.11476301079518	0.1154866538675	-26.207373128021	
10233500	-0.0379096476607284	-25.2365312716789	-60.8538835522335	-80.4813120319725	-59.5159133381369	-81.2198905405772	-0.0280155401398595	-25.7164612573554	
10483000	-0.397432795282704	-26.8670482067688	-69.2026900262481	-5.97697372785871	-76.8224896611944	-4.94584870986892	-0.399332259239889	-26.2765789698907	
10732500	-0.799444823885839	-27.7261528580307	-57.0292421872544	93.8160998185494	-56.3003399946204	100.808319277124	-0.689004417374267	-28.3771673544931	
10982000	-0.646850754457374	-30.4756801121782	-47.4176023855468	55.428113657372	-46.9841868639293	57.796800780794	-0.773084073874288	-31.349637517725	
11231500	-0.407324468650217	-32.5513754061634	-39.7424835007695	-23.5443885751221	-39.3237414489845	-23.4202761854878	-0.790402284975916	-30.8564396790252	
11481000	-0.297022122178809	-32.0663523764258	-41.0232796818173	-112.872841541734	-40.595659814764	-112.652520201817	-0.128318298944977	-29.6152586282622	
11730500	-0.17869694322758	-29.1626885946819	-47.2041749436457	166.99677758582	-46.9950801635262	166.058496865562	0.059762201734109	-29.4928696893475	
11980000	-0.221869464471111	-28.4977851794779	-58.4971041204318	104.540226698501	-57.9325333506332	101.987306145151	-0.137106704930748	-29.8308689619996	
12229500	-0.503048145448134	-29.6915584887156	-67.924146823478	122.012546484633	-69.3492441413534	110.689937612149	-0.589082136091347	-31.1126236181535	
12479000	-0.663549559570601	-32.2316069891195	-63.4052418585972	27.2595577107449	-61.7831464035009	29.149044556655	-1.13512529442443	-32.7362616144161	
12728500	-0.500133808726372	-34.8436487590813	-62.1927097961871	-59.4473744575717	-60.8646174334067	-62.4668475023072	-0.635531160861441	-33.4762473908019	
12978000	-0.142159960203488	-36.0367716781191	-60.7128486161958	-86.8325256783806	-60.0867629417688	-88.8529611454844	-0.211850149722828	-35.1112513782619	
13227500	0.114633627933778	-35.7108010104235	-58.0942732133712	-114.189321992413	-57.5599238587486	-113.651256474082	0.0642468096529824	-35.0626288920363	
13477000	0.070268684745779	-34.9348836720021	-55.0431173262111	-139.026676577054	-54.7700653045035	-139.928421135616	0.0528155303602736	-34.5646924982224	
13726500	-0.244322491187034	-34.8391424097684	-52.1498536363395	-177.211354568685	-51.9807513688754	-175.864984558054	-0.233931982083576	-34.7009135627088	
13976000	-0.583893679873917	-36.1153458363194	-50.8639848830702	132.235536916136	-50.9679343692226	132.362490436047	-0.570442683126628	-36.3527858810268	
14225500	-0.648097108056769	-38.6430801845447	-51.3595722349666	80.4221639510461	-51.5532559644133	79.8685911618188	-0.678181084229203	-39.2962829370491	
14475000	-0.39179775571559	-40.8355291497761	-50.2019427334248	9.320881582562	-49.8593272254072	3.14328546745194	-0.733930727735947	-42.4484194766798	
14724500	-0.0509087946213666	-41.4936307620379	-59.1034501209968	-87.3511509589725	-57.4171907246084	-137.790074003343	-0.330076414801752	-39.3004432857665	
14974000	0.0551202935720941	-40.6767808819002	-49.4280293636417	-174.515845518885	-52.1050546528441	-173.456516833372	-0.110002426062571	-38.9712900025996	
15223500	-0.0607580690937035	-39.6692497715414	-51.6568510358846	100.388888393248	-51.5153938858663	100.368393511285	-0.0734319489616065	-37.8261288299912	
15473000	-0.425828427870932	-40.1418719589797	-52.018981912801	62.2272705713056	-51.6263841857507	61.2531500955075	-0.371013284295428	-38.8049827670317	
15722500	-0.746058670792124	-41.9954742420768	-50.8498909970491	3.57041660950763	-50.6936883881904	1.86943887626091	-0.656802759120198	-41.283048280014	
15972000	-0.649564284432521	-45.0992561865183	-59.6881411267216	-29.4271834153345	-58.5199140131354	-26.6416531439697	-0.673439862270596	-44.5751401749662	
16221500	-0.372910134053532	-47.5359062004221	-52.0811871448165	-1.87572546067854	-52.2106720989981	-0.513283243094056	-0.509513100270605	-47.6556890247667	
16471000	-0.171595407886264	-48.2010228300418	-42.1437667543103	-77.7192737766813	-41.6299398848556	-76.5792991124836	-1.07929912070532	-46.8456261295837	
16720500	-0.358780513586522	-47.4245408366913	-41.8140742221382	178.578848030827	-41.7089409611556	178.20306740443	-0.361458326534219	-40.1177892614593	
16970000	-0.906066503277859	-44.7194494326876	-43.1128433616438	103.52011525939	-43.2242912139055	102.783406619246	-0.243673270482064	-40.4275979876534	
17219500	-1.147662306194	-42.8212767900812	-45.1101998511885	40.739523240466	-45.1683712265307	40.0921662305892	-0.517281502460478	-41.9059057893589	
17469000	-1.13400124160914	-45.0059727031805	-46.8233868170978	-4.2343490355062	-46.8276037726872	-5.48708334280356	-0.717555155699562	-44.5204413170273	
17718500	-0.935287414367552	-48.178863001012	-47.3958442896576	-39.1484349547849	-47.33110252999	-40.4124469082487	-0.601356241786077	-47.3017978745321	
17968000	-0.638975761436539	-49.8964146436602	-46.9188213563486	-73.0837856929824	-46.9779976207282	-74.4419312437029	-0.263067705128761	-48.7780020566272	
18217500	-0.50523322088888	-48.942949580777	-46.3249330157396	-114.390743375729	-46.2451257630478	-114.69969581505	0.0190474690952452	-48.640065773144	
18467000	-0.535837169170597	-45.9805066124491	-46.6241728854762	-160.301174574644	-46.3955937306106	-159.794027577429	-0.0263093977979536	-47.9479787567021	
18716500	-0.64316560561209	-44.5147526072877	-47.8768099566613	154.81037056308	-47.6521195230319	155.68080255746	-0.394300945552944	-47.9417960876026	
18966000	-0.851815624369801	-45.7763528751059	-54.7369990089492	80.9533169478634	-54.7506345658662	81.3064130057162	-0.972623659387336	-48.4776050139352	
19215500	-0.895386712336324	-48.7222852010952	-54.1522561614644	117.103061394617	-53.2062710028374	126.150090138547	-0.904048781725718	-51.0787764440039	
19465000	-0.631373610913814	-51.458997349557	-54.623320490861	85.1908795745234	-52.7091372761256	94.3412522984645	-0.766606241788757	-53.9666413596022	
19714500	-0.218626148894459	-52.5150051341728	-54.5670190611287	62.4956269776162	-52.7260752135235	63.6491501621018	-0.50116424984858	-54.8455766237085	
19964000	0.0268692834388134	-52.0100891438593	-53.6916099381451	35.8475468506739	-52.4858208413469	37.9163562676341	-0.394221592609265	-54.0099835810132	
20213500	-0.0790366987720342	-51.2731506107597	-53.2436410709274	2.18598102294365	-51.6597155154673	6.03316707005906	-0.657870633402102	-52.4893522766249	
20463000	-0.455800375451177	-51.7081838438259	-49.2929947350147	-22.9702539780576	-47.8506441329711	-19.3128408236936	-1.12925996289561	-51.5269288203833	
20712500	-0.850096220681989	-53.9593280726406	-46.9372837687795	-82.0607576734125	-45.6632780207809	-76.8896505232787	-1.6403409341777	-51.0779887579972	
20962000	-1.0165836795293	-57.2072313640078	-45.3175756197097	-140.829162627907	-44.2953916953669	-135.107898930625	-1.53818703011853	-51.6344878713406	
21211500	-1.15480200850472	-59.472965840222	-46.6663740748543	158.874470192473	-45.7937123624041	165.044059612298	-1.04057598175682	-52.8826402304426	
21461000	-0.44000684734617	-54.1890236990976	-47.7226077820198	129.406778425151	-47.3279502430266	134.236810235869	-0.469796757390242	-53.0680050761795	
21710500	-0.0750961495882667	-54.237938345435	-48.2750398832916	94.6158812836015	-47.9134311883783	99.6148346760045	-0.174039814234399	-52.5155342561546	
21960000	-0.178923512243669	-53.8927423663471	-48.4632122892086	71.315600151765	-48.2989590127411	73.8678182130167	-0.251846097893401	-52.0766233516466	
22209500	-0.527880569184709	-54.8653775784743	-48.0015649796906	48.1717835092349	-47.8675821925975	51.6302314095684	-0.570951477615047	-52.9266627203113	
22459000	-0.793135834062251	-57.559939337401	-46.4550446641322	26.8743811864537	-46.5021701279494	28.2502074723952	-0.801171441492273	-55.419259942644	
22708500	-0.731185591154767	-60.7038344624931	-44.0610681215423	-0.202379034749801	-44.0694148896182	1.85541340919233	-0.732892320341591	-58.3091304402472	
22958000	-0.432148443939286	-62.2788747920102	-41.8800835641169	-41.1122067124585	-41.9468479548985	-39.5302813017002	-0.41497564616647	-59.8824379532042	
23207500	-0.118152548661335	-61.7336826679774	-42.8363247204316	-89.005036560378	-43.0881900634334	-88.3874543409835	-0.0743629103692419	-59.5422259642664	
23457000	-0.0709307388253177	-60.7208125038448	-45.6674431243897	-119.453821196158	-46.0572205055151	-118.361332772865	0.00407283350661503	-58.6719108932558	
23706500	-0.377531752531248	-60.4912763862503	-47.8520406113695	-136.201115023101	-48.3281433254951	-135.558999646326	-0.237380671049646	-58.4689560641794	
23956000	-0.827354930140104	-61.9358492386303	-48.8748302764981	-146.15630308339	-49.3784231201742	-145.014959074022	-0.616269024835985	-59.8340016062218	
24205500	-1.10794826819584	-64.8509429468838	-48.5399869318845	-154.830987904276	-49.4269075113953	-151.811457411622	-0.80388836250168	-62.7912198421962	
24455000	-1.04756962813305	-67.155171578943	-47.6649275628458	-166.079376005274	-48.1612576798533	-162.092452250531	-0.659240876912033	-65.5628617646973	
24704500	-0.748682840113133	-67.1161832909067	-45.9950532533642	177.269677283765	-46.3465880429488	-179.187818277282	-0.321674671043999	-66.5004120969623	
24954000	-0.454568010832344	-65.3790711164908	-44.3172200116007	155.582322173373	-44.5911437328491	159.894600078182	-0.139622581638361	-65.9563575221044	
25203500	-0.452483043028606	-63.9749418231374	-43.0278288832954	133.316210327614	-43.3702975999727	138.554201852978	-0.292006628891019	-65.1764904994565	
25453000	-0.800917278268478	-63.7718859886715	-41.6523509339254	112.856945662386	-41.868329349313	117.571898319731	-0.741559849893637	-65.2575461105085	
25702500	-1.23226074036433	-65.4664488292651	-39.8924396618833	90.272017843172	-39.8278692227385	95.954475883368	-1.26735792763659	-67.3239412465931	
25952000	-1.39495570726913	-68.2131533095514	-37.4213147013464	60.5169294966924	-37.1919889339676	65.1799375663907	-1.64429009438255	-69.965922703854	
26201500	-1.20035176432078	-69.8256166473392	-37.7402011458136	24.93925335555	-37.6322915511919	30.250922772499	-1.27592766750443	-70.636362803827	
26451000	-0.819072638288983	-69.0119380056691	-35.2573884685905	-9.76628346717957	-34.7203076312475	-6.56914870048212	-1.30775269592564	-69.9309503561345	
26700500	-0.567843502477	-66.7815976002054	-35.9865800048051	-54.7256487995391	-35.5685052699144	-53.4183067293414	-0.968031141936565	-65.014759715888	
26950000	-0.587126425309818	-64.9197851235364	-38.2987620513612	-88.9328076961969	-37.9854884009578	-89.0782100889309	-0.724020124283446	-62.6824856509618	
27199500	-0.845293158883926	-65.0388737983876	-40.5963366045961	-113.268504030342	-40.3834105358521	-113.373544229408	-0.865779136833919	-62.8619090876254	
27449000	-1.05696349797421	-67.3360164732287	-42.3844914476881	-131.442404005119	-42.1448859533829	-132.035874389736	-1.04578393072137	-65.3231095284266	
27698500	-0.973172316325883	-70.5834103831361	-43.1930267689973	-147.563868799719	-43.0584276005024	-147.572557683761	-0.960336598461507	-68.6059019919494	
27948000	-0.597538595827674	-72.7956490332778	-43.5161073279917	-164.889306177191	-43.4320102664419	-166.006050071289	-0.590189319431809	-70.9234861798042	
28197500	-0.252353574706409	-72.9395122401923	-43.0407221883827	171.115828021704	-43.1493236717835	170.266321311746	-0.202815129477165	-71.153417624406	
28447000	-0.208613545522833	-71.6580955531887	-43.6600169135384	134.389567344158	-43.8262684525136	133.915123341476	-0.0821833598779138	-70.2703993742233	
28696500	-0.371361306068318	-71.6550299586735	-49.5795407598787	129.645072842357	-49.9019055742256	127.989621286807	-0.278148279088138	-69.5999472311402	
28946000	-1.12796563872643	-73.6401197628123	-44.4773178947946	111.668536743759	-44.9080576167553	110.620570980017	-0.659962600944761	-70.5211236372434	
29195500	-1.53304282760161	-72.5144806431278	-49.3899320064816	55.3110324357967	-49.901854347906	54.3442680328786	-0.889139612040508	-73.1922904999018	
29445000	-1.0595823590096	-74.8057271817315	-53.2699494980133	73.6363164177252	-53.9909745075295	77.3330377983856	-0.763050898004908	-76.0058833655654	
29694500	-0.525718789332481	-76.0253177887108	-53.1005529940139	69.6771767951494	-53.2485339476667	68.1590266748239	-0.444908279926908	-77.3873557735258	
29944000	-0.157733110596231	-75.530522835311	-53.0852989154143	58.4537229791678	-53.6252177761512	59.2751623555761	-0.179967367841084	-76.4257022351039	
30193500	-0.15363493893949	-74.4805757709102	-53.7034829785801	49.3361332483013	-53.4810140890839	48.8489394704896	-0.14935404851567	-75.6460136884995	
30443000	-0.457853106244197	-74.2708678839468	-53.9325780991328	37.51286308164	-54.6102884330214	39.0976392272893	-0.499839361889193	-75.7719410395685	
30692500	-0.830944544335345	-75.9366582884932	-53.81002085088	28.0004238549223	-54.5721562187726	30.5843983431453	-0.919407284251307	-77.8679078259796	
30942000	-0.966130524500249	-79.1728463099305	-53.6885073097755	20.1628388372258	-54.0247047286671	25.2849837208231	-1.13441682775512	-81.4887821542172	
31191500	-0.708648253050929	-82.0192626814378	-52.6420228323623	14.1060474990518	-53.0244348189013	20.5350231547638	-1.02220216850674	-84.7599873392587	
31441000	-0.312575705140538	-82.8989167554461	-51.4083803486335	9.06266442742012	-51.5924767026527	16.5583894648241	-0.925980685240421	-85.4712701749489	
31690500	-0.132641759843953	-82.0642571048608	-49.1470634649994	-4.05247623909962	-49.0525780975734	2.06825881088241	-0.9512348267777	-81.2707975248473	
31940000	-0.3038634321853	-81.0317548671795	-46.8508932876942	-16.2689111947409	-46.3925210903535	-10.3738538012702	-0.916506598280801	-80.9240561793939	
32189500	-0.742408305669334	-81.1702922569065	-44.1383372955392	-44.4856516562797	-43.4893149667786	-39.6716834233929	-1.77731792913703	-79.9059281623948	
32439000	-1.12546088285574	-83.3449983184615	-42.7629081216507	-76.476979189439	-42.0321039230728	-73.3122720852683	-2.31424621818254	-78.0472070281831	
32688500	-1.14777373660452	-86.4854942774086	-42.7881038550583	-106.004034038452	-41.9892097335221	-103.736723633285	-2.06616925329204	-78.130344281997	
32938000	-0.860272870751449	-88.480177759342	-43.1133837494565	-130.583477614945	-42.439672806397	-129.734825817999	-1.31772376211236	-79.7203171592626	
33187500	-0.566845191037609	-88.4364972527423	-43.4172394241569	-152.458611614565	-42.9458260984775	-153.224179175249	-0.594270081539418	-80.4974728834477	
33437000	-0.583698053549865	-87.1053946102842	-43.5314321921103	-173.487121444346	-43.1605182103634	-174.051995171225	-0.250752432000723	-80.234610293479	
