!Keysight Technologies N9923A: A.12.45
!Date: Tuesday, 05 August 2025 18:28:47
!Timezone: (UTC+08:00) Kuala Lumpur, Singapore
!Model: N9923A
!Serial: MY61181427
!GPS Latitude: 
!GPS Longitude: 
!GPS TimeStamp: 0001-01-01 00:00:00Z
!GPS Seconds Since Last Read: 0
!CHECKSUM:1958314227
!Correction: S11(ON U)S21(ON U)S12(ON U)S22(ON U)
!S2P File: Measurements:S11,S21,S12,S22:
# Hz S DB R 50
2000000	-0.0754311075781653	-4.83713945738103	-73.0951159719814	-106.447988378096	-71.3969718826068	-103.526581700421	-0.0891831290983122	-4.80180156289387	
2249500	-0.30051268353159	-5.74373031912058	-70.000188570229	-104.645028756139	-68.0792819884317	-105.047548090927	-0.306423303037618	-5.67154456585133	
2499000	-0.395500571699776	-7.36296706991372	-62.7815432999587	-114.06659429533	-62.9606103592177	-109.027531804415	-0.397188507350703	-7.21848447295585	
2748500	-0.276489583578688	-8.74956945647986	-51.3378044215402	103.483999310345	-51.1052921078153	104.292230105248	-0.296195884854095	-8.41952416764004	
2998000	-0.0423743985999039	-9.55252956789704	-62.9434495405892	68.7588980026977	-63.3662901639694	69.4191713170015	-0.0414998636628263	-9.27423509114138	
3247500	0.115647265431069	-9.40189786716296	-66.4730611537388	74.8297311056071	-65.3369623068789	75.2750382471914	0.102502699462041	-9.20140579611377	
3497000	0.0728612220924394	-9.15128655936102	-63.7640900265263	60.2057818204107	-64.5889318818397	62.2598752133716	0.0504667293687334	-9.01222900543843	
3746500	-0.14859333901758	-9.45277742239322	-59.129549213622	15.4868878093986	-58.4324772420217	13.7309395083557	-0.205963046939567	-9.34902634869232	
3996000	-0.382850487858187	-10.771793278614	-57.3530530452926	14.182743304893	-57.5063238403906	16.2495521766939	-0.378474735234582	-10.5795511450503	
4245500	-0.466183453266972	-12.2116838951883	-53.2437470177977	-56.3927764708729	-53.0355353367848	-56.9097371500498	-0.456960915269946	-12.5312442449033	
4495000	-0.273099860597228	-13.8047622726295	-47.313364108878	-103.51659730985	-47.366108489915	-103.053470962077	-0.384581202681005	-13.1186478945693	
4744500	-0.110195377642579	-13.4212558475125	-48.0971725373664	133.68492359568	-47.9229955739972	132.624022022434	-0.0499596534858637	-12.947825086083	
4994000	0.0911175081809727	-13.1185650901212	-58.0393006077318	68.9257041845222	-57.9579045722276	67.7861401289453	0.0946814359122373	-12.9147987842462	
5243500	-0.000572235960005535	-13.1150712140304	-65.6711708686557	38.5956248241143	-66.0887135608151	41.1237938512877	-0.00757409525170849	-12.9053537094157	
5493000	-0.237454372811856	-13.8015985021753	-70.5079135703038	12.2819193054494	-70.4432630883599	10.5680960873825	-0.245640450998539	-13.6092480670446	
5742500	-0.406632958534851	-15.4179096227325	-71.690459696216	-2.29041867125179	-72.6613305674218	-4.46499618644338	-0.402285486540168	-15.2040384283294	
5992000	-0.354905770825268	-17.295810331277	-74.7401508870614	-20.7098086960149	-73.8381300953241	-33.966383868314	-0.354552754443828	-17.0980074627626	
6241500	-0.113440838121849	-18.5311708907548	-74.9431527769335	-74.3907320437526	-75.2215740076601	-78.2839226920133	-0.145396839394329	-18.2733746343067	
6491000	0.0771673197188963	-18.7667937591755	-71.5869642266078	-156.535644954621	-71.897692144532	-154.086015870167	0.0613200004238624	-18.5740828890805	
6740500	0.102454435615718	-18.568735687379	-70.77329420776	139.734179898941	-71.6997752729713	142.713774137204	0.0853668199715367	-18.3254157077865	
6990000	-0.0808794578327992	-18.7407071934541	-72.6359108760679	130.757693857554	-74.9505956144938	126.417560627426	-0.0899126439384968	-18.4373989116528	
7239500	-0.346540014699982	-19.9255608686881	-70.5464790589984	133.746996291995	-70.9282224821007	128.697940248299	-0.328103688834668	-19.4800732462554	
7489000	-0.502553521547144	-22.0481659799391	-60.5604841587134	120.85635376485	-61.026226197796	121.591000957038	-0.442761421179388	-21.3804022743818	
7738500	-0.512683180887866	-23.998991935522	-51.0670344270242	71.9737035097926	-51.0226847112782	71.2307121598564	-0.345432728925014	-23.1672121819309	
7988000	-0.509635267862555	-23.5455587322814	-44.2707310700352	-5.19398187943269	-44.2847544367363	-5.18173935869437	-0.159854073158644	-24.195992098262	
8237500	-0.0941624038535951	-21.603959864222	-45.9095492574474	-75.4962005729122	-46.0028970841128	-75.453357435905	-0.0349638377626101	-24.0798662388591	
8487000	0.0122340571086272	-21.665627448941	-45.5004492933987	-134.451102824258	-45.418202776098	-133.609126998075	-0.298418906326019	-23.3693350895161	
8736500	-0.174287293212318	-22.1911776582859	-47.3009098178024	168.592213619644	-47.214634146832	168.625025491698	-0.526821636636149	-21.541515597524	
8986000	-0.388854792355866	-23.6737732467262	-50.6915473189374	128.250358832917	-50.4825721677277	127.485692685	-0.56560029312919	-22.223012158385	
9235500	-0.431955502188345	-25.8355405581235	-52.5777861935457	102.267341552325	-52.7786538228362	101.38048640723	-0.508018951572984	-24.2650988472422	
9485000	-0.26033284147201	-27.6371552333181	-52.5143525518641	78.4815638219196	-52.3520594253382	80.360266381704	-0.292914090086721	-26.0589023023321	
9734500	-0.0575819283604228	-28.4451745285381	-50.1164112727653	49.2547868664996	-50.0536270251597	49.3339359306119	-0.0280672314816841	-26.7445126613371	
9984000	-0.0710658006967069	-27.9060681222404	-47.1427352424933	-7.33595604438743	-47.0653039513907	-6.93128950284891	0.0868912238295506	-26.5912446866648	
10233500	-0.167510784833595	-27.076471368289	-48.5980895818241	-71.412828902556	-48.402250584539	-71.2705326418931	-0.00833720156605112	-26.3828583014375	
10483000	-0.483289931399927	-27.5813485510268	-49.7549956387818	-122.449661660569	-49.5639771639777	-121.861889408695	-0.252223194206627	-26.9916879323004	
10732500	-0.67591674333361	-28.0059299425343	-52.6925283995411	176.864216096277	-52.4555833349277	176.80393106739	-0.434627688877744	-28.7132472932413	
10982000	-0.504212541091006	-29.8961835341161	-57.6460089257759	138.173257276301	-57.8871736667714	138.264035824187	-0.409627676572677	-30.8338633884843	
11231500	-0.224184932918733	-31.4562688385948	-61.1137201605588	116.045672199168	-61.095263788903	116.476767642296	-0.198921454300141	-32.3791978902153	
11481000	0.0297409888246801	-31.8563653406754	-63.0193392608951	103.073902792326	-62.0434480799358	101.407489333337	0.0114922733766382	-32.8802619443656	
11730500	0.0838444812668745	-31.6699868789616	-62.5550471796124	84.7254953549589	-62.5124921358387	84.7158650322339	-0.000311052208120675	-32.9068312435023	
11980000	-0.0945364420513761	-31.7675852414533	-61.6980802714313	65.6909375021574	-62.0110984192424	68.4901949663906	-0.295272456200618	-33.2751059942737	
12229500	-0.371182231109103	-32.9895173631239	-59.5660814856762	41.6188506402331	-59.6857914997397	40.5279262127005	-0.859930078885963	-33.7610681381543	
12479000	-0.538721546988663	-35.2347341858292	-59.0245463073377	-1.96927775126741	-58.7717414294227	-2.97487132378147	-1.00351991658874	-32.3418431250332	
12728500	-0.488460870707424	-37.6750659776872	-60.1652980900766	-19.5542811514312	-59.9773619528359	-16.1326772393096	-0.561207031432581	-33.869317594401	
12978000	-0.390813985397471	-39.0877291878732	-56.2180927909693	-29.601204322353	-55.9187982884047	-28.5391176394349	-0.187196680380285	-35.9721186545907	
13227500	-0.534600363248285	-38.0808627293291	-54.1312487076613	-106.407970231866	-54.0864274441561	-106.600245623444	-0.195504615644412	-35.1012049064481	
13477000	-0.575520573316154	-34.4129351676865	-55.0612971925683	-135.460654510601	-54.9687118613253	-135.781981716309	-0.0127328244767357	-34.910707895399	
13726500	-0.507971308399263	-33.6184819706465	-56.9999991970406	175.276553003672	-56.765952095734	176.04787019712	-0.190327068351646	-35.470536482635	
13976000	-0.60052675840439	-35.0940596747404	-62.4919075543401	147.068049804017	-62.9363356537863	148.50898053431	-0.430668471692226	-37.1359349403522	
14225500	-0.585221212918588	-37.4900551902351	-65.6355577477886	165.831199407311	-65.2817745343249	164.304627193044	-0.534337984549762	-39.5867829835678	
14475000	-0.359080737454124	-39.5224078169574	-59.1765384629557	151.366765356104	-59.4992073920742	153.346527007611	-0.490728358623693	-41.6963028783061	
14724500	-0.0726432251913955	-40.2894481639761	-54.1922609786285	96.8376538259616	-54.3682793783957	97.2764590889091	-0.475045947556239	-41.876312339858	
14974000	0.0730449526251296	-40.1048658992447	-55.4458476958505	23.1100113531301	-55.4313964015192	22.5477562821717	-0.42749672112705	-39.261463568558	
15223500	-0.0187051953113211	-39.8675910969483	-61.1345065717107	-25.313093764918	-61.1287079629991	-23.5095385209042	-0.287544155471368	-37.8470709491516	
15473000	-0.277395941985806	-40.4656106697122	-65.1796936561638	-51.1314140270048	-65.5781035525007	-57.5338324124447	-0.402120452810098	-38.5310176068357	
15722500	-0.497745003907347	-42.4042961668697	-67.0320953576018	-72.7355188730658	-68.1503872631264	-71.8712587326062	-0.544913501623764	-40.4660093498963	
15972000	-0.496490098786795	-44.8295085688233	-69.0040343663386	-79.7940298736436	-68.5905954668061	-82.4743135846802	-0.511635857783875	-42.8454057437278	
16221500	-0.293636795320624	-46.6030130292987	-69.5611592997842	-101.4875363082	-67.9744270944553	-106.431001973451	-0.282945514514498	-44.5861578508073	
16471000	-0.108065768501443	-47.2558218425373	-67.398520656759	-123.949351554515	-66.7657917952406	-125.810628337345	-0.0459015283690028	-45.1750820055688	
16720500	-0.171034278555222	-47.2101016508071	-63.4442688394644	-143.072254383143	-63.9314270895195	-146.194315746374	0.000198516902287496	-45.1675846948099	
16970000	-0.578884690960214	-46.9373498828155	-57.8247632922306	-169.487700273491	-57.9441118377125	-168.258720834869	-0.227181212412895	-45.4785746384015	
17219500	-1.11964328582952	-46.3955613254064	-50.1635961906467	138.762654390861	-50.4110855705812	139.893288252904	-0.690814972141395	-46.8965422284886	
17469000	-1.31662074115636	-46.1615170669842	-45.5729082740275	43.2685376429769	-45.4645205661549	43.7454608870479	-1.18476129698685	-46.4650765242611	
17718500	-1.066969663137	-46.6623501322556	-51.7334779501966	-61.9468147247063	-51.5625535527112	-59.9552740018747	-0.623539776843982	-47.2101544633746	
17968000	-0.59047472145542	-47.3333553593889	-72.3765486981053	-156.956841706446	-68.2791107577907	-149.298625260137	-0.319230991975899	-50.1432263828522	
18217500	-0.215903378644953	-47.3704729361454	-59.4188922379657	10.1314294569013	-59.6581370551384	10.7679753376634	-0.365300762782442	-50.7510813842827	
18467000	-0.124822053166949	-47.0345585454361	-55.5985143049057	-56.774813498025	-55.6311903043847	-60.1499241062654	-0.574140049681283	-47.8366080385529	
18716500	-0.286680587790861	-47.3688726172261	-56.2750598395672	-104.854076769205	-56.1073233766758	-107.496727192661	-0.545019264017968	-46.2920871526593	
18966000	-0.523114411941291	-48.8502591166737	-57.3536321709137	-138.40363927646	-56.745228265283	-138.657692536629	-0.598976434256355	-47.6133557454569	
19215500	-0.597814552947125	-51.2643409841345	-58.0885651242208	-161.429516467839	-57.7380835797213	-163.538437192973	-0.61306724537813	-50.3892883150292	
19465000	-0.440371396226493	-53.4471390456707	-56.7486905849065	175.820821794735	-56.7625588169241	174.697271159913	-0.478027321587188	-53.1285120491938	
19714500	-0.168228637743788	-54.4398203348105	-53.6679894101575	144.061235587038	-53.8510946738585	144.134545885579	-0.316981883963481	-54.715493778273	
19964000	-0.0260437649309835	-54.2965337456142	-50.6137461409168	93.2557345555138	-50.5187586532075	93.3871039027479	-0.429388166397419	-54.0490152651633	
20213500	-0.157739607945587	-54.0017141811037	-51.2729354440712	30.9110338274448	-50.8823401722656	31.4616278695597	-0.486827536274213	-51.2369907899613	
20463000	-0.488621507829415	-54.5498148462769	-54.5307707777131	-20.8210071234627	-53.9775940080597	-17.8244529880645	-0.527124311388997	-50.9466912159076	
20712500	-0.804645856244054	-56.3741851117866	-58.2134753287637	-48.5488811427246	-57.5605644431226	-50.1283905727739	-0.651981172568153	-52.7104089404449	
20962000	-0.951053360712271	-58.8784991517235	-58.6098568378913	-56.2835517439123	-58.2981152893657	-60.4096638303595	-0.62613206309468	-55.1419880555709	
21211500	-0.927349030948925	-60.2899869439325	-56.8640753023354	-87.2427088464635	-56.1102008537281	-89.5061896055073	-0.419758193640469	-57.1786148510796	
21461000	-0.838632395829465	-59.2309594960476	-57.2881201358815	-119.811102684541	-57.096971884231	-121.89940157138	-0.164648928364746	-58.0061347329431	
21710500	-0.758075480486103	-56.5335675514846	-56.3264886327437	-138.583620695317	-55.9677774232409	-139.672565397358	-0.108724805714584	-58.1243970641194	
21960000	-0.758477101067593	-54.6752310925148	-53.3440439893344	-165.084157040335	-53.2598035710568	-165.869754897757	-0.352879760334633	-58.326783771573	
22209500	-0.875498190074512	-54.7935147333521	-50.7900245767323	161.414485953316	-50.6606926672574	160.406744684822	-0.852588167768198	-59.1380905421529	
22459000	-0.945318937090474	-56.7519836946757	-49.0562632316887	117.812359276805	-48.8974856531517	117.138859688749	-1.28047208372207	-59.5309794510968	
22708500	-0.795571988106038	-59.2407731433372	-49.2863371485091	73.1476497213101	-49.0007820811407	72.5870040201002	-1.14359800974041	-59.2503673396888	
22958000	-0.477808571800501	-60.8163091982845	-50.5050367164597	39.0809777711527	-50.3141579251003	39.614424654001	-0.638518979586595	-59.8505039912092	
23207500	-0.21498993497625	-60.9504065457379	-51.4713886728016	20.1683836322522	-51.1936039572736	18.9117693587937	-0.239882910328845	-60.2035920979933	
23457000	-0.165401133949189	-60.3244503781091	-50.2551399725441	0.756172209630311	-50.1684533940983	-2.37525129342694	-0.140211951925578	-60.1953772425491	
23706500	-0.357816117760912	-60.3176147263628	-48.8836587094483	-26.8216850764278	-48.8197178793074	-29.0969216543148	-0.324127757645622	-60.6940361332871	
23956000	-0.652495425313671	-61.591721565268	-47.2584697850886	-55.3038440214121	-47.2730610369597	-57.1296720937923	-0.655372778220677	-62.3114933808505	
24205500	-0.811315928844997	-63.9352518392282	-45.4689604302064	-89.2876790654382	-45.7040256516532	-90.3039712849636	-0.909701014390581	-64.809293210479	
24455000	-0.704501409135999	-66.0457766983591	-44.5293553054248	-128.843679071488	-44.6920821519591	-128.329443456959	-0.977992371560229	-66.2084747735838	
24704500	-0.459435678664571	-67.0300067523277	-44.4184792851987	-170.224674418033	-44.3520210472746	-168.420268369885	-0.72926842145333	-65.1704790479812	
24954000	-0.345669740345421	-66.7006325565305	-45.1239503282894	148.873983447735	-44.9498460259595	150.44003961494	-0.389467769525106	-63.8613798887654	
25203500	-0.495279484813164	-65.7997366700603	-46.9014249809922	113.113783470054	-46.5233323906536	113.965471172231	-0.306955670042754	-63.2847284950181	
25453000	-0.834057206372028	-65.0711562723311	-49.2760412610496	86.7654776361085	-48.9932600069991	87.5555891245985	-0.46307669897804	-63.7005825516147	
25702500	-1.09602872598962	-65.587245923818	-50.0003558336322	72.5997191627656	-49.695004569026	71.8972930477921	-0.687788868399275	-65.8553638115613	
25952000	-1.06080409854489	-67.3656451846921	-48.522527001151	55.9938165370676	-48.4974609227824	53.4915615076855	-0.793481754963271	-68.8716230208168	
26201500	-0.757033513701736	-69.0271960436721	-45.9551611752339	25.5776347784923	-46.0646981316908	25.8674436086553	-0.739862808280653	-71.3494836284236	
26451000	-0.384795855324461	-69.5987698335203	-44.0010819763579	-16.3419419923955	-43.8375309576961	-16.5921337029953	-0.718602197408554	-71.433706188775	
26700500	-0.240023428624107	-69.4514813507775	-43.0936074628886	-66.7339587454819	-42.8628249460596	-66.7629889486747	-0.664745028561388	-68.7850193910883	
26950000	-0.50986256066385	-69.1383622327886	-43.1506167190822	-124.864915043962	-42.948081629983	-124.559115141423	-0.604021594359147	-66.9969295585003	
27199500	-0.895659231695671	-67.8175025600004	-47.232227909365	168.000108643883	-47.098437304889	168.394251498161	-0.73165732991883	-67.2009850172546	
27449000	-0.908324130560855	-69.0352435369973	-56.0473113939084	131.818104525483	-55.4399898682315	135.922117910162	-0.844099144709567	-69.2622948412943	
27698500	-0.789226158108748	-71.7027641936664	-62.6063657493191	136.355300379376	-61.2827707774969	140.097672443636	-0.771729824788654	-71.8920304238623	
27948000	-0.493446257401455	-73.577810648432	-61.7081994661192	144.528036627081	-62.1768930844934	152.85451021066	-0.513265687518322	-73.8934693103406	
28197500	-0.218376377962892	-73.8742299146654	-59.9033495970073	136.334163657411	-59.7433937478896	137.04642080844	-0.261999063499458	-74.3581778763888	
28447000	-0.18036459508539	-73.3929995166803	-58.6409507852014	114.446336350037	-58.411335583391	117.287768463397	-0.231497743635844	-74.0936051270341	
28696500	-0.405150658409475	-73.2939898974921	-57.2475805650146	94.2882108794039	-57.6428469906896	99.3029639976915	-0.466448395860283	-73.9832899500498	
28946000	-0.741069391124587	-74.3756550827764	-56.6989665615016	71.9207923862673	-56.3678414016183	70.2863689247754	-0.844837807070015	-74.9630234591701	
29195500	-0.9548457722222	-76.6166108527908	-55.4651572799899	46.8571564364979	-54.9214395092751	46.7396323771698	-1.11521014158514	-76.9415018288753	
29445000	-0.906128781127911	-78.8498409443132	-53.563202621296	17.8943068221539	-53.3929110743445	18.5052088370039	-1.11859923425734	-78.511731261071	
29694500	-0.654099340272813	-79.4950613496626	-52.5504752519418	-11.760305960084	-52.3198138058291	-12.309617339096	-0.93150200798926	-78.5039763083838	
29944000	-0.476902198505403	-78.4971099282866	-52.2291600571982	-44.236726622893	-52.0261795707655	-45.2413359953644	-0.680669972468641	-77.0030691533242	
30193500	-0.514339414448111	-76.9912794063622	-52.4987460119643	-79.4006270540516	-52.3424792635982	-79.2267436246944	-0.608933153412576	-75.495638428283	
30443000	-0.730101592478822	-76.2612794982364	-52.7598656784494	-110.070778864711	-52.5769289714724	-107.944388314372	-0.753003231459918	-74.9558694206813	
30692500	-0.970756486005062	-77.1491110034615	-52.980228916749	-135.483857621835	-52.921196025347	-136.123227145992	-0.929160384705628	-76.1588802573192	
30942000	-1.03683895221736	-79.3940481348055	-53.0890842143651	-159.647181260703	-53.2107884280925	-159.154630921423	-0.963907480093134	-78.6602298141154	
31191500	-0.815216946777752	-81.484268921786	-52.6454688767531	168.038860974867	-52.4085996160462	167.252250378721	-0.822927170438769	-80.9297961694983	
31441000	-0.473419723330381	-82.2028145375965	-54.0289710682248	133.806462200311	-53.5063912926683	134.14288286029	-0.45717503401206	-81.3686078941387	
31690500	-0.286631966687455	-81.6662465152159	-55.1219546650687	109.177128149972	-54.4875575099485	108.952302376599	-0.253021484492916	-81.0687766293929	
31940000	-0.365124017062141	-81.0653787330202	-56.028780919978	88.7646324765775	-56.3052877402684	84.9319134505347	-0.336699475795567	-80.7021302550065	
32189500	-0.654887714874537	-81.4059175739521	-57.4111156985196	68.7035753889349	-57.2090455862169	67.836568459693	-0.629781452787148	-81.3115425921137	
32439000	-0.923359831962194	-83.2953385414656	-58.4527089404767	48.0660372573051	-58.2908909590955	43.9938440752383	-0.89395095648111	-83.3036720450367	
32688500	-0.943983295680015	-85.821062487762	-58.0585108815757	24.1990679741635	-58.4017958317769	23.1837242674791	-0.964214373472489	-85.8372074879101	
32938000	-0.745236223208316	-87.4695025966949	-58.1861646728465	2.20851101122418	-58.1287371182807	-0.27346315385576	-0.802302384994499	-87.7625819303801	
33187500	-0.521400322927617	-87.5209932137972	-58.1561859942058	-15.4343966653982	-57.9408904313964	-18.2130634498069	-0.617059717369162	-87.8583636562834	
33437000	-0.489059030895613	-86.459341239724	-58.2325012679886	-38.0440640966991	-58.3279101805478	-45.3656418742222	-0.633683813856374	-86.6432796515042	
