!Keysight Technologies N9923A: A.12.45
!Date: Tuesday, 05 August 2025 19:55:55
!Timezone: (UTC+08:00) Kuala Lumpur, Singapore
!Model: N9923A
!Serial: MY61181427
!GPS Latitude: 
!GPS Longitude: 
!GPS TimeStamp: 0001-01-01 00:00:00Z
!GPS Seconds Since Last Read: 0
!CHECKSUM:0155797913
!Correction: S11(ON U)S21(ON U)S12(ON U)S22(ON U)
!S2P File: Measurements:S11,S21,S12,S22:
# Hz S DB R 50
2000000	-0.108823481801887	-4.1615929301572	-74.3686059420178	80.7094198367768	-73.712105004871	81.4094116122121	-0.144526584574932	-4.04649914651872	
2249500	-0.431936558258518	-5.16299542498005	-63.4102127814765	56.0248282652824	-64.0692716335026	57.9658743167561	-0.460824804748425	-5.10625866926435	
2499000	-0.57094697638228	-7.18049324912361	-57.9927858981089	-75.0167542857963	-57.9134657432914	-79.1090529369663	-0.606597509156576	-6.80829609196115	
2748500	-0.402812179043055	-9.12417210297986	-70.6835652344945	-132.481489844899	-70.2298748976747	-142.409924855515	-0.428865313296028	-8.87608140252396	
2998000	-0.0679866099891437	-9.88235412859452	-73.5522405241862	-76.529124934694	-73.0778519768046	-86.1743974347492	-0.102426823927006	-9.7313484283014	
3247500	0.143744426168154	-9.50318301406534	-72.9062117580538	-118.973927554838	-71.0835799362854	-111.490100695752	0.099245833086759	-9.23596132846578	
3497000	0.07765634483768	-8.86915141531883	-69.9410766276694	-122.073517100859	-69.5208327952477	-116.461222075317	0.030704554414717	-8.64506520233935	
3746500	-0.229537952939592	-8.96943839278628	-67.6226609478088	-128.750061176217	-67.8418531404658	-126.763672077592	-0.268162285782068	-8.72240697209916	
3996000	-0.544134406489023	-10.3064582194787	-66.6299614973108	156.315738453527	-66.8214306493334	154.526457739516	-0.554563606855763	-10.0855892826046	
4245500	-0.564888915720431	-12.4837192028514	-92.752951643051	58.729724971585	-81.0022366432474	129.341807007046	-0.588774763854054	-12.3147616913417	
4495000	-0.304276369175558	-14.1422647327865	-88.8584029164957	-56.6948067077195	-95.6743661078215	-2.70873637499357	-0.336394586575162	-13.9480874337998	
4744500	0.0135645916044095	-14.4232156485343	-77.8291531396778	-123.901525188171	-77.8417654196457	-113.526691336569	-0.017229563385756	-14.3140058616559	
4994000	0.151039018551192	-13.6361747212143	-84.5904456686977	-111.955901350151	-82.9166455211963	-65.3166703821091	0.0982606936161005	-13.9074270149763	
5243500	-0.012873111737209	-13.1104240116988	-63.0155265842249	-115.129204200988	-63.163529710025	-115.32067375443	-0.0487491156958964	-12.9262251999313	
5493000	-0.364567997531955	-13.7196380201091	-59.4528146919015	-126.905691672964	-59.2580759408641	-127.553864991476	-0.385411385806675	-13.5445220106703	
5742500	-0.655237189396757	-15.7576212217189	-50.8667016717835	-156.969356378981	-51.0524333385898	-157.430566081826	-0.618671712719111	-15.3703870701206	
5992000	-0.615423417106232	-17.7081271080231	-57.7769304076898	95.6080725792342	-57.5755526418459	88.9895899111887	-0.54878848654227	-17.4026174425146	
6241500	-0.227878783609004	-18.6828146306317	-54.8573491748987	79.7394499144369	-55.1649538461474	80.5933814564986	-0.26350142688154	-18.6881564032118	
6491000	0.0783533574616111	-18.6550147815838	-57.5345856819692	77.7916358565541	-57.3819166544878	77.1651294198548	0.0460298100070967	-18.4879079181038	
6740500	0.109388695078182	-17.9453076940344	-56.3991654579608	57.9056390735645	-56.4516672353361	59.3882877673379	0.0747037736969621	-17.7479586146222	
6990000	-0.159987104261096	-17.3859167100157	-54.1831031796229	-26.9619848067486	-55.9874394347334	-34.200867045533	-0.185950508451643	-17.0149012472888	
7239500	-0.475482458608754	-18.3912973075644	-67.6183529495114	-56.4437959255666	-69.1108193039328	-57.7916314806596	-0.490748246919136	-18.2431196931334	
7489000	-0.624043800811936	-20.6354264990167	-78.3186495832476	-5.29266577754638	-78.4602278678928	10.186320514833	-0.641933717873994	-20.4806653593207	
7738500	-0.453773758912232	-22.7576849662082	-71.8680442374323	83.1561691421802	-71.7266369240385	64.5991051765081	-0.478000660700051	-22.4976594812052	
7988000	-0.104954592881886	-23.507245170513	-68.0888963889319	61.6505626543921	-67.1133917532252	71.4319546347621	-0.138716942078729	-23.2095683528904	
8237500	0.135240205296449	-22.9973202478428	-64.7525619063555	66.9585446580925	-64.278794068109	67.565374921567	0.0952645295281404	-22.6281723684089	
8487000	0.0738788049304236	-22.2237460607459	-61.2128801309617	62.6245407759132	-60.7398714381154	61.7364920945456	0.0397701168176465	-21.74416778409	
8736500	-0.250010207962438	-22.3263956087888	-56.9737480734685	53.3445863516872	-56.7569877829543	52.0382398804417	-0.259922110335286	-21.6684210812631	
8986000	-0.615282137389108	-24.1208224648111	-50.8521148634339	34.9935021347029	-50.6522500527776	35.6840840647389	-0.581340994190756	-23.1249213346077	
9235500	-0.830548752606754	-25.9934127038683	-44.2709000558868	-28.3521691585201	-44.0173727332262	-29.1502273128578	-0.651095905289324	-25.4294704964074	
9485000	-0.41654487988416	-27.3734582263777	-48.6641766975153	-85.3531083252308	-48.8042288201514	-84.8365392855914	-0.394207636400683	-27.2773256395462	
9734500	-0.0194676558240033	-27.9624583628471	-52.9005698632967	-104.4595396912	-52.7711799573639	-104.3463369581	-0.0488582498947392	-27.6566946385519	
9984000	0.145295018979835	-27.3398080765679	-55.3337084943013	-114.07342238109	-55.4912217160525	-111.889861683567	0.101554516720739	-26.9378989183369	
10233500	-0.0109987284445302	-26.767542912472	-58.2533307792691	-111.204640029432	-58.3313651186635	-111.140545606861	-0.0490150705980397	-26.2588006615034	
10483000	-0.382738957797238	-27.3897309680573	-54.052834811119	-66.9321530770638	-53.3545952473688	-64.7960141662264	-0.421709708747965	-26.6435217684509	
10732500	-0.661100918681604	-29.5423006261845	-48.7200924421214	-101.090416706082	-48.5586198533359	-101.519129838645	-0.681739478436349	-28.4551914451145	
10982000	-0.628183042202528	-32.4822139346217	-46.6651078046344	-118.992256288911	-46.3976242159003	-118.806995477739	-0.639650212341868	-31.0717020558101	
11231500	-0.378628790916326	-34.5275798321823	-42.3180342337612	-139.253439177945	-42.1785193210642	-139.2697942285	-0.35595111152612	-32.944363246672	
11481000	-0.285494293106599	-34.2917744794281	-34.4572696056522	134.435617088555	-34.5345084922414	134.164315251165	-0.463311410260316	-31.7141517922995	
11730500	-0.381920118489982	-32.7355631756149	-59.8738960732292	173.804463520158	-58.1672838481854	165.675855877682	0.0320995619256154	-30.278226931709	
11980000	-0.793988901136694	-31.0938268253565	-44.0626780012395	150.2602677749	-44.0592332835892	147.313992315865	-0.185340151288216	-30.6818824848656	
12229500	-1.23776424523852	-28.966482804138	-40.6705956263852	114.675949989297	-40.7892391391155	114.954299659525	-0.62207935995289	-32.0693420649735	
12479000	-1.04020923969598	-30.5984003748333	-38.8638625973777	48.9133458810859	-38.3531141753314	51.6274112727958	-1.06148684975222	-33.7895110242966	
12728500	-0.718186560237988	-33.6335742696607	-48.5357766047383	87.7138345518531	-49.3271926823115	80.009514004554	-0.605558532292785	-35.6417653064693	
12978000	-0.277738003851913	-35.2180069004753	-44.8898752007073	77.7738145612375	-45.1672599749879	77.7159816992943	-0.243620667537803	-37.3729965403774	
13227500	0.0196033983190469	-35.0627155867513	-42.4038706502586	64.8897464054374	-42.6130423186145	65.1336047909518	-0.0212376729493585	-37.3928348812384	
13477000	-0.0166620466367696	-34.405073801146	-39.698253235513	49.6793460977421	-39.7950713197225	50.1050465210924	-0.112181970769504	-37.1115528998284	
13726500	-0.371322076262355	-34.5898981944277	-35.9367545507067	29.296158168651	-36.0032931342516	29.8156038390894	-0.533354611493933	-37.7608472068241	
13976000	-0.889838477018839	-36.0385756168315	-30.7685636886805	-8.14500407504931	-30.8861249934349	-7.53587293207001	-1.17547837243178	-40.0615236670501	
14225500	-0.944066441085533	-36.5958563689849	-29.1665064477523	-82.9124599944342	-29.1968667213707	-81.9981163038245	-1.53258040781509	-40.6793648574038	
14475000	-0.482976004348353	-39.3203957565602	-34.4504457877265	-134.015759295052	-34.4920914072675	-133.374404884505	-1.34967829001338	-43.1090631310493	
14724500	-0.0976239916296796	-40.4206915399003	-41.4154213256802	-147.254469594352	-41.3622859519586	-146.786586647424	-1.54211452602179	-42.0015877387741	
14974000	0.0372751479533117	-39.8279202576436	-36.7895897602561	-144.041107968771	-36.8398604668773	-142.929358811567	-1.16223099044129	-34.6961441918063	
15223500	-0.10750383131834	-39.0294976346437	-37.1032217417261	160.256999980335	-37.1288678240838	161.376238695019	-0.699971446387093	-32.849332468864	
15473000	-0.498875032116072	-39.9164488781153	-44.375249788962	114.145220625583	-44.4070066803641	114.202274571297	-0.635786249004608	-35.8780123981116	
15722500	-0.984385905499735	-42.3344191549723	-39.0047981979302	75.6048267532398	-39.1908363294114	74.9229386796499	-1.58726498286331	-35.0396475109858	
15972000	-1.01191755030822	-47.0323539008949	-49.0932403811672	-84.1673441818372	-49.1672489180122	-91.6449426302711	-1.17558512385331	-37.0657841081945	
16221500	-1.78518210276329	-48.1438732168855	-40.5968938486575	-171.245020671996	-40.4323509537026	-171.181564905002	-0.656537908520661	-39.4941224781205	
16471000	-0.724370797676401	-40.0610337319667	-40.5341265466315	117.740254125871	-40.3715433848206	118.309693239105	-0.199561756966648	-40.1157280444497	
16720500	-0.18023018607806	-40.3209814292485	-42.7293548681951	88.3695586989007	-42.6936788423545	88.5318135669586	-0.0120597159393324	-39.5592432399217	
16970000	-0.345379252806372	-40.3861994170767	-43.7811285535159	67.1501939142618	-43.8913066010626	68.5999706551414	-0.171071894995519	-39.1099179174716	
17219500	-0.770782468398459	-40.9819337241651	-44.4270068943642	46.0563271200141	-44.4299775230423	48.4073565001279	-0.513423303226374	-40.0739348219514	
17469000	-0.968316740744671	-43.2122991242121	-44.5500903419594	27.2422944665409	-44.2728883656497	28.9121470286745	-0.742076924364131	-42.534353227071	
17718500	-0.829561812006173	-45.8050309948609	-44.1348193655414	-0.155790638967941	-43.770318552102	1.07036100573377	-0.638322144540183	-45.3430599125801	
17968000	-0.409415137862603	-46.8677585058066	-45.2790544182153	-35.029526243733	-44.9515995708814	-33.7479501038843	-0.2853695874383	-46.7709544694035	
18217500	-0.0236586768926548	-46.4171082225255	-48.2116046740528	-65.3298113488143	-47.882466477051	-65.0589413610342	0.0371360390840745	-46.489309270318	
18467000	0.0312300777540269	-45.3820763460892	-51.964546229671	-90.0523371185767	-51.5676164937627	-89.7797494257832	0.0505307350735811	-45.7022033226837	
18716500	-0.239558001943926	-45.1694646751378	-61.8175544817773	-125.1569462359	-60.4479898118062	-120.625243179132	-0.329416976549132	-46.1933241675214	
18966000	-0.611784004170314	-46.616046682497	-52.5485169378801	-88.0306911365058	-52.627235756934	-86.830463287497	-0.663528914329799	-45.8083050792908	
19215500	-0.748605349329484	-49.5044603681678	-57.3205471657773	-117.555147816862	-56.6601877751315	-122.895487154005	-0.8081520522967	-49.3723041189976	
19465000	-0.534177563994178	-52.1364888320812	-75.7292713356421	151.40883202828	-70.0351650717669	104.766937354066	-0.860083924826975	-52.607219593333	
19714500	-0.232055235869237	-53.0250864228095	-54.5297942626637	-121.560063147518	-55.1731716811485	-118.453851943802	-0.255194740455954	-51.6352762037778	
19964000	0.0845143973025648	-51.9138370730728	-61.1210571534345	-176.995100578607	-62.4671101170727	-167.580692325545	-0.00954442261736085	-52.1661918136702	
20213500	-0.0479137765176268	-50.9336750254118	-48.0025274822568	-8.97159732606255	-47.5617494410921	-11.688636019714	-0.655646912761642	-52.0564263034775	
20463000	-0.447380026750113	-50.739257704847	-43.6374926906078	-119.15593634759	-43.2263595155963	-119.154813899933	-0.631593529751175	-46.9173375155263	
20712500	-0.807899536952441	-52.5523409790692	-43.5363018044821	-165.614547831676	-43.2963907886522	-164.939847214021	-0.763661822389277	-49.6523119909609	
20962000	-0.855807911569813	-55.1644450244174	-43.4086444943402	153.55559317832	-43.2082801349943	153.972115754594	-0.775806906438407	-52.8267906567185	
21211500	-0.515847948195989	-57.0127835076679	-44.0071423066431	117.972791044129	-43.7737461679791	118.613990276048	-0.487150179016419	-55.1626921528862	
21461000	-0.0959288941759246	-57.1215996339276	-44.4534547358431	86.4619328726708	-44.2744291378601	87.4867106480084	-0.107192594959573	-55.6545560319288	
21710500	0.065361583528149	-56.0991236781244	-45.058848056721	61.2623339687931	-44.8894052848151	61.2447042836	0.0526135174880487	-54.9991230823207	
21960000	-0.13064044062672	-55.3554845382777	-45.0834050167903	40.1920826303292	-44.8762230073	40.397822476185	-0.117805933452847	-54.4600565457477	
22209500	-0.534226040156842	-56.0814451650288	-44.0110041192917	20.2386498630689	-43.8801288055628	20.7656713947626	-0.504911558022364	-55.3468366888938	
22459000	-0.835506861714721	-58.6882221029853	-41.7556040647372	-0.520260394990513	-41.6928381843887	-0.351866037502044	-0.786251146399347	-58.0512491087087	
22708500	-0.791009201716316	-61.676049241753	-38.3202114350762	-31.1687892161746	-38.302631444821	-30.6659344158259	-0.781228813511464	-61.1663033819702	
22958000	-0.452614609426093	-62.8530800001945	-35.9892453499036	-78.7922138870867	-35.9133121827603	-77.9842716739165	-0.52403931169509	-62.5157530539737	
23207500	-0.0926347682996925	-62.3877452479143	-36.5635963924641	-122.660182129901	-36.5299806353132	-121.874082823057	-0.193972316576475	-62.3886741257092	
23457000	-0.0734674006950682	-61.3942161996347	-36.751968755743	-153.451805800959	-36.7067493356837	-151.720372369965	-0.306763678397713	-62.5538077159566	
23706500	-0.43016562213951	-61.1078050311319	-35.4894992211113	170.632351906789	-35.2936484810155	173.366989318966	-1.23204211453997	-62.4480930005114	
23956000	-0.936554056546223	-62.4733767612789	-36.2146499282675	121.651322131862	-35.7622859837167	124.043958690646	-1.95367831418953	-57.0253048461817	
24205500	-1.25124429687789	-65.3101969272758	-39.2846059995782	87.3962804286144	-38.5176881827626	89.5250994651812	-1.57426414136529	-58.0371770960981	
24455000	-1.18364818903694	-67.2900108899307	-41.0315718649672	66.2307796184457	-40.0943488422858	65.0385455371364	-1.20192663964559	-61.2810113318625	
24704500	-0.784779699669829	-66.8642616131923	-41.2961140585947	40.4540748290305	-40.7735548050494	36.4360403066534	-0.752730303106064	-61.7946066711041	
24954000	-0.388668616414646	-65.3926230773451	-42.7830067835555	6.17515900276761	-42.6488588991323	3.32614501462933	-0.361170543303843	-60.4123388987401	
25203500	-0.36515922353765	-64.6894523026437	-46.1558175463324	-23.7859112626893	-45.993712155838	-24.8355369405836	-0.274012001260884	-59.2188311726484	
25453000	-0.951334406624373	-64.8484465647731	-49.5605868184521	-18.0846190094496	-48.8446102138198	-20.4853849980207	-0.515539395053196	-59.1489406059931	
25702500	-1.37735213990725	-66.1089206998882	-49.3035982545909	-40.8096036154416	-48.8612233253699	-45.0252268846401	-0.836592091045971	-61.2465079128184	
25952000	-1.53372557227053	-69.2838146254003	-50.7231779782603	-62.2656819196507	-50.5761071038294	-63.927160611515	-0.914816635353252	-64.8736991445142	
26201500	-1.40129140899289	-71.1206529527779	-46.9126837085991	-30.9750822158713	-46.6935068320443	-33.6195023966702	-0.908991151286275	-67.1056227258243	
26451000	-1.11302870175617	-69.8519341762323	-46.127014050841	-91.2258916712161	-46.1377292394983	-94.943542892216	-0.311903895915604	-66.5933007832353	
26700500	-0.902729115928661	-66.6021175422966	-47.8214648381258	-126.184223893835	-47.85647634669	-129.144483321588	-0.0321872172118137	-65.7815340453873	
26950000	-0.907968778278627	-63.7442322835789	-49.5992595323803	-153.549638038193	-49.5363416362505	-154.293463211024	-0.131957061714957	-64.8030712201783	
27199500	-1.12787804472135	-63.2580926704736	-51.2981881315321	-176.260121823755	-50.8554982663703	-177.717906640917	-0.502885639497245	-64.942493144879	
27449000	-1.30531858708096	-65.4303347706449	-52.2855686198377	162.318741971593	-52.0315827493842	162.904918669563	-0.806884650002294	-67.1165666411201	
27698500	-1.19870839438345	-68.8499399554142	-52.8866829218599	136.979146154584	-52.9651642969832	134.212470848017	-0.786253478856412	-70.1161571335383	
27948000	-0.818214258378511	-70.5840489877248	-55.8998146380428	99.1346537994005	-55.8655208326534	97.5569302433872	-0.446770208299804	-72.1783944830757	
28197500	-0.296340403961993	-70.4634186709655	-57.0103574551063	103.768071336181	-56.9866832977851	100.586842900872	-0.0811095176809199	-72.1653211094608	
28447000	-0.165547206458648	-69.5418979241533	-55.2299626624974	79.1866440420868	-55.155294325105	80.0295829757314	0.0210540343481398	-71.1091406006739	
28696500	-0.429533909727774	-68.8525166667658	-54.5303646796542	45.2970115606304	-54.3876808090019	46.640023477837	-0.208000158080668	-70.2868780306564	
28946000	-0.859390050157437	-69.5012214775056	-53.8485918391165	2.90259195596849	-53.9537854997811	5.12949030826552	-0.609181345387095	-71.0936412814053	
29195500	-1.08476752106814	-71.8340871189739	-53.7907188864283	-37.1578073831171	-53.7484280578055	-34.8010116176222	-0.845519329325809	-73.7383211489493	
29445000	-0.892199767050281	-74.5785223733084	-53.977254785034	-74.2935694301748	-53.8953502171582	-71.0010146057423	-0.714591015006251	-76.5744131835291	
29694500	-0.421963095303115	-75.6811945403959	-56.2202078156542	-133.806253458881	-56.7428927333606	-132.621277703852	-0.426522310163303	-77.666448510172	
29944000	-0.0792354626845286	-74.9143106592792	-58.530871748731	-106.946733436967	-58.0035684260713	-106.489195734023	-0.0435431475850997	-76.985840150262	
30193500	-0.0822893569370128	-73.5843016603892	-56.0730246871012	-131.611802115281	-55.5708337612232	-128.158936895245	-0.0737094142786784	-76.1525246398153	
30443000	-0.395784195720794	-73.1684676699352	-54.7202956282921	-150.977355951353	-54.4662544087212	-147.033101028562	-0.434644727927962	-76.0859885900515	
30692500	-0.783984816620747	-74.7425017090842	-53.1190961976743	-165.726846477365	-53.280100848157	-164.113428102909	-0.847870592236692	-78.068356604779	
30942000	-0.922232938753025	-77.9947573699635	-51.712217660938	175.308011220718	-51.6866677965324	178.189165288895	-1.02576121065892	-81.5841338072239	
31191500	-0.646720254037327	-80.8360760318365	-49.8274145226321	152.904524114453	-49.6884504825107	156.866845763097	-0.828715142872379	-84.6947287335139	
31441000	-0.211186156999109	-81.6006278987713	-47.8761402370159	130.899781112653	-47.8253329165913	134.909707063021	-0.535411183041689	-85.4112491249216	
31690500	0.0144361596535527	-80.5584417083562	-44.8557810182143	105.300902046805	-45.1482044467607	109.935829847253	-0.475775289083349	-84.8878579052426	
31940000	-0.108517534900549	-79.3098302225031	-42.9197742554724	70.4120516995523	-42.7971646967111	76.9028446019938	-0.987470448675234	-83.6641920321056	
32189500	-0.504176160370016	-79.3283638654261	-41.5159177968086	31.3235328658876	-40.9274165746244	37.4542536933474	-2.0102579352365	-82.1686548670511	
32439000	-0.857795374828411	-81.5205351584184	-41.0863480869164	-18.6782884154236	-40.3934053220009	-15.5430732207278	-2.75245751316866	-76.9996886558459	
32688500	-0.841655556732263	-84.6939039288656	-44.125954260787	-66.3431668756036	-43.5595541512615	-64.7094382706612	-1.84084131367781	-76.2843734470348	
32938000	-0.488029866753622	-86.6859271378789	-48.4663343495063	-95.2077395705785	-48.0335764888028	-94.8945490634981	-0.936222685976273	-80.4821992877289	
33187500	-0.0943118339754288	-86.6297726681168	-52.4731916663977	-115.346593449664	-52.3910049531829	-115.616365934268	-0.313564277604797	-82.4207854195365	
33437000	0.0282974550417305	-85.3678570821624	-56.5118393762912	-128.643921583453	-56.1660895210955	-129.195578691217	-0.0777455015972047	-82.5521323161771	
