!Keysight Technologies N9923A: A.12.45
!Date: Tuesday, 05 August 2025 19:02:54
!Timezone: (UTC+08:00) Kuala Lumpur, Singapore
!Model: N9923A
!Serial: MY61181427
!GPS Latitude: 
!GPS Longitude: 
!GPS TimeStamp: 0001-01-01 00:00:00Z
!GPS Seconds Since Last Read: 0
!CHECKSUM:0739722220
!Correction: S11(ON U)S21(ON U)S12(ON U)S22(ON U)
!S2P File: Measurements:S11,S21,S12,S22:
# Hz S DB R 50
2000000	-0.0616814373164842	-4.20240230300708	-74.1078573138607	-116.447664099745	-75.5589618525256	-111.033088148146	-0.0762982871283627	-4.17459107695476	
2249500	-0.326391043690036	-5.07618791799573	-71.3623211217241	-127.222725045942	-70.823318783798	-108.354282726605	-0.330771650725146	-5.02286420423779	
2499000	-0.447331691282144	-6.88965929696635	-60.2233658917215	-147.916463198936	-60.319940819563	-150.573887602888	-0.455487235009818	-6.78310914564594	
2748500	-0.318796761951569	-8.60302642794388	-49.0441925140337	102.893242056926	-48.9661958824918	100.270332969672	-0.350010008821145	-8.15816891978199	
2998000	-0.0485922614101624	-9.24711713567877	-51.0093130151383	-19.2929633174737	-50.9336021845275	-18.4615458454172	-0.0626502075917274	-8.89588530838877	
3247500	0.148054380223164	-9.20896446334766	-61.0245823243756	-33.3864917229104	-60.6193094096538	-34.5940578158005	0.12302648054523	-8.9409770027057	
3497000	0.0995717241556593	-8.95918738947259	-56.499456101124	-92.0357686185746	-56.4769637379124	-94.4163951511552	0.0663484821878752	-8.70130491584326	
3746500	-0.189853269594195	-9.43576605925194	-54.7204738156688	-133.475551939701	-54.8458016240815	-132.83515713663	-0.179991793528379	-9.12726153321906	
3996000	-0.431195004674086	-10.4159449285856	-64.0753483574058	117.839028617841	-63.584668459143	122.434997797791	-0.410317120407378	-10.5322485429788	
4245500	-0.442792926107362	-12.6034194566977	-85.8697147867603	-173.021728154748	-87.0990218999914	-143.626469008199	-0.431672686411885	-12.5736833457587	
4495000	-0.226364603686274	-14.2728509188757	-66.9399180579766	-119.959612280721	-66.8552203129051	-119.619123301217	-0.220247161508021	-14.0451116537471	
4744500	0.0147034586447418	-14.7921757898095	-54.3734575498557	-140.318818952081	-54.1367561874922	-142.261568805285	0.0386607451891957	-14.4629331167904	
4994000	0.0783191288445406	-13.4399703673835	-45.1397249658845	116.524608484206	-45.1910077769288	115.332921170329	0.116431147126385	-13.9981721158998	
5243500	0.017494993398055	-13.1392687685445	-46.6046235953005	51.2996845888544	-46.6118604236357	49.8815438976077	-0.0659690316971001	-13.7035175732096	
5493000	-0.266531185610326	-13.6513045181562	-46.3424352055699	-15.049575386533	-46.3487886216439	-16.0613772450463	-0.421984702581653	-13.4551947850922	
5742500	-0.466126772042428	-15.3565959340491	-49.5045748819983	-68.5970244351123	-49.5742476273323	-69.3249687053686	-0.515728282491221	-14.5965235003908	
5992000	-0.421169387186295	-17.54715541088	-50.8528936939308	-101.568953983109	-50.8736211172413	-102.006328865283	-0.414635679299163	-16.6821282422201	
6241500	-0.221868567393028	-18.8870746293055	-48.977143186701	-145.885693571356	-49.0287065638113	-145.939628319993	-0.149488498185025	-17.9992492217893	
6491000	0.00853269443211646	-18.2241500513183	-50.3517333163035	145.582302093712	-50.3985141057155	144.885848034553	0.0920077936777567	-18.2343911291025	
6740500	0.109623915568623	-17.828059005404	-54.813725917815	107.614288189311	-54.7516064803667	106.912714478444	0.125779229080515	-17.9878527118133	
6990000	-0.0908563821940279	-17.9834144580597	-57.1495737596771	85.2506364306602	-56.9022848527874	84.5106542548565	-0.0819519145129045	-18.120999308723	
7239500	-0.410404342360023	-19.165304565827	-57.1891300344831	63.558855573884	-56.8698238347774	64.4752749228044	-0.364382340526066	-19.3390835477371	
7489000	-0.556478826866835	-21.0987737454639	-55.1514996456214	43.9074092151552	-55.0600827427169	44.959721575702	-0.508776740333094	-21.5657588885081	
7738500	-0.405342216992503	-23.093009845672	-50.9788159386736	20.8290281650992	-50.734289137138	20.2662947501231	-0.437617189028002	-23.6334697877073	
7988000	-0.150364035713634	-24.0557049471144	-44.5098063372015	-30.4785546346917	-44.3900278410731	-32.6488717128231	-0.315180938147358	-23.9356045031797	
8237500	-0.0232158947398164	-23.2644017692778	-42.1620040029506	-116.582860220271	-42.1788966171588	-118.45189572799	-0.0622346805617517	-22.2934040894266	
8487000	-0.00296158490218618	-21.9229673636831	-45.8417570566967	167.876449155227	-45.9946542570025	167.136429057569	-0.00747620265533832	-21.5020395556096	
8736500	-0.196832296348917	-22.0509884170081	-50.7949901959358	125.872766807848	-50.8313754330756	124.74397085626	-0.197742296327005	-21.6742631213926	
8986000	-0.454874962361629	-23.6100173722812	-53.6524263997716	97.0868727965484	-53.5634927637522	95.914443055496	-0.436047612684052	-23.1550580283077	
9235500	-0.5305304384408	-26.1082510155609	-53.6717826968432	68.8875381414277	-53.6021953052177	68.8287224614527	-0.474550228291442	-25.3669819736088	
9485000	-0.400367848476077	-28.0922676150829	-51.6291306166539	31.2492775678823	-51.5922408022329	29.0286401844972	-0.275187129035329	-27.284143491685	
9734500	-0.208066691329547	-27.8001975491273	-49.9522390616472	-29.8426677965705	-49.7748883993967	-32.1092724142563	-0.00950380971890492	-27.9911226193214	
9984000	0.0282385923261706	-26.6940567121931	-50.6310225500972	-91.845527692749	-50.3991690843139	-95.577817502929	0.0882599512337581	-27.8112942802991	
10233500	-0.0343718768425792	-26.4703852122447	-50.2073434099025	-144.461526503602	-49.9276498989277	-149.433557979406	-0.110375143292509	-27.7507594614597	
10483000	-0.32223339288152	-27.2958169886043	-47.7893713140073	155.737610933664	-47.7755008316945	148.523841115386	-0.558388208266401	-27.9735117762949	
10732500	-0.568800316300869	-29.3951821118186	-46.331776710149	82.8606364015264	-46.759019418825	74.9481839034509	-0.775213409760585	-28.3479170901204	
10982000	-0.611006647816332	-31.8602688784759	-45.9910530661163	12.8220506023566	-46.5743329895977	6.48962137029071	-0.595738488857027	-30.1454629333834	
11231500	-0.411820657017907	-32.5479051383199	-46.6014867029016	-60.9040585229969	-47.5034171385202	-66.4881270171319	-0.254136189210272	-31.7199833271244	
11481000	-0.085016142310998	-32.1266079091185	-49.5150745147944	-125.102554029479	-50.9463163309234	-127.196146810137	0.0404623091276378	-32.1024105443127	
11730500	-0.00668965067013954	-31.2407011250553	-51.9869660401233	-177.230031203068	-52.8341692729903	-173.131813449011	0.0637555590940457	-31.7923947253625	
11980000	-0.164479164549592	-30.7181114180234	-53.2102195522662	140.798663443959	-53.0352592226133	143.199459473639	-0.214329344721006	-31.5369282770989	
12229500	-0.4511020637713	-31.7443319036103	-52.7944336074052	88.7710391830711	-53.3629615201858	87.6994387184448	-0.577575523270321	-31.8610016187163	
12479000	-0.637051773719984	-33.9958765746482	-53.5032791620524	29.5322219259291	-54.2635571573943	28.8676630336666	-0.706164556132175	-33.0859016958404	
12728500	-0.557128714403359	-36.2682426592329	-56.1908408074348	-22.7527758001684	-56.9612766741004	-20.8785076151595	-0.499729526663912	-35.1305294681759	
12978000	-0.307906013966661	-37.0132178439453	-59.5507556979697	-61.9956918861127	-60.1255197585614	-54.5140567980488	-0.172904755773631	-36.514748501803	
13227500	-0.0793231184985225	-36.2471356732253	-63.8759179830923	-81.6017640161348	-63.6694163433881	-72.6229290287502	0.0210363758299621	-36.7187764925678	
13477000	-0.0618450029888645	-35.4255588827621	-63.6663235080691	-74.9980703503447	-62.5844364629	-67.748062537961	-0.0789837152792531	-36.585605942459	
13726500	-0.286677863944524	-35.6184882336791	-57.6096662570135	-87.5262657470895	-56.9619201338796	-91.069877793781	-0.477478323070011	-36.5365177188448	
13976000	-0.589101513420655	-37.2952110073898	-52.9856851002713	-135.521018218601	-52.6161848802178	-135.638918588993	-0.840758964549684	-36.689443913862	
14225500	-0.741107240892364	-39.8222726468452	-51.3536134806403	165.520665896469	-51.1554334232641	164.867364936006	-0.795556879446363	-37.9718714357828	
14475000	-0.607750136377264	-40.8884617634879	-53.102469448423	89.0424366610867	-53.2543403414885	88.6634700330876	-0.477123292014201	-39.7247331875923	
14724500	-0.198725083533768	-41.1850160533263	-70.5763891437931	130.10188844411	-70.1552756521619	118.204836150438	-0.119451732021296	-40.4607591619024	
14974000	-0.0827868313988737	-40.6077809425531	-54.5615950221327	111.327313947072	-54.9660843389497	109.003362890636	0.0590020800785771	-40.2164835918946	
15223500	-0.192141639788455	-39.4697793962382	-51.7976452967889	56.8456878229083	-51.9331216309123	55.1609690345747	-0.0676464786587666	-39.8642570927322	
15473000	-0.449216146503441	-39.6351697723988	-50.7577308868531	9.30411550298791	-50.6456895255622	8.79313349602637	-0.405208861712879	-40.5057136225909	
15722500	-0.688152454398402	-41.6253901434658	-49.1619530848936	-37.1457924142786	-49.379269883159	-34.2157604749481	-0.727498049898666	-42.391637058766	
15972000	-0.695300571198241	-44.2255243084913	-47.3257481221733	-87.3615873594636	-47.6209818995673	-85.6646178718752	-0.837529691237435	-44.3779352794915	
16221500	-0.481741833563028	-45.8435010380087	-46.5135519868512	-148.647327960496	-46.3895393620234	-146.159449991231	-0.63127679821563	-44.94664676224	
16471000	-0.246798359721456	-45.5978934081716	-47.0005868564102	149.211374331067	-46.7427664657745	151.505826465319	-0.263962027408491	-44.2999338602342	
16720500	-0.146351283923317	-44.3783709846037	-48.8789174743655	95.9915880809245	-48.5807599370211	96.8429614433599	-0.0723787496189822	-43.6680612740998	
16970000	-0.286330394254605	-43.7581790915022	-50.6628766489098	54.0181734797287	-50.422189205773	54.3767670365831	-0.209647787985354	-43.6598449325507	
17219500	-0.587046121610267	-44.7100609605615	-51.5990641186184	17.7351393085248	-51.2338880566175	17.5777228158481	-0.524697039008606	-44.9700773163941	
17469000	-0.790658565062841	-47.0358388000955	-51.295234700254	-19.2874513473424	-51.1136072145876	-19.0391165552202	-0.780988099952348	-47.3220278574055	
17718500	-0.736327397377859	-49.2985933451338	-50.971129080807	-60.4420759175273	-50.9142255215855	-64.304617943619	-0.791418501749834	-49.2396842382754	
17968000	-0.475732990996191	-50.0768361327362	-52.0912396061244	-108.685295658212	-52.3168915409618	-109.026824916066	-0.508366708508422	-49.4392239286573	
18217500	-0.203391613152546	-49.2466675104404	-54.6106631738196	-150.097842736681	-54.6496783140915	-147.404169844024	-0.172937347363613	-48.602720283763	
18467000	-0.15119341080223	-48.1728485511636	-56.8218013484186	-178.014937515345	-57.0092394369803	-174.886288707302	-0.111420182252826	-47.7646271544192	
18716500	-0.371484025779519	-48.1833034535853	-57.9843564142856	159.831305688508	-57.4943877034191	165.496144000107	-0.328117296895625	-47.8131838484271	
18966000	-0.693344311627697	-49.6840518216518	-58.746157130749	137.691376873485	-57.1814790041937	137.825757352093	-0.649862349191073	-49.3065964226174	
19215500	-0.842058302904087	-52.2317931436994	-56.4350683801071	104.985038171773	-55.6285061405584	102.880128053236	-0.822621982640143	-51.7980896215083	
19465000	-0.722890590577295	-54.2546971108953	-54.8638895592267	58.9614352510338	-54.0152960353205	56.9412955300984	-0.734988483038748	-53.8226240065121	
19714500	-0.441704992290836	-54.5074977057275	-54.4051241605305	6.1118652372013	-53.5926865504119	3.60708273773557	-0.472788176481276	-54.1264409427206	
19964000	-0.240870073079179	-53.3649564497814	-54.8021514860547	-49.8762648861618	-54.3579600246132	-52.3929802795654	-0.273193259611417	-52.9962303873981	
20213500	-0.308392471718147	-52.3614311215888	-55.7753805921493	-105.361774673267	-55.6919522665113	-103.678090519063	-0.290773808035511	-51.8550166507186	
20463000	-0.615258439729165	-52.6731331645676	-57.2577473050921	-149.318257796996	-56.5523936949203	-150.134032364275	-0.507827466838839	-51.8994652205559	
20712500	-0.939222331269479	-54.4977182910987	-58.4405529554445	173.205401122206	-57.5183868714183	172.635029474949	-0.731286015895667	-53.6621803079921	
20962000	-1.024542366163	-56.8072824061295	-58.6274285879038	145.02840989659	-58.1827106018329	142.862475271097	-0.73682674334656	-56.1744812458291	
21211500	-0.778503416917327	-58.0388747189431	-56.3075609623043	116.480821373896	-55.638523753786	113.931198685748	-0.522928574889939	-58.1066620173747	
21461000	-0.417431556222203	-57.658253547563	-53.8112434802421	70.1514935391528	-53.0245021294883	66.2710967744248	-0.270319052298238	-58.455425313906	
21710500	-0.237088623906564	-56.4655979647665	-53.4969261852806	20.2700051743969	-52.8476816621517	18.8084374301354	-0.240486478211444	-57.6193599437369	
21960000	-0.365200254139278	-55.8391704390686	-53.6040775804807	-27.0105601715922	-52.8305460404434	-29.8064609574137	-0.471609504419176	-56.4817092224791	
22209500	-0.698751465626714	-56.589033624968	-53.6229704045069	-72.9054691753799	-52.9249304887061	-74.8175684557651	-0.801600309918876	-56.3563445788889	
22459000	-0.971937724754038	-58.795303752936	-53.8162799477631	-118.761468824748	-52.9338976722933	-122.586031402469	-0.953515159660847	-57.9737987327478	
22708500	-0.937311215446744	-61.0460358920718	-54.0629744161656	-172.587326532996	-53.690446513198	-175.171056178576	-0.822997044744091	-60.2785475541993	
22958000	-0.615643451788125	-61.9707441256542	-54.2637960400955	126.016645712973	-53.7862984024615	123.522147201934	-0.488717526307123	-61.8138794037459	
23207500	-0.300840486186625	-61.5263246439616	-53.8976497099138	65.343030295266	-53.4167679206537	62.922441114615	-0.204015295007604	-61.8514233462377	
23457000	-0.272200828681808	-60.4236732519247	-53.5154102813287	1.17459290345072	-53.1331583492935	-3.73714519101843	-0.182884756714044	-61.2090650022668	
23706500	-0.527017233395483	-59.632636658777	-53.6256775613264	-69.0943737462013	-53.6015540420395	-71.58185568699	-0.442709260606475	-61.0286144085926	
23956000	-0.829037674554596	-60.4154565868326	-54.6569666297414	-131.782714612489	-54.4571292594433	-131.076039050491	-0.816899425762451	-62.053090948903	
24205500	-0.964047723925011	-62.8701175262234	-56.8387592576502	175.723026818464	-56.8185638162945	177.768263662034	-1.01380690032844	-64.1002384285651	
24455000	-0.804083881703285	-65.1533264248473	-60.8593656246281	127.289604041535	-60.3758861538895	127.702768106375	-0.878915346988613	-65.6525358641343	
24704500	-0.464344265999171	-65.8732307182051	-64.2714847369163	106.605147451435	-63.954221377011	111.332498158153	-0.505121607446026	-65.7615007025625	
24954000	-0.203235743467744	-65.1072326209837	-62.9220604446913	80.5076543870271	-62.7820317129726	83.9602264751255	-0.245562742571972	-65.0203902934618	
25203500	-0.212545430338792	-64.2263101491324	-64.2537640511671	31.7280987026765	-65.1710317757523	34.9011568872604	-0.296699892883275	-64.3938326069965	
25453000	-0.489589466830611	-64.2043891904425	-66.542446850692	-26.6840512380587	-68.5353421778011	-21.0033748413605	-0.63991733191595	-64.4519907538516	
25702500	-0.804101631548218	-65.8967003448463	-73.5997486551266	-71.660486353446	-75.5576248263778	-45.4226446498739	-0.99976330157185	-65.7116775442003	
25952000	-0.883419160305706	-68.6325982299836	-79.0949468697592	39.3759181815495	-82.258799212319	-27.2990411898765	-1.04435722351504	-67.8214341025973	
26201500	-0.680926475475606	-70.5826278746954	-72.3322866400979	-15.706895916924	-71.0894718355735	-40.1415277701382	-0.742999801975399	-69.772246131098	
26451000	-0.369648663940814	-70.6585485600095	-72.7837137414776	-84.8117880146804	-70.9702631134355	-104.764242888216	-0.378766608624792	-70.4566259835336	
26700500	-0.229212771851542	-69.4990497212557	-71.6798298312161	-155.522865579614	-70.5323910243621	-164.393326771774	-0.222377019827039	-69.802537908407	
26950000	-0.366930252984561	-68.3961300434614	-69.1220540564278	146.158786310172	-66.0995785341708	152.512047158131	-0.373069580546146	-69.1517394269137	
27199500	-0.705159927211101	-68.7820430003779	-66.3715613988146	112.730025945007	-65.5506625100332	109.192654050127	-0.748761104178211	-69.364491150626	
27449000	-0.975070997882768	-70.8047724614942	-62.8401922845666	71.9021573481206	-62.4814215699702	70.9329901329611	-1.04009901470481	-71.0522175333296	
27698500	-0.96853635273951	-73.371356590427	-61.1746803266748	26.765505602378	-60.8471389676289	27.2653574471459	-1.03602638513048	-73.0898690764213	
27948000	-0.667356639220997	-74.7887632414487	-59.4373142212717	-14.3260274695433	-58.9236928058283	-18.0406946832688	-0.74794365926544	-74.236118341007	
28197500	-0.339125160307354	-74.3762797232118	-58.6818343291256	-56.5865141511522	-58.6951056555365	-56.0852446440697	-0.419206722616934	-73.7497141647087	
28447000	-0.251750367160721	-73.1809598914512	-59.1671276247348	-102.502086164646	-58.3650378224198	-100.077975165169	-0.313480247912845	-72.6684976077614	
28696500	-0.459818155735166	-72.5592989824436	-59.3208070429565	-143.357103918137	-58.7379131558281	-142.733926115117	-0.496104994378575	-72.0582760828934	
28946000	-0.803582125085673	-73.4311104352865	-60.0218634027655	-178.541540966039	-59.5692145168909	177.005816448957	-0.825950549867402	-73.0224918611849	
29195500	-1.01406749570656	-75.8035490673689	-60.3246898425988	144.583851178743	-60.4386555810743	138.243811670635	-1.01479670812918	-75.5674476597197	
29445000	-0.915107106397941	-78.2873744029824	-62.0890189621299	89.9085615018718	-61.365080156585	78.4923002354155	-0.894898463966334	-78.1351406935366	
29694500	-0.58212387685323	-79.0838486134616	-62.7011445326514	28.7931665612348	-62.5080334199541	30.8498556950805	-0.614621197295231	-79.2623228724523	
29944000	-0.336638337368125	-78.1384385081579	-63.4141865633676	-27.9267435266755	-63.2560296507735	-32.9219895940132	-0.384917784212526	-78.6015449564358	
30193500	-0.359861258583156	-76.7563984755271	-62.7926625191813	-94.4826670798762	-63.2294842665695	-88.4617588142981	-0.43139574476421	-77.3551038924989	
30443000	-0.631034824340219	-76.2599507284819	-62.0756884726324	-142.776292666279	-61.4166996261837	-149.841803089354	-0.72379227595158	-76.6688764555941	
30692500	-0.95970202331752	-77.4889508821613	-60.3646849430779	171.933643383653	-60.8959227969984	169.001197933311	-1.02472321319879	-77.6451993383576	
30942000	-1.08455561951557	-80.0994488610051	-62.668866281065	121.363130585486	-61.1242275071702	121.916147511044	-1.11251100253656	-79.8695501573549	
31191500	-0.859551708907996	-82.3557350174682	-62.8592284145382	85.478780753237	-62.0790461013979	84.7543345535659	-0.864227946519442	-81.9162921409027	
31441000	-0.481928021273043	-82.9076044110757	-63.8157169017856	47.3803737079595	-63.3372166239588	53.8031489972153	-0.510390259334614	-82.3968637138041	
31690500	-0.274189174557945	-81.9972567121234	-65.8268413365488	25.5472047235906	-64.5560213587337	27.4654573583918	-0.316278608256811	-81.5422754830826	
31940000	-0.368412972064451	-80.9773744148058	-67.8638837864871	7.17058132805576	-68.1896061528479	-0.736037059506521	-0.439202419161265	-80.6254184084224	
32189500	-0.709840902628764	-81.0261769011708	-72.788360007926	-26.2581453485509	-72.3505145727002	-16.9386306371903	-0.795063903622713	-80.8097916689634	
32439000	-1.03039339356621	-82.8026933503585	-73.5360642083471	-26.431432810381	-74.8523386585658	-30.3885371294276	-1.09973106144709	-82.6254051415744	
32688500	-1.05646745992546	-85.319998193642	-75.2615481502279	-12.869729536198	-71.4565783028002	-26.1078899515509	-1.12987917963725	-85.1236556037247	
32938000	-0.801736989455352	-86.8049426734334	-71.9826743424685	-26.3025098136629	-70.2219729481342	-30.4537569356009	-0.84138578218823	-86.9211198704178	
33187500	-0.48511127865702	-86.5340625110012	-71.5891989731462	-42.7823592713055	-70.5869059894611	-41.8345716671474	-0.491927690008548	-86.8544646328987	
33437000	-0.365094343235831	-85.2336493149693	-72.9412305652277	-83.1174612617209	-71.3769039517261	-78.9903263685704	-0.367561765039522	-85.7303699221405	
