!Keysight Technologies N9923A: A.12.45
!Date: Tuesday, 05 August 2025 19:07:15
!Timezone: (UTC+08:00) Kuala Lumpur, Singapore
!Model: N9923A
!Serial: MY61181427
!GPS Latitude: 
!GPS Longitude: 
!GPS TimeStamp: 0001-01-01 00:00:00Z
!GPS Seconds Since Last Read: 0
!CHECKSUM:0701625431
!Correction: S11(ON U)S21(ON U)S12(ON U)S22(ON U)
!S2P File: Measurements:S11,S21,S12,S22:
# Hz S DB R 50
2000000	-0.062516851803052	-4.15187532245441	-83.7929676320412	-158.427810471101	-84.7470506633125	-129.936114217	-0.0748964877014634	-4.09980697982781	
2249500	-0.333003000593518	-5.03282684818256	-73.6799026434557	-128.75389714797	-73.1027886692724	-128.734208975656	-0.338858838180552	-4.98919784010729	
2499000	-0.454515532849956	-6.86445378319875	-59.8969312507577	173.49081427309	-59.5999369386798	174.030380850217	-0.495501853669087	-6.74589286585748	
2748500	-0.324105213760598	-8.69534231281594	-54.2880750467602	69.0838418262821	-54.2487112001883	70.7176399855839	-0.333558478298714	-8.10846483106024	
2998000	-0.0459772493419059	-9.23877617097618	-56.5783160046525	-38.9576016953897	-55.9940229841138	-41.3424625852827	-0.0435379001828388	-9.02387753720399	
3247500	0.150132869191919	-9.23232897227218	-65.3537338486548	-66.0629592472457	-64.6366378279418	-73.6874271235615	0.131644035474665	-9.04760918426295	
3497000	0.0918427518592789	-8.88756606884187	-56.8069151736783	-63.5688731787221	-56.945399947641	-63.6267001901892	0.068026356569051	-8.86045729290561	
3746500	-0.178218676978972	-9.41921323333681	-55.526942909458	-123.17125838379	-55.8261877487804	-121.175824053745	-0.181283295809687	-9.24020829012185	
3996000	-0.448348191337543	-10.3868719013254	-59.3218937014865	123.420069945249	-59.8557911064927	122.578090102012	-0.414712428118393	-10.6092128213171	
4245500	-0.451600850475057	-12.6138370491333	-75.010684457621	115.590181673095	-77.4676341148596	90.0319115892236	-0.438656651376189	-12.6380237089218	
4495000	-0.230820142918212	-14.291893079692	-66.7369629009641	-124.034277263083	-66.6088054597408	-118.999568385838	-0.230968184907269	-14.1283974199226	
4744500	0.0144228111091125	-14.7970191576472	-49.7185589023666	-164.022881726986	-49.6904923198836	-164.501987019815	-0.0119388610271685	-14.5750697722542	
4994000	0.0916656335898145	-13.62041258734	-42.1144347646244	63.749228088675	-42.072885305094	63.6635537413073	0.0539856711528224	-13.505058802279	
5243500	0.00788562881001215	-13.0246816859161	-47.5306899590407	-29.8197503588789	-47.4540446391096	-29.8324201738128	-0.053727102453849	-12.6099295580207	
5493000	-0.263697279911516	-13.5643927194964	-53.3030679547948	-71.7374374685425	-53.4312613800207	-71.4884977205633	-0.285440986321143	-13.1527334023009	
5742500	-0.471159960698553	-15.3473553908191	-55.6083360037592	-94.89892756182	-55.4134786674494	-95.5841983826403	-0.459349055370674	-14.9121973289147	
5992000	-0.430050969550396	-17.5696430957087	-54.8345096662123	-117.441272470994	-54.7688698348187	-119.247110167859	-0.398734290363199	-17.0629720090296	
6241500	-0.236536419817088	-18.8983050911638	-51.1634090387058	-162.139998085807	-51.3724143612935	-162.895604978601	-0.165414689732857	-18.3829979979894	
6491000	0.0142419415848883	-18.223369986868	-51.6488151375595	129.000054096165	-51.6289830686287	129.749436001362	0.0963300182832884	-18.6623139694372	
6740500	0.111258078451747	-17.8538513121457	-54.5329962755579	91.1362343655433	-54.5295866024323	92.9121376346847	0.118420843726755	-18.425877784539	
6990000	-0.0941661141722021	-17.9968667752975	-55.3032568969916	67.3281761779943	-55.0889271396967	66.8489788292909	-0.114314530496795	-18.5810709901386	
7239500	-0.419708099885638	-19.1721408428337	-52.4711081275213	39.0155600535732	-52.5432566923138	38.2754748932737	-0.463489797796681	-19.7924568380315	
7489000	-0.566656674735449	-21.1121170191899	-49.2796189412332	-12.0640109637502	-49.1182292752954	-12.2607475266427	-0.728183575711101	-21.1992907885907	
7738500	-0.409784696636099	-23.1042329614395	-49.6671538105873	-65.7460857311162	-49.5387037312219	-66.1550295535698	-0.516898318439674	-21.7965677128222	
7988000	-0.142679664384779	-24.0977835821732	-49.5835074506583	-105.611889887674	-49.4836538285549	-106.57921486262	-0.124226586369669	-22.4920770095354	
8237500	-0.0338579738895671	-23.3040659395395	-47.9436024372798	-159.516675040623	-47.9164680232369	-159.788561343878	0.115056484966647	-22.3362375692611	
8487000	0.00143558811315777	-21.8438957232432	-50.3998670531997	142.619700904556	-50.2921308135364	141.536447822438	0.0812991553379446	-21.8927167856927	
8736500	-0.195582579334231	-21.9959155713839	-53.4517653360943	107.522537542486	-53.4648122000943	107.904965005955	-0.166485793394731	-22.1450734782895	
8986000	-0.460031549275907	-23.5759974815234	-54.168178012069	81.3211678379684	-54.2904490554001	80.0998523888847	-0.438278850720959	-23.7099944833139	
9235500	-0.53986589477693	-26.1123858825207	-52.31741347628	53.811294523762	-52.190713253911	53.0243856318327	-0.49834764209759	-26.0450196897594	
9485000	-0.412992873905858	-28.1031915605984	-48.3179290767328	9.49817595551137	-48.1770264719603	8.30455612230511	-0.32600383631937	-28.0639586383742	
9734500	-0.202470439444961	-27.7467409586012	-44.9478486557966	-62.6520104032702	-44.9366520647167	-63.9411542861416	-0.108135471436899	-28.6881300563079	
9984000	0.0326189511220147	-26.7530925906513	-44.9797609206698	-139.26021637824	-44.86611031458	-140.405817102347	-0.0963831089647382	-27.9918517039069	
10233500	-0.0391834838668399	-26.4800307364714	-46.3082862923352	151.847482031635	-46.1988951920296	150.814907985887	-0.259539022206545	-26.4316157953667	
10483000	-0.328182333609066	-27.2927581393263	-48.3333310604622	96.0049060243977	-48.3967786750253	94.0601377438634	-0.442569315994924	-26.3016732995535	
10732500	-0.582996575556622	-29.419603852058	-48.7958267611491	49.7642932235825	-48.8714839834166	48.378452082728	-0.579839321411126	-28.1072363854572	
10982000	-0.621906953047237	-31.8079816016532	-47.312068388359	-2.00816352200002	-47.5044625697499	-3.83487721895776	-0.51159859781134	-30.4354499319109	
11231500	-0.397846326850812	-32.6134766974961	-46.5765467348407	-69.7403245413886	-46.7534702204659	-70.6103101219027	-0.237043307771605	-31.9359938255434	
11481000	-0.0909401379193423	-32.2192553066464	-47.1159978777929	-131.387139661607	-47.2838133287443	-133.674698564302	0.0354086802642266	-32.1739761315618	
11730500	-0.00963296398134611	-31.1795762588451	-47.6820301337205	159.944251735198	-48.0970734430119	158.333681929026	0.0626964412578373	-31.7241581350133	
11980000	-0.161651693472802	-30.6529214699279	-49.7610915852469	99.7869007313343	-50.1573609560435	98.3680263543007	-0.168651776425828	-31.6513129591613	
12229500	-0.456241462870756	-31.7031910646519	-50.9319632152047	50.2930100579622	-51.513415049993	49.8858809652885	-0.557533384441635	-32.7877350534538	
12479000	-0.643737078537397	-33.9653366646029	-50.847562392201	-1.44017733042935	-51.2084894422273	-2.06775334433816	-0.870601629726071	-34.4272573798689	
12728500	-0.563248897175896	-36.2652349106842	-51.7483464937581	-56.1750310785926	-52.1515429493424	-54.3053347100857	-0.768499202317349	-35.0832058453647	
12978000	-0.308710234078763	-37.0446966121759	-54.3508590390787	-101.600748921698	-54.6433796380539	-101.237928321932	-0.316176285689627	-35.4965915451081	
13227500	-0.0796202216053915	-36.2716129869252	-56.7879617322734	-134.542660185318	-56.6391723235265	-131.710073324901	0.00203230658860958	-35.4025850734466	
13477000	-0.0627958947717222	-35.4137445735889	-57.4261120621154	-159.122369195229	-57.3357709638754	-157.724459289041	0.0232799851439147	-35.1505026044143	
13726500	-0.290970516711187	-35.5936692542185	-56.7510860013903	177.563584423655	-56.7768867262666	179.445365452767	-0.22359607696562	-35.5109973022521	
13976000	-0.597045832807179	-37.2661627311419	-54.8251054768578	146.939987845647	-55.0000072826395	147.553377807411	-0.547101434587085	-37.2455843006153	
14225500	-0.747262936794702	-39.8277642718517	-51.8570577835485	92.775318653837	-51.9816806189404	92.3346038414396	-0.757597057752649	-39.443362556701	
14475000	-0.616736246027465	-40.9720028959008	-53.766564295763	16.8611024901811	-53.5938720959577	14.3055735118628	-0.544737091836867	-40.0967672373967	
14724500	-0.198870791675287	-41.1920063895866	-60.5067150390834	-47.675712392933	-60.7558420168566	-46.5879805025384	-0.142428976691288	-40.7080077032995	
14974000	-0.0796832764770119	-40.6270391790566	-78.4170319690874	155.114499235875	-76.5401397971802	178.127736896597	0.0236707510165967	-40.6374746762156	
15223500	-0.192677221777804	-39.4393816889994	-62.1038755921374	32.6870104034584	-61.7996961081066	28.9090134732128	-0.155603485721616	-40.3461006382224	
15473000	-0.452745020987414	-39.5850807064287	-56.9602703190983	-34.4879308060984	-56.9782038338288	-34.4111339928344	-0.570903132570058	-40.6907812677704	
15722500	-0.695138809345394	-41.5888573592142	-54.5959798024178	-89.8780933860481	-54.588559439691	-89.2772094774192	-0.901348776946679	-41.6166269244928	
15972000	-0.705849334870492	-44.2266780697962	-53.5022532152928	-144.515209818345	-53.5436112472441	-144.024625205214	-0.837289629737386	-42.9742379913451	
16221500	-0.490492708683153	-45.8389053538635	-52.6234823965653	163.627611998367	-52.7505568815459	163.995969028658	-0.466765529343552	-44.2004651833804	
16471000	-0.2435032322833	-45.5907883184822	-52.2441796140454	115.913123257296	-52.0943327457035	116.526774542641	-0.106475766686768	-44.4393957336273	
16720500	-0.140875649091026	-44.4041084299977	-52.0175608133885	74.2035995069528	-51.9842104226882	73.9721717360054	0.00990271200085531	-44.0421963672302	
16970000	-0.28820376356374	-43.7746374336825	-51.6283173711471	37.7208564656063	-51.604115751048	36.6837422987413	-0.181970811108219	-43.9425097189649	
17219500	-0.59691372571573	-44.7041076756255	-50.2860888094387	3.33662645961714	-50.2295707067493	2.08206740371645	-0.534452974193275	-45.1476265514685	
17469000	-0.806326305770947	-47.0146185256363	-48.1344868086506	-34.4953333339832	-47.9562158671984	-35.3546799591027	-0.81437721772269	-47.4399746850953	
17718500	-0.745519719694791	-49.262894632223	-45.5539783201928	-80.9564384003986	-45.4603678065903	-81.5568685702361	-0.838057112156474	-49.4226466280733	
17968000	-0.46847202579427	-50.0815128710976	-44.1381133815799	-138.960969972666	-44.0350083378684	-139.888412874737	-0.586840368480312	-49.5579766446071	
18217500	-0.197122734903822	-49.3163320497862	-44.5491022192491	161.846288339217	-44.5072100540995	161.753668623087	-0.240055159976956	-48.424974203229	
18467000	-0.153445511070791	-48.2013565514396	-46.1167595011229	110.405755559296	-46.0062061265928	109.458214992067	-0.140186136371821	-47.4590873371686	
18716500	-0.381535288548037	-48.1617113274439	-47.3974641171609	65.6919580049665	-47.2925802623184	65.0656426646851	-0.328251372023611	-47.5277869950497	
18966000	-0.70494845055653	-49.6117376429085	-47.8780076442859	21.5857506834891	-47.7684880789778	20.6897278726635	-0.630548443012088	-49.0910283984931	
19215500	-0.853225963628934	-52.1518056974324	-47.4016787512543	-25.0504393898084	-47.1420896465834	-26.222664242821	-0.794442072382593	-51.6430030905637	
19465000	-0.721484483782388	-54.2072040242143	-46.4291388105578	-80.7958525592529	-46.3710190982957	-80.9256775362903	-0.70041262470554	-53.6253138952146	
19714500	-0.434011686518393	-54.5710306832168	-46.5805575399807	-141.521137178169	-46.558207653441	-142.835413923645	-0.411548118033664	-53.8576132044847	
19964000	-0.246716228932733	-53.440406325495	-48.1045537816736	156.790897743234	-47.9835330513113	156.258245437576	-0.183622710842165	-52.9026256999955	
20213500	-0.318192068495716	-52.3420488176949	-50.5072293299015	101.748317621127	-50.5282546802727	101.600020139355	-0.218757684516441	-52.0908095582983	
20463000	-0.622208549587348	-52.6013458651135	-53.3787831278304	53.4176923244268	-53.2571657879092	51.9841891581212	-0.4936362289696	-52.3628894984002	
20712500	-0.941772768005238	-54.4467312378758	-56.456872819928	0.0623332714859746	-56.2231422125063	1.63848255575704	-0.787860325883438	-54.1865705211242	
20962000	-1.02421466487494	-56.8219652893632	-60.8641640182383	-50.4430398131913	-61.2269493144849	-54.8440471808155	-0.85565445417542	-56.5712307096036	
21211500	-0.779642391256459	-58.1178637339246	-67.9308439415653	-106.742983963448	-67.6371292743248	-107.774640093852	-0.6726914206673	-58.0883735463858	
21461000	-0.424812048272895	-57.7168571956443	-66.1474554480932	137.226695372791	-65.6332992574262	137.838200685969	-0.384913476346114	-57.8107927694112	
21710500	-0.241791732042462	-56.440367603028	-60.3653826806807	50.9566143061488	-60.0754284964171	51.8286253383447	-0.240652200619659	-56.5587216512885	
21960000	-0.365131999158993	-55.7778578563482	-58.3636216586467	-10.5511214450195	-58.1009075168921	-11.3605481999568	-0.342699753158152	-55.6872049912876	
22209500	-0.697865171852683	-56.5302968272877	-57.0733273904647	-60.6745784352803	-56.4219947411371	-59.8547261521187	-0.62416552021225	-56.298740148719	
22459000	-0.973208525041428	-58.7891076724926	-55.6952406530252	-107.726605230424	-55.5112765023795	-107.920759725143	-0.813050468024563	-58.5191450239218	
22708500	-0.948404777215618	-61.0935213464929	-55.3572665478025	-160.519035957681	-55.1462165637733	-158.365315503868	-0.750535855584589	-61.1144762861048	
22958000	-0.633342207682415	-61.9594125361312	-55.3257743028758	142.792419816897	-55.1613064907107	142.138572255002	-0.490337770982249	-62.6835426885484	
23207500	-0.303297565755106	-61.4147969301717	-55.3515293722525	82.4771328860902	-55.3737710429824	83.146154504936	-0.283053687845902	-62.5228625459075	
23457000	-0.250640836960764	-60.3914352083075	-55.6647577749374	18.8475608051207	-55.3673728679772	19.0101289753152	-0.328418334773912	-61.4139577842904	
23706500	-0.527346559510185	-59.79253011328	-56.0918188154237	-52.8658675003112	-56.1134129104776	-55.3088075825573	-0.60876727673444	-60.5620370845795	
23956000	-0.856414513818571	-60.4076733043982	-57.7853037797515	-121.505519430494	-57.7508868265528	-123.220384146014	-0.9289627733487	-61.0189892885355	
24205500	-0.972618790354214	-62.7927388531036	-61.835295246203	-177.534723131349	-62.0003359797932	179.665849048467	-1.01860988433067	-63.029865919354	
24455000	-0.801552041722306	-65.1594487525036	-64.6775571471597	136.29200929571	-65.3356050805185	133.576669014903	-0.797697000153594	-65.0893739003761	
24704500	-0.462525268646507	-65.9160887784613	-68.761950833195	91.6848302935907	-69.4405230891057	94.4754566559805	-0.415578396276079	-65.7704010200639	
24954000	-0.205241109899495	-65.1290641593756	-76.0491101673806	77.2340870387203	-77.7305602011078	83.2757636838419	-0.191102933281158	-65.2628961108314	
25203500	-0.214547100462339	-64.2071736068675	-75.6768040374504	104.036701618196	-76.3065850069464	101.503335816266	-0.274923128200986	-64.5571442783618	
25453000	-0.493468806110055	-64.1652460859066	-76.2701956369993	66.4071129387383	-74.6280344615152	76.4556583362169	-0.615657915565292	-64.4968587046823	
25702500	-0.812203579425761	-65.8384016657983	-74.8861743042734	13.999605923683	-79.9320719056001	37.7023436801312	-0.983463402823531	-65.9918474365898	
25952000	-0.8920676291312	-68.5896808654783	-84.4394796989761	-97.630364896241	-78.3019088270084	-101.343968674391	-1.0937368865863	-68.1561120241632	
26201500	-0.68565105918935	-70.5591764393961	-70.8746584510094	143.558570577977	-73.6430263341039	164.01481430342	-0.83239830599776	-69.7731714888573	
26451000	-0.370717775307469	-70.6493508162449	-66.2660419843543	94.6487405025796	-67.1006271087645	102.772099576236	-0.453252109609466	-70.050725985995	
26700500	-0.229214290114845	-69.4943459047883	-64.0732065139567	63.1800135360535	-63.2794266777471	64.1249438133449	-0.253585842907253	-69.14644874441	
26950000	-0.369648752210643	-68.3970581426757	-63.0910598205212	25.7743136499508	-63.1861028380012	19.6147113372008	-0.355457705465356	-68.448351597244	
27199500	-0.712205557379299	-68.7842806442742	-61.4699697594233	-13.1836143769124	-61.913772579141	-9.17185320594226	-0.687047889555194	-68.8099638931047	
27449000	-0.984655834834052	-70.8169072748205	-60.147476888212	-50.8917984594033	-60.7151744846811	-47.0578727322827	-0.952734279265463	-70.818878926181	
27698500	-0.975508080784199	-73.3886996137606	-58.9205182799627	-80.9520628358665	-59.5597227892555	-88.6434282400814	-0.951280638411144	-73.2591373283288	
27948000	-0.670455754012884	-74.7999213333115	-59.4771546646324	-125.652031148515	-58.6962056303995	-129.709548833176	-0.689932037277363	-74.695894042054	
28197500	-0.338056990339489	-74.3721913347028	-60.4243443371715	-177.157061439777	-60.181798711492	-173.845215128063	-0.402325044823358	-74.2641979919371	
28447000	-0.25148617158424	-73.157651869737	-60.9017233260684	129.852938065604	-60.6173821574963	126.112627987159	-0.334481273737743	-73.0522258179485	
28696500	-0.462284210001634	-72.5310474030613	-61.7509779834497	70.9664311163823	-62.085051395093	75.3489883582296	-0.537697310890247	-72.2305277846695	
28946000	-0.810825508257658	-73.3998097624089	-61.9360679762539	13.9569592922549	-62.4956754559623	12.759624340195	-0.877788339581409	-73.0152193064351	
29195500	-1.02248746117006	-75.7852437831168	-60.928628100584	-43.0225430334815	-60.3301472995529	-44.6489183084176	-1.06614957308574	-75.4438882272972	
29445000	-0.919132951935421	-78.2700256879266	-58.94915313402	-91.5044016510427	-58.8493858585457	-94.2790296674126	-0.933431180540669	-77.9322097003278	
29694500	-0.582580249567719	-79.0514444144869	-58.152421111993	-139.022565014054	-57.6079966757843	-142.475985173351	-0.635297083218942	-79.0130529879362	
29944000	-0.335247762490413	-78.102611436142	-57.14620430152	174.207728450333	-56.7541982189838	173.640334670992	-0.387884501839817	-78.3520571548359	
30193500	-0.360490936664599	-76.7220934227965	-57.4647442151616	130.281207890976	-56.7225937214948	132.465254489742	-0.427370154229294	-77.1297551209154	
30443000	-0.636920861232194	-76.2414991203253	-58.0436691346584	95.5764298600174	-57.8070009206484	96.6763346772401	-0.722703038096259	-76.4903667059659	
30692500	-0.969067569168737	-77.5133931410109	-59.8253993926081	58.1112098411913	-59.7746733365109	56.9124262967449	-1.03305967524811	-77.534198220426	
30942000	-1.09378140199131	-80.1530200203589	-62.896469556889	17.9758305552151	-62.252978304408	20.4520633694375	-1.12890543298819	-79.8439560320608	
31191500	-0.863455182427959	-82.4023275388616	-64.0634339579187	-2.83277273372615	-64.9672402942732	1.8643865161861	-0.882941858253267	-81.9198089523329	
31441000	-0.481907376626388	-82.9255813393587	-67.1028349271962	-8.24909290751933	-67.4361397673626	3.66901125452492	-0.526955231840385	-82.3815439166669	
31690500	-0.272344952723316	-81.9725388569025	-67.1615593782358	-7.57927845929084	-67.9312994336825	-6.55930470648896	-0.330014452624247	-81.4739677295626	
31940000	-0.36919381637324	-80.9362560348059	-69.1100536506305	-35.0289626694661	-68.8218619582433	-33.674126232473	-0.454544881651491	-80.4782199934054	
32189500	-0.715026776075661	-80.9738844085386	-69.2730755261329	-63.7056945698145	-70.0942682139584	-62.0618597923217	-0.812846095367558	-80.6007151222859	
32439000	-1.03830254402536	-82.7743034446401	-67.4044323148767	-87.2819912481544	-70.426891374803	-78.0750552057779	-1.11968370529037	-82.3817379574674	
32688500	-1.06279416188803	-85.312629263383	-72.8262789401277	-92.6249344533642	-70.4153908262004	-90.2284006112591	-1.14625886931771	-84.8705732272057	
32938000	-0.802811995049512	-86.7916700111994	-69.9716412519399	-55.4267849230636	-73.6267281143633	-70.3707425675772	-0.849277220947154	-86.6609423879886	
33187500	-0.48338784569042	-86.4970478420768	-68.5931338964589	-81.0364367151643	-69.3246684460588	-70.4862557654021	-0.492144711716129	-86.5522673618953	
33437000	-0.363843253515405	-85.1751006871189	-67.0737314450977	-107.309624990831	-66.5304847534688	-114.4577027807	-0.359648350426259	-85.3669158771096	
