!Keysight Technologies N9923A: A.12.45
!Date: Tuesday, 05 August 2025 20:00:03
!Timezone: (UTC+08:00) Kuala Lumpur, Singapore
!Model: N9923A
!Serial: MY61181427
!GPS Latitude: 
!GPS Longitude: 
!GPS TimeStamp: 0001-01-01 00:00:00Z
!GPS Seconds Since Last Read: 0
!CHECKSUM:1521414949
!Correction: S11(ON U)S21(ON U)S12(ON U)S22(ON U)
!S2P File: Measurements:S11,S21,S12,S22:
# Hz S DB R 50
2000000	-0.110334600875311	-4.04420611982275	-83.9720826802773	84.6642120807845	-87.0689496566986	80.8464322470021	-0.146818873372389	-3.9172745588014	
2249500	-0.439582582101422	-5.04032404673761	-71.2496887218948	58.5494073011614	-69.5294618375142	59.7273546491949	-0.468732085454556	-4.93130722305483	
2499000	-0.586843678557609	-7.07919425500088	-54.6310991240126	-39.3732234671712	-54.5931677140344	-38.9088919820025	-0.651677064956847	-6.83297915267217	
2748500	-0.411341969828709	-9.04924162389501	-66.1758010128566	-162.777864420911	-65.3856196962595	-165.396376079887	-0.445121322284805	-8.82143122084275	
2998000	-0.0714375009625422	-9.80370438675124	-88.2606974034	-140.270582694269	-96.0053397075242	-95.0154607347487	-0.105793201355216	-9.66252359260955	
3247500	0.142634111495774	-9.39827490404614	-75.1705774644961	-120.386927945381	-74.2417981136007	-127.630043045865	0.10338807462109	-9.12483733272721	
3497000	0.0788615980441575	-8.73271162034327	-75.2720854446048	-115.655008199929	-74.306415931457	-117.830200364806	0.0302058865440128	-8.49787639234996	
3746500	-0.233481624956664	-8.81831828244553	-70.9423907803632	-131.823142797713	-71.7110700401895	-126.096646023941	-0.275461058036306	-8.55158823480971	
3996000	-0.553664186167291	-10.1876282003302	-67.6535951380795	155.393183613862	-68.5553905631212	158.670090996786	-0.570524520930102	-9.93769220698611	
4245500	-0.578221130318461	-12.3868551068753	-75.3412377438024	92.0705050272184	-76.0712739155004	81.0194338955426	-0.607157007204955	-12.2058211991547	
4495000	-0.322597309144244	-14.1101764139993	-75.397329021381	47.2575963072758	-76.5487731811381	61.0861308883044	-0.349905461973415	-13.8795429121696	
4744500	0.0194200846937159	-14.1931684396711	-75.3083118627123	90.765019784851	-76.4399741773855	76.1210605585756	-0.0231043484013736	-14.2401780174113	
4994000	0.155743982018515	-13.5175119043946	-67.1999736113963	65.4175955912473	-67.4186446450584	70.089853446991	0.102116358536658	-13.7656012289449	
5243500	-0.0132418133471224	-12.9273708433543	-55.0349713770895	-97.3561298261982	-54.9926847754965	-98.7286426818312	-0.0695071213802276	-12.3262749038295	
5493000	-0.365538084972498	-13.4733656882402	-60.5653357188482	-116.428530464196	-61.1089196173312	-114.856256686585	-0.396798929951033	-13.2800238417167	
5742500	-0.623336518185331	-15.467381349844	-58.1066232946244	-131.540710086445	-57.7257951621309	-131.559625799758	-0.633121467820972	-15.1801178009791	
5992000	-0.587062339894742	-17.6484636843922	-43.3912696143718	133.858681759374	-43.2994596791867	133.822057465846	-0.687260481310748	-17.473148368414	
6241500	-0.253944553594825	-18.6834799443815	-61.7160375903884	106.588168405689	-61.9437618701628	106.597282057224	-0.27953884414305	-18.4224791837918	
6491000	0.0746444517823664	-18.5589653252409	-63.3673153490778	90.8389021794629	-63.4102306508775	90.7833884540783	0.0440526003378182	-18.2793372381093	
6740500	0.114150312626268	-17.8123884418535	-63.9304217178894	75.9284842086886	-63.7920475362056	75.7053372369388	0.083167047066336	-17.5142572700946	
6990000	-0.145675074161201	-17.1786848333652	-65.6575484791686	-10.7926539712877	-65.028341359633	-10.1256672564556	-0.165058130181164	-17.1873201510684	
7239500	-0.474439128453772	-18.3805958745059	-78.5382349274163	114.54272997154	-77.6407015005943	104.794515233044	-0.506124204567111	-18.1920772061645	
7489000	-0.6395809686456	-20.6815907875621	-74.7436932655223	116.157146452546	-72.2349968989351	103.396675980391	-0.662811227904056	-20.4403837051835	
7738500	-0.471240587696483	-22.7826193009795	-66.8748027165096	97.4421266032168	-67.0032172274387	93.9393495202044	-0.495651912033351	-22.4958170227102	
7988000	-0.113074256981852	-23.5218093753303	-64.8856635593873	81.7247818671655	-65.4172202245111	81.030663564458	-0.149518183997831	-23.2225991277291	
8237500	0.130153153921845	-22.979199595432	-63.9690705521314	71.2812473636698	-63.5752308336235	68.8173839270475	0.0909897227714348	-22.6142233267145	
8487000	0.0673325761597048	-22.178812763233	-61.650026604173	63.7250909075071	-61.6136448224582	64.2845374978371	0.0349736552557984	-21.696739998979	
8736500	-0.268046872052166	-22.2904899952224	-58.1922264615524	53.7366303844094	-57.8780077753034	49.1965535708357	-0.27125258449087	-21.5965028980518	
8986000	-0.670227678014518	-24.1533391644517	-52.0458104786742	29.0820800212361	-51.9104744592047	27.4577533607431	-0.599800897205846	-23.0637873984863	
9235500	-0.843270215986751	-25.2857820934729	-48.4807589618516	-49.7652135571489	-48.4879176630831	-51.648261288405	-0.661691016363123	-25.4352090995986	
9485000	-0.408941886933025	-27.2863379959855	-55.2229878008164	-91.5326599913676	-55.0809136729085	-92.1382640828114	-0.404103146623734	-27.3631449876549	
9734500	-0.0195664407921733	-27.83993351953	-59.3985698651334	-103.094708172587	-59.2773481622629	-105.395502419674	-0.0524188320029869	-27.7192690091361	
9984000	0.147610134517527	-27.1570919906519	-62.4721643832529	-113.295357694685	-62.0492956871784	-112.237455214379	0.102766158233214	-26.9535846365696	
10233500	-0.00910096766523122	-26.5304083415776	-67.402559759905	-99.1119127611562	-66.8444160018437	-101.397151175369	-0.0472506270149572	-26.212774077172	
10483000	-0.394101939402043	-27.1134033446445	-58.3434702517483	-47.5412287824317	-58.4077825616178	-52.5180580876565	-0.408560972964021	-26.5762405313544	
10732500	-0.675482800137337	-29.132836051797	-54.3175024132656	-92.62949116284	-54.6512271488697	-93.3277853166615	-0.674627403598878	-28.5707137067095	
10982000	-0.631546259372892	-32.0183802740606	-53.2181781042399	-110.435203757621	-53.391087881297	-111.270362748067	-0.6316840510843	-31.2513334992091	
11231500	-0.368799082189107	-33.9874917636948	-49.882840332279	-124.909675239001	-50.004231611579	-124.995890626656	-0.325982881199683	-33.2597336228037	
11481000	-0.296785203485805	-33.824343777485	-41.7979427011206	151.441799970042	-42.3435396800762	151.024188451675	-0.393353520621189	-29.6191781494321	
11730500	-0.317515159437358	-30.6517514829966	-49.0951226542935	131.176376538381	-49.0375237077755	134.101508300416	0.0717182945285098	-30.9621710573454	
11980000	-0.399629609180179	-28.5685672651093	-50.4353766033829	109.166710448894	-50.3394865538544	108.838724253186	-0.162490794334929	-30.8963542988297	
12229500	-0.568804690564214	-29.782631321817	-51.3914374928886	84.8973046401582	-51.5354268490703	84.2654063215118	-0.545618679509896	-32.3894292971266	
12479000	-0.718225865795048	-32.7457531190776	-65.8888825081383	50.6139852351206	-66.0462400611603	54.1466915659893	-0.737389168675	-33.6858815448459	
12728500	-0.535298598129186	-35.5747086721222	-60.4809760018553	71.2049370496806	-60.8587449557432	70.8168760420117	-0.564648576582605	-36.9637099605898	
12978000	-0.148607718942785	-36.7896965822175	-61.2100884072267	67.5607521955047	-61.3922868523312	70.2266769807544	-0.200816914215722	-38.5248773224	
13227500	0.125918076935385	-36.3929916478535	-63.706161451691	68.9205035487363	-63.6986402724212	67.9865350087825	0.0435306713792106	-38.6818963872904	
13477000	0.0826894874565142	-35.5948788236733	-64.4155937945158	147.178256791307	-64.5026806652825	147.412415080043	-0.0280406510414739	-38.8629319902952	
13726500	-0.250838304121592	-35.6829024619302	-49.3963029060148	147.875190310994	-49.6013852552674	147.558427680559	-0.44104072809364	-40.6155080502633	
13976000	-0.627006536994342	-37.3145082895836	-40.6048159122898	98.0286532326433	-40.6372716591871	97.8594928143184	-1.04567112020613	-45.4846015118692	
14225500	-0.710596103227056	-40.3297040482476	-33.6454235984425	47.0902476838453	-33.6459305476921	45.6211750701218	-2.1571962154493	-57.1301616491683	
14475000	-0.498189743967045	-42.9238666846841	-27.1170013236912	-55.9983978156996	-27.5898031953158	-57.7792135354782	-6.1997641470942	-20.93427781872	
14724500	-0.27262185607495	-43.9960321782791	-30.7444105949658	-153.096815558487	-30.9284771387688	-154.191163627165	-1.13586061342018	-26.7473984222026	
14974000	-0.176552976469454	-41.8953177826538	-42.6068024371329	113.293092417768	-42.6244183986097	109.640665954486	-0.0932145282754399	-30.9617053024142	
15223500	-0.390767650674561	-41.38767350982	-57.7737163094472	153.601131247569	-60.5855710113806	142.18883552312	-0.089670906014572	-33.8409602667131	
15473000	-0.885397918761568	-40.8812892490172	-44.7603937900249	116.601207404181	-45.1351652410297	114.766442343394	-1.09039176538484	-40.7187590184604	
15722500	-1.10226648414262	-45.7831028940184	-63.4046956154388	-94.069319821998	-62.1627796762629	-92.6547220410573	-0.845732463664838	-31.962318038744	
15972000	-2.37976041163524	-50.2447972058591	-61.478159879887	-166.286278178584	-64.2517571254116	-141.715878807277	-0.733444513658567	-37.4373255594532	
16221500	-1.90377750297203	-39.3739077468802	-60.8081106224968	136.504711656936	-62.9869263077681	163.124629938183	-0.406036051096832	-40.3073230201416	
16471000	-0.559986793397725	-39.7783308497699	-63.101164362423	97.619292395791	-65.4925584782273	124.203940181856	-0.0386908016109388	-40.9674268415137	
16720500	-0.173359846128349	-40.0727135251843	-66.2834726670471	70.3491901726637	-70.7777287970103	101.872082657245	0.0908518250997981	-40.3637896031236	
16970000	-0.308056082829948	-40.1041254921817	-70.3797652491377	52.7057518022801	-76.4539024247939	58.5693994968159	-0.111843454321176	-39.8463230435449	
17219500	-0.693641016560715	-41.4733228833012	-69.0594352078163	19.6285736217093	-81.1544409552765	34.0705850427205	-0.484587862826507	-40.7572077246072	
17469000	-0.97958764805349	-44.4701569877379	-68.1565054876945	-23.7159394648475	-71.8933126475624	-25.087425567098	-0.732283000110352	-43.2042678632185	
17718500	-0.964078519438776	-47.3869891123548	-64.2776312046162	-52.1944198111415	-68.6331630329816	-68.7280835316179	-0.626543221916538	-46.008876850223	
17968000	-0.699930189750111	-47.7795410661021	-61.4117701111604	-97.6168511660558	-62.9340096675776	-113.678881198206	-0.268466820647119	-47.4890786282857	
18217500	-0.261588374555273	-45.9817590132408	-59.5089876246292	-146.14268278171	-60.3507022993055	-154.230755722225	0.0468877045098887	-47.2591131920407	
18467000	-0.0893422038081707	-44.6631749216419	-58.9407616168361	-178.568658590754	-59.7506742981153	176.261430690326	0.0401614181020413	-46.5039909434953	
18716500	-0.31367874030152	-44.5755601846359	-57.1596634242977	150.643719402671	-57.5215059136935	145.027620218233	-0.329587678929128	-47.1004496483582	
18966000	-0.668966170217172	-46.1836754044024	-62.3328442651904	144.374339789655	-62.5057054759604	138.664686498676	-0.725263887283783	-47.5362206638779	
19215500	-0.79724836871428	-49.2497443719952	-52.688147149567	104.359990337627	-52.4803989479228	101.441377622594	-1.46412253432675	-55.6007255400281	
19465000	-0.566707615608746	-52.0039115577373	-59.6339452118623	-30.7909748558568	-59.4768636863548	-34.5468051765236	-0.835036720861389	-46.9627267233319	
19714500	-0.161584102988921	-53.0132030180568	-84.3322480364662	-126.02332057547	-86.6380680448933	-171.159368338119	-0.213911197669369	-50.6417950467801	
19964000	-0.00489845806618913	-52.7913293747574	-66.9957449318328	102.500015043618	-67.0389996436418	92.1495501021801	0.0401387273953865	-51.1787898917931	
20213500	-0.07166273804297	-50.4965587763486	-54.8371867446048	47.3443374598143	-55.0111021953481	43.9518174230135	-0.177252004022894	-52.1599937693563	
20463000	-0.453134309091759	-50.8357593749904	-44.1861183732749	-108.817423406148	-44.160824967786	-108.248490710184	-0.965074960786489	-43.256176073398	
20712500	-0.854335339526848	-52.8580442936412	-48.1462757805592	-174.400524200172	-48.3315972223691	-173.831446699327	-0.722750648257674	-48.7024328441248	
20962000	-0.961383724796204	-55.5673508660911	-47.5524622899979	143.045442071116	-47.7165352410608	143.124643336822	-0.747654524251875	-52.4533555668083	
21211500	-0.647796140788144	-57.0694150944404	-46.9709846064416	105.420767346598	-47.0845634984868	105.197082104623	-0.466478211443317	-55.1253943801884	
21461000	-0.191774249352595	-56.7719104307168	-46.2703382187898	73.517653402247	-46.2878921506574	73.6794915471755	-0.0918617435044125	-55.914549488934	
21710500	0.0203407185736381	-55.6328659209492	-45.7214058532045	48.0832550931047	-45.8958619240919	47.1788508766046	0.04501782447734	-55.65445411777	
21960000	-0.14874110225954	-54.9114773000174	-44.0744120344081	27.763569460941	-43.9950968579625	27.0271602194718	-0.19635888393454	-56.0269868287454	
22209500	-0.542835493696044	-55.7018622125258	-38.9294026407085	1.42008027551836	-38.903990191902	0.315072566581765	-0.989148332094276	-60.2996611253046	
22459000	-0.822203899453511	-58.3085856606196	-36.1228613089513	-113.822876504537	-36.2146121313858	-114.521597878494	-2.18518498174136	-45.5104988014655	
22708500	-0.741796998237498	-61.6096129398812	-47.0481223346546	-158.56493954684	-47.1932724488955	-160.080008227102	-0.878546683117665	-53.7235446724505	
22958000	-0.430433573379842	-63.2640603862889	-59.1943485920493	172.462965383551	-59.9494626708828	178.27494675451	-0.400145961595471	-57.0674052317626	
23207500	-0.127604743784279	-62.3784744337056	-58.1300506058249	-83.9311458924814	-57.584965240818	-86.9190786936034	-0.0282137818128036	-57.4699927376562	
23457000	-0.0543256300516944	-61.0831745708614	-54.6172987628845	-111.557570381822	-54.6966541917107	-113.442205699406	0.0477779156768055	-56.6129177206946	
23706500	-0.355430776401955	-60.8762002165617	-54.2939661574914	-124.255135727954	-54.1042723915652	-126.783404089131	-0.202630944901112	-56.1814614049181	
23956000	-0.807532708278315	-62.651192534528	-53.7266365101297	-133.232328889505	-53.7126247921299	-135.407261478911	-0.600237332453344	-57.3126753366153	
24205500	-1.08847523392962	-66.2800517832024	-52.4496778878887	-138.984870405896	-52.3940157524859	-142.797863864166	-0.799913818049375	-60.0943442122334	
24455000	-1.10314362193047	-69.4266535725861	-50.1429865031421	-150.332829241913	-50.1198234633772	-153.089219164989	-0.634063246705065	-62.7077172268707	
24704500	-0.996777693383143	-68.4833902531011	-47.0841411977221	-179.575603966619	-47.112920315622	178.22289350952	-0.234600161531404	-63.3867167839461	
24954000	-0.386943116605117	-65.1035046495572	-48.6354160980144	133.273610722477	-48.6599725363638	131.712433521555	0.0357965175654798	-62.5159266822347	
25203500	-0.37539110560679	-66.836026256681	-49.9868550891698	165.39575510575	-50.1880268386722	164.359541404061	-0.0137969620116683	-61.3465242220929	
25453000	-1.01362556112054	-66.1589057681761	-45.8056786372749	124.835578738466	-45.8987223281827	123.554297627112	-0.348952055755122	-61.0284787140997	
25702500	-1.47837325089662	-68.4312969959484	-45.9136431719838	93.9316562486925	-45.9773025317377	92.4444844773434	-0.722495050372605	-62.7610204913887	
25952000	-1.77853076843233	-73.0781976297515	-46.25424915536	68.492336042172	-46.0967313525908	67.6586939633937	-0.82234051491562	-65.7287532559912	
26201500	-2.15722465131091	-76.4379244023067	-45.4945790893702	42.458175750927	-45.4404421337554	40.8876223507141	-0.558161743520906	-68.0672347705894	
26451000	-2.8101923302879	-68.924971599278	-45.987332583647	4.61142864810752	-45.9231254444931	1.16383116396111	-0.12837056597609	-68.5332021088039	
26700500	-1.50979710196581	-58.158863776981	-49.7891562334123	-31.9214540055666	-49.8336450927083	-34.3089195158752	0.0681220260260331	-67.3705106685524	
26950000	-0.730433071823729	-57.4762877874897	-54.2152306542813	-49.163069173713	-54.0393302547727	-52.5531239998472	-0.0697390284374763	-66.1686029827533	
27199500	-0.775169568878468	-59.3876699906836	-56.979419405741	-54.9737462751719	-57.3819155076681	-61.3815144253927	-0.467348912273186	-66.187732044669	
27449000	-0.966272479449996	-62.9521265112872	-60.1011837454005	-52.7747042003452	-59.9970692032503	-62.7321506895797	-0.784173892260117	-68.2881346634078	
27698500	-0.88491029300052	-67.1159370860237	-62.1288082742144	-55.8977723894163	-62.1159212110274	-62.9090811749272	-0.766009712674532	-71.2173248633677	
27948000	-0.493352203500756	-69.8798618604712	-60.1776800615324	-37.9635456850886	-60.5330585437831	-38.6630444378043	-0.426193354074245	-73.1739131124585	
28197500	-0.0943710140924109	-70.1096537482569	-58.6851115707924	-52.5133963713473	-58.8633396363318	-49.4518127599151	-0.0617967638599792	-73.0208218860612	
28447000	0.00899686049446344	-69.0873102771638	-57.9104686055538	-71.8663762282684	-58.5032527859526	-68.510967418766	0.0316099156107041	-71.8137609200543	
28696500	-0.247159262951683	-68.3846948196112	-57.3609917079687	-90.7781788602833	-58.0507879284492	-90.4430538589653	-0.210580252307909	-70.8694302301459	
28946000	-0.661331483461459	-69.255947930299	-57.4252784369767	-111.733228878016	-57.2693115863505	-111.081418981475	-0.622564417864574	-71.5850997207013	
29195500	-0.888298352750849	-71.9554304221935	-59.1607655530928	-131.040757617619	-59.0876636594824	-134.415710182297	-0.86092456402385	-74.1603297614643	
29445000	-0.716341774426921	-75.0121683198098	-61.3206740033709	-147.512003628925	-60.6027015834804	-151.142065750108	-0.711421358423118	-76.9065474581027	
29694500	-0.272827202469327	-76.2572534729227	-64.0633118839165	-159.771007753656	-63.5591668350008	-152.341692292241	-0.347025364726226	-78.1141610286177	
29944000	0.0426145300034987	-75.5426296057015	-64.8454848967519	-163.223289680231	-65.4422221200327	-167.562468225432	-0.0427843177719783	-77.4747834453938	
30193500	0.00823975516904789	-74.2288881300041	-65.2779805289732	-170.946000831805	-65.8002754592579	-173.111012924258	-0.0842271703548593	-76.3200372011316	
30443000	-0.336568402338604	-73.8425616527921	-66.601920111542	-171.324223044814	-68.6062529307463	-176.601775010469	-0.443373270691339	-75.9479201199677	
30692500	-0.751076357821395	-75.5096144298812	-67.5319984502475	-169.612591003044	-67.0308006509681	-170.833590860764	-0.84610937623971	-77.6308339974021	
30942000	-0.901697485843272	-78.8659161700711	-69.7214909094577	-155.525388064805	-69.2914688949822	-166.488850851929	-0.995503643476337	-80.8151547142463	
31191500	-0.626307784536387	-81.7750675120276	-71.9889127805466	-162.739822169711	-69.3712216311422	-159.802745118953	-0.733836022301178	-83.5536713891143	
31441000	-0.190989860178433	-82.5355188899556	-70.7972457339505	-159.326104125096	-71.8063429544153	-164.437534473225	-0.361756489642768	-84.0498101736756	
31690500	0.0256753470599765	-81.4588687260599	-67.3559491500636	-152.459724861351	-66.7398863947504	-142.593299779073	-0.143514511598972	-82.7405704864235	
31940000	-0.117364924083099	-80.2182462702064	-62.9333139171419	-145.065308033992	-62.93796043013	-152.378923839714	-0.28975931747988	-81.4874143793285	
32189500	-0.544635077174554	-80.3455036673234	-59.3364718314852	-159.366829950286	-59.2829944299383	-156.522251934882	-0.72814062546185	-81.7874847753313	
32439000	-0.928005709188296	-82.7507945867611	-56.5031392596991	-172.053318734918	-56.0406526333739	-172.018072773475	-1.13565394727175	-84.486197139536	
32688500	-0.930915795300745	-86.2076699291249	-53.2409101510097	168.693652647199	-53.2320179402178	170.340045843802	-1.30589403877203	-88.6911941408315	
32938000	-0.599112137239334	-88.4271912122755	-49.7494559400266	115.545085228531	-50.0821700938355	115.554394052744	-1.72917293924251	-87.1836138265806	
33187500	-0.250652361341811	-88.5033971706821	-54.927169774259	124.013150842051	-54.676811579445	125.699720422457	-0.346925427331772	-87.5917323267995	
33437000	-0.230049887820896	-87.4227881777733	-50.7660586861624	118.179938412989	-50.686281851664	118.408978572012	-0.243918353862911	-87.9075007666847	
