!Keysight Technologies N9923A: A.12.45
!Date: Tuesday, 05 August 2025 18:23:59
!Timezone: (UTC+08:00) Kuala Lumpur, Singapore
!Model: N9923A
!Serial: MY61181427
!GPS Latitude: 
!GPS Longitude: 
!GPS TimeStamp: 0001-01-01 00:00:00Z
!GPS Seconds Since Last Read: 0
!CHECKSUM:0816515405
!Correction: S11(ON U)S21(ON U)S12(ON U)S22(ON U)
!S2P File: Measurements:S11,S21,S12,S22:
# Hz S DB R 50
2000000	-0.0762330935313309	-4.88263474900706	-71.3061290522465	-106.682900006809	-71.5249413632447	-105.250249881525	-0.0898531768110731	-4.85462716490226	
2249500	-0.294499274094049	-5.79556675260933	-70.6545577055577	-102.085957449135	-68.7155012193704	-108.172750676933	-0.30056540279268	-5.74301043020499	
2499000	-0.387533819382981	-7.39855362088331	-62.4755083566746	-110.444089235319	-62.88233101059	-111.399432217365	-0.388818114033876	-7.29082113753903	
2748500	-0.267657806815304	-8.82091036983009	-56.4814176353082	89.7805608859812	-56.337000856394	88.8328598359172	-0.281254684113269	-8.55991546268898	
2998000	-0.0409408208164189	-9.57634507413928	-65.899046481006	67.4141887514373	-66.772909308089	62.2496635608845	-0.0434434794159329	-9.35238358002045	
3247500	0.110064299210891	-9.49064478167823	-69.3155471798762	75.74833322072	-68.9710814588397	78.3747371029548	0.0960241256616031	-9.29628652698682	
3497000	0.0678129318143208	-9.26933196772615	-69.32370161759	69.1006011328246	-68.4878373937834	61.5464803403245	0.0451963542160805	-9.12820151148589	
3746500	-0.145336011795468	-9.56739034808129	-68.0465359076497	49.7872835876144	-69.514860949865	47.7011296700734	-0.162848688766116	-9.34268988551093	
3996000	-0.359577144663227	-10.8254973102108	-63.2709599094211	23.577538190636	-63.7783501082593	20.8842287256348	-0.36437111349376	-10.6456851613593	
4245500	-0.414604252219118	-12.5509923632448	-58.6349528697092	-9.22216260516912	-58.2649852336753	-10.6410489950922	-0.40474000033075	-12.5225276842332	
4495000	-0.259458092477527	-14.0625144261946	-50.3639507926074	-55.5620611756577	-50.4293440169397	-55.0674318591831	-0.319367147035703	-13.944812672096	
4744500	-0.182164232858116	-14.1723246286651	-44.0608533532899	-176.725948953828	-44.0384071585977	-176.767301427123	-0.179649637697248	-13.1530152627944	
4994000	0.0275538258063592	-12.9214666058831	-52.818452469856	72.9273107067973	-52.7870026208523	71.5263123757661	0.0544662920454202	-12.6861192305592	
5243500	-0.0206807315379649	-12.9521593402991	-62.0801111881418	22.0424406042509	-61.886004695093	21.9779955532858	-0.0213737221636812	-12.7360497501863	
5493000	-0.240210161173699	-13.667179050613	-67.1710602790757	-12.268218093628	-66.6764544828146	-10.6711667736018	-0.245178864928491	-13.4480461116042	
5742500	-0.399598420717507	-15.2570374076748	-70.0946008732536	-45.0641984276042	-69.1235630872892	-45.4004252224476	-0.39465543342164	-15.0039538333869	
5992000	-0.3471683451707	-17.0770893216662	-71.6489144199585	-60.7568461748325	-71.4184514571398	-64.1086191926981	-0.346831106287417	-16.8481876827017	
6241500	-0.134189734889698	-18.2462267894251	-71.2906966112377	-100.806026788826	-70.230726632951	-99.6276927835477	-0.151953732748241	-18.0024995540219	
6491000	0.0750682715662256	-18.4961655967482	-67.4091065498269	-173.257184434859	-67.3600643621375	-165.710686230254	0.0558611150396157	-18.3009288815457	
6740500	0.102525602353962	-18.3034091150391	-70.4136665329641	131.434441543524	-70.9257999084714	134.225500697652	0.0826699450381348	-18.074273445673	
6990000	-0.0709776131084802	-18.4674900130508	-74.3348957136465	113.018292551177	-74.3651603116947	127.740361389621	-0.086135588717902	-18.2056818347378	
7239500	-0.321995280853755	-19.6167622124795	-74.9427815169645	127.266712878805	-73.8415894880463	122.941848212676	-0.314668173221252	-19.2410179767364	
7489000	-0.460902418348432	-21.7581519054193	-66.0344538664213	116.859614054463	-65.2757549910018	124.13879071334	-0.421405375912118	-21.0947012776439	
7738500	-0.659660898118977	-22.9696302780724	-51.9527312182275	32.947615690787	-51.9068630384881	31.599225678381	-0.317559397569703	-22.8358961645372	
7988000	-0.0955275128787375	-22.8060614918841	-59.9348751754373	-76.999664529041	-59.6646180189683	-80.5361758863566	-0.107629152113467	-23.8098142243613	
8237500	0.0949452975323321	-23.2649309844799	-69.3500077636124	-131.90448268678	-69.4477515219911	-122.157080693429	0.0478340074542083	-23.7954382323881	
8487000	0.0437178570042324	-23.3050535127831	-70.7140814869659	129.139352897714	-69.5959516833177	126.729230601477	-0.064303810691107	-23.8887207109994	
8736500	-0.210805360975805	-23.9585253126777	-58.0834729654724	44.5524294660965	-58.8733231971094	42.6756688201031	-0.468327088364462	-24.282755907249	
8986000	-0.547972117062424	-25.8077739026908	-48.5714196712488	-31.4351131864107	-48.2538263972428	-32.0152586337224	-0.897567358622714	-23.4919144493291	
9235500	-0.908103145347895	-27.3453242576894	-44.1268647290657	-118.034967397912	-43.9263515111842	-118.945813819739	-0.683688914241149	-23.8275731574608	
9485000	-0.691291290601972	-25.9807714382434	-44.9347315036589	159.628331016496	-44.8580060633114	160.113320193315	-0.366846378538853	-25.6135985179852	
9734500	-0.196416504425704	-26.2319016251246	-47.4734277593197	104.851444280655	-47.4202114253631	104.188725551689	-0.0665718556377353	-26.4043608061327	
9984000	-0.0118314348926966	-26.2720743982965	-48.6264732090214	52.6134641456774	-48.474896606025	52.4661596661896	0.0626762971497058	-26.3579315297514	
10233500	-0.085301708636762	-25.976664534424	-51.7490328519449	-12.8815495104919	-51.737616898306	-12.6410305609479	-0.0277985969874484	-26.1748377767943	
10483000	-0.281873456831326	-26.6178697962685	-57.6938433916309	-56.4687373682485	-57.6065800737889	-59.2104852293957	-0.254263309526527	-26.7405833314489	
10732500	-0.443521348350987	-28.3490694354163	-61.8575616604555	-87.7407975238659	-61.8141477173651	-83.6665194382943	-0.422705460105095	-28.4133283483201	
10982000	-0.399807048403351	-30.4603966994911	-64.2544789970092	-104.061896054637	-64.6085881902951	-104.510568824975	-0.394680995673857	-30.4727991605042	
11231500	-0.178750919140549	-31.8293351456371	-66.0855244083547	-132.307677117458	-65.8569958211594	-136.456724972551	-0.185655913767682	-31.9534860332404	
11481000	0.0476228409194081	-32.1031426157325	-65.5637642102127	-157.469467699247	-66.4109431414986	-157.938744234574	0.0299771267314702	-32.4088198270826	
11730500	0.0902484816156209	-31.8267485187942	-64.8271174857439	173.865376112115	-65.9553833462101	172.096985247513	0.0427349768207338	-32.4069894218881	
11980000	-0.083521100701778	-31.8346590627315	-63.9577722658435	161.461044346185	-63.7526446712996	166.589899668849	-0.192523327432302	-32.8696609251608	
12229500	-0.3486695707441	-32.9544695444499	-57.1164292735814	141.347012117201	-56.6015542811924	145.430252208966	-0.698435791693452	-34.1654990445752	
12479000	-0.501284869397396	-35.0628769861793	-51.7817834843579	73.1292879361431	-51.4020800446002	75.3241689685874	-1.00888949374595	-32.826105070358	
12728500	-0.435938139771739	-37.3519181199675	-51.8933652066925	16.2491991926993	-51.7159553062922	16.6128714343915	-0.561399200413132	-34.0663047709239	
12978000	-0.2848311515019	-38.692460501693	-56.0513877490825	-24.5947908717567	-55.9677907219171	-23.5973178802151	-0.274805415074758	-36.3537424211544	
13227500	-0.300207272639652	-38.4495653356495	-47.6563526765252	-54.3385137198544	-47.3697443264389	-53.6576178664826	-0.0451841033559404	-35.1490621593498	
13477000	-0.471580942907437	-36.7826773605232	-47.4507203264261	-121.791709568193	-47.3599987341245	-119.906802584443	0.000539497960821171	-35.3603110857066	
13726500	-0.724567632843939	-35.9771056136399	-49.692475760128	178.846007742621	-49.4036635277439	-179.673398499221	-0.199915149806363	-35.9091201132686	
13976000	-0.999028423631253	-35.7731651544304	-54.5031510581978	119.609317469153	-54.1612593728517	121.841725706841	-0.447188434080329	-37.52364260262	
14225500	-0.86432384069532	-36.6045549553596	-68.3103679405586	95.833454359861	-66.0030389752552	82.194172292178	-0.554180227653577	-39.8763087103729	
14475000	-0.499926405367755	-38.5040652761753	-59.5254814308928	155.089561566321	-59.9780128760834	150.614885316442	-0.502267441541507	-41.9271360313821	
14724500	-0.168241779544651	-39.5037120379045	-53.3424813470227	86.1274010649358	-53.4381161630651	84.5486625867094	-0.485851317509934	-42.3955803711791	
14974000	-0.00725233461098923	-39.3369239044594	-55.5933985348999	3.24462165101546	-55.575108428445	2.95958110189521	-0.545769506332688	-39.9908577442551	
15223500	-0.0663547643071971	-39.1103962675717	-63.4959716547112	-57.0188693331768	-63.9051814390224	-67.8997261650096	-0.442615026169043	-37.7185573804387	
15473000	-0.296216412825622	-39.7178854513928	-70.8223953158484	-87.1360305784711	-73.9773248380252	-94.797724999315	-0.481629926438085	-38.0302512837109	
15722500	-0.495352607748543	-41.5895884468382	-87.2986760325932	-68.0629304641895	-85.4106287326227	-98.3373998642147	-0.573637364197716	-39.8914455771136	
15972000	-0.477899766347043	-43.8822860489038	-79.1344060276865	9.11926429662159	-76.1649784178566	6.16762570843706	-0.516405929764214	-42.2410380039447	
16221500	-0.258701289698209	-45.5042278133686	-74.5970540230852	15.9984890680582	-74.4151672371494	9.69822764644424	-0.278259524333814	-43.9570387048428	
16471000	-0.0323177338764541	-45.9617309207933	-69.1296114384444	-16.6814161052434	-67.7261619278558	-19.6165411457853	-0.0328390039100501	-44.549575967814	
16720500	0.00302237066049158	-45.7237599216856	-62.2841599807281	-51.9495398494356	-62.8299623370982	-54.3037936503681	0.0304317838585795	-44.5645067846465	
16970000	-0.206434912985817	-45.6182441815416	-55.2585171299356	-97.5591848213311	-55.1185918497168	-95.3852967666351	-0.171402174748398	-44.9672252432296	
17219500	-0.532092632009221	-46.5308302232694	-47.3131317399538	-171.634680202345	-47.3136497596509	-169.973688259375	-0.70548834122821	-46.4011514843179	
17469000	-0.731921095323498	-48.5521346824178	-51.8676038563241	62.4941599532653	-51.72604106795	63.342916179573	-0.723183227129948	-45.3157587734612	
17718500	-0.737009987717502	-50.8629813573204	-74.6547043294881	8.86611929379544	-74.8168783868535	-15.6104592913324	-0.514317976765403	-48.397610409991	
17968000	-0.664706437555418	-51.9926739045475	-57.0157313811826	142.768026443104	-56.2306724499568	145.421278380125	-0.295596979607387	-50.3103891748752	
18217500	-0.676961201362746	-50.7858361983932	-47.6213557816798	95.4150325271574	-47.3818186854675	96.4314401888697	-0.205477402307385	-51.1171431880722	
18467000	-0.729295080155988	-48.0124073677774	-41.6483286128934	24.8438294652328	-41.5131269542007	25.3023780541259	-0.63162994861061	-50.2147817881398	
18716500	-0.785280221728623	-46.4865013922737	-41.8519062612888	-57.6953021154775	-41.6904248425448	-56.7705644526757	-0.76002412249015	-46.2546898180837	
18966000	-0.853410132499058	-47.2321744903278	-45.765542793762	-109.463215932528	-45.6086274234989	-109.255172298445	-0.642475243398119	-47.501750964126	
19215500	-0.8164236272038	-49.4963809372064	-48.9625991174954	-139.148554703997	-48.7611488355467	-139.192099043473	-0.630195816645799	-50.5223779389352	
19465000	-0.592221428816799	-51.6807300122013	-50.5457824255307	-161.337661597974	-50.5983977342849	-161.668747628676	-0.501411955546398	-53.3628161584792	
19714500	-0.27335530148202	-52.7186469252743	-50.7618185666184	174.481449445321	-50.5924304792317	174.474911961008	-0.35666995092574	-55.0347458469339	
19964000	-0.0865781744356978	-52.5939695026272	-50.4556387745925	144.413840611745	-50.2840292010415	144.480918127007	-0.487034409543624	-54.6297153078019	
20213500	-0.166064637909234	-52.2432560616272	-51.7547593008977	114.21334135673	-51.6480826517179	113.477725939575	-0.676046986677739	-51.576799239063	
20463000	-0.424707848332404	-52.6264899508995	-52.6596396737996	94.9952260550963	-52.4578160932859	94.1712419679038	-0.670441145266161	-50.4104387726353	
20712500	-0.643721100731983	-54.2073240271099	-52.5798109177682	71.1363606911281	-52.3821001741572	69.3058143014797	-0.721977398110856	-51.9364289940365	
20962000	-0.653125309863112	-56.58845718993	-52.5747891252727	44.3297028869903	-52.5941692486215	44.8519395474349	-0.653897095826112	-54.2382376681556	
21211500	-0.451981735496682	-58.5014364927718	-52.5315066179906	24.1307340952084	-52.3383249432021	25.7128852764754	-0.410122857957886	-56.2166418484168	
21461000	-0.220450837208486	-59.0880940637357	-51.4195211951666	5.10887152059205	-51.1908542790737	6.49362409608597	-0.129310152702026	-57.0633059776569	
21710500	-0.195249839245832	-58.7581340714843	-50.1267368164681	-16.7433821424549	-49.9729860235973	-16.7863028950676	-0.0334355590461499	-57.1680236325334	
21960000	-0.450507933328771	-58.5062419709112	-48.1058408388682	-41.7608052041998	-47.8183103116465	-42.4440646529802	-0.198689629412347	-57.3771106102238	
22209500	-0.865223337636909	-58.8968469773318	-45.5432493720022	-72.8959094778427	-45.4382176234951	-73.0835033925995	-0.549400940619092	-58.538674044095	
22459000	-1.16965943968115	-59.9746133730116	-43.0142682754775	-110.951101437919	-42.7663932536603	-111.322756304379	-0.866930403994761	-60.759181734223	
22708500	-1.12239471395721	-61.0425149652215	-41.0499037653984	-158.5729679719	-40.8162399995395	-158.024621202748	-1.07000938163632	-62.431053429984	
22958000	-0.793515428795394	-61.4388069402031	-40.9024554628517	147.919468195182	-40.6895554140411	147.863302056242	-0.968343877267231	-61.4810007542036	
23207500	-0.482053075343399	-60.9927197457163	-42.8054499342239	102.25960656906	-42.5175110974988	101.453018319726	-0.535960624653506	-59.7828152316867	
23457000	-0.421797996202449	-59.9456975730121	-44.8584590096185	68.923951767857	-44.6830332040712	67.754760312723	-0.299620128683544	-59.1515892361905	
23706500	-0.550440223661079	-59.3523278676671	-46.2468296994051	41.1993780406029	-46.2158138317424	40.8673063981507	-0.377164952872604	-59.528137129587	
23956000	-0.753397260157314	-60.4416907465893	-47.2099567065834	17.11184000685	-47.1677051280553	16.2817211162912	-0.604274118183086	-61.1175503873055	
24205500	-0.853333802024328	-62.777241499468	-47.1039019909279	-6.24102905572832	-47.1388093718269	-6.76759562509715	-0.723847269424279	-63.8402259931599	
24455000	-0.722391796438713	-64.8576537766559	-46.7453120953106	-32.7909320226404	-46.4964335623413	-32.7329657869382	-0.663844043778129	-66.471903733807	
24704500	-0.436635283946431	-65.7131062656279	-46.0997729408685	-62.6215316946005	-45.8588554118701	-62.9467056236384	-0.589676148991539	-67.6262172609439	
24954000	-0.235571391735556	-65.5232513539794	-46.5012134565788	-99.4884227580355	-46.1581723645708	-100.665975200084	-0.686616883177759	-65.7246316952919	
25203500	-0.299799130467075	-65.2748180520159	-47.8494394507064	-128.143740343902	-47.8250314069163	-129.701235478785	-0.586322993347469	-62.8379813921857	
25453000	-0.659766894187345	-65.5551658178063	-47.0859529172049	-150.242609454956	-47.0236415615247	-151.592239290522	-0.574906552894784	-62.8221598974292	
25702500	-0.913994005070261	-64.9786421506307	-48.4575347222862	149.712596221562	-48.6291202755344	149.125533703263	-0.722294113825211	-64.8761279550629	
25952000	-0.772708384737256	-68.6666833185253	-53.9917785011662	168.928096131637	-53.7343239298943	168.075558939108	-0.750140357786083	-67.6986406757811	
26201500	-0.655833389311461	-71.0710943139505	-50.0773532923803	157.097184589872	-50.3638557501253	156.151834379706	-0.583007192894283	-70.1291566437677	
26451000	-0.479047366027356	-71.4556587128456	-47.5827150551743	128.158515047627	-47.6083453725494	127.101294009274	-0.41792954349997	-71.2139742597935	
26700500	-0.460471432624571	-70.3488199980124	-46.0254172115349	90.3678733056002	-46.0807279881836	89.6140101571666	-0.466761244892976	-70.5260450739135	
26950000	-0.631351990081873	-68.8217407106113	-46.2246594126044	48.9631027810974	-46.1083066809055	49.0890519038279	-0.716250946346621	-68.8977303994106	
27199500	-0.888962510158215	-68.5113375591393	-47.9861248215089	10.4458650468715	-47.8807171916093	8.73771137640725	-0.971698515300122	-67.7583702159085	
27449000	-1.03975017899507	-69.8339018493419	-50.4450838536296	-19.6845098118833	-50.1872406413334	-21.5056899320297	-1.04134575488535	-68.7606505725258	
27698500	-0.970265696660161	-71.8691472240672	-52.5671705275761	-40.2115687684668	-52.1769188962592	-42.3313373082566	-0.897665665604813	-70.8991703549742	
27948000	-0.673588917704662	-73.1393900226049	-53.4797988968742	-58.1188211512546	-53.8659181625481	-60.5889417828253	-0.581653513136229	-72.7262361400814	
28197500	-0.357014437358251	-72.9697518248795	-54.6642680171435	-75.7419700816204	-54.709096953566	-77.796975441852	-0.279711963337077	-73.2107242340541	
28447000	-0.251565129343886	-72.270228380931	-55.7703841276392	-96.4714174455694	-55.8175296730172	-95.8893858017839	-0.197792624476522	-73.0653648336661	
28696500	-0.402058662784534	-72.1120695008545	-55.5625764127885	-117.479756344063	-55.8119238307196	-115.742084853687	-0.374051955759744	-73.150834349527	
28946000	-0.663997861664485	-73.2200567271336	-55.5747662399215	-133.96755031516	-55.8955116053039	-132.420806383696	-0.685509998669413	-74.408360468766	
29195500	-0.810012976686451	-75.5845084525837	-55.135354940351	-150.184410239514	-54.9690657300935	-150.741385105953	-0.897716461031903	-76.876059333364	
29445000	-0.709862801382217	-78.1318118258935	-54.2150624585599	-175.512693252563	-54.3207669011637	-172.847629563108	-0.89314594922566	-79.2375995417775	
29694500	-0.433826911656709	-79.3787720379912	-53.2156282269829	158.811012458033	-53.1621112693924	159.893993656449	-0.804436018925109	-80.1616420340289	
29944000	-0.279033733310528	-79.2108776591481	-51.8858461494564	124.515457066139	-51.8025239405169	127.33090527712	-0.754801679923573	-78.9649229482963	
30193500	-0.398720844650999	-78.5253047973731	-51.4402993127968	87.24718290892	-51.3550879908219	89.3075519853578	-0.83556991289354	-76.7109634549027	
30443000	-0.752621254427932	-78.2669243205049	-52.106013685801	47.5822324672355	-52.0848218306365	48.1815415780333	-0.982653693997973	-75.1662734508423	
30692500	-1.14967281185009	-78.9976628153104	-54.1771130316492	1.71502228782704	-54.1631154355647	4.0835959786497	-1.08175948622268	-75.8079162141952	
30942000	-1.34069207220224	-80.3175282476766	-59.1811366433789	-43.0794768425053	-58.7699450501577	-40.717765545332	-1.08835798239906	-78.012362249084	
31191500	-1.12195878927188	-81.1240079126863	-66.0210191753097	-18.5943084269068	-65.7874782488257	-20.974314191547	-0.802981731912258	-80.0283145638402	
31441000	-0.679554294285898	-81.0354536825569	-62.5829548131467	-6.04566754874221	-62.0996216197601	-9.31525917345871	-0.454543364527191	-80.9070858665859	
31690500	-0.379208363098347	-80.3026979978256	-60.0435613260551	-31.8587221184321	-60.3655579870058	-33.3590675024628	-0.24768726980998	-80.6607154838775	
31940000	-0.364743005433758	-79.8157331179881	-59.1228099448004	-54.6038213846386	-58.5507885158786	-55.5776947922493	-0.318120964240908	-80.3603016434061	
32189500	-0.586503311887162	-80.3708714661785	-57.4191955445524	-79.9702912604167	-57.0918853173711	-81.7892714765117	-0.594815645414506	-80.9945553167355	
32439000	-0.810433972672639	-82.458595814278	-56.0250205977328	-102.532020725488	-55.6182943822666	-105.120933806349	-0.84645608349792	-82.967030202263	
32688500	-0.815626987127902	-85.1564002667747	-54.316071207424	-129.983172035024	-54.180259544832	-129.287498007222	-0.91346545867845	-85.4588106781568	
32938000	-0.624105952462952	-86.9080631893048	-52.6008888347539	-160.040193024321	-52.3025832774699	-159.727566951512	-0.756758479079581	-87.404574898556	
33187500	-0.396474566287163	-87.0267350771732	-51.0325261750648	164.151583374102	-50.9023289981267	164.59694742896	-0.58213359198557	-87.6105140510578	
33437000	-0.326156995178767	-86.1466407364527	-50.3051032142476	128.057006376499	-49.957272190563	127.538709747721	-0.606785837744974	-86.5511207635712	
