!Keysight Technologies N9923A: A.12.45
!Date: Tuesday, 05 August 2025 18:02:50
!Timezone: (UTC+08:00) Kuala Lumpur, Singapore
!Model: N9923A
!Serial: MY61181427
!GPS Latitude: 
!GPS Longitude: 
!GPS TimeStamp: 0001-01-01 00:00:00Z
!GPS Seconds Since Last Read: 0
!CHECKSUM:1478332277
!Correction: S11(ON U)S21(ON U)S12(ON U)S22(ON U)
!S2P File: Measurements:S11,S21,S12,S22:
# Hz S DB R 50
2000000	-0.0673724515636146	-4.82625650154749	-78.1261711812686	109.59647778622	-78.3988723010532	93.0048583840329	-0.0756062091974018	-4.81873004698155	
2249500	-0.247240241501504	-5.72840259613123	-69.4409161597517	50.2308970494356	-71.5445535820701	57.4060154485346	-0.25114798195653	-5.72386801732588	
2499000	-0.326912750145231	-7.1906626375718	-63.1484395319252	17.1748975196449	-62.238127797317	22.0798726269556	-0.334077125913052	-7.10073638061614	
2748500	-0.231036208391091	-8.54612405246933	-63.5449212356087	-77.7925466683536	-63.8716600383874	-76.6738208269951	-0.239848009887011	-8.39370125271332	
2998000	-0.0466890606317786	-9.31088267099148	-65.9414537299686	-144.637486668065	-63.6358664656624	-160.962824139046	-0.0666596662735535	-8.99443919521125	
3247500	0.0726564890297066	-9.41096223103842	-72.8845920659494	-115.449609900521	-73.2588722103204	-127.592427910301	0.064764915365498	-9.1420070337062	
3497000	0.0371612364927049	-9.38474924904345	-70.4629231456778	-119.593399707451	-68.3861813405493	-121.539379873827	0.0233420538627907	-9.15828699563344	
3746500	-0.14175443722996	-9.79980497147985	-63.2340095869579	-134.100987748	-63.1257369793473	-131.606641276431	-0.148818224235207	-9.57175512972962	
3996000	-0.31810486762582	-10.7812385791136	-64.8374060884558	129.852561284766	-65.2913047245133	120.757847206995	-0.305011366651556	-10.6707600773589	
4245500	-0.327303178865733	-12.3513508904157	-68.8146406068326	67.7392875656112	-68.898314834379	67.313313942413	-0.322052290275979	-12.2408398303818	
4495000	-0.183238845414764	-13.6137912261978	-76.3527073559996	-116.228316091933	-73.9378565942587	-96.9275462961955	-0.178248159644412	-13.4050861930366	
4744500	-0.00101972110826616	-14.1316016564219	-69.2629537268845	-113.869892163987	-68.7173443099107	-103.719793731959	0.00277753081161842	-13.8860628180431	
4994000	0.0692827432931458	-14.2105906480315	-61.5647700672178	-118.305345887124	-61.2651778635234	-116.949814321471	0.0745278239433266	-13.841516205521	
5243500	-0.12497386542472	-14.4655592331105	-50.2991558682987	-162.110181358971	-50.2183493099783	-161.981893068386	-0.0239698195587577	-13.8769805557899	
5493000	-0.25434385183152	-14.0786561875502	-53.3850542317769	102.607114891779	-53.5461408220725	103.392200983112	-0.213971738851751	-14.4644829861966	
5742500	-0.350967265066149	-15.6423050699404	-58.1134644942989	81.5881704767194	-58.0765605102461	78.4287099297124	-0.334939681608001	-15.8059698480459	
5992000	-0.304141736030456	-17.3065768203645	-60.0061929003877	71.0854557172153	-59.7463145414253	70.5914409568393	-0.296619121175945	-17.3688349620332	
6241500	-0.107182290598827	-18.4509332251847	-60.5266182754651	63.1835806116068	-60.504208010046	64.7556093299969	-0.132474242418288	-18.3854891092271	
6491000	0.0383413284928017	-18.8068499171895	-60.3033503136972	54.4259692832686	-60.6201626762793	56.8782413123224	0.0331476658897643	-18.7222137636792	
6740500	0.0510849557183714	-18.9399871289967	-61.5083174016055	100.58584279662	-61.3422430769204	102.531917803489	0.0403698140941122	-18.6283975386151	
6990000	-0.147892690476838	-19.3424743129954	-52.3186761805199	66.8883994346894	-52.21939510427	70.232868354688	-0.0963054502997315	-18.8499445019832	
7239500	-0.557251595497719	-19.8080341585213	-44.7885344704088	21.8650201952386	-44.5028244302124	22.2162791719515	-0.292058276701428	-19.928599154996	
7489000	-0.485027728565848	-20.3808331534159	-55.0356495483227	-32.0100356253961	-54.6381424565945	-32.0465742056751	-0.37069008070893	-21.0054464429045	
7738500	-0.373773273567412	-21.9291769404207	-47.2836527624338	-29.6784230551133	-47.1297708002748	-30.9727926405167	-0.288295343883326	-22.8600177916012	
7988000	-0.134596591353257	-22.4242970321611	-44.8438630063429	-76.0181473569556	-44.632047144763	-75.5482502357844	-0.114375771989595	-23.7391201529226	
8237500	0.0509882404467331	-22.6343684027097	-45.6747297180761	-106.642924046124	-45.5018556413409	-106.66322285077	0.00424655627923397	-24.0852445649489	
8487000	0.0282919141643452	-22.6560709196486	-44.6443750300891	-125.779518496607	-44.4614293810925	-125.939806434779	-0.10530723658103	-24.6111104772678	
8736500	-0.152191361484616	-23.0791280178386	-40.4179236079423	-156.770828096648	-40.2685477255258	-156.635121699628	-0.652225518280766	-25.8972769556419	
8986000	-0.333177299422863	-24.2212076711995	-40.3694885417536	115.68148015684	-40.2295105261394	115.498597989448	-0.879084717625386	-20.4415325054776	
9235500	-0.365123625533108	-26.0506768251843	-48.4142299060909	77.1797805762051	-48.1717677230218	76.5547248976417	-0.421320964364026	-23.6323347164348	
9485000	-0.226844855647264	-27.5675645600629	-53.5301439267775	62.5020697589126	-53.2712233662955	62.7034796302847	-0.22571122271082	-25.9956211320721	
9734500	-0.0390208200280144	-28.2646467865972	-59.0271436402245	50.6603020704934	-58.8578700326475	50.6352468354267	-0.0181400125829012	-27.0738206370183	
9984000	0.0144364876768062	-28.3869619013371	-69.4593784713876	-154.595508312064	-69.2091261336807	-157.359169956307	0.064994748396687	-27.4334256764096	
10233500	-0.135284146667633	-28.1270909924263	-47.7398669761733	140.663373519915	-47.6350538011489	140.714795494031	-0.0553702390914668	-27.8541573536649	
10483000	-0.302596647457665	-28.849329461326	-45.0147655061514	84.1603132068484	-44.7858763926084	83.5037698538455	-0.315122969419226	-28.8266055213246	
10732500	-0.485803328804087	-30.8507981011899	-42.523262794264	49.9273303913436	-42.1630491848808	49.3213667954236	-0.593397797962283	-30.8681736261818	
10982000	-0.608992110429499	-33.3178892161608	-38.3570118197367	4.938791230355	-38.0352897299463	4.00387645156815	-0.913671761803431	-32.3392279990151	
11231500	-0.815953678251539	-34.1326459853259	-35.5174879499601	-70.5723364453172	-35.2830760928951	-71.8979196540972	-0.808008506606067	-30.3273013937996	
11481000	-0.687614643566593	-29.0177221315327	-39.2435047141297	-172.15591321115	-38.9897054759295	-172.952772529526	-0.371391052021671	-29.5796249227635	
11730500	-0.0686725067035092	-29.3064618459597	-52.5241786052483	133.208104385079	-52.4011976537435	131.103764622575	-0.184747383083408	-29.6808933355602	
11980000	-0.102793261808833	-30.5390984337853	-63.8802484798497	141.088890476088	-64.6569113912348	139.215997896819	-0.330068068314453	-29.7016671947283	
12229500	-0.298433043102311	-32.2647939501918	-75.9408879052867	174.015026864411	-72.9122660990434	164.755430920179	-0.472990124226146	-30.1754737351493	
12479000	-0.431431915259403	-34.6854096065674	-70.5443703246295	-114.720988436321	-70.0552087093085	-116.88207784335	-0.514707846400838	-31.6975484999411	
12728500	-0.417552844904111	-37.3867425870495	-63.4896000589196	-123.760643604713	-63.0056912559806	-120.762626487841	-0.39860920676856	-33.3849223969662	
12978000	-0.475103926863925	-39.3816869588442	-57.7983127820606	-141.72237131702	-57.3235696875537	-148.12470424927	-0.164471295704167	-34.4429756937509	
13227500	-0.912515636277183	-37.4708727732119	-52.6042297384752	171.892128032781	-52.2334015627657	168.743546111838	0.00451688272159814	-34.6537320265204	
13477000	-0.676041491925167	-32.6867470003788	-51.5270214271037	104.681542124991	-51.2344283056812	103.656686769513	-0.00109343369458743	-34.6925670361366	
13726500	-0.48253553576152	-32.7232111618162	-58.2641284077965	15.6027088720072	-57.6249248868365	14.892799459728	-0.190277077471329	-34.7168279725527	
13976000	-0.522804639925518	-34.3525381646718	-62.156516903673	7.74424177755485	-61.6290400838291	7.91359634928188	-0.35099434741627	-35.9347585858631	
14225500	-0.506259329829294	-36.5439963037982	-67.5182389885665	-10.8432360421839	-66.6416879819447	-26.9323532808853	-0.393107748015144	-37.6018410617113	
14475000	-0.32606233947091	-38.3633237998818	-76.1885259590666	-43.9681532348041	-72.0105886448533	-57.8620575480049	-0.257183025668883	-39.0736804232706	
14724500	-0.0987835961021572	-39.1440862202416	-72.9492071632076	-174.820865079617	-73.5548610998621	-175.119011662218	-0.0550839757603713	-39.7207391109715	
14974000	0.0254540575293528	-39.1393992027855	-65.9663903070108	124.557169326061	-66.9465410070723	121.933865689917	0.0598634012532834	-39.7035608053631	
15223500	-0.0406859054193154	-39.1245795636677	-62.8681806788669	95.048196349908	-63.9061017001501	91.7527919595589	-0.016260796468923	-39.5839663222027	
15473000	-0.246671642088775	-39.815978153785	-59.3934675941935	72.0481940966461	-59.4409915438387	72.4143007219901	-0.210273558833248	-40.1822755994622	
15722500	-0.481134336245838	-41.637502913265	-53.0567514516654	28.7274266227804	-52.9940302466086	26.3789980406756	-0.36480055496922	-41.6731668218188	
15972000	-0.507766392251231	-42.6147264429801	-52.7950170773299	-52.4229413846775	-52.6559640485864	-52.8308292113374	-0.360636930128354	-43.4981606376269	
16221500	-0.248628538361466	-43.8804529596554	-57.3731123620513	-91.0550219522223	-57.6994534660496	-91.4340738775007	-0.19557015486324	-44.9260814440952	
16471000	-0.0249393962030663	-44.3717768306953	-61.443610397543	-132.986905844275	-61.423527792639	-125.75781460168	-0.100279166745057	-45.9498914028291	
16720500	0.0430548205219599	-44.2250879317534	-62.4097155889898	-105.840237309113	-62.0442825209309	-105.681904018187	0.0185014931040685	-44.2115626339871	
16970000	-0.0789088084902341	-44.1670662496082	-61.2781266980423	-130.186839823317	-61.1867019071944	-128.098100289666	-0.0824441650636799	-44.599268366729	
17219500	-0.290955229902053	-44.9849582102226	-61.5889109829069	-150.108111169717	-60.7685033803261	-150.836502982362	-0.287992839643522	-45.6482993566292	
17469000	-0.412831404704591	-46.6822125747513	-61.4227774019409	-176.644621242211	-61.9471168633872	-178.118557507718	-0.417310774416132	-47.3971556129497	
17718500	-0.34490077466887	-48.4437033484767	-64.5995573270531	158.867433972882	-64.339928378055	157.128935065656	-0.358996089606985	-49.3065718247162	
17968000	-0.142146873698758	-49.5699968729209	-65.8389344077608	144.931762018272	-65.9958815068505	139.927663714718	-0.173417193159922	-50.6104378566707	
18217500	0.027878656354473	-49.7354457845039	-66.967801425785	128.086375919598	-66.0910872639279	118.624818717889	-0.0403069925625224	-51.1301611436516	
18467000	0.0188735167919896	-49.4983682955725	-68.5578071711244	82.7804591661629	-68.6816154783609	71.8360680890525	-0.397541445148138	-50.3650777427883	
18716500	-0.155788217632223	-49.8451988750869	-71.9894815867357	148.552855426235	-74.9102186649518	128.352248320003	-0.207207829849797	-50.2572203492276	
18966000	-0.366218460023832	-51.0866258369962	-71.8236350721389	148.433298893162	-72.5027745042373	130.277805523081	-0.431860007177145	-52.2623108633257	
19215500	-0.436260854669767	-53.0818084075372	-71.4672198843249	143.308678266644	-73.5120884553986	116.526176529873	-0.570417551200627	-54.8444068887939	
19465000	-0.325559341941802	-54.932388894129	-76.7205112078846	110.613717661098	-78.6266209760764	96.3025973194026	-0.584998687995652	-57.3816355721776	
19714500	-0.12226029538451	-55.9193116850903	-68.1979903667035	-77.0824172413035	-65.5964489654033	-73.7528371358651	-0.617467463150602	-58.9976080830883	
19964000	-0.026688238822144	-56.0764128603269	-51.2612880775637	-115.402018514069	-50.4204114898613	-114.107527241812	-0.895069955522344	-58.6341032157305	
20213500	-0.168732926325658	-56.2250028055769	-40.454045138772	-170.931971008015	-40.0804845566305	-170.957254142849	-1.326678218564	-57.0071263864098	
20463000	-0.491468842108124	-56.9567847865462	-33.5347505199175	116.829478534165	-33.42343926228	116.949425930396	-2.10450943468511	-53.1772255290633	
20712500	-0.776442141990084	-58.4963333488495	-31.5659805116797	46.3432139287049	-31.5155944861945	46.2244572282104	-1.72342553383647	-48.9330314640862	
20962000	-0.915184031924388	-60.177740105298	-31.096179739665	-9.86606157656037	-31.1964397443892	-10.0768751967695	-1.27625471945923	-51.0909158264377	
21211500	-0.743518127957194	-61.3316573609017	-31.4791846131601	-58.5401066279686	-31.5879156878616	-58.1302351070496	-0.966723721001478	-52.8763857579627	
21461000	-0.558693806755616	-62.3104516173611	-31.815038985905	-103.865880260702	-31.9532377181964	-103.383251322748	-0.587455793620829	-53.145760105288	
21710500	-0.729968915916883	-63.1496014577148	-32.5158404314341	-144.511265991467	-32.6405394319043	-143.9431194212	-0.318953406153317	-53.4664337427572	
21960000	-1.46109318074174	-62.9288216624342	-31.8596150382758	169.126403439987	-31.971092211504	169.892524191687	-0.420540463222072	-54.4833231994947	
22209500	-2.2773468252103	-59.7133483818311	-40.2430225179988	124.139112331546	-40.3318019431794	125.164055459135	-0.632130083927329	-53.2536915030432	
22459000	-2.28610898037156	-55.1013792708459	-38.8695605904054	114.084563655244	-38.9203184903421	115.050744100953	-0.609106592187037	-55.6391732455939	
22708500	-1.60843795808375	-54.8975733211598	-39.4442599557091	85.2589131090406	-39.4754027463254	85.5362527572287	-0.534709952785281	-57.9474588413425	
22958000	-0.961147876727833	-56.4085653230184	-39.6478738071509	59.2609973275254	-39.7559589136005	59.306521256694	-0.336127693654348	-59.584027695843	
23207500	-0.527011683857228	-57.3231318437786	-38.8269987776883	29.7869849821835	-38.9486614451179	29.8119657418752	-0.177893103982006	-60.0919806377329	
23457000	-0.403177597436368	-57.5243748314333	-37.5253213019404	-15.93609998557	-37.7324539019031	-16.4374314812229	-0.235035355141796	-59.7148647368445	
23706500	-0.490076175104783	-57.6797998315149	-39.5475044411052	-77.2501280980328	-39.7274945608529	-77.2624329061973	-0.356465898141485	-59.0239068054651	
23956000	-0.685415893356322	-59.0444916470622	-45.8780126090774	-124.849639188405	-46.1272208293087	-124.621843868828	-0.483096035439862	-59.972456016488	
24205500	-0.755248625097043	-60.97687871642	-49.3673026085975	-115.221134149708	-49.1440756096271	-113.809036755273	-0.531966745680903	-62.0844293438724	
24455000	-0.636630358926662	-63.3961122531887	-46.8551836848252	-156.301152627469	-46.9819337605034	-156.445973905093	-0.429110353170831	-64.0322762487132	
24704500	-0.513664051647604	-63.9736860407735	-47.982363617055	135.453373541539	-47.8397499771845	138.21202121555	-0.210233236207032	-64.913163003823	
24954000	-0.234920664709931	-63.2794617264143	-54.6383053728456	72.5653536141748	-54.1158090144757	75.7191243500461	-0.0673853079166572	-64.9097880809767	
25203500	-0.177079064689785	-63.4362674870236	-62.5134282262091	52.7899480918898	-62.9880703252642	48.7108580888961	-0.113670729598516	-64.8011313049075	
25453000	-0.353340968929962	-64.0197752869009	-70.6017887202782	38.6561302772588	-68.8502460298043	29.6038245287834	-0.310730153256263	-65.1269214744868	
25702500	-0.549908457664183	-65.6427253073128	-70.7161833180043	21.0668913999402	-72.7435518603697	19.9931056931759	-0.512210924069714	-66.6178677329483	
25952000	-0.580479377300372	-67.9199483991126	-74.2051026760955	27.6607535719853	-72.1696166166717	9.03284000531242	-0.572569828828112	-68.6176074204045	
26201500	-0.422789216184398	-69.7130116018901	-76.9890809702055	31.1334470743176	-72.8889423662548	-2.90892067658789	-0.422175308082955	-70.3570540788597	
26451000	-0.191316918524405	-70.3695472444706	-75.5261593227448	14.8303710027858	-72.6051575327963	42.7795378328177	-0.227525983916979	-71.229070918269	
26700500	-0.102396720977668	-70.310544603941	-70.6649976303746	36.8165215976804	-69.0570115358795	31.1806535148338	-0.172488075110897	-71.1796528501244	
26950000	-0.228118065561373	-70.2781011073709	-66.6782638638146	32.2927842842576	-66.1192045323465	24.1005094466202	-0.344408467983328	-71.305737612146	
27199500	-0.498891106482689	-71.3108039475497	-62.6807400680014	3.12534527434034	-62.6289901047811	2.55145366361554	-0.783251919680602	-72.0284366146433	
27449000	-0.72811561111257	-73.5181819186457	-57.8508871532464	-51.7162001029504	-57.0196200144634	-58.379242494688	-1.12830011120044	-69.5723239883934	
27698500	-0.827572014222574	-76.2573869676721	-60.0696307565223	-59.5969545513166	-59.2251368710964	-64.1317691009458	-0.604960941224192	-73.4147850347102	
27948000	-0.852278833940428	-78.3467668715436	-54.1977027437971	-80.1784153635182	-53.9328080571381	-81.7070677844121	-0.532151155808587	-76.0936296514863	
28197500	-1.07500814457087	-78.3116737876304	-50.364160711588	-128.169267867209	-49.7922309713908	-126.35325410853	-0.499633311192536	-76.7918524573417	
28447000	-1.5143466411268	-74.5317607985477	-47.5829724820823	177.108357940778	-47.1483855459641	179.05175963583	-0.724851373217856	-76.364146752874	
28696500	-1.50785966044486	-69.4940371473311	-48.1473355012238	114.607283845702	-47.4878841216621	116.52942064705	-1.19549631976228	-74.0079576254092	
28946000	-1.25817821226203	-68.825165456833	-54.0904654735128	56.1518904121415	-52.7856842596351	59.7850589072585	-1.15316806918721	-70.8908280071911	
29195500	-1.0803093159151	-71.0877650853968	-62.898491409223	61.7370160664448	-60.5038619381826	66.2063897993194	-0.73888277758119	-73.4753326807928	
29445000	-0.844523329510761	-73.8193249590008	-58.1935889646451	74.9247674070014	-57.5219792461138	71.9960248229492	-0.519742945099241	-77.6018192943084	
29694500	-0.521997568942075	-75.3453387536215	-55.0757941987334	55.6784974048543	-54.9288274103088	52.1532296086381	-0.435651275354638	-80.5432717692531	
29944000	-0.312250452897132	-75.430537873735	-52.9204604955328	27.3920217957727	-52.2143868375646	25.5310291676916	-0.574478531735124	-81.6533306224031	
30193500	-0.302360758410804	-74.908239856076	-50.5240322583044	-5.28839630888195	-50.2755307450121	-8.14687023164181	-1.03579676178628	-80.5177002595928	
30443000	-0.440681128092845	-74.860243252761	-48.7950828698205	-47.2833653004222	-48.5919555956456	-50.1815226111588	-1.48107989236922	-77.9336614291884	
30692500	-0.606465437214593	-76.0784021136713	-47.5311584679852	-93.7319328124125	-47.6085444312338	-93.635762533604	-1.60605963703059	-76.3872938135515	
30942000	-0.669445552379286	-78.3091306641643	-48.2853660375475	-139.1883204478	-48.5172623755028	-139.271387113734	-1.37493602453817	-77.1136723409285	
31191500	-0.518374061651367	-80.3539548560033	-52.2023414953345	-148.600006830891	-52.231185451482	-150.343086884173	-0.945595856785629	-81.0051798301079	
31441000	-0.265099814889247	-81.2816511735005	-45.795440013328	165.035609779417	-45.8210055761595	166.544244810972	-1.23582430815497	-80.7822440807805	
31690500	-0.129723574312546	-81.1483243498539	-46.6333630837514	115.257025715209	-46.8592207677768	115.839657500148	-0.903256959255839	-78.1368815841453	
31940000	-0.194563740745172	-80.9323696414369	-47.9823078290258	75.6302884011506	-48.154340447617	77.7421063839689	-0.743735460544574	-77.1807425113041	
32189500	-0.423877806305077	-81.4001812326646	-49.1631180196585	37.0091979649806	-49.2974498832728	37.9248014727269	-0.797736498790673	-78.1016378493598	
32439000	-0.625683461599406	-82.9628731430682	-49.4773834719733	12.6967863873033	-49.6524444042908	11.6596662512192	-1.05207384123655	-78.8834990004137	
32688500	-0.59320866425498	-85.0162918401254	-52.8301408706342	-46.7968914964327	-52.9047788674885	-47.3698410911522	-0.937201993960206	-80.9874883807141	
32938000	-0.402420019498455	-86.699840523143	-59.9271150284019	-67.1841041638163	-60.8103642002668	-63.4807835798929	-0.689863982614885	-82.8009535520987	
33187500	-0.203080238001054	-87.2860448332431	-64.5368848877335	-43.7132158783438	-63.9342490517221	-42.020199702443	-0.408655287483578	-83.3309741091252	
33437000	-0.170728848093914	-87.1526264061804	-63.2801581542345	-34.6036439591072	-63.4813301300891	-37.6679542585146	-0.284306779679074	-83.0627295937203	
