!Keysight Technologies N9923A: A.12.45
!Date: Tuesday, 05 August 2025 18:00:02
!Timezone: (UTC+08:00) Kuala Lumpur, Singapore
!Model: N9923A
!Serial: MY61181427
!GPS Latitude: 
!GPS Longitude: 
!GPS TimeStamp: 0001-01-01 00:00:00Z
!GPS Seconds Since Last Read: 0
!CHECKSUM:0133397964
!Correction: S11(ON U)S21(ON U)S12(ON U)S22(ON U)
!S2P File: Measurements:S11,S21,S12,S22:
# Hz S DB R 50
2000000	-0.0654677613671179	-4.80129789549747	-91.34674945038	95.720474676477	-90.532265617209	18.3584121142644	-0.0727250439021506	-4.80908560252206	
2249500	-0.238871301791484	-5.69883329215363	-71.0190796617784	51.4064544405749	-70.7633519154204	49.4620022300763	-0.243151180304137	-5.72110727348835	
2499000	-0.31608558411446	-7.12817179345512	-61.1411986706945	23.9451634875796	-60.5151659795493	26.5419773872272	-0.325449810368249	-7.08950978330521	
2748500	-0.223749895689653	-8.45253200859496	-62.5162125996728	-63.3727347514501	-64.5875036395943	-70.319821781249	-0.234482999111678	-8.31130950656921	
2998000	-0.0441393032426948	-9.21195499854229	-66.8836880512761	-159.282788861566	-69.3513911146102	-163.582377109509	-0.0620129633606334	-8.84871186474352	
3247500	0.068639795274916	-9.32723800202951	-74.9480542065887	-110.110939049389	-73.7804536494404	-119.772476814601	0.0634841228028779	-9.04429505013084	
3497000	0.0363680827066429	-9.31348186261958	-72.3462701714068	-120.735246165459	-71.1421818396574	-105.768799168568	0.0232283206365708	-9.08299092585678	
3746500	-0.133971864867263	-9.71233190783012	-66.7915177590808	-132.394768907282	-66.6573342924501	-129.658179964536	-0.142831449979701	-9.50073252592865	
3996000	-0.297182175567491	-10.7977979041939	-82.268318547564	47.6818205326284	-82.7325460115959	56.0176613238992	-0.293248442336428	-10.5781553712037	
4245500	-0.316877307888844	-12.227339435918	-83.6693987211791	155.315659632341	-87.2543480504689	115.845189329485	-0.309007558510337	-12.104708621261	
4495000	-0.176595982722689	-13.4735052054248	-77.2532324924643	-121.612951090536	-80.4389422952136	-91.0267042417526	-0.171294506363668	-13.2597065949138	
4744500	0.00092303140531126	-13.9596027494685	-74.3783672055774	-91.5302203922381	-73.7287533494202	-96.017783876722	0.00292957176371255	-13.7403537552016	
4994000	0.0751877516115807	-13.9571765759843	-68.5839183705167	-108.448910291507	-69.2180151533124	-113.77830951919	0.0724606541365085	-13.71343732506	
5243500	-0.0182218400729144	-14.0535754527333	-63.2767355518436	-122.125498902368	-63.4260935018941	-120.943832109155	-0.0177838024206668	-13.7573737900263	
5493000	-0.229777546483952	-14.8073069828752	-56.4950026526634	-144.551134013232	-56.3742431055953	-142.574216697338	-0.206834811695383	-14.3861695092885	
5742500	-0.428418999729579	-15.6806101841616	-50.5875132426008	142.473509603312	-50.5237644466837	142.507617723051	-0.328620949574357	-15.6433435922652	
5992000	-0.352895509140784	-17.4222462750667	-57.2755085141068	100.666315479679	-57.1613791351292	98.1357166034908	-0.285480043728068	-17.1568591217036	
6241500	-0.105395186941796	-18.1143619188353	-57.3340660327954	78.6696166305256	-57.2079503696517	78.2701982892099	-0.138482087848773	-18.1240391566233	
6491000	0.0314457239160807	-18.4803794228974	-57.3819399826035	70.0908939304353	-57.2829519743233	69.9882952191422	0.0367495608330054	-18.4610488785719	
6740500	0.0434689339222853	-18.4796704206254	-55.3331258207382	50.6532440573404	-55.3912887015089	52.2378645493488	0.053363447202426	-18.4418468173933	
6990000	-0.114641471306266	-18.5097837721919	-53.2494709700031	-2.26793429927477	-53.1184250599628	-4.00457200763821	-0.0910552454367505	-18.6561924693834	
7239500	-0.274321892572501	-19.3513705781305	-58.2222358878051	-50.1682246740491	-58.2080891630969	-50.3301444914184	-0.275344587220911	-19.6232165273795	
7489000	-0.349074448777044	-20.9319435945455	-66.7272825233469	-54.2116586377095	-65.9916335589453	-49.3830773252924	-0.341610771579067	-20.9081857798576	
7738500	-0.258366433742176	-22.4327229275353	-67.8743358606002	-57.8527796621087	-69.1732722970463	-50.6662826680929	-0.257800642588797	-22.4119586383839	
7988000	-0.069218824739415	-23.2455070863339	-77.9910919319401	-56.5439910737329	-78.3106800255457	-82.0652107099446	-0.0764347978682685	-23.2387728110158	
8237500	0.0625388989444265	-23.3462575073798	-73.1078421045752	74.2420025414202	-73.9011256084809	80.4128803461938	0.0509994191510802	-23.4202181481034	
8487000	0.028280043823915	-23.2972683950106	-64.2797199465087	65.5780495324218	-63.8057341132546	66.0265980864484	0.00504715235033121	-23.5999777140996	
8736500	-0.147990920347004	-23.7242727829563	-54.2614994869468	46.27392761533	-54.2510439325187	45.8425307147975	-0.251734303351685	-24.9518998477464	
8986000	-0.328890463834937	-25.0161361321243	-56.962789404257	-99.0595915562675	-57.4437826408497	-100.075264628599	-0.362866239955534	-22.6790817237358	
9235500	-0.382729723864902	-26.9713562032807	-61.8567179152881	43.7838317016665	-61.1743292992273	42.6932436159115	-0.337858984165279	-25.6021839323388	
9485000	-0.316709950445384	-28.7106012944277	-49.0907169552679	20.618964260613	-49.232058737288	19.4584469471932	-0.212902969153456	-27.3529091806777	
9734500	-0.263749255695452	-28.5731779236404	-41.7635765437015	-37.274047688737	-41.7678918328119	-36.8072299246817	-0.0481440147787619	-28.070918144621	
9984000	-0.0654879592212825	-28.0813841727767	-41.6993453281761	-86.9251175685025	-41.6545844956797	-87.3085851664487	0.0306328165700359	-28.1225862982833	
10233500	-0.124297968137966	-28.6561425776734	-41.3764347304616	-109.634884816787	-41.3240332506746	-109.571581774333	-0.0606954872263934	-28.3505743637353	
10483000	-0.382571815004798	-30.2305661992975	-38.9577804107438	-125.248584785129	-38.8696809481562	-125.425541501367	-0.276925677093381	-29.2949935093079	
10732500	-0.832559489702334	-33.2023296337103	-33.8916318990978	-149.288528160344	-33.8569127033314	-149.268047650743	-0.467978526219205	-31.3065016941308	
10982000	-1.66115689965476	-30.6307446294969	-28.4805442280427	149.929671164963	-28.4327649237633	149.683923389635	-0.610612782652493	-33.4845370301057	
11231500	-0.665069972806043	-28.1023879225464	-30.1205902818847	88.0328352753288	-30.1040156090892	87.7235842516218	-0.611588141087504	-34.9521212352959	
11481000	-0.213972279436646	-29.5707014098949	-30.5440937774125	47.9953475572468	-30.5506052833515	47.6973705995816	-0.937615489763207	-35.0593931920733	
11730500	-0.146902649824742	-29.7762737800712	-34.4553328283509	-20.1579638495674	-34.4542516488885	-20.5130023470907	-0.778430681246426	-28.5170465885195	
11980000	-0.221431810517242	-29.9213722084623	-34.9389915795652	-32.1744661328067	-34.9495678910981	-32.4376028612222	-0.996934378751073	-26.979403073347	
12229500	-0.364769977057679	-31.0129965411337	-39.8055551174574	-66.3631173764117	-39.8183169063861	-66.5379623315765	-0.60246480569276	-27.6767199903438	
12479000	-0.452817156426499	-32.9246828254835	-42.9854462210494	-82.5029269834532	-42.9539606162981	-82.2606545311059	-0.517222257134379	-30.1807479551237	
12728500	-0.363452194224771	-34.8852225717199	-44.9266317490863	-95.8288004135577	-44.8052636556206	-96.22110951818	-0.374393629001659	-32.4736582008973	
12978000	-0.170871945051902	-36.0417525332234	-46.3124455912993	-112.56557508642	-46.3184255877809	-112.842977342521	-0.14025729949863	-33.9563659445917	
13227500	-0.0491511414594898	-36.3143207450161	-49.8857958255676	-129.717437877988	-49.7935992254644	-129.297841080623	0.0180219923487945	-34.6985658740902	
13477000	-0.103263512088774	-36.0063986657387	-38.3791471037541	-123.314656280996	-38.3587765778247	-123.475396382635	-0.183806541488064	-33.8588643522934	
13726500	-0.273688338496794	-36.4456533494387	-41.7276166573386	169.101215726499	-41.6827575723696	169.018185597857	-0.209702855964805	-34.2810480521195	
13976000	-0.462628769864703	-38.4557940590767	-46.3901413465369	127.11587986886	-46.3544064729871	126.462105668637	-0.36827723318644	-35.3980347715059	
14225500	-1.15374662138211	-42.4567132870827	-50.2141714976829	144.241069383545	-49.9294846815449	143.822253195252	-0.394563920482404	-37.0960451569192	
14475000	-0.585636847620214	-36.7276986353611	-46.3714158075374	70.9403229151442	-46.3235827200549	70.8573649082385	-0.258274695734338	-38.5935185702324	
14724500	-0.245555267721367	-38.8783419961623	-52.6536994318403	9.23216845401714	-52.3306237329773	8.35739978306317	-0.0567721240600776	-39.252450747579	
14974000	-0.0839862101357346	-38.7478887443791	-76.4371392902721	-3.50803134487825	-72.7926713374237	-6.03720623902374	0.0632462235456907	-39.3074723054182	
15223500	-0.10846487827573	-38.9376869089707	-63.8944005723925	85.8553717570919	-64.3613444341745	85.4968802276229	-0.00822611428510209	-39.2488096543419	
15473000	-0.316058358801045	-39.8316824541026	-60.6403227488907	62.8200493536234	-60.34929873164	59.0732828540574	-0.194748451111983	-39.8531438495341	
15722500	-0.602582122247106	-41.6196840212994	-56.7695074401878	24.1529331243683	-56.8636369274699	23.5786684214373	-0.342919030558154	-41.2901226160515	
15972000	-0.593677252339642	-41.5069023053206	-57.9853179542087	-53.0607633504967	-58.886720430976	-53.3894580860225	-0.337512248258073	-43.0516156222304	
16221500	-0.237486792110005	-43.2763035604808	-72.4456191133796	-84.6458175704527	-69.3954909260628	-89.018162828098	-0.178245575173129	-44.3984699491451	
16471000	-0.0195346553273932	-44.0757775795977	-77.2543421167633	-4.76483604138605	-74.8221533684809	-12.4261100771555	-0.00144195715660432	-44.5460668638887	
16720500	0.0389168615651271	-44.1062640149158	-68.8191616833605	-12.3945119022353	-69.8205529238667	-5.71790527821336	0.0598770776878268	-44.5397281324098	
16970000	-0.0931776721131287	-44.1634290235197	-65.0841465237774	-26.3194962876809	-64.6028740807627	-25.0598104033272	-0.0649560485940557	-44.6161398956025	
17219500	-0.321919963014	-44.9906393196811	-59.8406879201712	-57.5023148312224	-59.215660554074	-57.3164473026089	-0.263209445307345	-45.544983151066	
17469000	-0.452213175830364	-46.5114416778462	-57.0754200905706	-99.150499024386	-57.2892066429132	-99.2023671179084	-0.3846600347622	-47.2128741350615	
17718500	-0.376345448098194	-48.1425568942408	-56.9391639278866	-135.564630922759	-56.5562248972157	-135.079497906364	-0.328537431870964	-49.0653518417032	
17968000	-0.16893440296203	-49.2706267965937	-56.8201545324145	-159.648552562889	-56.7383413732602	-159.586266757442	-0.152032568766885	-50.3021646104124	
18217500	-0.000810561246193654	-49.4936188627288	-54.7366549003177	177.857579946627	-54.6981994018611	178.864780348895	-0.0113696537418133	-50.7013913054559	
18467000	-0.0102913620179286	-49.3010534514079	-55.27851344063	130.304540727128	-55.2336691612343	127.324057068764	-0.057881843620077	-50.2523807859019	
18716500	-0.186592958505354	-49.6921875349195	-54.7307591038931	136.151438554038	-54.6212853412762	136.649880035471	-0.247928401532141	-51.0683450693135	
18966000	-0.399431248760769	-50.9373008793658	-52.4205751671003	120.603479517825	-52.4594219648131	120.757907365563	-0.505186080043009	-52.640352008737	
19215500	-0.486630496808798	-52.8882073615709	-49.6753888711262	104.658113132015	-49.4849406072451	104.918001372209	-0.685181685828547	-55.0254325079716	
19465000	-0.407743982993171	-54.6678430168782	-45.9545982742425	82.978100396524	-45.8630329761687	81.9143427579529	-0.785790452107448	-57.2694609455005	
19714500	-0.252958139799456	-55.4930662611774	-41.7286426140048	50.7472327501346	-41.6860675236041	50.5416936634125	-0.928794734464985	-58.0026556707399	
19964000	-0.208412769681817	-55.1064106327552	-37.8996470389256	0.935005136907478	-37.9477391015987	0.684373652730123	-1.23716272765169	-55.9065393630932	
20213500	-0.256075383724436	-54.274995152636	-37.8649881229478	-70.4690210380335	-37.9013755040119	-70.5777143337014	-1.4056774489896	-51.0414276532159	
20463000	-0.419158298338775	-55.5782804240317	-46.4610730200641	-135.74648134448	-46.3930377693033	-135.977716006543	-1.16390670657398	-48.6354882764527	
20712500	-0.906611141480519	-57.5818244509862	-46.8781129649201	-39.704422333597	-47.0017508816012	-38.8671502955297	-1.01851977069525	-49.7841839333872	
20962000	-0.929469679110012	-57.0483213173121	-42.7052688868454	-105.847711634344	-42.6893583504965	-105.086524081446	-0.850501304437591	-51.789557573166	
21211500	-0.634506235554104	-58.7256801247263	-43.2633421842305	-126.105468668427	-43.166215004617	-126.03883119829	-0.607664900321269	-53.5900607113754	
21461000	-0.44211337996701	-59.5683879932402	-41.4699768642415	-159.120972290243	-41.4213078102227	-159.07883561389	-0.310853638435175	-54.2126265196974	
21710500	-0.529344900487398	-59.4228329175754	-41.8331451183537	167.425394350728	-41.828072201958	167.353022866154	-0.147495674778393	-54.3676013691572	
21960000	-0.751506395923804	-58.7588889535644	-42.5412426364759	142.835754707341	-42.5283421067501	142.597602925628	-0.193847735885028	-54.5602293368759	
22209500	-1.14824739835395	-58.1356571814022	-42.8535957361418	118.553971711844	-42.7986876014707	117.762381007216	-0.371843759876053	-55.4718591486986	
22459000	-1.25637495956938	-57.8834037721913	-42.9898119819065	93.5863552842521	-43.0249276182532	93.8873628309432	-0.479240355900774	-57.2534917298105	
22708500	-0.992613347882224	-58.7711857119284	-42.9197884346463	71.0723736806115	-42.9883406344578	71.068699075444	-0.425863056714028	-59.2304021553236	
22958000	-0.576567265183368	-60.1707402757382	-41.6698044991634	47.2009465658115	-41.6667262206437	47.268639601688	-0.237643665031296	-60.7252145907442	
23207500	-0.310307880675889	-61.5603044526559	-39.0178491195585	11.1021243819763	-39.048743300074	10.5939794017676	-0.0842043926933316	-61.3306371955064	
23457000	-0.650104781722064	-62.456329032986	-37.5151639987233	-66.8366221764793	-37.6977229697877	-67.3026051255357	-0.190324645812748	-61.4681255523285	
23706500	-0.806191402406972	-58.2030946695327	-41.8894639026949	-95.224327560326	-42.0040224500029	-94.5471970928337	-0.421064205645993	-60.3451521001057	
23956000	-0.802752340610129	-59.5204276728509	-43.8574848825139	165.004906295905	-43.9624693548872	165.221326430055	-0.533400520261663	-60.5647138849543	
24205500	-0.80908553456926	-61.2367499432773	-55.4090769603011	68.2660804125633	-55.4832948254329	68.5436595793968	-0.506434049691061	-62.6389621675665	
24455000	-0.634381741001544	-63.2896312608773	-66.5950552483635	-26.8021779959404	-65.2552966624967	-35.7719903765776	-0.387841604334054	-64.6418049629398	
24704500	-0.410120744325878	-64.4727231456342	-70.7693151618711	139.860273284711	-71.5216650829396	136.248087471197	-0.17052498588102	-65.6183626518976	
24954000	-0.274902823013134	-64.3908346764188	-61.0966844456237	54.111709177243	-61.5132789993242	49.8067018688272	-0.0416052999158614	-65.6985292926766	
25203500	-0.295581777509168	-63.958472950289	-58.4956948902966	0.44315638265702	-59.1564441784743	-1.77652670408124	-0.0904662173766691	-65.6457716768074	
25453000	-0.458707584472814	-64.0343151504748	-58.6337833397439	-45.6058151701494	-58.2732607283863	-44.9622502785813	-0.275370331804445	-66.0279468164505	
25702500	-0.623211598484166	-65.3015706850128	-59.3607584739508	-67.2482660732762	-58.7805788240129	-70.1200644569053	-0.460874867005102	-67.5633628803508	
25952000	-0.62685048807347	-67.3213943953584	-58.926220007979	-85.5128420215108	-59.1308563849801	-88.1247862651298	-0.50334622460561	-69.6213832984668	
26201500	-0.452450927462407	-68.9065305394401	-60.2779078355598	-101.27508654191	-60.3667664469251	-104.310821264989	-0.344056077846325	-71.4402748656756	
26451000	-0.203456675730317	-69.4016040591791	-62.6078155753952	-112.107073606183	-62.0874527548791	-107.30207893752	-0.155237258247616	-72.604780256571	
26700500	-0.0889628300287144	-69.1765425780605	-59.9982092485805	-128.57044778051	-60.4048046345182	-130.078286121161	-0.104464529328747	-72.1234694020415	
26950000	-0.178046170348608	-68.9252395400449	-62.5708842515005	-132.049308407294	-62.5748166129485	-134.619539109352	-0.187989125299207	-72.8085139584339	
27199500	-0.397561182691152	-69.6130201721219	-62.3273991538146	-118.174866566556	-61.4523399825907	-117.578019751428	-0.464149519961253	-74.215754524016	
27449000	-0.561659805081919	-71.2986415223322	-57.9829633719968	-108.095403755281	-57.1272928579994	-111.954023696258	-0.70679271276745	-77.0152001938191	
27698500	-0.566707097414371	-73.3235201367771	-52.8844506255735	-118.186025424296	-52.8749836438043	-121.840802004385	-0.862719893010271	-80.4789985223949	
27948000	-0.395273886461434	-74.669316511526	-48.5942402287187	-145.347317629638	-48.631027099828	-147.060310180707	-1.07571828160918	-83.8097472069759	
28197500	-0.204010543055785	-74.7656802185772	-44.4691057327389	176.9665369458	-44.5688555886899	176.872929862695	-1.81358698842683	-84.8798733770587	
28447000	-0.168580840410638	-74.3498334161247	-42.3608556190779	129.591635254233	-42.4819764761205	129.184058099675	-3.08154224239797	-76.8172730196311	
28696500	-0.311039931570356	-74.3742032797933	-43.3635889254418	81.1961953218224	-43.5721085148498	81.4674756304805	-2.44535527130469	-64.6801214666953	
28946000	-0.517575427904235	-75.4196941773246	-46.4790955202635	45.9955606535702	-46.4896176884742	46.2618111142363	-1.47164115905071	-64.8340210396967	
29195500	-0.621496049249973	-77.4462889142459	-50.1242660733984	21.7659147222035	-50.0798148320319	20.4183977022215	-1.02183213139892	-69.451675391935	
29445000	-0.532172234907494	-79.6387307047044	-57.0738522971077	7.86131599504486	-57.4331182913092	7.72854814304366	-0.759471968102409	-75.6285968579028	
29694500	-0.300413332044756	-80.8469144666705	-47.9386757146496	80.322158743987	-48.0795344300283	80.7023303990093	-1.96473592926387	-79.9844438339654	
29944000	-0.163938181474332	-81.0747277827425	-45.7118479577804	16.0607343910635	-45.7103682179214	16.6817980722185	-1.15401125941235	-69.5628429738278	
30193500	-0.245641783410541	-81.1705138230683	-46.7863524448273	-12.573381303514	-46.5349455682907	-13.0945057192486	-0.592562317949469	-70.2983160195113	
30443000	-0.518398971896299	-82.1180002781321	-47.0904209999772	-37.5797542742468	-47.190833740353	-37.849894343515	-0.585011656625213	-71.3717373131766	
30692500	-0.911370062161513	-84.8783243857894	-48.8369080268163	-67.4148660681857	-49.3147229203249	-68.1319748791138	-0.698920143155244	-73.1848716353642	
30942000	-1.98265953411723	-87.9274605175802	-49.2560763056838	24.7865853623856	-49.4201203299318	25.6312787246041	-0.736025395532952	-75.4761985251119	
31191500	-1.59178347520324	-81.583953909258	-40.1711323942248	-63.3344422588035	-40.2127255414802	-63.1720077925182	-0.556263805513194	-77.6029839628285	
31441000	-0.948577673350528	-82.1814858783587	-40.8838962763219	-108.64512298085	-40.8931954483845	-108.147855949287	-0.303525782910072	-78.6219951714038	
31690500	-0.671337435583955	-82.3009151382607	-41.9244609501921	-139.138408273442	-41.930167828157	-139.154582095488	-0.137288310641387	-78.6680330992886	
31940000	-0.712750532275204	-82.4907436636034	-42.4804484936523	-163.428714945356	-42.5194085341047	-163.15752593314	-0.179341808541924	-78.6540636432344	
32189500	-1.00726121679054	-83.2489014714363	-42.8787189625791	175.667415144055	-42.9009515564774	175.555429916198	-0.387972479918109	-79.4503129324651	
32439000	-1.33791233922062	-84.5122776087012	-39.4171250812087	152.331617389559	-39.4577391044865	152.521330713368	-0.688436755260293	-80.4146048171439	
32688500	-1.35397676042982	-84.9002138941068	-40.8051587913767	101.742146811157	-40.7400265355495	101.20751766055	-0.58372328227906	-82.3665246705282	
32938000	-0.868200085119057	-85.7136238498456	-43.9805773022353	58.410274467078	-43.8969082323033	58.9809986856636	-0.391987182630061	-84.1145941935773	
33187500	-0.492019633755351	-87.4439035239121	-48.8397216657809	29.8726333824992	-48.7994229710307	29.0710032370518	-0.162929328405356	-84.6285577331375	
33437000	-0.484804569435495	-88.591505592111	-54.4639721904748	17.4682351172623	-54.7455062228683	17.5445205134783	-0.0789151911888467	-84.4164742339227	
