!Keysight Technologies N9923A: A.12.45
!Date: Tuesday, 05 August 2025 19:11:35
!Timezone: (UTC+08:00) Kuala Lumpur, Singapore
!Model: N9923A
!Serial: MY61181427
!GPS Latitude: 
!GPS Longitude: 
!GPS TimeStamp: 0001-01-01 00:00:00Z
!GPS Seconds Since Last Read: 0
!CHECKSUM:1041456947
!Correction: S11(ON U)S21(ON U)S12(ON U)S22(ON U)
!S2P File: Measurements:S11,S21,S12,S22:
# Hz S DB R 50
2000000	-0.0629080854753589	-4.10093092672237	-71.2455792051497	82.9558914949807	-70.9260876222676	93.9867282694935	-0.073197646433308	-4.00166429844184	
2249500	-0.33790335678383	-4.98271737673385	-72.4753533580454	71.2709525971241	-72.4723951459174	57.3312342150348	-0.347599240345416	-4.96696129911463	
2499000	-0.459378316135006	-6.83525881440514	-68.877557987098	36.1538937190489	-67.6430067452894	16.1982500077507	-0.514910909506522	-6.46503670571894	
2748500	-0.327756668916023	-8.70932828381517	-66.5570761542229	28.7773416366726	-67.833061078722	30.0150674221669	-0.324654083010457	-8.2654628803671	
2998000	-0.0477564281638204	-9.26919412562957	-62.6496852492348	-58.5173658618676	-61.4996410800598	-57.8909536119221	-0.0373517334604339	-9.24883595246731	
3247500	0.152154374720358	-9.24924613396591	-66.9808144965441	-89.469902966573	-66.0254661720051	-94.1681756858133	0.133327227862371	-9.22607734098992	
3497000	0.0931196518359937	-9.02888556003452	-64.5036389255674	-115.696963816382	-64.7322043372262	-116.05780901749	0.0764481565418701	-8.98566674765704	
3746500	-0.222626738703183	-9.16478857641895	-60.8176244560717	176.852464734522	-60.2501412136179	175.78700760854	-0.177635762513666	-9.27534136577276	
3996000	-0.436860930902844	-10.5118589525916	-73.1998565781834	101.919335906133	-71.5499012935897	120.671590442859	-0.415634416442855	-10.6070110615174	
4245500	-0.458437541103621	-12.6955018531765	-78.0761097868959	-98.0631404867798	-77.171149306935	-117.611990337905	-0.45053298735746	-12.6235476115065	
4495000	-0.238600966795764	-14.3853836717095	-59.8054648748877	-150.139262689477	-59.3365547183424	-149.095341345511	-0.298413509974728	-14.0888533167093	
4744500	0.00278778470729223	-14.7749923516905	-48.3831316725876	118.795309738014	-48.6111999553093	117.44995658199	-0.0460580776853058	-13.4520070278322	
4994000	0.0854198250462085	-13.4869638230213	-48.9702865927377	4.4196243347966	-49.0049585116745	2.60260258118428	0.13402775532022	-13.0305172985349	
5243500	0.0200711992535958	-13.0025127365592	-56.8321450759248	-58.0765294973349	-56.8294367598018	-57.2444275850235	0.0177314065006234	-12.8071669137702	
5493000	-0.264957964340496	-13.5695152463699	-62.9637925512208	-82.8857136299822	-63.8892990660756	-79.0039766707298	-0.268134145166852	-13.5734531680819	
5742500	-0.484291596568588	-15.3829268111214	-57.8165845509294	5.3630179626078	-56.8103635561846	8.39551526209299	-0.484724321201642	-15.5952359907295	
5992000	-0.439112438913832	-17.5562931662768	-50.8292773899761	-119.390670294702	-50.6990241341578	-118.534739860002	-0.411842189447641	-17.3896525214015	
6241500	-0.227199454520267	-18.8937846779425	-48.4767200773327	-172.944720369369	-48.2937687471845	-173.706726556547	-0.155725925978715	-18.7864222172367	
6491000	0.0214755898192829	-18.2267301334258	-48.6774203956523	112.626534543985	-48.729054279395	110.90547022569	0.0745940328097929	-18.9758707537972	
6740500	0.113685478841281	-17.8727047257912	-50.3480273294159	69.685621070825	-50.4119659893892	70.0773386096802	0.0694486529081075	-18.6271493252856	
6990000	-0.0988361569334075	-18.0009240591459	-49.4195974307279	21.7419210683502	-49.2776906203487	22.2531071378195	-0.259042035109013	-18.1622893156037	
7239500	-0.429802047779426	-19.1647705804696	-50.0364278935078	-34.5179509058127	-50.0206180137239	-34.5851999792094	-0.499811066353391	-18.0322040578472	
7489000	-0.575534173052397	-21.1194483530558	-52.1370437154892	-77.7160144990497	-52.1213254038816	-78.6512676471376	-0.535398077340879	-19.9458603892561	
7738500	-0.41549361611378	-23.1523941159493	-53.8410846399802	-104.883042212189	-53.4592850122302	-104.500092376862	-0.361428819552686	-21.9622104195102	
7988000	-0.145476662663518	-24.1417264781989	-51.9749013742071	-131.702455883097	-52.002355480738	-132.467623616062	-0.0622455073545487	-22.9613051952933	
8237500	-0.036230399381747	-23.2734222948233	-48.7263475246823	179.080241942423	-48.6893986980237	178.528351164005	0.135879117430744	-22.888928440398	
8487000	0.00786437408053333	-21.8004694681372	-49.6581583701795	120.845704242622	-49.4491576880923	120.790444456031	0.0736790092819865	-22.5698183246341	
8736500	-0.195995538706979	-21.9617164270333	-50.744767037647	82.6987185668394	-50.5797386371082	81.9391926427568	-0.217671521018991	-22.9854142989754	
8986000	-0.468834955461487	-23.5610008095732	-49.266046705568	44.3325914858882	-48.8258600919313	43.7842716726118	-0.571422565056072	-24.5947683738632	
9235500	-0.555957809325467	-26.0950171686653	-46.1864887238689	-11.0987245116313	-46.0438613770751	-12.2588106877708	-0.744103739028123	-26.1399016067118	
9485000	-0.416114748226607	-28.0404361251681	-44.7377343913581	-82.0844239065958	-44.5977330037715	-83.2010259781372	-0.484409697512238	-26.7682433179527	
9734500	-0.201009190977841	-27.8414331153225	-45.3572159231576	-160.278344710239	-45.3446499401241	-161.257100776631	-0.092019475453929	-26.9829895001772	
9984000	0.0291040086099832	-26.7224127632223	-49.0583552509993	133.089131375539	-49.1373109014932	132.691184702755	0.0940311074837613	-26.5193554570478	
10233500	-0.0351352644878137	-26.4634839506813	-52.3954055484689	91.4700832285394	-52.2948321464338	89.3676901669319	-0.00279011051604368	-26.1927711090633	
10483000	-0.332419318752599	-27.304780426595	-53.6217178055948	55.3279912411562	-53.5581905191004	56.1550773709161	-0.293915027372787	-26.8356326242301	
10732500	-0.595856571551046	-29.4410783320657	-52.0852300233524	17.4541730991433	-52.3941921728092	17.7795242353831	-0.520702787179805	-28.8327577890126	
10982000	-0.635925458228669	-31.7965906852572	-49.6630544066836	-31.2371819861839	-49.4808940815782	-32.4664315363032	-0.509120336594364	-31.2931100600655	
11231500	-0.397898427973689	-32.612746059716	-47.7679012450774	-102.730609445853	-47.6238091784618	-102.97563878206	-0.288387064744994	-32.9160847187285	
11481000	-0.0878956437206446	-32.224563252349	-46.9012818468487	-176.019094278829	-46.7997485757823	-175.484020282426	-0.106735979831591	-32.9723875402791	
11730500	-0.00404101319014351	-31.1873706617547	-47.2650074487801	100.535097116484	-47.3108990600976	98.9463825051002	-0.129133463334958	-31.60736826096	
11980000	-0.167516334631612	-30.6423267689853	-50.781034346905	23.1471252829871	-50.9511312730789	21.1602872925923	-0.289245788671925	-30.4885772994556	
12229500	-0.466568378977684	-31.6475181398039	-55.4970428735982	-32.5855448518854	-55.4474491101905	-33.5824871284401	-0.504976553997142	-31.0513488044347	
12479000	-0.653482027324184	-33.9152868136428	-59.0981482079413	-67.1123087230204	-59.2249579909159	-65.9568099029521	-0.604268239596626	-33.1531008522392	
12728500	-0.568381033859227	-36.2628478213304	-61.2675327664358	-88.8755942197256	-61.6849993813864	-82.0620072994529	-0.456912034321602	-35.4339705225536	
12978000	-0.309401618941404	-37.0531202502637	-60.8246150488922	-93.97707962736	-60.3230633576777	-90.7063647168593	-0.151826273592933	-36.6859893571954	
13227500	-0.0775092330222503	-36.275207247259	-57.0343980029727	-116.976098303393	-56.9896743732659	-116.929497438145	0.0372941160837757	-36.7119278433758	
13477000	-0.0632658700619079	-35.4066432070012	-53.679575270049	-152.964824134765	-53.6324700888839	-152.488947196607	-0.0612134424435127	-36.4108890033462	
13726500	-0.299008097117409	-35.56982523198	-50.3839349778397	164.33654202172	-50.2495358403323	164.356834644761	-0.446330307917024	-36.3396091731272	
13976000	-0.610770308939465	-37.2244986764577	-47.6451734237142	112.587506647409	-47.5383713391025	111.54409581947	-0.823567156456588	-36.8064298470988	
14225500	-0.748617102902266	-39.7791605261904	-45.3961509554578	52.5682747430607	-45.4679046193807	51.8165423803461	-0.824133987283291	-38.2000042729542	
14475000	-0.62004711121111	-41.1897723782129	-43.8920672388353	-18.3528442684031	-43.8285820181388	-18.8359213717636	-0.522250989023265	-39.8718275381732	
14724500	-0.21208182060005	-41.071269250252	-46.2184086140394	-95.2935832934825	-46.1843455342529	-96.150992204999	-0.141954124354187	-40.4364658802642	
14974000	-0.0613154222681706	-40.6392059459286	-50.8268048730387	-149.335439572715	-50.6174350975954	-150.168808107118	0.0575584505979341	-40.2262155867497	
15223500	-0.197526493999297	-39.4462567270652	-53.3315468177466	-178.111687521771	-53.3704813874633	-178.583681794179	-0.0787080180593862	-39.9514860276461	
15473000	-0.461268639265373	-39.5123212133867	-52.3470099048927	152.847621909423	-52.3558089104389	151.589124548898	-0.464397373301269	-40.6327852691455	
15722500	-0.704062525614363	-41.5145874526223	-50.4990322515036	105.976904539195	-50.6069668839155	104.45086661779	-0.854548545647145	-42.0601882141676	
15972000	-0.710980295600699	-44.216249383591	-49.8510146485303	49.1855625163339	-49.9733045402662	46.9515855059907	-0.857253065180651	-43.2340933404974	
16221500	-0.493502913168739	-45.8779651304044	-51.2161763486024	-4.99853919720286	-51.5163103739241	-7.05739681967789	-0.473135348046202	-44.4118740395378	
16471000	-0.248001728902877	-45.6169747403139	-53.6556828753488	-55.9107517272326	-54.0828922206222	-57.0833357107011	-0.118555254795952	-44.8224107777409	
16720500	-0.143189528535372	-44.3696506930984	-57.9215997167113	-103.160107219513	-58.4942746699201	-104.615170349281	-0.042395662701983	-44.5215532191885	
16970000	-0.289627825164715	-43.7123771960341	-65.1253118109506	-142.835294993675	-65.9121701907584	-136.309207290134	-0.301274511245911	-44.2652352954009	
17219500	-0.600627426124985	-44.6495571784754	-69.3735586283965	-68.5899642753989	-67.6817971779148	-63.3631417528836	-0.705369250871497	-44.7881791596562	
17469000	-0.812699717689109	-47.0186221177412	-60.0643965231597	-91.774233115321	-59.264766790426	-90.1675340854672	-0.911414793155072	-46.1339009150688	
17718500	-0.754177992771535	-49.3296160914473	-56.401997992719	-137.782266780138	-56.0324514081132	-137.855960486338	-0.744488431370116	-47.9879686804321	
17968000	-0.480865570958784	-50.1234281980521	-54.1105632079464	172.022120651222	-53.7299099762999	170.746095162773	-0.376070244404811	-49.0921984997633	
18217500	-0.19767113178468	-49.2737894200856	-53.3935159925627	120.56583661313	-53.0348378067724	121.935059063376	-0.079703653715777	-48.9088812115327	
18467000	-0.145862552136239	-48.1569321527511	-53.3493375068945	74.8741087738357	-52.8886097381183	74.2651380580004	-0.0895199671388229	-48.2554529999775	
18716500	-0.378968596165509	-48.129611284255	-52.8955533439213	29.7579815919663	-52.6830584671634	30.9572185819784	-0.377778014281347	-48.2402993402666	
18966000	-0.711303891340151	-49.59121975203	-51.508023724587	-14.9639567361332	-51.1905085104036	-15.9539301808738	-0.752847942272281	-49.4899023734454	
19215500	-0.868139461517275	-52.1513641759989	-49.8482779553061	-63.1524896756532	-49.428221983421	-63.0572512155469	-0.935739623281226	-51.5766807198926	
19465000	-0.739595861723586	-54.201997131967	-48.599362239732	-115.670887262347	-48.3832820923585	-116.103944337741	-0.784247494579502	-53.1926621196917	
19714500	-0.44194221419788	-54.497867637745	-48.1834053337989	-170.092121641641	-47.9970580079554	-170.702056301745	-0.422237498892874	-53.4604076557156	
19964000	-0.234885321874002	-53.383185610309	-48.6250035892142	139.531822089735	-48.4851928581637	139.87108841457	-0.166316818898725	-52.6405288636188	
20213500	-0.307482976066612	-52.3647392473105	-49.4915606039289	97.019763644797	-49.2494929028469	96.6887201703919	-0.195899196928182	-51.8164517334991	
20463000	-0.628678247166457	-52.6508043859827	-50.1848564558584	57.9469177525498	-49.914975351472	58.1177888007007	-0.46505010399784	-52.0148116152767	
20712500	-0.961931074759714	-54.4549873525247	-50.1114343808817	21.8769531232116	-49.8734202618813	21.5418467071807	-0.744819304709618	-53.8194917647584	
20962000	-1.04627579223919	-56.7791871999954	-49.4274399440048	-17.5113720582128	-49.2361065101384	-17.7679066101533	-0.793743948104904	-56.3317848821749	
21211500	-0.787195787184179	-58.0448886016836	-48.8809867048379	-61.197036632238	-48.5689439070482	-60.9248881304904	-0.60598917187585	-58.1836304147596	
21461000	-0.413455551832396	-57.669930020682	-48.7504758520605	-107.890539716087	-48.3250080402229	-109.045587482526	-0.356094725246068	-58.2440872657607	
21710500	-0.228469040422278	-56.4839559221491	-48.6361350344226	-158.801723791836	-48.4052737720063	-159.718689046442	-0.281911377070798	-57.0286091167121	
21960000	-0.368411911843011	-55.8341479320546	-48.8258218087141	150.828372206585	-48.7465990739133	150.077943909811	-0.432362212150646	-55.8424172466166	
22209500	-0.719076858616424	-56.520439280939	-49.1167328883853	100.147359979892	-48.8154331456802	99.439663690455	-0.716531217646197	-56.0945506679103	
22459000	-1.00061421033547	-58.6675893381974	-49.0892498581972	46.8570816928019	-48.882063395621	46.3243351594228	-0.879721566626557	-58.0953581317912	
22708500	-0.954062806084104	-60.9165940358668	-49.0375699947379	-8.80669523237312	-48.8531523526289	-9.56332257900414	-0.778432279659041	-60.5464292357342	
22958000	-0.612329477897468	-61.9234739024017	-49.6550952732961	-65.7705390259829	-49.3260386696629	-66.6446744081111	-0.470125078669406	-61.9828199473247	
23207500	-0.294335097663537	-61.5748718605801	-50.998861552832	-124.170996750333	-50.6472441659899	-124.201359587518	-0.200734799805379	-61.8074833952992	
23457000	-0.277668024506627	-60.4493013588735	-53.2648875379844	175.25614508019	-53.1380369981203	175.869659994145	-0.18986254123163	-60.946945480314	
23706500	-0.538123561851046	-59.5826347767477	-59.3848569665846	115.262402358415	-59.2103891328362	115.881289536145	-0.459496917944843	-60.6540785782889	
23956000	-0.844944754025599	-60.3615471976727	-82.1108680393007	156.273931606086	-76.5804592752107	132.601076583487	-0.846381131156517	-61.6605469310899	
24205500	-0.980472498281397	-62.8591413204462	-64.7889073930846	164.190089068143	-64.5564311698116	168.876866994594	-1.03655778964358	-63.8274034238079	
24455000	-0.81392420272065	-65.191851046538	-62.0335481578609	122.408598280779	-62.4212009737321	118.37608096158	-0.884061408730869	-65.6154588666712	
24704500	-0.467989575049209	-65.8994539453818	-62.6820957474967	81.912855276982	-62.3251663577783	77.8684944286233	-0.507370918269403	-65.8464233681292	
24954000	-0.203753449354815	-65.0934306876622	-62.3967811763189	56.3764446725401	-62.2833494350445	55.9628002787005	-0.24596332249697	-64.9639928004587	
25203500	-0.213189796925826	-64.1648336870277	-63.3733717239813	19.7969758821909	-63.2025417684887	9.80368674778456	-0.274729598442824	-64.053882051828	
25453000	-0.496617091354554	-64.1113800112331	-65.3971595163276	-21.786536513875	-64.817056123617	-20.7822755187845	-0.556786583063882	-64.0111150878773	
25702500	-0.821303408866008	-65.7924618807798	-65.6678155385239	-69.047971513831	-65.66926412338	-60.5144534543267	-0.878816350285451	-65.778568167974	
25952000	-0.902760092254907	-68.5514415487031	-66.1190062184328	-112.5862688341	-67.6893001749729	-112.279490563425	-0.984560868588759	-68.4428623135096	
26201500	-0.693642545036638	-70.5269929234501	-67.3263167817952	163.862039082784	-66.3017968188094	171.616227610414	-0.773928721107718	-70.4862109710905	
26451000	-0.373697363935467	-70.6070014612079	-63.0636797916026	95.6346068556241	-62.8462409975383	98.3742468635794	-0.484765565255503	-70.7958371356872	
26700500	-0.22865723531779	-69.4589690440214	-59.7525679644814	45.2299005218869	-60.6254647240619	41.2349873726697	-0.353425566873472	-69.4976985146378	
26950000	-0.369937701787856	-68.3770721723489	-58.9800107990705	-12.5835457754558	-58.9326791096507	-12.4122713024763	-0.472786273905317	-68.2482304765321	
27199500	-0.718947881759549	-68.7878497693003	-58.2155784533571	-63.8173866949101	-58.2026215768772	-58.6800715109874	-0.779145777747625	-68.2159346174613	
27449000	-0.995563879904086	-70.8397143340398	-58.2056758721895	-103.946594086886	-58.1944150167599	-102.218124843683	-0.994404203425966	-70.0990643850305	
27698500	-0.98560800428031	-73.4153886871448	-58.9906201397661	-136.534543250776	-59.3503360751475	-149.252688301294	-0.934054878949337	-72.6574118843476	
27948000	-0.674759800047472	-74.796223267127	-61.3783775830771	172.351299257766	-61.1753904206436	166.32657186616	-0.632241478950413	-74.3666018477812	
28197500	-0.336410760418988	-74.3249404109061	-64.6088930549085	117.807237904223	-64.2158430821948	113.317549920487	-0.334123437148422	-74.2548209106943	
28447000	-0.247952007989958	-73.0877842861337	-70.1174119473995	55.158575860883	-68.9230886474861	48.3145965514287	-0.2942520778269	-73.2436772954805	
28696500	-0.463503269795909	-72.4490438704858	-71.9571639293598	-65.029506649964	-69.2627980796757	-67.9566476176461	-0.546811649381771	-72.4075161767519	
28946000	-0.819890539836304	-73.3409985400328	-63.8748557132943	-129.03918370382	-63.4285186443793	-127.470130371124	-0.928331712966246	-72.9614757035446	
29195500	-1.03593309027547	-75.7496869698265	-60.8040012415663	-174.207534118895	-60.4532817720402	-172.169124630817	-1.12612756436521	-75.0599123238447	
29445000	-0.930118401983237	-78.2532573624148	-60.1220483331231	146.542359085731	-59.6064490331692	149.455132202459	-0.962323225125144	-77.3030544026004	
29694500	-0.585167077968914	-79.0253979503644	-58.3621439882683	106.758100668404	-57.7852798028054	105.972922578139	-0.606261178148722	-78.2896065024542	
29944000	-0.332704092927533	-78.0641137388209	-58.1201855538082	69.6770083793948	-57.9733763700191	72.1509193258662	-0.302782438400537	-77.7487576447113	
30193500	-0.359334877508408	-76.6808986779965	-59.3032595850831	36.3429661991649	-58.6084508917847	38.0950728602505	-0.309577666577918	-76.818834543904	
30443000	-0.641078276697375	-76.2156673782053	-60.3111236184828	5.69849866129738	-60.29824140781	4.55140793622948	-0.607773502461334	-76.547298782952	
30692500	-0.980283409618329	-77.4981283704845	-60.2065410923044	-25.9791896524601	-60.4625395817285	-27.4858353162824	-0.951072094110778	-77.9088245877666	
30942000	-1.10724665917988	-80.1578658137124	-61.2366366441227	-59.6533178035036	-60.6531081170932	-61.8656652136705	-1.0960236529541	-80.3898678033502	
31191500	-0.86943862007942	-82.4060639843654	-61.744446149894	-93.2918464506393	-61.6270676755523	-93.8441368777597	-0.892411820500548	-82.4241847014668	
31441000	-0.481012985914502	-82.8990794657234	-63.6593316488371	-134.846535303031	-63.8454033837189	-129.801010734989	-0.557584579203871	-82.6479356597348	
31690500	-0.269690273970331	-81.9106575978923	-66.3597869275402	173.1461893035	-66.7812590988575	176.758181355122	-0.355757760417852	-81.4482449847993	
31940000	-0.370114312460019	-80.853272487202	-67.9215842336178	118.596321102663	-67.573205387024	110.901038707692	-0.453642257374925	-80.2491850483118	
32189500	-0.722139956849625	-80.89573785767	-70.3613832492902	51.8588845597139	-71.158995523476	48.8516899085733	-0.780257426900305	-80.3418943063698	
32439000	-1.05071947466014	-82.736410221108	-67.1882390005475	-23.7918700771308	-65.4613671479271	-18.8615780208165	-1.06532926160481	-82.2734924287706	
32688500	-1.07303797152333	-85.3120447968972	-62.5392914938866	-62.9278935430218	-63.1223288698272	-61.7256116964674	-1.08780269859922	-84.9780802403481	
32938000	-0.806666331127535	-86.7921410628221	-60.9575313538792	-111.55278618928	-61.9980789368042	-110.828261993156	-0.807145015305396	-86.9502335217326	
33187500	-0.480835852841131	-86.4732322584619	-60.5816384096714	-149.522219762687	-60.4942037478828	-152.71719845175	-0.48007145113754	-86.8888298257151	
33437000	-0.361804175634348	-85.1169086382265	-59.7648352015938	164.696060321637	-59.4787041510336	165.250787445324	-0.378625914698038	-85.5946817281998	
