!Keysight Technologies N9923A: A.12.45
!Date: Tuesday, 05 August 2025 19:58:46
!Timezone: (UTC+08:00) Kuala Lumpur, Singapore
!Model: N9923A
!Serial: MY61181427
!GPS Latitude: 
!GPS Longitude: 
!GPS TimeStamp: 0001-01-01 00:00:00Z
!GPS Seconds Since Last Read: 0
!CHECKSUM:1482925107
!Correction: S11(ON U)S21(ON U)S12(ON U)S22(ON U)
!S2P File: Measurements:S11,S21,S12,S22:
# Hz S DB R 50
2000000	-0.109883497526017	-4.07718716972109	-79.1034633350056	74.5262671417775	-75.8738561143991	91.7618969930435	-0.147449896025443	-3.96012619006993	
2249500	-0.437523828816286	-5.0747134316615	-67.8310800184571	54.8197166349102	-66.8524452063577	60.8113527852766	-0.469032568675306	-4.99231680637942	
2499000	-0.580099617955825	-7.10267744683662	-54.4114253760075	-56.1800817764078	-54.3125259975847	-57.1496055400408	-0.648504752846399	-6.7284216710281	
2748500	-0.408880969409317	-9.06047511508569	-67.4746171665373	-153.216894971411	-67.2397881872147	-143.538805044969	-0.443361763173104	-8.83452784933845	
2998000	-0.0703118288798231	-9.81947164825102	-76.3344068450118	-80.9275017153764	-80.2689919991056	-108.539549674926	-0.10652313344646	-9.68279170871347	
3247500	0.144429354505405	-9.42514865593597	-72.5961242204385	-116.067019078946	-72.2990145826616	-129.873905335954	0.100059312401713	-9.15185876901826	
3497000	0.0785691842748456	-8.76902315283234	-71.8496445226968	-119.421689041877	-71.4219634229302	-113.918275875041	0.0303117254069842	-8.54059506722853	
3746500	-0.231965786083276	-8.85951111201989	-69.3261422519288	-126.879138201036	-69.7259825758836	-133.458347048416	-0.27447283773907	-8.59326422939205	
3996000	-0.550868020671227	-10.2162523075124	-68.5271293508467	162.356471423688	-68.7092792689906	154.298603883663	-0.569096911069864	-9.97879424288703	
4245500	-0.573954664408687	-12.4080023896369	-80.6461182212821	63.7735312271275	-86.3372260691898	31.2882239022275	-0.605619419432886	-12.245716194108	
4495000	-0.318010455256688	-14.1275942428829	-84.8144820877867	135.129996783114	-85.0769116427161	-72.1886768378703	-0.349064465564886	-13.9089990297146	
4744500	0.0211923634856562	-14.2119996709431	-92.6810154553042	94.3598969693072	-85.2058615342003	-69.4211944929827	-0.0223433971465922	-14.270406820003	
4994000	0.155262032271461	-13.5475376439717	-77.3092176454596	66.808877389002	-77.9613318980548	59.4079660254483	0.104892609680598	-13.7516413215292	
5243500	-0.0133539258111701	-12.9653752354929	-51.5996865707889	-85.2872848816421	-51.5851948200859	-85.6071979179097	-0.111509809469301	-12.1677367480728	
5493000	-0.364101952406627	-13.5217642468746	-58.8118148611107	-117.34078509859	-58.7345858088887	-120.702526411993	-0.395876958823125	-13.3461553198349	
5742500	-0.62147033646839	-15.5221885289275	-54.9145414107927	-134.629937071889	-55.0213617741114	-135.961157003983	-0.632997278256193	-15.2475634237159	
5992000	-0.591954676242413	-17.6345785856829	-42.8252535882067	140.15600157349	-42.7118633581025	140.1436450933	-0.664962619802834	-17.5389240359933	
6241500	-0.238560831143544	-18.681619164236	-56.1023865475467	108.073528408316	-56.3636657620864	108.175397767429	-0.262287993453376	-18.4644122396261	
6491000	0.0746669854138589	-18.5705185094084	-58.6685340446874	89.1308590873669	-58.8221980888484	90.7195245112399	0.0439725070886817	-18.3130089357137	
6740500	0.113510481974164	-17.8409976639962	-58.7352929612815	75.6650768079465	-58.6826995555487	73.6676674414059	0.0838922710138229	-17.5560851527434	
6990000	-0.155106440355287	-17.2000652462326	-58.9664466193872	-5.77111263405706	-58.9354279269973	-5.70155128743173	-0.164804296138982	-17.2337361677001	
7239500	-0.470941002047273	-18.3845971428429	-75.8675066160139	88.9937048979742	-76.913293682377	72.0366639188965	-0.503766823828611	-18.2286702450001	
7489000	-0.635044587399974	-20.6857842551743	-67.762009292415	90.106437750207	-67.4435142721589	92.3359946220117	-0.660675395972188	-20.4682679899388	
7738500	-0.467127632285512	-22.7850920769565	-64.3798779637413	77.412471062266	-64.5961412064024	78.5353312401674	-0.49335801161375	-22.515808912711	
7988000	-0.111208549050351	-23.5292838570564	-62.2784376706484	73.0513176022507	-62.3653947647242	72.9375998226269	-0.147452330641464	-23.2399465100791	
8237500	0.130152711587077	-23.0040722293033	-60.273792096546	67.6002894943432	-60.5801102722497	65.6975754195145	0.0924570601538157	-22.638208715068	
8487000	0.065583159159694	-22.2186871706544	-57.7404271409844	59.572852213421	-57.8957426491252	57.849259367729	0.0368461422436905	-21.7226156941887	
8736500	-0.270736637117144	-22.3632829987666	-54.178923237049	49.1851376307457	-54.0857724361845	48.6652325569745	-0.269340106603064	-21.6201723445829	
8986000	-0.68907545197577	-24.2382848312012	-47.7912794377259	25.3400414414477	-47.7162327440086	23.9387954062176	-0.599433493061253	-23.0855417112368	
9235500	-0.832727360767635	-25.1612934465635	-45.0326872125682	-54.1869334786389	-45.1047718013934	-55.4664651086729	-0.663600848077119	-25.3984969209874	
9485000	-0.406797507748919	-27.2526525445168	-51.4129431503456	-92.8164717301034	-51.3365685784531	-92.8145691244815	-0.403916384018173	-27.32314136436	
9734500	-0.019474486339456	-27.8210512378633	-55.1961077940268	-105.283183487631	-55.2381006087086	-105.359053226587	-0.052105284733197	-27.6893391100675	
9984000	0.14704739413432	-27.1604624922577	-58.353042033406	-110.857981447916	-58.1458436247844	-109.742958259334	0.103010210029837	-26.925156213481	
10233500	-0.00941514919616283	-26.5600289811545	-63.6804596947449	-95.78806843789	-62.9059202299874	-94.1891297432035	-0.0471198358707292	-26.1874498469328	
10483000	-0.396261211511119	-27.1377515189279	-53.4088403991774	-49.9632867487139	-53.2398406672455	-51.2826860363498	-0.414360499271864	-26.5224905190958	
10732500	-0.671732811824814	-29.1678262045467	-49.8756121859825	-95.2878294959245	-49.8372420014569	-95.8978622708989	-0.67697184299328	-28.4440922272297	
10982000	-0.627551909870067	-32.0625602881991	-48.699119371399	-112.280076540149	-48.4397706209425	-112.434159952502	-0.633276441522013	-31.0901197635155	
11231500	-0.362061371738292	-34.0539279909895	-44.915809643367	-129.867875536581	-44.8240215095983	-129.224590012802	-0.328953851641288	-33.0010322477479	
11481000	-0.263958794884117	-34.0254856999776	-38.2102606572893	120.648837819656	-38.1626293414959	121.138457110558	-0.575077488789354	-30.3583434415805	
11730500	-0.379979118294509	-31.319217266256	-45.6832421292569	163.863335593779	-45.5646390276743	163.34112944638	0.0714919408215664	-30.8329711725212	
11980000	-0.584898224838401	-28.7807432138255	-43.851180327344	130.02615165646	-43.7271306752232	130.05306431596	-0.165853317419913	-30.7114728627357	
12229500	-0.662965372696178	-29.0545328717616	-44.7481944619196	91.6338314142104	-44.6908234328321	91.8962967786272	-0.548419358840672	-32.0726443636136	
12479000	-0.747935290122801	-32.1283792540792	-55.9778821564755	65.3716182936813	-55.8216197699118	64.0019136754288	-0.743532169438737	-33.2337422827694	
12728500	-0.552658095620185	-35.1042092919248	-52.7891417789114	72.4710494570058	-52.5702573537933	72.5510901714002	-0.570684832016691	-36.5157610409336	
12978000	-0.160964718597073	-36.4052728567315	-52.8126230837963	65.5731648336137	-52.5726763948426	65.8807289779313	-0.211290743761142	-37.9521047625516	
13227500	0.118702106212599	-36.0666212417551	-53.4934701119486	57.6397455399955	-53.2339067337238	56.8521764073803	0.033144347027501	-37.9172382782466	
13477000	0.0829624379631688	-35.3061897099876	-56.1805227153502	55.1367131135084	-55.9108881088934	54.1707558740455	-0.0339627713178908	-37.7343105261919	
13726500	-0.237871052693613	-35.4564131924082	-53.6244953437287	123.67331092042	-53.6651605113872	122.897551194804	-0.446725711213624	-38.6515926441096	
13976000	-0.615441643563164	-37.2202647993212	-42.0724476739256	92.4230815146518	-41.9957934013687	91.8000142274745	-0.972287398077129	-41.0104856756433	
14225500	-0.709579473260718	-40.2604538952099	-37.3607612782709	54.311053849121	-37.3371193093546	54.3467527399532	-1.2336665099267	-45.5285021576366	
14475000	-0.494769098036501	-43.258712163354	-30.8386484738652	12.9755180885182	-30.7613155155215	12.9342332441908	-1.82085357182773	-51.9470018802847	
14724500	-0.399060401161319	-43.79268663637	-26.2572622080212	-91.7333599926382	-26.133030284483	-91.8437975709033	-3.83343467618437	-37.9763895963873	
14974000	-0.243038075458678	-41.6843131080471	-42.5624133369967	-153.8389592669	-42.4068631167324	-153.494363193359	-0.638784330963958	-27.5816238345222	
15223500	-0.508029532621914	-41.1667011101472	-42.5438080014763	-147.406741418067	-42.3972546415754	-147.114905858681	-0.15552536276498	-32.9678328150195	
15473000	-0.992998851147213	-40.2775547288033	-56.3352948861883	-77.6709912126997	-55.9620322922863	-79.4398965852781	-0.737183857124325	-39.6266726141683	
15722500	-1.39046141082614	-46.2142888868672	-40.6747879649522	-163.205106386514	-40.5757126771276	-163.504419727546	-1.46879466401752	-28.7413552830286	
15972000	-2.81235676592842	-39.1747034209185	-38.5902835462803	150.398552653031	-38.4736947361361	150.404144628418	-0.842511974581003	-36.1156700164353	
16221500	-1.04359172426101	-39.3152163820025	-43.9970701760117	109.639598682635	-43.8850135146877	109.336194220574	-0.446756467278201	-39.6181428826956	
16471000	-0.326756132282397	-40.8090692225824	-47.764074177628	89.6550163728913	-47.6647060076812	88.6673012148471	-0.0544849805462657	-40.5656861957218	
16720500	-0.0796471995928094	-40.6138053382255	-50.7235655889867	75.7604942848866	-50.6057372993559	74.4040896055836	0.0869521055004394	-40.1186224142769	
16970000	-0.252415484516222	-40.3986421918783	-53.0514078417413	62.2755734168912	-53.0222309205558	60.8587985139874	-0.108442234884883	-39.7002011431611	
17219500	-0.649795355173361	-41.6038169813859	-54.7492994255391	45.7502998459284	-54.6083470441362	46.7489654391851	-0.478321053031408	-40.6730575256312	
17469000	-0.938735618207607	-44.4335461667988	-55.8125602265844	26.3131613975924	-55.487499382655	28.5911551519611	-0.723327460174191	-43.1549495221358	
17718500	-0.920009894220706	-47.1714907215952	-56.359177014392	-6.0951607932632	-56.1489259309798	-4.54504469591785	-0.618419467039657	-45.9855866149078	
17968000	-0.620843995219804	-47.512301619321	-58.0513336044476	-59.8041140572215	-57.8466840540874	-59.5201752934309	-0.261328242263332	-47.486794315546	
18217500	-0.176949615072226	-46.0923454418474	-59.3483951431251	-135.408610754073	-59.4205210637522	-135.803138020935	0.0523839991981468	-47.2667338670382	
18467000	-0.0426850414097974	-44.906160315406	-58.0449804816566	165.70859175011	-58.417747541332	166.412531416366	0.0442075277414204	-46.4796437578443	
18716500	-0.285112834831353	-44.7848477642643	-54.5852272933592	121.340170990534	-54.5464057466987	121.326852787738	-0.30769487823254	-46.7439317332026	
18966000	-0.647452111103013	-46.329651092405	-60.6326379985657	106.397821781396	-60.6912037840072	107.418377843589	-0.692606124501187	-47.3862642624559	
19215500	-0.778817794094348	-49.3223592684313	-50.9961279305654	83.0708207519762	-50.7202472453002	81.0472341540399	-0.973505793864019	-52.3618369755613	
19465000	-0.554264626870463	-52.0341354444155	-43.1262118320243	-15.5549802458981	-43.1141894104012	-17.8130081402253	-2.04185918080397	-48.3236460235328	
19714500	-0.156125888528041	-52.9638137025649	-56.2360442106112	-92.6655960854258	-56.4462388957827	-94.8517904580578	-0.262204507286826	-50.122014862926	
19964000	0.00967965917073017	-52.5497991459714	-74.325130319229	120.868384883603	-75.666719362403	110.364059231935	0.0397960695706403	-51.2530783217636	
20213500	-0.0587825336141921	-50.6920319107219	-52.1998567636939	40.2091656265697	-51.7974131587191	38.0933861948388	-0.151791961230683	-52.0298564852131	
20463000	-0.458336985748979	-50.9448977525655	-37.4266608643412	-45.2594359453576	-37.2984852368949	-47.294084307648	-1.90111067659004	-50.4606491288333	
20712500	-0.849139160556952	-52.8426495481862	-41.255098196545	-154.120152180844	-41.2530238958708	-154.401435193317	-0.830769405370449	-47.4925719902712	
20962000	-0.951919066552968	-55.5101585167181	-43.3276277300123	158.942104285165	-43.3390213207283	158.760445690104	-0.767566624158599	-52.0890015362451	
21211500	-0.635415115246156	-57.0112104828114	-44.0944315856297	117.905982983671	-44.0657994430708	118.248519934026	-0.472338008858016	-55.0453785851038	
21461000	-0.180889522605524	-56.7634371461427	-44.2506283934981	78.9078174897819	-44.220421359354	78.9100197612692	-0.0944915789489625	-55.9578569923044	
21710500	0.0230381840893594	-55.6467256840827	-44.6810659691017	47.8427336438493	-44.6595209043316	47.3336396435853	0.0462639000826736	-55.7539299632269	
21960000	-0.149688962711079	-54.9179250614238	-44.1127158424149	23.3098577008637	-44.0510995476462	23.3385962076015	-0.185064657285173	-55.9404005770951	
22209500	-0.543085513063279	-55.6905991302058	-41.6054602549834	-0.474895792605407	-41.4255852878611	-1.05842728741306	-0.763005002957274	-58.4206255779695	
22459000	-0.835319108811341	-58.3572452334817	-36.5053968553343	-40.5085715633941	-36.3807425390735	-44.3656139616296	-2.08005302253835	-63.1065671032092	
22708500	-0.753111509076557	-61.4917928967114	-35.5001583847612	-116.857879130032	-36.0667649124305	-119.634309554897	-2.20301203839571	-53.0868891806667	
22958000	-0.437543195500503	-63.1745145187002	-38.9087140586061	-175.822313431424	-39.3746678553489	-176.274824311019	-0.838681278894014	-54.6971485847386	
23207500	-0.140941202815011	-62.3075948274802	-43.6831921036459	134.537387053614	-44.0008632427937	134.161118900241	-0.239537360528209	-55.6642479690591	
23457000	-0.0718912859094226	-61.0094329917012	-49.4579718134713	103.016055334476	-49.8083371168488	101.313082588044	-0.0471075037130826	-55.0517771794106	
23706500	-0.378797736720525	-60.7710454152773	-54.1465043442608	80.4068296188452	-54.8850355783903	79.0878575770643	-0.235882001992759	-54.9615041256559	
23956000	-0.838987983865569	-62.4758544721745	-58.0044631188969	52.2755883244888	-59.0393149160788	51.0505519661947	-0.611948959345425	-56.3209402412228	
24205500	-1.12900315613209	-65.9505039423618	-58.5911602725854	6.17841924933593	-59.326448189748	3.2339173780674	-0.803513305746653	-59.2601233157137	
24455000	-1.12937398826814	-68.8461991128132	-55.4251268927991	-47.796246979954	-55.6487506369784	-52.0853042647263	-0.632743569174436	-62.0216890804618	
24704500	-0.957589181412112	-68.0697740263241	-51.3121101921112	-111.801528610537	-51.3562764343353	-112.977664290692	-0.227841375669014	-62.8519808485942	
24954000	-0.435283084089785	-65.0028254129931	-51.3065820984245	-176.585315797146	-51.2998030475847	-177.366070143565	0.045210609589501	-62.1216030362535	
25203500	-0.400290404055101	-66.2043388095032	-53.5565957632983	-163.090625817107	-53.5400604866948	-164.43098275942	-0.00302411373350837	-61.0277873175851	
25453000	-0.99365571475435	-65.1148224547206	-48.850499000531	150.656201074572	-48.8198431357217	147.473680649742	-0.33380566375882	-60.7555386319806	
25702500	-1.40073882753424	-67.1415951935077	-49.5819026264896	115.49329127656	-49.6306289631249	114.554559905034	-0.706725233120106	-62.5350336532274	
25952000	-1.58643473025163	-71.1891127078932	-50.8674825705759	91.6204479446643	-50.8012434295893	91.1760595074454	-0.80624011321286	-65.5632571406148	
26201500	-1.57086991842769	-74.3567770546137	-50.618243328231	68.5827506962373	-50.731077110237	68.01913292397	-0.576499479533474	-67.9387497709332	
26451000	-1.76045308327735	-73.656515830083	-52.8535499577874	58.9752764335663	-52.7564539418914	57.0878519746698	-0.114762922283342	-68.3537761164417	
26700500	-2.07535877427522	-65.7455469467033	-51.9706901823391	46.5024974470234	-52.1666935288177	45.1667520780097	0.0849386803334208	-67.2946925292395	
26950000	-1.55431838443501	-57.9315069027501	-52.4549320645517	25.7576189553111	-52.4040951439706	25.4053560332087	-0.0513756990437357	-66.1716570793937	
27199500	-1.23448108786879	-57.7464850174438	-52.8249195384917	9.62818380454993	-53.4824016804575	9.22332174367591	-0.446380853523114	-66.2471472477957	
27449000	-1.22893815712786	-61.2130293112064	-53.4045565772008	-3.38446833099408	-53.5982425191946	-2.95175129391014	-0.763427970511669	-68.3909049579604	
27698500	-1.05843630946102	-65.4858167987241	-54.0948621751333	-17.9817237714994	-54.5333514485222	-16.3999291484314	-0.747664905967501	-71.3588077121468	
27948000	-0.569422501548797	-68.4437963653353	-56.5574134447142	-13.790756017002	-56.1444182084195	-14.7171057124222	-0.409579616160217	-73.3531632271709	
28197500	-0.144205887114063	-69.0979995177566	-53.3180477059332	-17.4603864119964	-53.5697603975932	-17.0281898136566	-0.0482084325372664	-73.2687530922506	
28447000	-0.0355661701321513	-68.2340750785251	-51.4506079990821	-35.4149640378064	-51.7161228566719	-36.862372364776	0.0403168832176234	-72.1392237200986	
28696500	-0.294401555298983	-67.5628004857709	-50.2089551195834	-56.9301038272023	-50.4170475118882	-57.0604147089158	-0.206687685479296	-71.2707936268113	
28946000	-0.719481142392878	-68.3156975311479	-49.2712764888883	-80.4189224638452	-49.3205949150369	-79.7766251434492	-0.622405140632119	-72.0489977624716	
29195500	-0.9477768388084	-70.8272988066075	-49.5558335628096	-105.800894448314	-49.4874604057016	-107.531129290009	-0.861445582216765	-74.6793262623381	
29445000	-0.764608397659757	-73.7791779549949	-50.493757152576	-127.159885798761	-50.4096517871568	-127.554622610254	-0.7128981250943	-77.4981674095464	
29694500	-0.303704989378356	-75.0570705878208	-51.7831575354776	-141.602731696928	-52.1127075864383	-141.791574643262	-0.35883766480335	-78.7616848350556	
29944000	0.0292512916421454	-74.4000780763187	-52.4178326624743	-156.900372593245	-52.6758230432674	-155.774968959042	-0.0627143035955241	-78.2150712825214	
30193500	0.014030837575262	-73.116015768764	-52.9807880474879	-167.523841530116	-53.2138796670266	-169.486655755553	-0.123700852549217	-77.173047990326	
30443000	-0.317919557063239	-72.7109055573639	-53.5624104340683	179.696395533903	-53.3947609707122	-179.545595216274	-0.508532733929583	-76.9449032447793	
30692500	-0.725046338521038	-74.2965095564965	-53.3550871481443	171.057164709488	-54.1084732807276	168.569322502318	-0.939876120732579	-78.734302463971	
30942000	-0.879834408802263	-77.6020245668729	-54.1791325990199	161.809876682001	-54.1490001739527	159.309726406319	-1.11075675216261	-81.9486501423501	
31191500	-0.611832712646154	-80.4936999273619	-53.6912910079064	147.722053886626	-53.5454606536725	148.778727396451	-0.863739338603357	-84.6686477346163	
31441000	-0.177329596324127	-81.26386762794	-53.1841506179326	136.841082180578	-53.0205309755154	137.21227951197	-0.495036699499193	-85.0457389236557	
31690500	0.0477484168500398	-80.1857947481746	-51.9036357780912	122.848611193807	-51.664298461783	121.653299726536	-0.296811504183291	-83.9953782185909	
31940000	-0.0812190236953243	-78.9007088636797	-51.4892581354417	104.14870814022	-51.236295842013	103.977211171043	-0.50996103037071	-82.796050278507	
32189500	-0.493897980922416	-78.906645653876	-51.6894631694715	84.3694957382438	-51.3816470604086	82.2332809127469	-1.01928982026325	-83.1213772351444	
32439000	-0.870483034354879	-81.1251686605798	-52.0909823360554	66.6789860537105	-52.2952811107847	64.1878898698846	-1.52357365411353	-85.9224283980823	
32688500	-0.879149647535619	-84.401496659165	-52.3703583507646	46.5446085579284	-52.5461555416288	41.8680364601804	-1.90077729853057	-89.7781794884234	
32938000	-0.545787321706655	-86.4576313721857	-55.3193995109544	1.00319590436936	-55.3609166325568	-1.10280081136219	-1.80354319087547	-84.5059115509369	
33187500	-0.174980690361674	-86.3548812812017	-62.2951968644677	48.5884112148296	-62.3097650411326	43.3624139513955	-0.454053105505041	-88.5237769281916	
33437000	-0.0822495250943686	-84.9511294570264	-57.9260151376066	68.2419788129327	-58.0940698983709	68.836997037303	-0.535287290005173	-89.9906284077548	
