!Keysight Technologies N9923A: A.12.45
!Date: Tuesday, 05 August 2025 19:54:48
!Timezone: (UTC+08:00) Kuala Lumpur, Singapore
!Model: N9923A
!Serial: MY61181427
!GPS Latitude: 
!GPS Longitude: 
!GPS TimeStamp: 0001-01-01 00:00:00Z
!GPS Seconds Since Last Read: 0
!CHECKSUM:0540262124
!Correction: S11(ON U)S21(ON U)S12(ON U)S22(ON U)
!S2P File: Measurements:S11,S21,S12,S22:
# Hz S DB R 50
2000000	-0.10796066479272	-4.18889358543711	-76.6805051351456	82.1544561066413	-75.9032459935474	70.0663116472613	-0.144298476833861	-4.05558983833048	
2249500	-0.429636432726627	-5.19800131756117	-64.4392940215865	58.111338687358	-64.3966381716236	56.6279145930334	-0.460691169044391	-5.1093198147767	
2499000	-0.567974376330113	-7.20417714754954	-59.6093925324642	-78.2801380022493	-59.4558096146162	-79.1747406868519	-0.604217711516179	-6.85909315923003	
2748500	-0.399024499285507	-9.14925454965854	-70.3326609185942	-130.603227149422	-71.3445502504207	-131.234378126809	-0.429228407112852	-8.91066867650971	
2998000	-0.0665592559376431	-9.90132864107119	-74.823109647256	-86.077781728463	-74.9735071718365	-77.1896713773969	-0.0999880601808813	-9.73012585916399	
3247500	0.142460836190706	-9.53040945625556	-73.6509729387388	-113.022029422981	-70.8570250445068	-109.746401339767	0.100483456040069	-9.27527818862934	
3497000	0.0786952634798054	-8.90282209388951	-70.8099211199161	-115.061916385244	-70.7188171167429	-120.361845896094	0.0313088225765939	-8.68391115650653	
3746500	-0.227835665166006	-9.01155552887593	-68.4780658426612	-126.542799426464	-68.932647416849	-122.71662555984	-0.26741385517458	-8.76058545280142	
3996000	-0.538288194502617	-10.3381975983648	-70.9440161280515	159.139428174961	-69.5761380370432	165.50599045458	-0.553737049843607	-10.1303878412387	
4245500	-0.560871965008488	-12.5104765836881	-82.3468840300002	-83.4897743185749	-88.47772841488	-173.87475121822	-0.588700768770713	-12.3534020677681	
4495000	-0.300498548511774	-14.1646683046232	-77.1771015292942	-99.9542054078624	-73.1258570898755	-95.6021389475038	-0.336753807750424	-13.9766918889914	
4744500	0.0196727598886796	-14.4224605012402	-73.0560594937854	-114.17572638705	-70.2623182779135	-113.991554155477	-0.0169393607163824	-14.3146824146593	
4994000	0.141639539156794	-13.8481994451016	-64.1353390981859	-120.490131765998	-63.1024807642746	-118.461588562406	0.111625319593445	-13.7212026032499	
5243500	-0.0133406580296933	-13.0415625265263	-69.6872609016161	-128.698450545794	-69.8667094023316	-127.415183799944	-0.0496294839138923	-13.206523686967	
5493000	-0.361081094902306	-13.7293399619652	-60.1484867312133	-129.634221430749	-59.8455511969983	-128.303926364014	-0.387249332362331	-13.7208225709482	
5742500	-0.660720536731671	-15.7273954893661	-50.5961885138386	-166.892374241558	-50.8340206528928	-167.492080332606	-0.62129063724749	-15.526645128594	
5992000	-0.604186908970373	-17.5773244777248	-48.4799226423618	137.636300616812	-48.555395602264	137.928131010397	-0.55640571669569	-17.6794247895506	
6241500	-0.204259339731053	-18.7666949821722	-50.36610403277	89.7221076725055	-50.4250642072033	90.864912759143	-0.265584179881735	-18.9930587038	
6491000	0.0807830323005443	-18.7151523972334	-54.097192579987	79.0440867764945	-54.1839356656483	78.6612299559828	0.0427932662616227	-18.6951224978584	
6740500	0.116270069787321	-18.0368206362448	-49.5949200518179	65.8324751921808	-49.2291754443001	66.0170677258596	0.0571163221312506	-18.4841276361904	
6990000	-0.156221673554966	-17.6768594433271	-40.1332776660592	-75.1356621445542	-39.8528221260996	-75.7405160142026	-0.480505359836463	-14.2172908572556	
7239500	-0.542969144965011	-18.5822650787141	-66.3439833433403	-113.745098635683	-66.0594188529996	-131.101702209999	-0.490383452119083	-17.6845457094294	
7489000	-0.674387837659094	-20.4909634598631	-65.9994970980646	-32.7140548629683	-67.0212023073923	-20.3383252322614	-0.641985265747183	-20.1661381259817	
7738500	-0.489375423081927	-22.5697197602178	-61.8027138220204	-19.6317340304102	-60.7079288914513	-20.389350718934	-0.497693540497716	-22.3067918981164	
7988000	-0.13279053851987	-23.209337862915	-60.2782651092886	-59.0021986637583	-60.328454460837	-52.9367915874758	-0.143381491175722	-22.9823353726708	
8237500	0.128035555393845	-22.7132616697168	-65.3143833798221	-99.4867263296	-64.5091189966505	-98.1369081720282	0.095762648275945	-22.4450305184642	
8487000	0.0796100177745727	-21.9571959607203	-74.9599144929932	-118.079751724099	-74.2640242564065	-111.044403101046	0.0430927549406768	-21.5922675223626	
8736500	-0.233924231409935	-22.0455136285018	-79.2687794398975	28.0091967874043	-84.9827922791742	26.8186054663385	-0.255261105651711	-21.5272445387709	
8986000	-0.567061250041079	-23.6974805255466	-64.6399753950581	42.8292462478958	-64.8072372527054	44.3746293421755	-0.574945171247045	-22.989409260105	
9235500	-0.657699037023152	-26.4825640466489	-53.7030974306954	28.6700705387701	-53.9908299509177	27.3815521937717	-0.63674441281231	-25.3743038597078	
9485000	-0.470372259071936	-27.5906859804935	-46.4447387423623	-60.8182575541714	-46.4393169929812	-59.1604432848462	-0.399946529070197	-27.2197328967246	
9734500	-0.0247460137143788	-28.0530692888749	-51.4241379510279	-102.009298806201	-51.3067877308047	-101.537227471872	-0.0504958515665554	-27.6099533672087	
9984000	0.140263200556249	-27.484621289658	-53.1196692249025	-115.270371324278	-52.9105149663576	-114.46942735835	0.100593209975809	-26.9255698527373	
10233500	-0.0190773241306004	-26.9731582432055	-53.0198749228354	-123.438163548731	-52.9984683530372	-122.895534697776	-0.0509311686766383	-26.2845101480127	
10483000	-0.389283782415253	-27.7130723660502	-52.3826160522647	-128.794881705246	-52.511915629613	-130.04715352559	-0.42416130779047	-26.7879092680492	
10732500	-0.687122664438903	-30.1544661678645	-50.3283691046308	-128.484381915156	-50.7884775473411	-128.210577546891	-0.714740687631366	-28.5674511559146	
10982000	-0.705504262444937	-33.5067530386145	-45.8464196392321	-135.97772244607	-46.0789407329527	-133.793730138798	-0.672177217380137	-31.2306010797079	
11231500	-0.636921550749761	-36.0542143915653	-39.6804391946326	-158.938522926423	-39.6834699800608	-158.866230698801	-0.412837396030981	-33.15875228794	
11481000	-0.951521510056087	-33.7724316842545	-32.1395230404919	143.327303046673	-31.9830471539381	143.961946435284	-0.282153918024169	-33.4689938701838	
11730500	-0.706532093896144	-28.9258892665737	-36.3516400709284	-5.29421812369054	-36.3040753122274	-7.13253643701117	-0.177893158714463	-28.4135684203426	
11980000	-0.576084400030257	-26.6737049567604	-43.5928855021748	87.8519800759613	-43.695314640624	87.8835314601416	-0.229781248860088	-30.8078110676274	
12229500	-0.686259123566332	-28.0185142167117	-37.5060641889612	40.7654436244054	-37.5976858426113	41.129404888877	-1.11459777341219	-32.891956493462	
12479000	-0.80438322160252	-30.976357497094	-43.0620582082478	-60.2029446649909	-43.1215326898748	-59.0021491842609	-0.886769907330776	-29.7801079645091	
12728500	-0.608911806647327	-33.9483633778253	-58.6431058975662	-92.4045833235551	-58.4305255470157	-93.6628206523572	-0.558111365413814	-34.2192068671185	
12978000	-0.22349739649163	-35.3329180953129	-57.5806627197291	78.2149605639979	-57.9156855636875	82.4715200808446	-0.202349547450369	-36.2483753324277	
13227500	0.0486562717541158	-35.0664772963871	-48.8359282376471	60.3653126499766	-48.9387771855432	62.5072295060908	0.0218400692038446	-36.5006968722684	
13477000	-0.00442330394254236	-34.3224141504226	-43.2378805148163	40.116077203033	-43.0409076587478	41.5137103497319	-0.0777863845359566	-36.4089165454003	
13726500	-0.386006496865198	-34.3215186823988	-37.0405876725717	10.9691271479185	-36.8421448007395	11.2847517584826	-0.554969851052955	-37.1945368991543	
13976000	-0.858238829030348	-34.7617196911047	-31.2796620902329	-49.9613406857255	-31.1450615041777	-49.7572413253379	-1.33445542958444	-38.3657040195463	
14225500	-0.771992416736521	-36.7953200963961	-32.6352843639328	-120.674219256545	-32.5530418811946	-120.525911932148	-1.5312350794611	-39.0808307773481	
14475000	-0.457695275383645	-39.3876163708276	-36.1723245694962	-169.675177567112	-36.0165955579083	-169.532450412297	-1.50159036486824	-39.5437722064214	
14724500	-0.0952727704692361	-40.2134979714965	-43.2417167250466	156.012697532321	-42.9994819541874	154.846384393938	-0.989774965198196	-36.3518033469392	
14974000	0.0198801968693871	-39.3238226552915	-42.8038472823782	174.876102142032	-42.9936612396299	174.588658559499	-0.307125056533616	-34.9110552158318	
15223500	-0.0936722454483786	-38.1119049450054	-43.2967318765021	130.880679215391	-43.2467136840289	130.867697542787	-0.18576662047891	-35.0279824405337	
15473000	-0.43813759821347	-38.5269850249608	-56.2635550812622	113.875458086125	-56.5248336635543	113.468090425515	-0.513246053704583	-38.1462617550194	
15722500	-0.80188121819502	-40.9446730340592	-39.5812728954849	120.757744917934	-39.4591057435322	121.2216630198	-1.35086933472233	-35.929089517836	
15972000	-0.763392132881194	-42.892937043359	-46.2117192001869	34.6812310066651	-45.9856775071186	35.0511045165759	-0.964060062381297	-38.8836152258664	
16221500	-0.351227404336981	-45.5869972027432	-52.2419857453336	86.8223310730207	-52.1151726400479	85.1734822732175	-0.558129513590504	-40.9694727570403	
16471000	-0.0533837071461899	-46.3889242473317	-48.9346066542634	79.8689240946625	-49.042502382673	79.6832579007571	-0.134043450409659	-41.3365904968904	
16720500	-0.112510344609724	-46.3835158652302	-46.469749976218	62.8231434226907	-46.5027148136585	62.3592307231121	0.0265103560897828	-40.6480740392896	
16970000	-0.880568287477117	-46.3113508130854	-43.2385352770127	31.8154030984896	-43.2538565444013	31.9320697144805	-0.150520320682031	-40.1153391411597	
17219500	-1.72337131891155	-40.1798435075127	-42.4928635673619	-27.9507748395656	-42.5403621534109	-27.8104344455381	-0.502778330832206	-40.9958358504078	
17469000	-1.20025150242793	-40.7605813144006	-46.924568212696	-74.0183734762058	-46.8787406791593	-73.4933078679369	-0.729076185635871	-43.373485203813	
17718500	-0.814665225468759	-44.4910128339931	-51.3689233829335	-104.581197173247	-51.1860982163307	-103.442818680753	-0.614809904014485	-46.1262329194535	
17968000	-0.348605489022839	-46.4916109754367	-56.5780112255649	-138.28435109796	-56.2672393046755	-136.288052753189	-0.258648373918223	-47.6105730143652	
18217500	0.0148029262802357	-46.4532509802438	-63.9600985677333	-168.426907224145	-63.9698959196515	-166.90730134925	0.05443694142769	-47.4839641094156	
18467000	0.0515242319886293	-45.5325842394688	-74.4879119976283	143.287978926414	-72.0157644327483	153.627624004579	0.0344593347612281	-47.0967276920853	
18716500	-0.225644721839598	-45.3516795314151	-63.1309194591355	32.0253503879241	-63.1255720456723	32.3152064033786	-0.702242888699098	-48.1189130977074	
18966000	-0.594610943727409	-46.7829738752415	-65.7498761061784	-59.4349961175027	-65.8328234155632	-60.8554815058316	-0.782513987320778	-46.2328702589503	
19215500	-0.727730033145271	-49.649854613049	-56.9108560138162	-54.2963418130057	-56.8043420698965	-55.5585847662412	-1.18003563279871	-47.032292700994	
19465000	-0.508070522768162	-52.2413770120034	-57.7421527565511	-84.0042864261539	-58.226631780572	-84.6288420163944	-0.695893396069607	-49.9335345679232	
19714500	-0.11723381272715	-53.1318639964688	-57.6577346498741	-103.656532157984	-57.6546402490393	-99.5462467040575	-0.24916924751399	-51.1698566124822	
19964000	0.105662731437893	-52.4766884337588	-56.3846000208476	-119.154297868881	-56.391837874563	-118.537645516404	0.0175432487617918	-50.6776915971662	
20213500	-0.0635026404057548	-51.7972224323335	-52.3337095599523	-124.261866341464	-52.5323096160433	-124.390090494156	-0.0642178615379857	-49.8026582440385	
20463000	-0.569083367575098	-49.5852904591479	-49.6228256317239	121.151915732335	-49.6167787723191	122.054911599115	-0.37285845612031	-49.5346671187001	
20712500	-0.694065544565666	-52.262298149126	-60.6817875861491	147.484393002324	-61.9254960430517	151.718811607088	-0.69822922735277	-51.2860252586274	
20962000	-0.722528486339945	-55.4982360076844	-56.8917019475293	145.728777723084	-57.1452929297787	148.119926964071	-0.72778017896857	-53.9906473336582	
21211500	-0.425169177938863	-57.6860532676688	-54.4517704755871	120.356934403469	-54.8581464907067	119.865943104088	-0.451700489846916	-56.1228060580474	
21461000	-0.0441148969538682	-57.8587466910183	-53.3266150761659	86.6310016143698	-53.6234402701002	89.4476838056777	-0.0851822164160159	-56.480571319067	
21710500	0.0934969051293572	-56.8478104368221	-53.6272002160058	60.9074432776452	-53.7282786443688	59.8743749789044	0.0629492194118693	-55.7156905554515	
21960000	-0.111953349535122	-56.127539760796	-53.7272477520278	39.028165915898	-53.8878203759436	41.0916881066471	-0.11332089511541	-55.0585107178707	
22209500	-0.514548188135934	-56.8815567114694	-52.6753213646699	21.6155513104328	-52.6588790085144	21.3142873285698	-0.496942353051428	-55.7842177501901	
22459000	-0.804647979036518	-59.5194508666507	-50.4501330022664	2.85675318456109	-50.4794940445367	1.43299407446701	-0.757766630306501	-58.2459092646827	
22708500	-0.7400544963281	-62.5983873325236	-46.9044016252158	-26.1978502014736	-47.0625522321598	-27.5362234404706	-0.698284688217512	-61.1005078215317	
22958000	-0.411413373243622	-64.0857409478719	-43.9580993180045	-71.247927213426	-44.2835968460067	-71.3164919014471	-0.377452871409393	-62.6038785776894	
23207500	-0.101445314245235	-63.7409181015132	-44.4326926127227	-118.254716687781	-44.8455657361732	-116.757644699192	-0.0529902104225839	-62.3485575534131	
23457000	-0.118567663561639	-62.7998112896449	-45.8067262691684	-146.045590711965	-45.902623651656	-144.315242404176	-0.0265769970673519	-61.7049160128439	
23706500	-0.50586085333015	-62.6444278486186	-45.7125250089183	-164.123905424848	-45.8948177508115	-161.917802536493	-0.351560998015312	-62.0090926262056	
23956000	-1.0480469020548	-64.2759455862635	-44.1847189989186	-178.601347199897	-44.2613649915254	-175.7174239238	-0.856459813179716	-64.3532749650948	
24205500	-1.42451962475508	-67.3141775482366	-40.8858750238713	160.216838380027	-40.9125431844141	162.619669046934	-1.27485518007708	-68.7986519492652	
24455000	-1.4368553711833	-69.2554016005094	-36.780527365077	124.048268663929	-36.773522592669	126.488370381608	-1.66140906775515	-72.7497574285841	
24704500	-1.11419357398602	-68.4560309531779	-34.055215056791	69.3169289211973	-34.0526929961941	71.776121231402	-2.27214387347546	-69.7539992462767	
24954000	-0.791515214376603	-66.5298936643134	-35.1892392652797	9.61995928543662	-35.1034290343925	12.4411037849722	-1.82305895699457	-59.3061095985028	
25203500	-0.877631754654272	-65.0145691798166	-38.5821857623864	-33.9325711785109	-38.4002653733843	-31.2651403981299	-1.02629990848143	-55.8085476156476	
25453000	-1.39905390342016	-64.3201181162859	-42.0434738410323	-65.8604389654557	-41.700574189516	-63.8488209022213	-0.920526309044408	-56.1206514081392	
25702500	-2.03669765762196	-64.5000437733299	-46.0498091528997	-93.1625255977726	-45.7713479325847	-91.4925762968014	-1.08856051223387	-58.8891531394069	
25952000	-1.87407683095942	-65.8630580803404	-46.4796348115074	-75.8500235103767	-46.2964735201254	-74.9152840750528	-1.07667846985898	-63.1625587342484	
26201500	-1.63698613553267	-67.2657532183277	-47.998756785219	-102.359340621875	-48.2282575095006	-103.581057361631	-0.97989759507716	-68.2081260740712	
26451000	-1.03964325067214	-66.1330395882641	-46.5097682261981	-136.006617867276	-46.3166399801911	-133.870875238749	-0.550565125868888	-64.7442373857619	
26700500	-0.631356232508577	-64.3009183920564	-48.9782280003928	-160.72389286368	-48.5999234335332	-158.81043065501	-0.147725445528876	-64.4068191904199	
26950000	-0.614982099338753	-62.8590106616823	-50.6256981235813	-177.203449209241	-50.3366115885382	-174.857913999118	-0.208693390429942	-63.6472906977706	
27199500	-0.896761062373539	-63.1973644153956	-51.8003218663872	168.637907360277	-51.5368268535882	170.778671825355	-0.561197242257234	-63.9419863174286	
27449000	-1.15180723178122	-65.6747846186543	-52.3765891527539	156.840486310798	-52.1770409524113	160.600085326589	-0.860526710392437	-66.2372824949094	
27698500	-1.09265537941056	-69.0190290161102	-51.7784756051519	139.134359356618	-51.6395515104353	137.053827380649	-0.839245056488951	-69.3694877266066	
27948000	-0.736147131813715	-71.0782208650699	-52.2799755929096	101.006617273653	-52.1159110200956	102.763276075267	-0.494272273941139	-71.5612483213295	
28197500	-0.279023554832377	-70.6601608541687	-58.4698780386487	100.931511190084	-58.5031158834797	102.708863776248	-0.122470883718517	-71.6623864135647	
28447000	-0.153489800408092	-69.7567884781201	-54.537287906961	98.8749150103254	-54.2248303626071	101.077435232576	-0.014742840259891	-70.6741914769703	
28696500	-0.428067794310599	-69.0457976479731	-53.3291502490692	68.2216221114097	-52.882764615597	68.3805531834152	-0.24017813224708	-69.9026094657039	
28946000	-0.856347381614717	-69.671121017477	-53.4550084068204	33.7915444303009	-52.9179027830514	34.7381714299973	-0.641626760717224	-70.7710366070378	
29195500	-1.07656925799014	-72.0556962693196	-54.838057727681	-2.0995114464028	-54.4830291280033	-3.43151088604012	-0.881909147722308	-73.4758988693699	
29445000	-0.890057811226527	-74.8537620347935	-56.6993971075632	-39.041935379562	-55.9443679953188	-34.0498431656504	-0.748443767149146	-76.372409374045	
29694500	-0.432275013531053	-75.9586161513029	-58.2515290267916	-68.9485224323964	-57.2622202233272	-68.0439359492934	-0.399864176004646	-77.7904362771459	
29944000	-0.103209502094382	-75.1963435487796	-60.4177625246508	-91.041731253889	-59.5016728470487	-86.1950945354948	-0.108810470636582	-77.3115393371381	
30193500	-0.117480151203995	-73.8714096777438	-58.8774517308095	-129.035898953441	-58.2039077505924	-124.015420579499	-0.164729244010968	-76.572397268031	
30443000	-0.441503089835792	-73.4607360329472	-57.3060037280627	-157.788724631822	-56.5572336378722	-153.976096629215	-0.569420062748163	-76.6775546229415	
30692500	-0.836341408657246	-75.0429326211154	-54.766710234582	179.372051873296	-54.4966656465602	-179.771166352857	-1.05604816624236	-78.9392445639359	
30942000	-0.982143253812749	-78.302993078614	-51.823347401833	147.301941114004	-51.6743703643	152.529331663326	-1.36827867470923	-82.8710349917274	
31191500	-0.715265280259875	-81.1570466573983	-48.2114105078992	113.048544680336	-48.3017931078601	117.415075020188	-1.47852978247778	-86.0132955347196	
31441000	-0.292028603178139	-81.9088993035545	-48.1348974024585	68.5430939378511	-48.087547075336	72.9466134016665	-1.32217610559876	-82.1448927694731	
31690500	-0.0834533614301948	-80.8273479458138	-42.8240889239353	52.9700849229503	-42.7571714048547	56.3982984387422	-1.21740931647005	-81.8593888100793	
31940000	-0.226294601994079	-79.535005015589	-41.2173815292074	-5.22245223396994	-41.0503431677527	-2.2335163148995	-1.45852416030373	-74.5980297117931	
32189500	-0.647672399111896	-79.4612084859238	-43.037029472054	-52.2930659346256	-42.7001239347409	-49.9607304090232	-1.22157762937582	-72.2726156500362	
32439000	-1.01486003468006	-81.5423952424016	-45.3832267168936	-84.3262109666246	-45.1751190676888	-83.7433851985822	-1.22631665228015	-75.0717700200197	
32688500	-1.00195491231247	-84.6716592031994	-47.6465549002318	-106.329141788869	-47.611289437932	-104.272068273416	-1.11899044843111	-79.2796606661934	
32938000	-0.651814497104756	-86.6351558103059	-49.4203222191944	-123.24849131914	-49.3602699068957	-120.080918044649	-0.704917134258383	-82.6847657273637	
33187500	-0.265481844452567	-86.5248007707351	-50.8870701382918	-137.030811552863	-50.8669298510371	-135.489879384521	-0.251567074636909	-83.754866857013	
33437000	-0.155372630096432	-85.1689380634963	-51.7480300049913	-151.445836107697	-51.9712840642652	-147.950732287663	-0.0838114225105039	-83.399333887801	
