!Keysight Technologies N9923A: A.12.45
!Date: Tuesday, 05 August 2025 18:42:40
!Timezone: (UTC+08:00) Kuala Lumpur, Singapore
!Model: N9923A
!Serial: MY61181427
!GPS Latitude: 
!GPS Longitude: 
!GPS TimeStamp: 0001-01-01 00:00:00Z
!GPS Seconds Since Last Read: 0
!CHECKSUM:1624133780
!Correction: S11(ON U)S21(ON U)S12(ON U)S22(ON U)
!S2P File: Measurements:S11,S21,S12,S22:
# Hz S DB R 50
2000000	-0.0684834812454599	-4.55075518243124	-71.6090974602568	-95.1726600921517	-70.8651444838176	-103.344329810487	-0.0839408721608597	-4.54004287610265	
2249500	-0.311599344588956	-5.42066025647248	-67.440550795091	-109.548878982869	-69.6840895370161	-101.02155345504	-0.316917374828393	-5.35628052169412	
2499000	-0.417438940119893	-7.0999159058517	-60.7201064391704	-123.581496047039	-60.5245567679552	-119.977334411375	-0.416454545108536	-6.93473951129343	
2748500	-0.312305686387083	-8.50456931222785	-46.0992282041277	126.713274270803	-46.1454108745654	126.858467965537	-0.328774444483798	-8.21862610519532	
2998000	-0.0488552824133675	-9.36551695770439	-52.5831976173782	43.9663518903795	-52.5033688338463	43.0526967163784	-0.0377703457743415	-9.06160406803925	
3247500	0.131963675321687	-9.11945680813276	-57.7462833417331	44.7862441261182	-57.4746791440065	46.4894039237898	0.110391562152454	-9.07310005477298	
3497000	0.0804389295149683	-8.84994150474613	-49.1463668441119	-5.58767026211693	-49.1072383015066	-5.61609405993262	-0.0229493155929702	-8.76942224785663	
3746500	-0.160411654216378	-9.16458129338758	-48.9254680421285	-91.755754248818	-48.9091103205581	-91.0944706226968	-0.206234031953489	-8.56629193188322	
3996000	-0.434293680167779	-10.1185522431049	-52.2716470451549	160.111518464009	-52.0112498501223	159.421751319338	-0.404793146720114	-9.89179119794064	
4245500	-0.417285515605411	-12.1298966613089	-70.974838419563	107.337275261922	-69.9920288853886	115.863747938895	-0.412855878085495	-11.9342738636718	
4495000	-0.22001804262985	-13.8159845544895	-75.9138928066809	-123.545120938873	-73.5352221709716	-108.800674056945	-0.216594805093722	-13.4776748202699	
4744500	0.0179652407247607	-14.4460218419326	-63.8981453095365	-129.381125246803	-63.5674291832523	-128.321784927158	0.0307364889405292	-14.0309317202882	
4994000	0.0423070618759055	-14.3431442883718	-53.5468286429383	-164.396108190332	-53.6238686498508	-166.104571913149	0.126563543408488	-13.8467668824561	
5243500	-0.0453653354663792	-13.246123450125	-53.5956883105599	105.74043871135	-53.4322156978762	104.898122164973	0.0001427674159696	-13.6972374686086	
5493000	-0.266476892232143	-14.010909752788	-56.7951376512597	77.2433539773404	-56.8231992464828	77.2052909975183	-0.262615929490354	-14.3666867998462	
5742500	-0.444854499820521	-15.737176647771	-56.4806208070711	62.027068893094	-56.5102152770417	60.5666846537565	-0.438469830815717	-16.0169414998053	
5992000	-0.391624861281999	-17.7314903438471	-53.3119356897002	43.2527591129385	-53.0547984841533	42.3881267435546	-0.405635765219549	-18.0330491661957	
6241500	-0.149834626509683	-19.0190615611689	-46.5418899546295	3.60350159560339	-46.5760389072979	4.5644437453639	-0.283469665796426	-19.2713101308985	
6491000	0.00225601653111877	-19.0205760869578	-43.9241257969985	-102.293156225027	-43.7551940357471	-102.788569982833	-0.0608394093267482	-17.7405994389061	
6740500	0.0095800024095872	-17.8648953814285	-59.8530089970485	167.140226781926	-60.5488255389435	167.15097662869	0.104750065834027	-17.8062859062491	
6990000	-0.111393736269219	-17.7561225411511	-49.9127682251083	-105.887822814727	-49.9513428009104	-105.030269192926	-0.181746490129467	-18.4739002858297	
7239500	-0.392570816318919	-18.8187343299679	-47.8495987908291	162.944242307903	-47.705860140528	164.23809578615	-0.518694099398354	-17.8339460748932	
7489000	-0.530688910787578	-20.5482647238071	-51.8051219495988	116.827062612879	-51.5005625750081	118.33913190644	-0.504825078778549	-19.659598817022	
7738500	-0.38376786009903	-22.2830214162502	-53.5700567263596	91.6614669205371	-53.2441630836794	92.1370544292989	-0.350143398334392	-21.6098467444496	
7988000	-0.109900565420894	-23.3312850286659	-52.6959617368861	69.0509768318065	-52.5843104619552	69.0988981988908	-0.0753987717474272	-22.6283661414339	
8237500	0.025680588095942	-23.4050734361916	-50.0308835418669	40.4693083873324	-49.9223413220929	38.5216873046843	0.110972150946499	-22.6576735059104	
8487000	-0.11127011953386	-22.4374575418577	-47.4633400936062	-15.1620384341975	-47.4539562545845	-15.9140046470183	0.0616780708608823	-22.4309318252915	
8736500	-0.262102780129509	-22.0597118722792	-49.196411104689	-68.1960175606855	-49.2685254877222	-69.418822639386	-0.173349916563316	-22.8046520803437	
8986000	-0.45617042916971	-23.6150341390378	-50.6386056377223	-97.9795118109807	-50.7080188156925	-98.5721382693496	-0.425141495419084	-24.3657888239208	
9235500	-0.492584218714207	-25.9875648271716	-50.1493092254336	-121.036669394208	-50.353991266711	-120.527273984607	-0.488461018225346	-26.6154389795047	
9485000	-0.310234824578543	-27.9227655979935	-47.4401065327975	-150.680768773184	-47.6932435955035	-149.740159517059	-0.357719324646075	-28.5589959009616	
9734500	-0.0970550947597505	-28.6182772569393	-42.8745774794105	162.33734294133	-43.0631164684183	164.560227534738	-0.247688066402663	-29.0206220878429	
9984000	-0.0851663268089004	-27.9445304721785	-39.961132993164	84.1253406734604	-39.8817869336257	87.2299185280377	-0.243322585982223	-27.0426234869101	
10233500	-0.217362885736506	-26.5167430901179	-42.9959622519984	-0.551923804764454	-42.6827300995955	1.17352551782593	-0.200029068542441	-25.5465461439559	
10483000	-0.38198789181113	-26.7573932132916	-49.0244718107083	-61.9758720375619	-48.9756017887023	-60.4689983103962	-0.333922842049735	-26.0578523757835	
10732500	-0.545536693660211	-28.6657725117478	-53.8462987055253	-106.093433088282	-53.9301607847694	-105.824277195665	-0.477465016146351	-28.0330865483243	
10982000	-0.520151758344083	-31.0202846433867	-57.0101193468852	-169.564097134275	-57.326811283103	-167.447385570171	-0.435833916074009	-30.490389398555	
11231500	-0.331388131927541	-32.31910817963	-53.192018861478	92.7761272284987	-53.4020296119904	93.4424973303522	-0.245126341913379	-32.4418103597465	
11481000	-0.110979125904835	-31.8966699356663	-46.2552510735227	-45.0450082260955	-46.2591772096434	-42.5248742817452	-0.277986139919545	-31.9966155507069	
11730500	-0.0123164373528654	-31.141777639778	-52.773518918191	-150.211546014234	-52.4270503447679	-149.561712828947	-0.0210119391836426	-30.3578110102924	
11980000	-0.191188399419406	-30.9053425322816	-58.8729408479229	163.15775968205	-58.4359974832394	163.182957545044	-0.124717470346032	-30.4769752019292	
12229500	-0.46906503882456	-31.7558890090066	-61.9122265726422	146.623015475631	-61.406649062449	148.87172319955	-0.373715466115092	-31.6857934769845	
12479000	-0.602435251887734	-33.8295254429968	-61.5785021412905	125.89387213913	-61.0382116778476	126.081862658824	-0.509987679324026	-33.9179216550548	
12728500	-0.484170590926884	-36.1512270354093	-58.58480194119	93.1484747982732	-58.8391189713721	91.7173735798028	-0.422677093506211	-36.203697757277	
12978000	-0.238391006814144	-37.3770626513718	-55.3927172266347	54.0816944081863	-55.4047601850028	54.7013453899603	-0.187239873684214	-37.5515524503573	
13227500	-0.116239685332329	-37.2014275771996	-51.4183568700469	3.15774871714282	-51.42175161837	3.46954554834483	-0.0844300315983807	-37.6953636073371	
13477000	-0.236430080811657	-36.0820647749071	-47.6320820833777	-70.5172697902583	-47.6654620015634	-69.3318508534246	-0.290523769925697	-36.9677707756921	
13726500	-0.451976765934519	-35.4039299490457	-46.7203359512671	-162.55017659394	-46.611538055261	-159.978581020963	-0.600256250373268	-35.2314850946371	
13976000	-0.64763113798804	-36.5404380139819	-48.3708868067849	110.168745476513	-48.2662739357873	111.461669868065	-0.653794957647837	-35.5709149654975	
14225500	-0.692523416921286	-38.9951249744948	-47.3378106691164	34.0107012921315	-47.4207368025176	34.2186515670467	-0.587654902312285	-38.1049048432063	
14475000	-0.572878119437652	-40.7171868244676	-42.7909909027035	-50.3508120429674	-42.8176900354731	-49.518586997867	-0.409815711001661	-40.5970401206004	
14724500	-0.237544097863861	-40.5070737211412	-41.1877097227729	-152.915146415467	-41.1707166510421	-151.498473810984	-0.326780070614687	-41.5181391196663	
14974000	-0.0478739284018275	-40.0863873007188	-44.5788313306196	122.292358955523	-44.4542660140978	123.499170263851	-0.219028566227418	-39.2304347176574	
15223500	-0.163496379482074	-39.5142362793244	-48.9117502361634	65.356009994091	-48.9126610561339	67.1452075958881	-0.163057830970271	-38.4478633794122	
15473000	-0.43384702619391	-39.6723178776359	-52.6523623744047	21.3521742329197	-52.3662401899424	23.3161298154218	-0.369991468096025	-39.1642494063084	
15722500	-0.640246302502858	-41.4712195069272	-55.2847600018697	-16.2733224870259	-54.9204306442618	-16.3672133136918	-0.568939226422807	-41.1002173277727	
15972000	-0.615285049623327	-43.967230219175	-56.4484248509543	-53.7471332319307	-56.2441288871489	-52.8346342612621	-0.551048099651967	-43.5312259774318	
16221500	-0.384547468876555	-45.7892566457003	-56.9397707829336	-92.8373732428482	-56.9857128718721	-93.4294053693188	-0.318887650541855	-45.3186224458581	
16471000	-0.184810609594713	-46.2610878871598	-55.1659606361572	-142.215775870098	-55.5092210076044	-141.013844678099	-0.087097853494283	-45.8557503558406	
16720500	-0.238198433329266	-45.5466894020344	-51.9399801216736	162.399267104383	-52.3201800396226	161.589496763166	-0.0787542427687542	-45.6494189578571	
16970000	-0.511925009919494	-44.1977951341395	-48.6763269819811	98.1138430378065	-49.1305422516973	99.0073505250303	-0.369725967690874	-45.4847177698867	
17219500	-0.75386328944286	-44.0842143451165	-46.6893861636476	31.9772054519228	-46.9889687187629	32.1946619756108	-0.813655416098009	-45.9808554521976	
17469000	-0.83720157083931	-45.9820898205393	-45.9119112182045	-30.5423343495322	-45.951080324501	-29.8051960531657	-1.09512825885435	-46.6728826685001	
17718500	-0.698415592687651	-48.3465041372593	-45.8540185468416	-86.2766618776145	-45.8295621820225	-86.2329157422661	-0.93024143052335	-47.4381357974864	
17968000	-0.426607194279802	-49.6708440257901	-46.0363379207723	-137.65725086931	-45.9306350359023	-137.810784058457	-0.499826671839559	-48.0253668019111	
18217500	-0.228501870975777	-49.2334934948793	-46.0254930298831	171.832319690838	-45.9793100589182	171.724031178252	-0.138897971660467	-47.8535873903203	
18467000	-0.20962719915759	-47.9361345606617	-46.3081278626312	122.972896802311	-46.3530549296561	123.204849370154	-0.071072304516277	-47.4258748257669	
18716500	-0.373297407982841	-47.724622860466	-46.3112593034754	78.8058859786936	-46.4773072991455	78.9014822512458	-0.26321409949227	-47.8074302389185	
18966000	-0.616598819906831	-49.1376634619442	-44.5299807791032	25.8531342369782	-44.7339571599254	26.6560809619372	-0.642139170992969	-49.7791803174828	
19215500	-0.701585238020547	-51.6504046778875	-47.5945806943816	-61.7954566929274	-47.5596237694337	-59.9013750638763	-0.895214558262137	-50.3756771630918	
19465000	-0.547106955084441	-54.068946975357	-57.5159133437489	-95.4905915320366	-57.2409554919146	-90.2566034961813	-0.58112511288281	-52.3381003159719	
19714500	-0.308837050937523	-55.1820386955535	-62.2333999861335	-57.7203995211494	-61.6695775660222	-59.2730388550597	-0.247887412673107	-53.5443882464144	
19964000	-0.265761821309972	-54.8060933992445	-55.4456304326556	-48.1865247550354	-55.1889312104532	-47.8198954876374	-0.0687514147267705	-53.5876042325669	
20213500	-0.522937890015399	-53.4011294686055	-49.0427221389632	-82.8696439523727	-49.2820597910394	-83.046257406954	-0.181540364552821	-53.3803111275511	
20463000	-0.825751668605942	-52.3425005374966	-45.2881852096544	-129.370170891192	-45.5212583090024	-128.885356833791	-0.524704373263748	-53.8159038218776	
20712500	-0.988630149876127	-53.4387792146427	-43.1231529008613	-176.211505359263	-43.2416079617584	-175.05724355461	-0.885841304012447	-55.3858197254596	
20962000	-0.961126290544556	-55.9201085352035	-41.6275285235537	136.3978496003	-41.6886817184038	139.033548646493	-1.02592513841326	-57.0620309008511	
21211500	-0.731074799852451	-57.7246036714241	-40.6063163303241	88.5877743315088	-40.5543136426759	91.323945246065	-0.870404710808725	-57.7193431359301	
21461000	-0.470503126990018	-57.7175755159895	-39.9996807755735	40.6257732827538	-39.8712122602926	42.9179942530887	-0.536834721291527	-57.0107440396294	
21710500	-0.362800774765774	-56.2492461876608	-40.4661758142539	-9.2802015411369	-40.2854226488232	-7.58167534495787	-0.336475361081654	-55.8401392527466	
21960000	-0.42795518609008	-55.2172307320773	-41.9589945164254	-53.9466532708507	-41.7438111680981	-52.655176193875	-0.386507141462117	-55.0779052589845	
22209500	-0.63843473587017	-55.9124684129469	-43.4534327185083	-90.5146329257952	-43.2442480882717	-89.3561980134758	-0.609109940606713	-55.6771236757155	
22459000	-0.807068696627963	-58.3594555685661	-44.0380495993998	-122.329903976338	-43.8915530078157	-120.96170211557	-0.753349556214835	-57.7549892104367	
22708500	-0.760090708865882	-61.1972394393112	-43.5307835243668	-157.517365082157	-43.4171855532787	-156.118734907052	-0.677249721722228	-60.1980858456307	
22958000	-0.566998759385553	-62.545923087551	-42.896980258904	153.823988457937	-42.833026533243	155.088328145442	-0.423798422433318	-61.7202728675577	
23207500	-0.322783649015655	-62.0032895214016	-46.4164364580584	101.784026260955	-46.4027190374238	103.412242119514	-0.181516731384035	-61.743764612349	
23457000	-0.370580444830366	-61.2724742064617	-48.5316885567378	111.434364163032	-48.4582490421676	111.895352515241	-0.180247153403406	-61.3851183991516	
23706500	-0.690591625867204	-59.9594608402534	-41.5018651714605	72.6179288490143	-41.7273361340789	74.4887213628168	-0.487893697466175	-61.4072737456526	
23956000	-0.921613962600917	-60.4065864809913	-38.8163720035938	1.39196422290343	-39.0200165145319	3.55726207511416	-0.883692542824095	-61.9651372075237	
24205500	-1.04618653529071	-62.4075359164131	-40.361086138546	-76.4647699662603	-40.6798567992574	-73.7554179519896	-0.957921500841826	-63.8355593785858	
24455000	-0.819682101180085	-64.2861482038569	-45.9381530554648	-140.086400177181	-46.4095797971851	-135.88034428095	-0.837790678996573	-66.3601614732791	
24704500	-0.458150554619636	-65.2991169747547	-54.4627548802846	176.078373786521	-55.2559136922615	-174.619407370582	-0.647954445277308	-66.7490176373003	
24954000	-0.247650105753713	-64.9299747102473	-63.3938752665313	-144.994673760484	-61.3985006476365	-135.190894042846	-0.494935580672608	-65.2221961786585	
25203500	-0.303985148583889	-64.0734574287207	-56.2889807418476	-145.756766037292	-55.3301979826257	-143.5043102456	-0.490686918340776	-63.6471546652652	
25453000	-0.565681774866154	-63.8295019063693	-53.7246176958953	179.650022275237	-53.1761214985957	-179.198034476048	-0.661828265466589	-63.1928119043228	
25702500	-0.817817169750557	-65.2978254843398	-53.1488185139287	143.539285260143	-52.8517592073272	144.533204097953	-0.8626875059071	-64.6745074362071	
25952000	-0.836611468961815	-67.9430411150714	-53.1238163251937	110.661352021936	-52.8897894902036	109.870413256179	-0.878216498752185	-67.1125436888495	
26201500	-0.605473934327357	-70.0922066572679	-53.7180231448879	78.5875088639659	-53.4401543795401	79.8428246901905	-0.620484112446258	-69.2087002330608	
26451000	-0.306343477323368	-70.6777048408259	-53.5304198461751	52.3854135300438	-53.3492331703712	52.7517052579621	-0.305887599559404	-70.0097447776766	
26700500	-0.229741101037205	-70.066734680386	-53.4175678600338	24.3740851265512	-53.3616454139477	24.6201353432211	-0.173608718426181	-69.5336969553631	
26950000	-0.451588753234499	-69.0605227942822	-53.3106806130734	-6.9397427712011	-53.0157896913279	-5.04496369562995	-0.322624809676009	-69.1322091403463	
27199500	-0.818334929303205	-68.9279646795982	-52.8992817196791	-45.0442495159508	-52.7324886957629	-42.0719671181319	-0.690003707840739	-69.6322857081666	
27449000	-1.03438287973797	-70.2753929027309	-52.6470298094419	-80.4016150395185	-52.2821117933151	-75.5445819668521	-0.999427676049463	-71.5867039974525	
27698500	-0.961338016907807	-72.5298838951023	-53.2534651223674	-117.865239344412	-52.4490732329706	-113.464885935406	-1.06625318188331	-73.7866044679001	
27948000	-0.645071494861764	-74.099611365221	-53.2196425783778	-160.329039226527	-53.0964274577418	-154.591995406614	-0.876945184789761	-74.8853625174483	
28197500	-0.354045572991273	-74.043599501919	-54.0731012449511	154.911539814275	-53.3449523910927	159.727985415988	-0.612337608688765	-74.0911397460191	
28447000	-0.321710540972425	-73.0671869151264	-55.0208996966654	105.834533815719	-54.0585235682988	113.086617738874	-0.499619660876356	-72.6221733661165	
28696500	-0.553143176857575	-72.3585443289755	-56.4371864152639	59.2588947593107	-55.6422094266394	67.2198680519499	-0.613679345055333	-71.674650334778	
28946000	-0.86339300905704	-72.9238084544172	-58.6404135094974	10.858830900165	-57.8314359900904	15.9970130515142	-0.855491693822499	-72.331251139159	
29195500	-1.00351236549545	-75.0439866130797	-60.2473602415579	-40.6772092928434	-60.6265503708094	-34.4933126017666	-0.973013832381114	-74.5448413125073	
29445000	-0.851690202826225	-77.5452343598099	-62.6151649541685	-90.2083979393971	-62.3503685496941	-76.5873231127944	-0.813974047415607	-76.8818921898512	
29694500	-0.513771703549061	-78.7055103899995	-64.5775561276958	-143.449620328702	-66.4312200154786	-122.520328850442	-0.516928150470466	-78.0883715874336	
29944000	-0.310549587566478	-78.2568767050296	-65.1979617479212	142.194555863814	-68.666142178795	152.098391991037	-0.27545950614558	-77.854843915917	
30193500	-0.396695919196618	-77.1386049290489	-62.9390154062234	68.0945747800402	-65.1844793029756	69.9314090693113	-0.324657218885341	-77.2284035154077	
30443000	-0.693884938221715	-76.5213636814073	-59.0201265920436	-5.35293566240091	-59.9492471372112	-6.68934993170643	-0.653801013430622	-77.0512258434149	
30692500	-0.992792164033295	-77.4335259510985	-60.9021580427787	-93.243848509307	-60.0425729982814	-95.0532743827344	-0.939599020306854	-77.9892719190725	
30942000	-1.07476275624447	-79.8101201662487	-60.2550096326298	-90.1781712212782	-61.21135082768	-94.4792286052571	-1.09773377247479	-80.6927372021167	
31191500	-0.840215356516381	-82.0498214030602	-57.1164587372061	-124.965279311982	-57.8276468507013	-124.715577593381	-0.96786521473767	-82.597354442931	
31441000	-0.499216873980201	-82.7651626641982	-55.149768299691	-162.961203623887	-55.7102551277997	-164.971707498702	-0.695218967340508	-82.6656594009995	
31690500	-0.344715898301233	-81.9767868750255	-53.875035430145	156.953875848006	-53.8574491090011	157.0441428238	-0.508156736802174	-81.3603104346085	
31940000	-0.475985104979713	-80.9031639775447	-52.8836373603146	119.461918384166	-52.9855427865794	119.435611538496	-0.5646911195237	-80.0950564484984	
32189500	-0.811544312476063	-80.6955773079785	-52.616229551299	83.9272010873143	-52.8330004130553	83.464123021627	-0.817291095055996	-80.1068569498902	
32439000	-1.08808092373362	-82.2006517619328	-52.9342262006528	46.9674526986944	-52.7693500959675	47.5520623212072	-1.02711999762896	-81.8372807585822	
32688500	-1.068601196558	-84.6036738464436	-52.6765401447863	14.3092713140437	-52.6760770785595	14.3856124252353	-1.01159513967261	-84.3441907754126	
32938000	-0.801389889251472	-86.2102305970358	-52.8097571212965	-17.9082687811988	-53.0624897196895	-17.9949590247594	-0.737653142393369	-86.3288366261833	
33187500	-0.500867496021869	-86.1815951835385	-53.1551768962476	-47.5927921814629	-53.313467835636	-49.0115995923297	-0.431329605469664	-86.5798712804023	
33437000	-0.40155981110721	-85.0596099413218	-53.8507364459856	-84.5580851691568	-53.8723818145025	-83.7325383226911	-0.352354636154444	-85.7706741338805	
