!Keysight Technologies N9923A: A.12.45
!Date: Tuesday, 05 August 2025 19:16:02
!Timezone: (UTC+08:00) Kuala Lumpur, Singapore
!Model: N9923A
!Serial: MY61181427
!GPS Latitude: 
!GPS Longitude: 
!GPS TimeStamp: 0001-01-01 00:00:00Z
!GPS Seconds Since Last Read: 0
!CHECKSUM:1296963178
!Correction: S11(ON U)S21(ON U)S12(ON U)S22(ON U)
!S2P File: Measurements:S11,S21,S12,S22:
# Hz S DB R 50
2000000	-0.0647528013208147	-4.06706130631444	-66.7556085554147	84.1315299999587	-66.7703412056184	81.8555601749201	-0.070504564123591	-3.92944400739101	
2249500	-0.343919707949003	-4.95053266975777	-62.7031706027307	47.4845011436954	-61.9197876981153	50.0637262662268	-0.367074615694684	-5.00446091252945	
2499000	-0.468302212818359	-6.82098491561456	-66.5621783509363	-37.9366040946331	-66.5494850410561	-33.1936345578274	-0.47706251156379	-6.46678354303485	
2748500	-0.333250940491972	-8.71978948869598	-71.2206569974589	-22.2568228696459	-72.9616722505826	-9.2259619361526	-0.320728432706651	-8.5002612895457	
2998000	-0.0498816494356666	-9.29972479211865	-66.5830497252602	-70.8500694623991	-66.7975846551056	-62.6347743960942	-0.0344237150449126	-9.4638170198941	
3247500	0.154214679989113	-9.26381380943773	-67.0733026248361	-99.8553963977253	-67.5409699364731	-94.3783219810809	0.139829173177433	-9.37426644885584	
3497000	0.0928766084407583	-9.01673298316342	-63.8770307555426	-118.912836121228	-63.975906737966	-120.470329587235	0.0831670472393509	-9.02148828080477	
3746500	-0.2283925078989	-9.16318392680664	-57.4393172653168	174.96226675431	-57.4138816332541	171.434107297443	-0.17441187746873	-9.20585417674853	
3996000	-0.444709482980685	-10.4891181127824	-66.126791990811	99.3559260062906	-66.1004420958015	98.08457482559	-0.424063943126853	-10.4926780006083	
4245500	-0.467536797627933	-12.7003067902783	-76.9052298636837	102.54570813557	-85.5152610552277	123.914272109761	-0.520180817660414	-12.42444124471	
4495000	-0.242204033259171	-14.3901073074524	-61.3129297913093	131.885708081494	-60.8186157765918	133.116668898058	-0.293621520001125	-12.9605971369882	
4744500	0.0102099235661068	-14.8355067421171	-55.1062416203664	82.8242710230249	-55.4040985095658	82.1176529057023	0.0445300980475605	-13.445658444177	
4994000	0.0742690175776534	-13.4656218810785	-51.9127119123611	-14.6784960838276	-51.7388127415414	-14.3038700227483	0.16086791215265	-13.2421700683077	
5243500	0.0197444839812949	-12.9604797279591	-57.5392687881191	-70.8574428867169	-57.4956170552399	-72.0500264880724	0.0227812919470646	-13.1201330168502	
5493000	-0.270429324647194	-13.5145644829143	-59.2609631709739	-96.5001325106175	-59.2485642276689	-96.2276955904374	-0.272045154827317	-13.9150633256558	
5742500	-0.487751152916364	-15.3194336899418	-57.6928088399122	-120.549286033147	-57.6721311609786	-118.334184799249	-0.470365831084327	-15.7918509215847	
5992000	-0.4501985086262	-17.6014732207793	-53.0142551899349	-152.767741278544	-52.7801425118626	-151.324573882291	-0.43102833115562	-17.9950517921733	
6241500	-0.233448960349441	-18.8572311893594	-45.7083155272043	137.960471903578	-45.7519085188568	138.443006906718	-0.24572253691611	-19.0752869548204	
6491000	0.0179155617133069	-18.3193466449438	-45.1004677863503	30.40965809623	-45.0152490129789	30.2542859922406	-0.0411452970321544	-18.3599420188187	
6740500	0.110966372003557	-17.8341624656931	-52.2089581104166	-45.2393776255962	-52.0855943784114	-45.0013573730763	0.0828339262290269	-17.2625824799552	
6990000	-0.09930000275199	-17.9448225473815	-57.3861048335344	-78.1764016875141	-57.3340036681328	-79.9430386359319	-0.0789281521685891	-17.2213700268202	
7239500	-0.431803842295319	-19.1274124365956	-61.1758365262062	-104.136183917428	-60.1023780900368	-98.1458417838147	-0.353133151599267	-18.3796016571914	
7489000	-0.579919698410575	-21.1475137012177	-62.7968692928988	-115.883223078603	-62.2981084397995	-114.594202191273	-0.485776235209559	-20.635561271508	
7738500	-0.422960916981623	-23.2269691508888	-62.6945474231596	-124.612172799646	-61.8459426920528	-127.261735750591	-0.365457668488473	-22.8489510562675	
7988000	-0.156672405313453	-24.2078944389957	-58.1233028668329	-157.112450967483	-56.8005404268152	-157.168140469092	-0.151297780247755	-24.0161174482044	
8237500	-0.0393172066798732	-23.1878993721364	-54.6651180624176	134.272483514017	-54.2791223799244	125.399967585577	-0.0605605413479039	-22.823551001292	
8487000	0.0166691491587173	-21.7902164577321	-60.5830639865656	83.4635058807699	-61.0985207030579	69.221792936589	0.0218716250560806	-21.7924982317126	
8736500	-0.197174151546938	-21.9487930692468	-63.4213658973064	74.0994597710089	-64.6210683224886	71.0943843677357	-0.182459711954161	-22.1699924760694	
8986000	-0.475319319811098	-23.5389594539476	-59.6111296454828	60.2266490660885	-60.3569970746569	54.1708492917646	-0.454929599247057	-23.8216756964459	
9235500	-0.561879182330931	-26.1259265503907	-54.231999395596	17.7573577736263	-54.8634359356776	18.8097897884947	-0.552092521094488	-26.1413199831776	
9485000	-0.43380373534446	-28.1143962755584	-48.9246509829401	-55.2135722698025	-49.136835345289	-53.4755706457972	-0.439443608944512	-27.4963842523328	
9734500	-0.205987383802436	-27.742880859665	-48.7389887347655	-150.4875250531	-48.9477802703451	-149.441669836541	-0.11111181034402	-27.2253283018925	
9984000	0.039973603429213	-26.7045907126196	-52.9099519531553	137.95559905752	-53.2543038291658	137.576613048816	0.0806325246165859	-26.6855624898992	
10233500	-0.03235805387024	-26.4685630251162	-56.3546935193369	93.8513862464222	-56.8711577702671	92.4794908818365	-0.024596306972913	-26.4391539758495	
10483000	-0.337487630711526	-27.3114329415466	-58.1311878378925	57.0275506360765	-58.038099420278	57.4353923859412	-0.328216119182141	-27.1650590806495	
10732500	-0.607464238372471	-29.4589805032586	-57.0441824437184	17.7646788328343	-57.2327679630511	20.859797490525	-0.577072115699041	-29.2302130053466	
10982000	-0.651483492658414	-31.8513397054971	-54.8717349172731	-37.7439910976284	-55.04357711302	-34.0717735269638	-0.604446040205077	-31.5617627925647	
11231500	-0.410463324088629	-32.5730617388129	-56.0419588214402	-123.727623628454	-55.8294533265641	-120.151762989858	-0.410238905607963	-32.5302547589041	
11481000	-0.075247116948349	-32.1885181718818	-58.5715267993035	145.179272295075	-58.8361872832715	152.303657092656	-0.12164372666979	-31.7887868083578	
11730500	0.00205476127930035	-31.2627326530829	-60.2050643436557	36.8262144100316	-60.8430230209447	41.9768907846789	-0.00189283159448016	-30.7927860350483	
11980000	-0.173505999843148	-30.6274603463487	-60.8742494216175	-51.1611545892885	-61.3183349341923	-55.0818232550198	-0.154504949565077	-30.4570914988788	
12229500	-0.47517997143687	-31.6085102662666	-62.1848875484972	-112.261774287335	-62.1226563312655	-108.499249341784	-0.436448840291051	-31.4701029994756	
12479000	-0.663118398501669	-33.9075748912059	-64.4236861659039	-157.242019928943	-66.0587899148226	-157.566674921853	-0.593235610669957	-33.7448474415294	
12728500	-0.576874453656863	-36.2720756120872	-68.8443268477333	147.892518060277	-68.8574277424904	144.688053177147	-0.498963933425297	-36.0920734511072	
12978000	-0.313176108696887	-37.0615025064615	-77.6758606486753	-1.99575008666238	-76.615267097809	-12.5735059923268	-0.249740720860734	-37.2380564043302	
13227500	-0.0767125925356432	-36.2569705156381	-62.6684954690226	-124.043373294543	-62.5888760651617	-122.723731527058	-0.117594533610356	-36.7162808114516	
13477000	-0.060325291731464	-35.3836902885665	-57.3122570756218	170.821789059642	-57.1989347216056	170.847390852845	-0.185387885891668	-35.3839356647687	
13726500	-0.300474872949567	-35.5586767564538	-55.3387843983523	113.063404647453	-55.0206315415476	115.977677854744	-0.39626476277021	-34.7606956620092	
13976000	-0.619535415130819	-37.2493907043133	-53.7448225387017	64.5364121566512	-53.4353240558518	64.9884647872061	-0.621110107715742	-35.9686879990112	
14225500	-0.772582461669956	-39.8091877122182	-50.7592623969146	9.01387288790333	-50.6358362740391	11.1629517624611	-0.652851596256296	-38.3377092576878	
14475000	-0.615988211219132	-41.0417759446146	-48.2482395034498	-62.416331686343	-47.8641079895995	-59.6236738963775	-0.428660137122113	-40.3412779502152	
14724500	-0.204811678639452	-41.2324847339504	-49.4267929921625	-136.647042396022	-48.9994949914708	-135.67148549771	-0.115055980117609	-41.0109540425506	
14974000	-0.0726556277741311	-40.6029470447492	-51.3926051953876	167.011446411472	-50.9766358787816	165.06189701568	0.0263164876881018	-40.6890118653005	
15223500	-0.192453869801657	-39.3742326397915	-52.985478108174	121.30406025006	-52.5470517535645	118.980975039747	-0.151774842250009	-40.1473063458153	
15473000	-0.461651896038191	-39.495212978622	-53.1136053902447	79.8844256527046	-53.2726260385022	78.6950735219722	-0.537831566455871	-40.3743365368997	
15722500	-0.713549228840119	-41.5484677271497	-53.3121771056104	38.635964197211	-53.4029888094113	38.9911706907742	-0.843073589063474	-41.5902642116427	
15972000	-0.725185660289245	-44.257629087698	-52.9541862920138	-3.35676047642922	-53.3306280936857	-5.01893639464311	-0.812067861397801	-43.2911684686644	
16221500	-0.50160717262164	-45.8870079622267	-53.3882989112327	-45.2693405773047	-53.6395086719691	-48.2368824717169	-0.47933134927448	-44.4814842422562	
16471000	-0.244679112878525	-45.6009513500019	-54.6513607558251	-89.0833080496165	-54.7761474091276	-88.1919194550825	-0.130610731338931	-44.5473183988261	
16720500	-0.138030717016692	-44.3486170744031	-56.3801581921958	-127.78914334221	-56.0733242876685	-128.329859459654	-0.017770847024507	-43.971476431205	
16970000	-0.29021142810795	-43.6764052981941	-57.5980615071538	-159.039750438779	-57.562490897972	-158.589875584636	-0.21112460334972	-43.7019773917921	
17219500	-0.609121841618642	-44.6159314511516	-57.4178979946692	177.368640886669	-57.7413159759482	177.383176938193	-0.555627428321129	-44.7485794447884	
17469000	-0.825218091814743	-47.0055882601672	-56.505148988818	146.665013882555	-56.4098625703138	147.682860801146	-0.800491110038585	-46.9436715962639	
17718500	-0.764387521364042	-49.3410822696172	-54.3450406405869	105.360082233809	-54.1312231469644	105.557504692853	-0.757665810991411	-49.1152146883713	
17968000	-0.483318607500323	-50.1372013606845	-52.3401224345726	53.4283239731546	-52.3323133304943	53.7754222251198	-0.489554964854324	-49.7969715255663	
18217500	-0.194690603071132	-49.2881372057955	-51.8793790297218	-2.45592478997109	-51.8271052515707	-3.1966268851225	-0.213226667227824	-48.8849380965051	
18467000	-0.14473712195687	-48.1560016322612	-52.3769926951889	-56.7066189832764	-52.2218388485668	-55.9594615313648	-0.175826034339155	-47.6305746671961	
18716500	-0.38064743262586	-48.1043950680693	-52.6781445121157	-101.941491149868	-52.6667625664093	-101.043935910862	-0.380503081510915	-47.317152564128	
18966000	-0.719292883633121	-49.5829901308981	-52.5323966731337	-142.5616013698	-52.3621281495797	-142.216327194078	-0.668731678144179	-48.6363107063142	
19215500	-0.878144062636049	-52.1812633882754	-51.7380793417502	177.545859658249	-51.5985038509284	178.0860593841	-0.778744471430061	-51.1560617483898	
19465000	-0.749164509203511	-54.2286353992908	-50.7026061223321	132.457490192771	-50.7831514249626	133.599019527923	-0.61616597237633	-53.4875480519906	
19714500	-0.44506876943884	-54.4682106109889	-49.8635951337899	86.2480873484352	-49.9014106744135	86.5776786646487	-0.32081702057188	-54.3246044886279	
19964000	-0.229680044762581	-53.3274168117006	-49.7765561878295	39.3563888416875	-49.8129848985527	39.985191892177	-0.174843623973269	-53.6357972920067	
20213500	-0.305089679064977	-52.3186807654877	-50.5072399714486	-5.84916635833004	-50.3266261085436	-5.60622193285638	-0.304571506990056	-52.4490880477575	
20463000	-0.633875054709068	-52.6140284301793	-51.4420358420426	-48.3493712678659	-51.0233012498944	-47.3903642518141	-0.614126571391291	-52.0017750556859	
20712500	-0.975559036602184	-54.4579398892332	-51.6764833954744	-87.3519801013003	-51.4212807413972	-85.9181269573072	-0.865111049105433	-53.2531375682648	
20962000	-1.05832125806542	-56.82103209054	-52.0187607743448	-127.28744208196	-51.8527212893495	-127.274338093056	-0.84139317419826	-55.4875784750088	
21211500	-0.792220598225071	-58.1086001770596	-52.6291123074089	-173.185269286538	-52.4820623073173	-171.805933145159	-0.562069213247288	-57.3493540509778	
21461000	-0.411673309530611	-57.7001444500118	-52.5139594375341	143.062914421803	-52.574607396072	142.327373838098	-0.232149261534139	-57.7415598991419	
21710500	-0.223972588368707	-56.4674082191826	-52.1519697833317	97.537766567371	-52.1362525759271	98.4856654681115	-0.128437715521556	-57.1468954274783	
21960000	-0.365727351262499	-55.7963871091389	-51.6398823029363	51.503304132488	-51.3581401767389	50.667728571398	-0.329766040200201	-56.563838987776	
22209500	-0.72861898525245	-56.5016233690038	-50.5641527159576	-1.39627046488983	-50.4707159862664	0.243833653372581	-0.715359606214355	-57.0295300579577	
22459000	-1.02280667891727	-58.6198165928403	-49.7413676704455	-55.8103902778981	-49.3994306463715	-54.8422263690067	-0.965837137832146	-58.7849915808059	
22708500	-0.96009942562654	-60.8283174267452	-50.0599538641882	-113.208491595669	-49.9683331896821	-113.232081980456	-0.894025206838511	-60.777177109781	
22958000	-0.598734561693573	-62.002111797338	-52.5184588096363	-165.338679020045	-52.2283308742742	-164.774200093727	-0.568791587014961	-61.8212089951598	
23207500	-0.303387905351962	-61.7045626426888	-55.162207316613	157.914489268656	-54.9844182127589	159.630620009863	-0.261787113153931	-61.3546126800105	
23457000	-0.293366209232856	-60.3134685152793	-55.5494903334096	135.563638003635	-55.366261253711	135.336694097585	-0.205948335045757	-60.3562730244569	
23706500	-0.523592357501308	-59.4356520571001	-55.0500414132141	101.47353852952	-55.282502920806	100.976217525122	-0.433320758711622	-60.0638350562074	
23956000	-0.842398623380799	-60.3989989943684	-55.6856369260952	60.9920564491747	-55.5084464137702	62.314696599868	-0.77940297908929	-61.2414084408117	
24205500	-0.997071283359155	-62.9419519516134	-56.6225584523372	18.5391365799745	-56.5985418051587	21.4138452397652	-0.945866472611427	-63.7655348723022	
24455000	-0.831347891446441	-65.2410000302413	-58.6142679525671	-24.633490085041	-58.5498383035702	-20.4458611934487	-0.809283072004263	-65.9711804210415	
24704500	-0.47234268977569	-65.9088789568665	-63.4817797775256	-59.6204051724428	-62.2346207921207	-54.3997484357425	-0.489018193576753	-66.3797298687555	
24954000	-0.197609876605141	-65.0684437556339	-68.1188525747343	-76.2625978657987	-66.5604204049842	-76.5617232088424	-0.285645329199186	-65.3150530715271	
25203500	-0.207168591572355	-64.1147203535997	-69.5233553812208	-98.0902927098432	-68.2989585105393	-108.172801475079	-0.343708183952962	-64.0347451792189	
25453000	-0.499007162772029	-64.053557586025	-66.9718200879847	-152.003068087758	-68.2813623392726	-147.220756017656	-0.619056084920103	-63.6476799112583	
25702500	-0.832748523748791	-65.752658298647	-69.3960895468538	156.30063740251	-67.6652189951863	145.77351030798	-0.911230716291298	-65.2042905909066	
25952000	-0.91732483921148	-68.5500124375315	-66.6388710801525	73.8247201215328	-67.5753884807663	80.0804188397255	-0.971844875514168	-67.8213804008147	
26201500	-0.703228351989861	-70.5521303529601	-63.0831668298957	21.681934686	-62.3595608766365	29.3497534326126	-0.712158177215768	-69.9980406221503	
26451000	-0.372809918722606	-70.6235596675024	-59.8331093139634	-19.4693040683877	-60.0603824211702	-21.2378128721858	-0.385196543447197	-70.5966633718894	
26700500	-0.224205998910892	-69.4416901435716	-58.5743131463974	-63.4399409028911	-58.2244450732962	-66.9796728265286	-0.255850431719165	-69.6652887105613	
26950000	-0.368143051747451	-68.3313443274767	-57.3784236854481	-110.30545431975	-56.7246895095822	-109.542584252216	-0.417080569515421	-68.6615523928981	
27199500	-0.723152559350328	-68.7339030943215	-57.6021169380864	-156.827851273775	-57.4613485990758	-152.220793076798	-0.776825276880005	-68.6244553550006	
27449000	-1.00687596184623	-70.8248460989987	-59.3700696457191	170.475713304674	-58.7436909538442	164.917093285252	-1.02808891821047	-70.3306201644256	
27698500	-0.997502808692129	-73.4468618635338	-62.3429563079651	135.353909319176	-60.9066883788603	134.437516017254	-0.975840005508283	-72.6726341550323	
27948000	-0.680058084369425	-74.846868715385	-64.1195565591382	107.757437873788	-65.0645737607773	115.90349215227	-0.654832590770961	-74.2127114823272	
28197500	-0.33650130808364	-74.3457566086147	-65.5578122233028	109.253261022155	-66.2618692997586	105.148374506568	-0.330148375427384	-74.0137412943609	
28447000	-0.245325307416018	-73.0589519905348	-63.3746677677901	98.8302659995853	-63.3541335519364	90.8880016821777	-0.260587516069914	-73.0342314949006	
28696500	-0.463976254457922	-72.3854037138513	-62.8772566593195	77.7621950554283	-63.0143417764723	76.8324785541224	-0.495522581669342	-72.3689601470895	
28946000	-0.826177318933087	-73.2664536574716	-61.6279658214812	41.0180394366867	-61.3224171950019	36.194234188646	-0.876344706972926	-73.1831552759514	
29195500	-1.04771609885445	-75.7203709368567	-61.2217295012896	3.17742503944335	-61.6995670022927	-4.02724835225513	-1.09389924089036	-75.5168425624014	
29445000	-0.940804507389898	-78.2832514973987	-62.2227435561159	-35.6525334684383	-61.9263966341532	-34.1375367578361	-0.961800782989642	-77.8090253530304	
29694500	-0.589280185858997	-79.0731124770425	-66.2393117975926	-85.8120909266742	-65.5456279725919	-80.2073220225501	-0.633894406105347	-78.6539208772773	
29944000	-0.330159195682913	-78.0763838493808	-73.9622825273679	-133.657262295129	-72.8447416953712	-141.169437842442	-0.348039471547304	-77.848906527007	
30193500	-0.354652903141427	-76.6438321344251	-78.4540564973124	88.0683106659279	-79.3156136767461	99.3941702746864	-0.3586665732835	-76.6565851562776	
30443000	-0.641851577064826	-76.1501934786437	-72.1364953981763	-13.0068349205843	-73.03967604015	-22.6998582235243	-0.651460916299497	-76.2056402612048	
30692500	-0.990008715743228	-77.4560571162698	-67.1916806135628	-63.9649909466976	-66.9934945832332	-59.7005156255316	-0.982347219494118	-77.5272962186064	
30942000	-1.121720288088	-80.1543898640499	-66.0066384132287	-94.926593349424	-66.9321109162012	-93.2059715928543	-1.10682870033411	-80.1009478761373	
31191500	-0.880056016211151	-82.450359646095	-67.9874142869131	-131.220962093972	-66.3620137563756	-119.518240181237	-0.882140510350557	-82.3118073200642	
31441000	-0.482678384925321	-82.9586373212796	-71.2494896250112	-160.600823235592	-71.4010635808739	-150.678923777338	-0.535154411037111	-82.6980120810145	
31690500	-0.266726274901112	-81.9342211478622	-72.3589734338784	-161.336291097065	-71.6784946271145	-162.525705028623	-0.338321520725167	-81.5749222045996	
31940000	-0.367160092882467	-80.809937152946	-69.6182616098772	-174.806317112033	-67.4812822933013	-172.859171418698	-0.451651721045792	-80.3190038495275	
32189500	-0.725788710036537	-80.8115197215153	-65.687682188717	171.224322578291	-65.0323396292619	174.133903721515	-0.79407732417267	-80.2667094474813	
32439000	-1.0606847005999	-82.6388172165121	-65.070307825828	135.995779121407	-64.2458164576643	140.856517978358	-1.08575539277813	-82.0210811352729	
32688500	-1.08542247551735	-85.2630017444866	-63.7636088028259	95.5902741133358	-63.2054002949357	97.0960633948941	-1.10294726983804	-84.5969971583228	
32938000	-0.813420040732599	-86.805928214578	-62.3701118919559	51.5332442197524	-63.1714600794782	47.1941741835708	-0.804843149397573	-86.536170550034	
33187500	-0.481702710182162	-86.5200291967875	-63.2589843975402	8.96775462928304	-62.8203008640884	0.411095853313122	-0.456320619309094	-86.5449369665532	
33437000	-0.359917410089106	-85.1563442396898	-66.0560038992218	-31.2618698778921	-65.8099942208927	-44.5261168535638	-0.342961640554763	-85.4176544643715	
