!Keysight Technologies N9923A: A.12.45
!Date: Tuesday, 05 August 2025 19:06:05
!Timezone: (UTC+08:00) Kuala Lumpur, Singapore
!Model: N9923A
!Serial: MY61181427
!GPS Latitude: 
!GPS Longitude: 
!GPS TimeStamp: 0001-01-01 00:00:00Z
!GPS Seconds Since Last Read: 0
!CHECKSUM:1784133827
!Correction: S11(ON U)S21(ON U)S12(ON U)S22(ON U)
!S2P File: Measurements:S11,S21,S12,S22:
# Hz S DB R 50
2000000	-0.0622850778254705	-4.15915567106815	-78.2293270551819	-142.584053632426	-80.2284321162154	-111.783977711581	-0.0746182189979255	-4.1232051213738	
2249500	-0.331275609214551	-5.04158739339606	-73.9045803109246	-131.162863320139	-73.9022775733879	-118.777087967986	-0.334642482246692	-4.99003426600953	
2499000	-0.452309585703505	-6.87208275262331	-61.3238276130573	-172.776407818071	-60.7701555909458	-171.782620431434	-0.477972858847059	-6.78498080372968	
2748500	-0.321260745391793	-8.68146634156132	-52.5272919127464	80.8684440519139	-52.5549172590813	80.2632196792441	-0.341923565030485	-8.08227441018479	
2998000	-0.0458326693464575	-9.23386771235851	-55.3487702979893	-33.0883332369642	-55.3673553421623	-38.3461972873037	-0.0474340131927013	-8.96449398659342	
3247500	0.148404812702672	-9.22413616846397	-64.4171912815462	-63.3387638809905	-64.6026671293951	-64.0030645532685	0.130487917201342	-8.99553253682702	
3497000	0.0947341023814365	-8.89516873097753	-56.2706799092633	-71.5146493567341	-56.1775991199751	-72.6468159059722	0.0670204284294889	-8.81622526167885	
3746500	-0.180433084962324	-9.43199992860654	-54.8033410808615	-124.144175570697	-54.8014266306726	-124.221149693568	-0.181054693134509	-9.21273256492022	
3996000	-0.443167576983391	-10.3967574140239	-59.8735351864227	122.072286529804	-60.1456977063084	122.224661239329	-0.414722812100717	-10.5916854850875	
4245500	-0.449256972135479	-12.6118649108894	-77.1360814949763	102.100429872266	-76.8319067515756	102.731705067135	-0.437091971197185	-12.6291561673805	
4495000	-0.229417478454986	-14.285793852792	-68.0071196127416	-111.320539745405	-67.88810050969	-124.809516489892	-0.226235970813779	-14.1107617463004	
4744500	0.0174030637705511	-14.7958941425028	-52.1004043316238	-153.276806444607	-52.1636188498976	-152.00627523057	0.0152355943544141	-14.5572995114074	
4994000	0.0905454644140891	-13.5424747225693	-42.4662194450161	83.9295727508016	-42.4311283532434	84.5764001636263	0.060964934497651	-13.7851958134432	
5243500	0.00686617725867381	-13.0571801862035	-46.0555258533669	-10.1817865988993	-45.9402639532416	-10.4236229645716	-0.0965552834806633	-12.7762123431383	
5493000	-0.263257138781869	-13.5780239083396	-51.6500151423753	-63.6847714045349	-51.5271661618184	-63.865753127595	-0.303830003280046	-13.0738109938279	
5742500	-0.468279600421233	-15.34721700236	-54.5490710129933	-90.7590287722826	-54.5103739046902	-89.2355737280885	-0.46356220603266	-14.8092322957615	
5992000	-0.42681577506349	-17.5610755979884	-54.0255498302935	-114.764899771486	-54.2994041759481	-114.571106161142	-0.39951786991618	-16.9444933940032	
6241500	-0.236252868737747	-18.8955832289319	-50.9583192864124	-158.085877683705	-50.8441285733657	-157.072236093237	-0.157435210998766	-18.265745035725	
6491000	0.0115377755115139	-18.2207150213669	-51.3150150231969	133.56696692521	-51.4308068440774	132.053785284	0.0963214559631814	-18.5359041550876	
6740500	0.110885928830457	-17.8415781774923	-54.8113152330767	95.4408863515408	-54.6023910122498	96.1546264458799	0.122022496075192	-18.3038791045363	
6990000	-0.092744921231246	-17.9906189479863	-55.3275650956	72.0923683879973	-55.6699848360087	72.8938940844145	-0.10043206198834	-18.4633921737147	
7239500	-0.415720162058862	-19.1727031494875	-53.4897777691457	45.9275088282647	-53.4318395582205	46.4147420560321	-0.419299488432436	-19.7280595094329	
7489000	-0.564906610147036	-21.1193395600033	-50.1898027877214	6.42125462764361	-50.1756782326233	7.23077380763293	-0.662860306558915	-21.7373070786232	
7738500	-0.410531970897419	-23.0969200105335	-48.3677171548207	-48.3455062600732	-48.4382050374214	-47.7804471580329	-0.588197000958915	-22.2480170023696	
7988000	-0.143014803372849	-24.0724531781932	-48.131606876913	-96.301074618273	-47.8933479776958	-96.5180616406605	-0.170254761707468	-22.4510759889643	
8237500	-0.0304642133488311	-23.3019863722496	-46.9606427081453	-155.190004575703	-46.8219288395702	-155.29581877216	0.0962964509660783	-22.241678874147	
8487000	0.000316135226374426	-21.867084281739	-49.6054576250148	145.076041959502	-49.7008620929321	145.303322284887	0.0742638505791872	-21.7879951366369	
8736500	-0.196167413279785	-22.0172232889318	-52.9705987926837	109.965369547418	-52.9577031160902	109.191565794717	-0.16650769796831	-22.0193201294911	
8986000	-0.459312966461819	-23.5852947228489	-53.7749279494375	81.7717372506291	-54.083567014221	83.9788340794881	-0.432624853517882	-23.5448955720104	
9235500	-0.53812596145419	-26.1116454656544	-52.3592005249048	54.4676302523725	-52.5167375156782	55.4955158418923	-0.488437057284705	-25.8563085156756	
9485000	-0.411233443813912	-28.0901959366065	-48.6700557777345	11.2860815381231	-48.8801670922001	14.0981731774117	-0.307543714639918	-27.8681122614493	
9734500	-0.199556394327449	-27.7451569087283	-45.3484221127784	-57.7105986996282	-45.4216113900912	-54.4345606151758	-0.0728447886086883	-28.5831747062106	
9984000	0.0333770851061365	-26.7674199708267	-45.0177548291811	-131.537096003683	-45.0008563013331	-126.937681034679	-0.0508035843898819	-28.1958909608957	
10233500	-0.0420547402404977	-26.4918011647884	-45.4883203242476	160.618307236883	-45.3742627112937	164.724125618013	-0.281037791364296	-26.8696170279404	
10483000	-0.328752055417962	-27.2803764081196	-47.0872239440155	100.021079802613	-46.84392886704	104.623874552221	-0.487071162852658	-26.4050828619455	
10732500	-0.57983256502208	-29.3951224892254	-47.6260513899863	51.1992923073763	-47.3201365459765	55.0663043874954	-0.60338377855084	-28.0817457599506	
10982000	-0.613974169342196	-31.8062018840083	-46.3401899791105	-1.37440493496603	-45.9529707748054	3.12845985139512	-0.52192891133553	-30.4043861587215	
11231500	-0.398544343337868	-32.6497344782604	-45.8693306078724	-68.0412211449318	-45.1633700354636	-63.9133979214215	-0.240728426530383	-31.8795554527321	
11481000	-0.0982872921949346	-32.2011157403707	-46.7814640913225	-130.57273703239	-45.8093196838868	-126.018023682217	0.0391628003948026	-32.100437723774	
11730500	-0.00772114301510044	-31.156460883254	-47.8334772377177	165.367565350201	-46.7735973584224	168.185280959841	0.0703123782530165	-31.6418703164749	
11980000	-0.158737755848448	-30.670883368249	-50.0292295668655	111.451076782624	-48.9386976945247	111.03946841815	-0.153308178352899	-31.5652337898234	
12229500	-0.453506534835986	-31.7239370230507	-50.6841182428491	67.6357697378886	-50.218664155789	65.8529587561736	-0.538317659934485	-32.7603820834904	
12479000	-0.64194791160269	-33.9930851816884	-50.2382893392698	17.7793769151896	-49.6063273532529	16.0897327897047	-0.858589706635223	-34.4067293440363	
12728500	-0.563254456490305	-36.2763069928588	-50.3061277532584	-37.6484343614215	-50.0529197374656	-38.6149608388236	-0.757221351635584	-35.0533312523724	
12978000	-0.309832729469654	-37.0327437483419	-52.2750563115023	-86.37233125045	-52.1060376257738	-86.6545780477548	-0.300860088432467	-35.5934096002746	
13227500	-0.0794121163816491	-36.2533246753246	-54.4514788366513	-125.160674926214	-54.1670913089699	-124.123651314462	0.00255669495716051	-35.6139322362073	
13477000	-0.0607215474556891	-35.416746494286	-55.6496216549207	-157.362116143236	-55.5129170045487	-156.932865831392	0.00294683783893644	-35.3874364243581	
13726500	-0.288654948335065	-35.6101553825398	-56.3852523213902	178.287148549692	-55.9818295833759	-179.429690563962	-0.258137288912515	-35.6449233920781	
13976000	-0.595107361154603	-37.2931439527767	-55.4846498948844	150.857729901051	-55.0004259808141	151.438757994168	-0.577114693734654	-37.2231075134741	
14225500	-0.750883838309332	-39.8291203026764	-53.5886745041697	103.729485545397	-53.4048995890664	108.085047239832	-0.745587290910468	-39.3708393078044	
14475000	-0.606755254209801	-40.8904910754806	-53.5153087081	39.0642837178922	-53.2774455890666	38.8889373184172	-0.58570156072308	-40.2775403255472	
14724500	-0.199319211132011	-41.2461803276705	-60.9858551481769	-27.2331912428398	-60.2514343638891	-24.6351245704895	-0.188332923820644	-40.3693795612465	
14974000	-0.0835669488664167	-40.605281951074	-77.3977609121203	139.445688263054	-83.4243563008051	143.708646836542	0.0293623292731594	-40.1318276798958	
15223500	-0.189512552856479	-39.4415509672955	-61.0670076571893	48.7179728140344	-60.9554758782269	46.432854020043	-0.0948697619212098	-39.931945293035	
15473000	-0.45088772648494	-39.6060461133158	-55.8090387965713	-5.50846986403804	-55.6989899259736	-4.8812949023169	-0.467292084183937	-40.7155426713878	
15722500	-0.694705273253678	-41.5998575462884	-51.7862429898717	-60.9659527380785	-51.6778039598192	-61.2038192687876	-0.857706817341106	-42.295079499968	
15972000	-0.703445583188293	-44.2199866025115	-49.6126432450274	-123.639075603536	-49.4372638433695	-122.847620531084	-0.897336464153169	-43.3580099872707	
16221500	-0.488062493962593	-45.833293707297	-48.7576140931637	175.417865826799	-48.794380104172	176.81179184366	-0.507639015065285	-44.1857307775462	
16471000	-0.243239890343345	-45.5949600098567	-48.6187070266944	121.344349698804	-48.5762389457299	122.167741508663	-0.116141098657326	-44.4258902573301	
16720500	-0.142105406596103	-44.4061985500364	-48.8549468893436	73.728700832289	-48.7232495870331	73.8759040381139	0.00956616279951947	-44.1363901597601	
16970000	-0.289480355477761	-43.7744139400511	-48.8599259303837	31.5556736411201	-48.6738417329622	31.5911136058604	-0.192544855316307	-44.1300300426023	
17219500	-0.595773437446741	-44.6913478023327	-48.1782381370577	-10.4088717027344	-47.9929372401593	-10.0823210495776	-0.576846451043033	-45.306371934366	
17469000	-0.800850999863099	-47.0014304043745	-47.0121420096251	-55.8851113272009	-46.8299710034291	-55.6025996096806	-0.889625370438455	-47.2141960569768	
17718500	-0.738364992724126	-49.2848888950473	-46.607877948029	-107.423208713938	-46.4152990256387	-107.937017694752	-0.854277648230948	-48.6303416602022	
17968000	-0.471840604445041	-50.1144456462145	-47.2764170293409	-160.888563096583	-47.1162606261895	-161.554216151121	-0.497930517496704	-49.022682950848	
18217500	-0.203596310596818	-49.2936248333087	-48.9356565114832	146.484225654001	-48.7337172909979	145.348918822691	-0.150572880902985	-48.5184878960798	
18467000	-0.153132239367491	-48.1741612528557	-51.06363013593	100.473325484292	-50.7817119231175	100.349004886904	-0.103173337254491	-47.8444033227084	
18716500	-0.376401767595896	-48.1514320380119	-52.9132600782369	58.4606725515106	-52.9767342523235	57.8487612261639	-0.336641609498738	-47.9316212841356	
18966000	-0.698521330327261	-49.6349893976773	-53.9492324704872	16.6579295094381	-53.8003606984077	17.631217049057	-0.666524353886842	-49.3624507869299	
19215500	-0.847591250265521	-52.2016843511326	-53.9629127603946	-25.6637112740784	-54.0992177407211	-27.0501355900582	-0.833689569800507	-51.7602857084459	
19465000	-0.725865097555069	-54.2466235699064	-53.3133431141402	-74.2095812337937	-52.9284565118175	-75.9517372061789	-0.728664737600525	-53.6639921919823	
19714500	-0.44175881029968	-54.5274424626246	-53.0726154929278	-132.450400572523	-52.7458716250056	-133.10103951803	-0.436476036139167	-53.8983587362081	
19964000	-0.242150192999225	-53.3841361724568	-53.543190780475	168.453700361966	-53.3200000178152	168.199459529106	-0.213937566717473	-52.8525424361817	
20213500	-0.311021674801232	-52.3548443410747	-55.1070999569457	116.235149991319	-54.6556496657724	116.222656802081	-0.239042635000938	-51.8771862230254	
20463000	-0.619494349046808	-52.6496552536833	-57.2611659499864	65.3515520325386	-57.3095965160968	66.3202372353962	-0.489176187710275	-52.0345743903558	
20712500	-0.941956289656139	-54.4790698322119	-59.3898674897825	10.2255954185816	-59.1330005198205	12.4158932172129	-0.751245718745862	-53.8680499956479	
20962000	-1.02732040085233	-56.8236591843415	-61.351427436994	-56.9913294699717	-61.7282548961226	-52.6825843662813	-0.794965279897051	-56.4274828931869	
21211500	-0.780868603590777	-58.0837050604013	-65.3684152343719	-142.340107092644	-64.8493796472204	-132.059555325621	-0.623484266812846	-58.2729028814191	
21461000	-0.421224543423467	-57.6948916062319	-62.9338621627399	137.757066661027	-63.2526456464502	145.476341486728	-0.390543701640814	-58.1138147564734	
21710500	-0.239861043822583	-56.4490511601905	-59.2418277239983	68.8483038891418	-59.6292071227803	73.4768206727362	-0.270539385622977	-56.6677978253077	
21960000	-0.364559711011035	-55.7995525690512	-58.6273866014766	11.9087149583276	-58.3446752625757	13.8212304303307	-0.356559374415408	-55.7065816306333	
22209500	-0.698242323134995	-56.5505426121254	-57.7214303342856	-37.1438589606798	-57.8775522920561	-38.0629483722315	-0.626338165286734	-56.38713353233	
22459000	-0.973580787024446	-58.7966498952671	-57.5476567660752	-84.648336420361	-57.836446729014	-82.409346250633	-0.819791241417173	-58.6857261230089	
22708500	-0.946969017316179	-61.0866530666058	-57.8565480720814	-131.126384499584	-57.7069282789602	-132.444879513811	-0.776576446395678	-61.2660062035684	
22958000	-0.628956577153909	-61.9533204174105	-58.7175741506463	167.831115617347	-58.7050884315097	164.007823416576	-0.53791934691679	-62.6702205375488	
23207500	-0.30046015793442	-61.4379414375359	-60.2099891296145	93.6532672730859	-60.1563404822428	92.6945255575994	-0.328839073923255	-62.1871282318814	
23457000	-0.255468715853496	-60.4084374649676	-61.8569076130123	11.0032680169393	-61.4083470126157	6.98498903513267	-0.323929479446535	-60.8186647723879	
23706500	-0.529990817102533	-59.7404133040288	-60.685545670361	-84.7160031512017	-60.3247875012628	-87.4252374649309	-0.535923257956481	-60.0874447555909	
23956000	-0.847637095403527	-60.4081009378257	-61.7434977875374	-164.31259866635	-60.5041848078796	-167.109314888703	-0.828647941871801	-60.9598441968958	
24205500	-0.970739454740444	-62.8380070790011	-63.9244349968574	126.371157744079	-62.3522446795527	127.706117793863	-0.942139875749752	-63.3328299380186	
24455000	-0.804753037263469	-65.1655060482379	-66.528202872569	61.8098381296574	-66.1026241155156	63.9124720628577	-0.765607420361585	-65.5759993309217	
24704500	-0.463199946620125	-65.8943191897085	-73.6805443498199	27.5816274841637	-72.2016681879218	27.4889387949986	-0.430733278835636	-66.2901356420133	
24954000	-0.203766585048279	-65.1158009736353	-75.0671409650698	16.9403163928352	-73.2241670657869	19.6483615616987	-0.24502245212371	-65.6475331485095	
25203500	-0.213636190767263	-64.211389984129	-75.9631624356498	-15.9523563296852	-70.167839647701	-24.1809355927132	-0.343760975514609	-64.6696931794539	
25453000	-0.493180878230627	-64.1712145742092	-69.4817300973012	-74.0273412556764	-70.9081042316607	-94.1612868481194	-0.667115149767683	-64.3282718534091	
25702500	-0.810383348473136	-65.860099803238	-64.7224439558423	-130.42201563567	-64.9221511990223	-132.817524764562	-0.995209336911029	-65.6529526505915	
25952000	-0.89010748152183	-68.6093556539407	-62.0487365863544	-179.558091616582	-63.5776884982406	174.541687923746	-1.06569117962814	-67.8659531947558	
26201500	-0.684340186817541	-70.5724983945238	-60.7900329834962	123.85174177338	-60.532095389941	126.589973808867	-0.791655546657897	-69.6670923454303	
26451000	-0.369889761497186	-70.6503969545636	-59.0552884740267	77.3538215937724	-59.1799667077712	77.0496435371562	-0.42741883784076	-70.0915789323021	
26700500	-0.228994784583724	-69.4926729824239	-59.5285676002873	35.7702822445503	-59.5076571456262	37.8251064716219	-0.247768121208592	-69.2432633846935	
26950000	-0.368883586987831	-68.3910191313144	-61.4660704895553	1.61162858949512	-60.1995879596238	-3.07037036625924	-0.364155848976855	-68.5269918583767	
27199500	-0.710515715469479	-68.7713678260853	-63.1184560359102	-37.2376435389212	-63.2284507856798	-37.6751908940954	-0.703770921005681	-68.8496360090354	
27449000	-0.982892876884937	-70.8107049443718	-63.16415290884	-64.1927624689221	-62.5037777349319	-60.0280730647372	-0.968380989270188	-70.8196511239419	
27698500	-0.973713333576292	-73.3990803803876	-62.5589222564577	-80.8406462102913	-62.3909166918054	-83.3141916310195	-0.958411272143306	-73.2510873051158	
27948000	-0.670574810775011	-74.8088451592648	-63.919639646001	-112.521145067022	-62.3019846958564	-117.759235549722	-0.689381517312384	-74.7260969295772	
28197500	-0.338756787130445	-74.3772506907657	-63.6462425629319	-156.869386346912	-63.6564155968786	-152.104702986593	-0.402685353185739	-74.3425225680676	
28447000	-0.251042907536429	-73.1712384559167	-63.6023796730942	154.757447947103	-62.7916208697534	150.515338850162	-0.341692789289586	-73.1246946328417	
28696500	-0.461189583910164	-72.5362218035492	-64.0536858283751	107.877389890191	-64.7214996268834	108.508219484974	-0.549322944161444	-72.2352525909219	
28946000	-0.808431856448235	-73.4012141963883	-65.427378421897	36.7554379197252	-64.2066935222506	48.5620518777218	-0.886782313515262	-72.9007534374691	
29195500	-1.01987129653737	-75.7841271558568	-64.6694151265219	-14.6677216290659	-63.0849966247257	-18.6070041565166	-1.06582855454349	-75.230399739297	
29445000	-0.918205368316642	-78.2721608916153	-62.5899146024415	-71.3845919624782	-61.8968828411997	-64.2050107367581	-0.921695710861393	-77.6986785659046	
29694500	-0.58258222979872	-79.0640609585049	-60.8529668630583	-112.397265762557	-60.4722438865849	-112.428327553823	-0.611096734940901	-78.8436152911465	
29944000	-0.334913319484686	-78.1117369596978	-59.1028529361527	-158.401124985058	-59.4688756040081	-158.271209026945	-0.359648404175355	-78.3226571595821	
30193500	-0.36000006250938	-76.7291141866627	-59.070190730921	154.714729693474	-58.576377520715	157.718660616774	-0.40712337981889	-77.2665598599435	
30443000	-0.635246047189164	-76.2448819548388	-59.0081079627951	121.049708130708	-59.1958340781893	122.86569130537	-0.716270604258858	-76.7184878149706	
30692500	-0.966493628337163	-77.5041341093113	-60.5126795730359	73.8783628478752	-60.3133625893834	82.246275128626	-1.03980283063316	-77.763605755409	
30942000	-1.0921266372546	-80.1380074638569	-63.6636947675969	40.9940846902795	-62.7171342765927	40.8615076844922	-1.13936375839036	-80.0030863068878	
31191500	-0.862401786355649	-82.4036362960559	-67.8095816286543	10.7055997028535	-66.4132281117915	12.0107395219152	-0.889329925125384	-82.0129645929692	
31441000	-0.481957730590855	-82.9351512779904	-74.3045122203549	33.3336710617949	-75.0762530846884	2.69822033391122	-0.532016785486738	-82.4462037571975	
31690500	-0.27366304182234	-81.9830983582732	-67.6366237500584	55.8351706228178	-68.4303803738474	56.034275471201	-0.3396866097749	-81.5169675679618	
31940000	-0.369346775716558	-80.9474619799965	-64.3203053013867	34.3107628522297	-64.8687850673006	33.237784181643	-0.471573661113741	-80.4422217447622	
32189500	-0.712859169210269	-80.9814936882821	-62.7209762580619	-9.85122773696401	-62.5954487616964	-11.9980692541834	-0.827749691482731	-80.4347202953732	
32439000	-1.03533485914218	-82.7692427439483	-62.5211085401369	-49.9536756482818	-61.9680605584588	-47.5479663924633	-1.11925053729283	-82.1280246043578	
32688500	-1.0608641255575	-85.3118028988237	-63.6193507438949	-75.0807562466615	-63.3236678435006	-83.1083342095711	-1.12580415762361	-84.6380749172147	
32938000	-0.803316264734654	-86.7965507970454	-66.7399749948165	-116.096070638414	-66.8635170701594	-110.522922039809	-0.817609956756623	-86.576267253225	
33187500	-0.483545663798001	-86.5089631489854	-71.704547444414	-147.664659259833	-71.1026648239938	-153.276892685662	-0.462527864304939	-86.6592039035429	
33437000	-0.364297899805533	-85.1944011604386	-76.7660878369184	-152.003197392793	-78.5623416336933	-145.549624869958	-0.343391659476335	-85.6286695140331	
