!Keysight Technologies N9923A: A.12.45
!Date: Tuesday, 05 August 2025 18:04:46
!Timezone: (UTC+08:00) Kuala Lumpur, Singapore
!Model: N9923A
!Serial: MY61181427
!GPS Latitude: 
!GPS Longitude: 
!GPS TimeStamp: 0001-01-01 00:00:00Z
!GPS Seconds Since Last Read: 0
!CHECKSUM:0739868459
!Correction: S11(ON U)S21(ON U)S12(ON U)S22(ON U)
!S2P File: Measurements:S11,S21,S12,S22:
# Hz S DB R 50
2000000	-0.0683649215847676	-4.82736848966329	-80.8949054108772	-174.122847965476	-92.7483971590428	26.9217504361663	-0.077044973078195	-4.82490297888245	
2249500	-0.251290753048085	-5.73384831378469	-80.3269093541669	24.1791561914776	-76.7021671262352	67.5987079481084	-0.256795240591327	-5.73719150490091	
2499000	-0.332343785127505	-7.20294615758296	-61.9598779730296	-21.0070473416495	-62.0615797469844	-25.4601902057971	-0.352511745154198	-7.06388284576415	
2748500	-0.235074857976604	-8.59596898017204	-65.6201897207347	-80.3823167419272	-66.4391992026219	-77.3963342458168	-0.247235315407096	-8.42821538570827	
2998000	-0.0442832776165637	-9.35869353745558	-71.2018723369197	-176.785743430031	-70.8911106236375	-163.139694185487	-0.058550025625881	-9.05452110789368	
3247500	0.0797389899409531	-9.45245655894951	-76.0193634095562	-143.052344643249	-76.9348360400564	-110.60538673778	0.066333382580732	-9.18126308348021	
3497000	0.0401590170926112	-9.39822946610535	-73.0707222011459	-126.25552325358	-72.4130668702763	-122.535664171658	0.0250647609898482	-9.18269420169988	
3746500	-0.139447187023354	-9.78159372239877	-68.1091450826232	-122.214687908153	-68.1804605728255	-129.204102912779	-0.151818668170726	-9.58858419007611	
3996000	-0.324224740998099	-10.8409407682196	-65.648901351842	140.328741615784	-67.1876891610362	141.113699274785	-0.313320246434037	-10.7036190036515	
4245500	-0.332931213891278	-12.4007434028317	-75.5577439353686	63.2032832117585	-73.4290638183845	80.8704124292626	-0.328945563018153	-12.2930138461743	
4495000	-0.184512870751339	-13.6779688617499	-72.1872138993943	-94.8756580469272	-72.6259992497388	-95.7012568767092	-0.181792706414362	-13.4605015593266	
4744500	0.00518380839789721	-14.182120391762	-70.6548083746394	-101.993735095203	-71.877873531293	-110.510559214686	0.00420186994868475	-13.9394473565763	
4994000	0.0794794245946596	-14.1787777273417	-64.8942849641009	-115.816466636297	-64.3138091815506	-107.93760640742	0.0774225458041884	-13.8789041641142	
5243500	-0.0344721785324166	-14.3597203490097	-56.4838062444146	-131.149826800397	-56.733984487272	-129.210298405974	-0.0196609483388413	-13.8955619738933	
5493000	-0.361043862144507	-14.5475772453427	-48.0637476273313	156.38582713375	-48.0472725160785	156.161768451379	-0.224652996283016	-14.4914904346259	
5742500	-0.37374990659051	-15.6040425074708	-53.9668633733321	89.588607897466	-53.7915198081938	89.3056050236461	-0.343705558987783	-15.8265091475964	
5992000	-0.312972148861797	-17.3793368689301	-56.7847529888687	72.4490705303395	-56.7690600576581	72.3774610146114	-0.303227151820588	-17.4254170445716	
6241500	-0.111863420743992	-18.5730309772788	-57.9168603910317	63.9252723201276	-57.9341543934198	65.4620103931282	-0.133777728884541	-18.4377982517992	
6491000	0.0378513521058171	-18.96124413349	-57.8418903540037	52.8347105180394	-58.0031453117932	51.2225291281258	0.0339874206601298	-18.7895068090386	
6740500	0.0521915014172269	-19.1034693101628	-63.9446296274276	84.629167560219	-64.7276194302172	81.8235369962009	0.0363785610782498	-18.676855734904	
6990000	-0.145806837393439	-19.7613268226534	-52.4441924527355	83.2387745094878	-52.5495737214183	82.4448460507942	-0.100846047362503	-18.8674130607912	
7239500	-0.63198649274994	-20.9446671209601	-44.6159161216216	48.0831872545382	-44.6667074394327	48.2376255965324	-0.295198287334856	-19.9299374638219	
7489000	-0.67868923782377	-19.9807906065994	-41.2599166486273	-15.9659477182331	-41.1600969761511	-15.4982006905934	-0.444597709242149	-21.8085591696207	
7738500	-0.500627655385002	-21.4211653857082	-42.6025265991582	-29.522485383246	-42.3761392209795	-30.9022847173936	-0.312214080783335	-23.0296943628245	
7988000	-0.187003478681705	-21.7039474713125	-40.5187916405343	-79.653288621706	-40.4706234228487	-80.1648769499081	-0.142487575470783	-23.9602813059997	
8237500	0.0387418653146999	-22.0787055568607	-41.1529188941334	-111.588607597869	-41.169618343452	-111.563060499278	-0.0454788550033472	-24.4034820633816	
8487000	0.023630984734676	-22.1880657144974	-39.7833267083591	-135.134185268529	-39.7721977152333	-135.494657647965	-0.235299152226108	-24.9201106299235	
8736500	-0.166140495094292	-22.6236527413715	-36.7132262237741	-174.890741508118	-36.7371422136071	-175.222812718828	-0.881408821563842	-24.5633461760012	
8986000	-0.348766098765599	-23.7696764599723	-37.6944066785037	124.860505065067	-37.6680231741675	124.48473913803	-0.925912284646016	-20.9746830141237	
9235500	-0.37924289572804	-25.6213307912754	-41.4608826030253	91.2998679244544	-41.3998358582638	91.2295594284512	-0.55794940553305	-22.8459236795069	
9485000	-0.238310709723631	-27.1869486377479	-43.2552490962582	73.0210773082102	-43.3053963625211	73.2738354533519	-0.301276157907444	-25.0032835663205	
9734500	-0.0553127444023278	-27.9031723930312	-43.0422041194004	55.40134709507	-43.0724555057733	55.5421041437454	-0.0600565415191976	-26.0175557436992	
9984000	-0.0361797274209962	-27.893467949647	-41.0129107601624	24.367547774563	-41.0526602984168	23.7714853107372	0.0361824883809344	-26.2185637320264	
10233500	-0.164695571425557	-27.0497842395789	-41.3997957895703	-34.669710446844	-41.5096379182128	-35.1306698436934	-0.0503756489290479	-26.0982838911902	
10483000	-0.290375920092467	-27.5704757887995	-46.4237158116453	-76.1179198993946	-46.3823762698824	-75.2183117455872	-0.225469974243833	-26.7005345893009	
10732500	-0.426928634193466	-29.2996409448687	-50.4065574158445	-96.1367872123623	-50.3922216270907	-95.481174107815	-0.358938098839957	-28.2709431341103	
10982000	-0.424647216540919	-31.4454057824709	-52.6399670945052	-115.618118966057	-52.7855946091993	-115.937025628714	-0.334908487657314	-30.1517185729415	
11231500	-0.363884610898593	-33.0730294325023	-53.6016185212876	-148.767869048776	-53.5617708524479	-147.873857312679	-0.161853694437581	-31.5757829540939	
11481000	-0.484489487006998	-31.766030995688	-56.6695038398541	112.429149786002	-56.5541573161726	115.974779467294	0.0102040589153265	-32.2157081095472	
11730500	-0.102770646736016	-29.7824893147114	-51.5872430473198	-106.317466934063	-51.5169526208167	-106.352425958828	-0.175126057698817	-32.5072883059324	
11980000	-0.109544191013329	-30.4078545066204	-69.0796545128926	16.5805947182023	-68.9674490344711	0.937006052410477	-0.10965563495641	-31.830976317946	
12229500	-0.289338700765524	-31.7753956200595	-71.5081853469677	-105.811396739799	-71.4051581545348	-103.831874043524	-0.439434927713339	-34.0232037623541	
12479000	-0.396763909689807	-33.7493137132274	-59.4205344678676	-13.8257164601559	-59.3337376140902	-13.7181052440532	-1.19017757401384	-33.8238009348789	
12728500	-0.31019741051715	-35.7437215234734	-55.5723800204637	-83.5237522549644	-55.358586818933	-82.8842561700047	-0.573590993035141	-32.6123372939656	
12978000	-0.112511319201052	-36.9424338108306	-53.5789949739551	-114.433564045801	-53.6799126133423	-114.14709303078	-0.186795061529586	-34.4113955056804	
13227500	0.00390301650827006	-37.2389111818408	-50.4888268156039	-146.273169968286	-50.3948246597153	-146.196394121737	0.0100726001200602	-35.0682837471155	
13477000	-0.0927956815197537	-37.1249434801142	-47.5152216356332	168.407859312955	-47.4469118186958	167.980210387224	-0.000740955480267905	-35.4333100589458	
13726500	-0.315197580579487	-37.3164220451469	-47.0570571804695	109.936071171775	-47.071194811646	109.815236408526	-0.202135098400388	-36.2893618385408	
13976000	-0.557812358055754	-38.7954998496569	-48.0950914489601	17.9898724506291	-48.3192454786246	17.639932387091	-0.669821261730488	-38.7049594414664	
14225500	-0.759539526860113	-41.1626764654334	-49.1324544529272	179.801285281989	-48.9453956272138	177.780552811286	-0.794142575741332	-35.9350602785024	
14475000	-0.97254739404546	-41.4386635975471	-48.0555457740321	105.087920557511	-47.7299650965363	103.104680379457	-0.375148256298863	-37.9842473208841	
14724500	-0.58704734102072	-39.4056908115182	-46.8459111620045	58.8242550025509	-46.7477800391933	57.0981004208748	-0.110556268792102	-39.0540687335449	
14974000	-0.366538955173056	-38.8598524809945	-47.1437719358237	12.493000353822	-47.171671993434	11.0225917899996	0.0267345385457627	-39.2368227786795	
15223500	-0.345917004620294	-38.0157178631646	-49.3658957943496	-27.3546838887061	-49.3613454932336	-27.8424543295174	-0.0413194567093153	-39.2264899500439	
15473000	-0.438635249593121	-38.3635436148228	-52.0520213572167	-54.2755884948302	-52.1873431378304	-55.5415004754356	-0.234645585472716	-39.9270084943814	
15722500	-0.538628617780519	-40.0826165835109	-54.3972961399897	-74.5116496179821	-54.372535587936	-74.5745186149079	-0.389166363601271	-41.5679705413407	
15972000	-0.486283176218596	-42.2018393277683	-55.9854726830915	-88.4595596401175	-56.4774193064034	-89.4828313856803	-0.396834419315954	-43.8504681850796	
16221500	-0.269395242513936	-43.7450413584393	-58.5258564595966	-88.1773069556974	-58.0176716428982	-88.2179671199364	-0.342963698564051	-43.5591862149256	
16471000	-0.0470891085947796	-44.2776611932313	-57.9131777800475	-107.593535769364	-57.9255457947556	-107.558608229902	-0.0265409313651501	-44.6014665454195	
16720500	0.0261431192380988	-44.2081541960265	-58.5403688178055	-125.83197374762	-58.8305743203955	-124.663335944483	0.0384441244284679	-44.6783478305229	
16970000	-0.0946826398651278	-44.3520683921635	-62.151369124487	-125.172438118089	-62.8212946665066	-124.463393535972	-0.0970524425071716	-44.8591298626028	
17219500	-0.352022092970193	-45.6554584244746	-53.8082663726483	-90.2941486251237	-54.212954001825	-89.7726299260767	-0.313454600121674	-45.9128794310316	
17469000	-0.620367945315087	-47.5310501136635	-47.4336901404721	-139.076148315778	-47.5523877190699	-138.333647294234	-0.44396155871506	-47.8450443881793	
17718500	-0.644898506829472	-48.1958273065329	-45.5756858153689	159.90151267712	-45.8957821055698	159.978386583186	-0.403412085100484	-50.0798183973192	
17968000	-0.330319782101938	-48.6504006032895	-46.6482804461678	108.125030759195	-47.0042617435013	108.950055448989	-0.259097346860923	-51.8260889754333	
18217500	-0.0805466873208311	-48.8155126013368	-45.975225105202	56.2047035598098	-46.2298897206346	56.0975900515124	-0.366781092812565	-53.2413249338967	
18467000	-0.0554869034657702	-48.6213979902576	-53.5504535174666	-95.6837415867338	-53.459066506703	-96.6063817962814	-0.342679036643671	-47.5273886994712	
18716500	-0.217696036610718	-49.0402654947504	-59.5826110608976	108.290138373907	-59.4998461941987	107.940504341673	-0.310509504496545	-50.7996986417031	
18966000	-0.429324615154043	-50.3929214384919	-54.4749171527286	46.5850293352385	-54.9771343558551	45.1992030381484	-0.749698077508811	-54.1565255146267	
19215500	-0.508417186927071	-52.5132836552641	-49.6003926847131	-18.8628994927554	-50.2003502241522	-20.0036151597752	-1.6543885029493	-57.2249974759944	
19465000	-0.410558168072934	-54.4772974321617	-46.4603109110814	-103.434766196684	-46.7360699331982	-103.868362280096	-2.09546084142263	-49.6931760982988	
19714500	-0.23517695243277	-55.5154422707153	-45.7783439788569	-173.110128721056	-46.016588206478	-173.822701572147	-0.887969576239972	-47.6279697675556	
19964000	-0.209769639493229	-55.4263464449341	-44.1579410860017	134.124926398203	-44.4869424868038	133.686360724475	-0.327214517691853	-48.633006976543	
20213500	-0.390524023617626	-54.4689555689509	-43.0830556307613	81.4739812114035	-43.4098230051792	81.8085188789651	-0.20482806340916	-49.2885890722459	
20463000	-0.573452538627823	-54.2937423178053	-44.1175559152915	37.3828284703983	-44.3265540076094	37.2008356647625	-0.321560118999329	-50.2805163897457	
20712500	-0.724006049917006	-55.8773245124826	-45.4625291844018	5.57790913695497	-45.4217830613435	5.83641199666905	-0.473957855562774	-52.1129489753314	
20962000	-0.776983489673805	-58.2280827562612	-45.8401639157225	-16.4587684135282	-45.9991677329672	-16.5145066654854	-0.477282500152507	-54.2523651753193	
21211500	-0.713205416562709	-59.7609818977876	-44.7224057905384	-35.4084349410338	-44.9093119553533	-34.7697578105956	-0.320236090953915	-56.0271512664801	
21461000	-0.593253056859506	-59.1176406292621	-42.987436414054	-74.7493585613629	-42.9954313414887	-74.2801569137148	-0.100995130908734	-56.7502912135328	
21710500	-0.309419387081464	-57.9025408713013	-46.6395064716988	-123.816884672146	-46.635109212589	-123.180999647468	-0.0144590623567304	-56.9082122272411	
21960000	-0.347778081527142	-59.3753804197743	-49.5510473209558	-66.7271856019185	-49.5304400265211	-68.1970614294979	-0.168398329743332	-57.147385540542	
22209500	-0.714692589020903	-61.5431495635838	-40.9691209441583	-140.433701012604	-41.1794593578466	-140.126055134186	-0.379318504878816	-57.4734088413657	
22459000	-1.28393417396878	-65.2410093515805	-43.7850056567476	-176.063064015667	-43.8539876359363	-175.663730731397	-0.494367639212517	-59.6016291780606	
22708500	-2.12623522011494	-65.8212004705759	-44.3340548526341	156.930054009907	-44.4184991312671	158.242904953495	-0.472875507859359	-61.8537403217487	
22958000	-2.09091681578077	-58.7914069746831	-45.3514993992024	124.025104797026	-45.2950743777432	125.15024855291	-0.328732795621517	-63.5538043046985	
23207500	-1.09547791232786	-55.4289948263146	-46.7573994092423	91.6431924145482	-46.8055066871938	92.4786566566075	-0.267267945277011	-64.2447971991199	
23457000	-0.558640546027422	-55.3483691388766	-49.6027109815514	47.4727683019892	-49.9266671338728	47.913908382291	-0.497193673900371	-63.8094822476156	
23706500	-0.480410279188477	-56.2006855815014	-65.5298785012442	-26.5503597924645	-66.2420378435211	-19.3005011017065	-0.793791787460314	-62.9028396200392	
23956000	-0.582532326780211	-58.005658734267	-52.5296511601727	137.420430629359	-52.8774314121994	133.231007520811	-1.19371900599282	-62.0712803945715	
24205500	-0.621189548357918	-60.7189613083131	-48.6079220666932	56.9490530259623	-49.06934001456	55.3453320571758	-0.837387048699818	-62.6565128209792	
24455000	-0.49968901937068	-63.4801116693597	-51.3537022516782	-36.8434117625305	-52.0218798080373	-36.5975102543625	-0.631322900927465	-66.9674890621319	
24704500	-0.379564168576928	-65.1300102290807	-47.6266065241067	-179.317368958687	-47.8163821899129	-176.686019764407	-0.76815030555259	-69.6713316911435	
24954000	-0.375633895396394	-64.6599147481858	-42.1489058370367	97.9403424382468	-41.9463678426385	97.9068380102125	-1.20033967523855	-67.4208091072438	
25203500	-0.389539789673173	-63.0699387423337	-40.9505335799783	32.2996528782706	-40.8021744565051	30.7278297573465	-1.25196934420764	-63.2943315071788	
25453000	-0.448439231814277	-62.9980384198858	-42.6482792675363	-17.0403433698949	-42.5836743318044	-16.3475408898004	-1.23436132150958	-61.4471286451942	
25702500	-0.580806713418232	-64.6072454583329	-44.8726564367235	-50.1692574772165	-44.7919615606604	-50.4376794265202	-1.22693185283719	-61.8887984356994	
25952000	-0.577690465671652	-66.9577077135034	-47.0925791569795	-75.9589639864183	-47.4683121864917	-74.5481743590805	-1.08937916061207	-63.5244104701034	
26201500	-0.398021957478352	-68.8039715534032	-49.3398130700575	-95.7836724026766	-49.3376040145321	-94.5863143940622	-0.762297911846114	-65.2840363395696	
26451000	-0.144985461387898	-69.4456969675228	-51.1100314249644	-108.548544833358	-51.275890964715	-110.970598738592	-0.411952986767617	-66.2602372863335	
26700500	-0.0358365984922756	-69.2956612408816	-52.7047163132571	-119.864238768859	-52.7530066261049	-123.431857442825	-0.21689275953879	-66.2199330173972	
26950000	-0.143564674877889	-69.0986422780855	-53.271005123111	-133.691761501552	-53.4840941495036	-133.551359604212	-0.238675522125248	-66.1956047221648	
27199500	-0.391677752842553	-69.8652745816569	-53.349981717404	-140.390695418439	-53.6175023569744	-143.326968521161	-0.428197495474373	-66.820641161628	
27449000	-0.582571548637007	-71.665217975659	-53.8670907862048	-153.333675604317	-53.864405038083	-152.446170421756	-0.5684958815219	-68.6056387730642	
27698500	-0.597493258371124	-73.8016606401957	-53.7224066895309	-167.876432140335	-54.0973489322805	-164.706234450299	-0.538193277255628	-70.7288436255449	
27948000	-0.413948899133935	-75.2370863636633	-54.5218397977787	177.66216913263	-53.9754626473744	176.558243910566	-0.338874213859066	-72.3821406258308	
28197500	-0.21162162438855	-75.5032152475307	-54.7096676860044	163.97689537112	-54.6840868365617	165.047830587855	-0.119163979853849	-72.8192764393333	
28447000	-0.201980173943911	-75.3812194844527	-55.0645824929287	157.946862635232	-55.1797341924905	159.466107142686	-0.0622542509948294	-72.7435618500147	
28696500	-0.424247603049812	-75.8187886550699	-53.5419913805155	154.385972704267	-53.8271361553526	158.931224082657	-0.247956436496484	-72.6205264761412	
28946000	-0.772468828693694	-77.348068138303	-52.4699794654493	147.606439862399	-53.3716082306608	148.624923303474	-0.423604887445992	-73.5551692756585	
29195500	-1.08948811578201	-79.7530842782569	-50.6568564468208	133.848391577271	-51.3810373384274	138.383713284174	-0.540322271332884	-75.5864380595768	
29445000	-1.28342970473215	-81.5398667514394	-48.7484105157798	116.58371109014	-48.6410091544114	120.676846859465	-0.44988303785769	-77.6033309435396	
29694500	-1.30462958582228	-80.6512887628649	-46.4087734561592	93.4414544532224	-46.2315812180227	96.639645945427	-0.257293449519849	-78.8177610118126	
29944000	-1.15426390702437	-77.4442013813595	-45.2701596827615	65.885436477377	-44.9213722006157	69.5623275088139	-0.0876876516254122	-79.0115937623108	
30193500	-0.949040737178912	-74.8452716828931	-44.8200095365543	39.5662129076358	-44.4161391968947	41.8044435669791	-0.130680086194783	-79.0199804570107	
30443000	-0.903165104643482	-74.30556732591	-44.5601139102328	16.7394002408297	-44.231960631796	18.648812717672	-0.367041778144514	-79.5252536026608	
30692500	-0.987332521858835	-75.7463002166188	-43.3663975755773	-7.71122331486155	-43.2663509861535	-6.74864989025965	-0.628197710993858	-81.2588987828221	
30942000	-1.06839529634539	-78.4386981647319	-41.7674506527545	-46.3424087060766	-41.6472835383829	-42.9785694189869	-0.825877034482399	-83.6549765994415	
31191500	-1.05789516760359	-79.8468715389399	-46.0017397616506	-92.222513792102	-45.4823221965015	-90.97837932781	-0.630293044981393	-85.197173030296	
31441000	-0.608201237702242	-79.3902429128961	-53.2711776513994	-75.5683792474919	-52.8696557367463	-74.6661773798112	-0.544510462636932	-87.121887003761	
31690500	-0.332844894669912	-79.4612899499057	-46.4699362570904	-83.1411547097153	-46.1057880710717	-80.9343393471998	-0.734061228773137	-87.3992885608989	
31940000	-0.342155965332962	-79.2986969222862	-44.7021825462454	-128.464091952689	-44.1667579823465	-126.508031650777	-1.40110595398778	-85.7828232246592	
32189500	-0.531344591347721	-79.800108854351	-50.9834111259425	166.621020909193	-50.3937181550162	168.876767808156	-1.23626622698253	-80.1427334228272	
32439000	-0.701202499521633	-81.5099096351657	-51.5086643661154	-130.921553458155	-50.8218286705927	-129.148734739398	-1.43792408522896	-87.4139763291787	
32688500	-0.672061122863014	-83.7634440884536	-48.6797443271064	-162.849714017318	-47.9174294839329	-162.846999127959	-2.24139676614004	-87.078185697923	
32938000	-0.469344831019273	-85.3906908804424	-49.2360867698164	166.191728342396	-48.515400609561	164.782622463588	-1.97341236067252	-83.3935713965132	
33187500	-0.235750108640865	-85.8710041285284	-50.8870317458759	141.469796771548	-49.9712922352731	141.109669827329	-1.24326882953737	-81.4854618989912	
33437000	-0.156333076446959	-85.6210427419875	-52.150939140703	125.657083747455	-51.6094977713731	121.839603925463	-0.776013701324447	-80.8885657998174	
