!Keysight Technologies N9923A: A.12.45
!Date: Tuesday, 05 August 2025 18:34:14
!Timezone: (UTC+08:00) Kuala Lumpur, Singapore
!Model: N9923A
!Serial: MY61181427
!GPS Latitude: 
!GPS Longitude: 
!GPS TimeStamp: 0001-01-01 00:00:00Z
!GPS Seconds Since Last Read: 0
!CHECKSUM:0477617354
!Correction: S11(ON U)S21(ON U)S12(ON U)S22(ON U)
!S2P File: Measurements:S11,S21,S12,S22:
# Hz S DB R 50
2000000	-0.0757298131334938	-4.74433598256341	-72.6422635512637	-114.047334349511	-70.5503019946305	-107.493768831689	-0.087226591485902	-4.71476045295423	
2249500	-0.307067666525426	-5.62447009554089	-68.9389704067455	-106.645248642502	-68.9584766032557	-114.723459803782	-0.310756701314648	-5.56191449252361	
2499000	-0.407534914807179	-7.26316768784546	-61.4219748860208	-116.040247351528	-60.8552437915384	-116.245574272993	-0.404016678526332	-7.12322208716123	
2748500	-0.285254354517522	-8.68413158460447	-51.3332747582196	99.6083770669213	-51.2726778131951	98.9600161393048	-0.293405205284125	-8.34770832493008	
2998000	-0.0475953452855988	-9.50219776088809	-60.147711869131	63.1813753234179	-60.5022139121843	63.2006908845862	-0.0354884440151327	-9.18410076998632	
3247500	0.113712641496266	-9.29779633378146	-61.7009230957073	64.3247201036748	-61.5753912806185	65.4945079942612	0.113252971502284	-9.13046483967363	
3497000	0.0694941645935995	-9.05858517499644	-57.1519900850083	43.7889542152397	-57.0869764802705	44.1191322845399	0.0463864266747805	-8.98454621415181	
3746500	-0.176592026213988	-9.37818753764118	-49.5109151735	-1.95018682309362	-49.2199350055801	-3.16721224798634	-0.234033469163766	-9.35561923102604	
3996000	-0.457358924941842	-10.5655035054314	-44.0777385396805	-110.434860372363	-43.9890103139444	-110.581629940754	-0.479456981188488	-9.92652557968163	
4245500	-0.43816211290988	-11.8666952324414	-57.7201738865983	140.667414234674	-57.8876396587236	140.952047082226	-0.429657851352559	-11.4645209595777	
4495000	-0.259813935821281	-13.6498826496889	-59.1256498912379	-176.040533838103	-59.2888986769028	-176.404386887537	-0.22060185227201	-13.0016365838035	
4744500	-0.0274629268111675	-13.6281134940561	-57.2574401287047	104.483117884136	-57.5869846425267	104.87371596867	0.0228533853773853	-13.5436491489103	
4994000	0.114831069947035	-13.4946296563334	-64.6336498819755	69.8719619651703	-64.8778351264948	70.6224612756836	0.12110403382891	-13.4411996606945	
5243500	0.00379429124558003	-13.4085725094756	-67.5822553138662	43.4531205475784	-67.3258130395786	35.2065915185975	-0.0098600101089624	-13.1567007594517	
5493000	-0.246044832073946	-14.0645571722076	-71.1545589513427	29.295751954286	-70.9624453171161	36.7960652389456	-0.248532638158486	-13.9863454500797	
5742500	-0.422584900316979	-15.7079632231438	-70.9871793298621	29.9634956261836	-70.380950913326	21.3587348909881	-0.413897137262583	-15.6208286809306	
5992000	-0.371170189560607	-17.6377301186358	-71.6945808393042	4.11345647112097	-75.514348077979	10.4066253490068	-0.362563783167118	-17.5384807669657	
6241500	-0.121391635689886	-18.9111392515691	-70.8743413931392	-2.3017380163432	-73.0681068356882	-12.5693542845947	-0.163006292272789	-18.7091935416216	
6491000	0.0679012038477903	-19.1593392419641	-71.2681947927084	-35.4502252797147	-72.112271734167	-41.6680529120236	0.0586287919813521	-19.0082529611488	
6740500	0.0793672423435427	-18.9894829988622	-71.0138617303605	-96.6412416332691	-70.5421921684222	-99.7716389020776	0.0672664732748453	-18.7218908070816	
6990000	-0.149430012449386	-19.2533221002158	-66.3232388823452	-152.995310846632	-66.4437954822361	-151.689526133052	-0.139280620199038	-18.8610094783211	
7239500	-0.561579599663884	-20.3948925647866	-56.3215852676354	133.128719360976	-55.9034086202038	133.766278138834	-0.457974840592589	-19.9687779289994	
7489000	-0.827414843435665	-20.4671812816277	-47.6905912614632	22.3779879763469	-47.6697491921986	22.7646276785213	-0.720306255163607	-21.2485431841375	
7738500	-0.510080331591159	-21.2530685559838	-48.4470906099832	-85.4719103930909	-48.515756240257	-86.3750220964109	-0.571668816802371	-21.5153030291408	
7988000	-0.146877892051308	-22.2535563021922	-53.7758303333205	-157.020520917116	-54.0267741244124	-156.227770565021	-0.200033250134512	-21.9313990988076	
8237500	0.0769615582056793	-22.3278442093746	-58.806759606106	163.401795814573	-58.9395535690473	166.542796576845	0.0514206487266047	-21.8746105710018	
8487000	0.057111246465007	-22.1038706310077	-62.0827881010479	145.012679146572	-62.5189375691907	145.293836260909	0.0441642929869947	-21.6785489772134	
8736500	-0.162753695575802	-22.4146549081488	-64.1896960859427	128.134903612155	-64.3596909937413	127.991327788731	-0.162987983254156	-22.0490497353202	
8986000	-0.394614844067741	-23.8172292737312	-65.7124356235078	101.990097599129	-65.8348008882771	100.641749504275	-0.39541098274053	-23.6161789383203	
9235500	-0.442193773084402	-25.9766175483755	-62.5970027498422	126.031991451995	-62.2173953704737	127.541806906771	-0.493023507487452	-24.8914167848853	
9485000	-0.265481241371682	-27.7755516690908	-59.1550707598037	84.261361430807	-58.9954782871148	81.5711476276466	-0.261205421662989	-26.9472143893359	
9734500	-0.0404230568205551	-28.5189421203834	-54.5847324545786	49.1456592646953	-54.7299687171179	48.4535809427477	-0.00765371778567079	-27.6595027495976	
9984000	-0.00469092327229792	-28.1119250999587	-49.9020027626114	-18.1158285143914	-49.8301824817864	-18.5173937254332	0.0921442539848078	-27.5332280772503	
10233500	-0.112844558507593	-27.7151828216312	-50.2693829483393	-86.4971320794657	-50.1917984143879	-85.9298860002488	-0.0281104960506804	-27.3875088562527	
10483000	-0.435485817275657	-28.6929582429651	-50.0940622656635	-131.701311792089	-50.2423561283414	-131.081787473589	-0.306535154058212	-28.1239168116816	
10732500	-0.839199565372349	-30.336582280369	-47.7954791715565	179.103848470576	-47.8667339709474	179.125963934083	-0.540703289990537	-30.0513663890816	
10982000	-0.920401068240958	-30.3811457118802	-46.2044907684276	113.505195530221	-46.1993904814068	113.432284886081	-0.610097608022528	-32.3089481295188	
11231500	-0.473738610338612	-30.5983140660068	-46.8246288399814	44.2826672083818	-46.8653358504537	44.70003811423	-0.565355637690896	-33.3112556742285	
11481000	-0.0914503104129687	-30.8883773921727	-48.8674453726878	-15.8795300347989	-48.8948413464114	-15.7335438921349	-0.430643811740964	-31.7748492437647	
11730500	0.0176976362438568	-30.7049942789925	-52.3897998512112	-80.4392742749862	-52.3090034461935	-80.615583223048	-0.230381648590013	-30.0574691533308	
11980000	-0.133533394374014	-30.6876215353881	-57.8443688005748	-143.700248146748	-57.6548855033478	-141.99853980644	-0.262301239696652	-29.7005194383215	
12229500	-0.384258549288032	-31.7825233153318	-67.1072833136922	169.523868122511	-67.8681923809906	167.347911812034	-0.440360381398986	-30.6573311636897	
12479000	-0.520038704815584	-33.8604367060715	-95.6397878560424	-3.61709567390279	-81.9165685805846	-45.851880193623	-0.531075557814177	-32.694570663633	
12728500	-0.406546129788818	-36.0398334469992	-73.1308309191154	-81.1075994113639	-72.3872180924197	-79.3842058800837	-0.410976327741075	-34.7765267790184	
12978000	-0.157728328302697	-37.1667199510973	-67.0950398718309	-123.337174635344	-66.5727648161269	-120.227551098768	-0.137446543602362	-35.9553483028659	
13227500	-0.00534948427788739	-37.0856950479717	-61.9880576186783	-172.704577870696	-61.9632737960977	-171.899685483318	0.0529466378709127	-36.0396513342751	
13477000	-0.0891489870031449	-36.46477401672	-58.1094086053006	132.036890796258	-58.242980596226	133.511306533092	0.0285476471818907	-35.8208516110931	
13726500	-0.336764849460682	-36.4649853943784	-55.7737772619144	80.657833266061	-55.9660590372247	78.2228504936361	-0.20240901376196	-36.1540988225821	
13976000	-0.624473113378739	-37.9663073583801	-53.1684341533367	24.7250773582359	-53.3573710124382	23.58799830715	-0.469924456924345	-37.6815957199914	
14225500	-0.815916402970271	-40.3151694954313	-50.2512824593676	-30.5444773521749	-50.515646625645	-30.6044585012981	-0.572038097667484	-40.0195135294363	
14475000	-0.805732422266491	-40.9195213816928	-48.9504601073211	-103.3932813608	-49.1206020777016	-103.788322398392	-0.485360804262593	-42.1245670533393	
14724500	-0.394761771703204	-40.2338044590392	-57.9545010372666	-155.820111835663	-58.2193669961646	-154.110625388467	-0.423622417034096	-42.7432449454969	
14974000	-0.20237322542187	-39.6873765736413	-50.3635424218257	-143.257848267171	-50.0748944462026	-142.565484553715	-0.499606848793734	-40.9959700477069	
15223500	-0.241298511419007	-38.8913395674086	-48.0535192774188	149.117780209474	-47.8090695637294	148.505137941484	-0.545006430878765	-38.3479717892469	
15473000	-0.433699442303228	-39.2892786384312	-49.8849074644158	97.0662578480471	-49.8382230516562	97.9087767672867	-0.58586581594887	-38.0323970195139	
15722500	-0.612163182279755	-41.2451825430227	-52.0484523557019	63.9211109733281	-52.0481140077306	62.8344485782428	-0.652255490611707	-39.8167866771775	
15972000	-0.57847611267341	-43.7146813298246	-52.897099177085	37.0373148169358	-52.9890670410888	36.9002032965799	-0.572368077167573	-42.2534968822307	
16221500	-0.339685979663362	-45.4417197040881	-52.564449038649	13.2644489238377	-52.4466659925481	12.7575617186123	-0.311578483824201	-44.0089500272467	
16471000	-0.108493037521422	-45.8742539849112	-51.1882095421716	-10.7995533037314	-50.9330251645637	-11.7520944316616	-0.0475063684649392	-44.5285412795388	
16720500	-0.0870570428095532	-45.4321100942899	-48.9532884456802	-42.4259168993829	-48.8418879567397	-42.7410972411701	0.0222224184846965	-44.3441178400979	
16970000	-0.316561923622197	-44.9465344181299	-46.166048695037	-80.6796727484513	-46.1095823129609	-80.9837380495656	-0.16224939303512	-44.3513782452074	
17219500	-0.632527050686011	-45.4918902824223	-43.7528800326888	-124.956892491727	-43.7035396525764	-124.712041512741	-0.471558870243109	-45.5296897212944	
17469000	-0.816872473435739	-47.3781657475173	-41.4051042937778	-172.402286116847	-41.3443297432114	-171.752376744139	-0.724516061748743	-47.7829734247653	
17718500	-0.773592367897861	-49.3651308448368	-38.8496165200454	131.736981922625	-38.7804450768068	131.598333620598	-0.823458779560331	-49.7648199850056	
17968000	-0.560926344232901	-50.2559196936255	-38.0172770482904	59.0700453009913	-37.9747003891361	59.1316550841311	-0.664278610408208	-49.1171882275247	
18217500	-0.416908859348967	-49.3907512564733	-42.7128317054811	-12.946900406587	-42.766904021651	-13.1999703740174	-0.178482613374419	-48.2072106394419	
18467000	-0.368266059161737	-47.6704610274299	-53.2756642171824	-13.5040977490228	-53.5054666346805	-14.0431497594245	-0.111608081912243	-48.9498404956694	
18716500	-0.492066091421002	-47.3889562671846	-43.6283503778287	-13.2702252353827	-43.6497760215478	-12.9325482326075	-0.657748282549294	-49.5198664904496	
18966000	-0.700541792423124	-48.6420714209477	-42.0082677576737	-81.042183324827	-41.953081300958	-80.6149986305895	-0.96450730484238	-47.6988524592506	
19215500	-0.751029721702599	-51.0866144750016	-44.2151824030602	-123.884028746219	-44.1477398942256	-124.0878588514	-0.806114464565871	-49.4404086189392	
19465000	-0.577697715985501	-53.3568904704014	-45.6015197374426	-153.213372045395	-45.5239037354947	-153.010779614822	-0.549698544232995	-51.8897795176466	
19714500	-0.302197302720057	-54.352638203644	-45.5780215941403	179.29767103302	-45.4984631167424	179.193620123922	-0.228441124458023	-53.1849763032944	
19964000	-0.176044958964731	-54.0454207017998	-44.775899470015	150.655362347291	-44.6531332383715	150.914692944879	-0.0552311451656303	-53.2734455613439	
20213500	-0.333908104513349	-53.3059853979257	-43.4601867841306	117.672704661268	-43.436461638909	117.099651337889	-0.151765146207756	-53.0738312906696	
20463000	-0.651312597593893	-53.1813039457579	-42.3842588100349	78.2993989911608	-42.3603077064056	78.700246310839	-0.460299281520525	-53.5336972415736	
20712500	-0.890997734493259	-54.4819093318304	-41.8748403307167	37.3919642341068	-41.8510434286623	37.2094385089323	-0.792606997267103	-55.1921807046498	
20962000	-0.922883266639234	-56.7972073547064	-41.4722738957959	-2.28286367399843	-41.3486201842862	-2.62213576160466	-0.940206058153659	-57.003441847115	
21211500	-0.755134778047873	-58.3339212574705	-40.3002628814691	-45.8973579075234	-40.265474639351	-46.2817176141954	-0.821647221919632	-57.8286602246303	
21461000	-0.519260959052843	-58.0397503906034	-40.134022286261	-101.77753333956	-40.0580009742591	-101.503444175108	-0.559570699028906	-57.1934717210847	
21710500	-0.419212648581107	-56.5314027531308	-41.9854317370543	-157.468663710409	-41.8645587000591	-157.198870246554	-0.38611968892424	-55.8498706182579	
21960000	-0.498173492313325	-55.3888393005796	-45.0217322287944	154.931748705991	-44.8158941410296	155.473453490406	-0.415045749509922	-55.0712774066847	
22209500	-0.696749561839206	-55.8184653259876	-47.9000756090644	115.975529892715	-47.8505525043726	115.884974266462	-0.61177974302249	-55.7600720365845	
22459000	-0.834247610426489	-57.9383458639232	-50.1283899785123	72.3864218320833	-49.9479869332628	73.0305521526937	-0.745923604697406	-57.9655792452524	
22708500	-0.738911490395995	-60.4426587521619	-54.7690274071603	-33.2970767208858	-55.0224727265523	-31.737309612826	-0.737978247630995	-60.2062131747063	
22958000	-0.451206448087788	-62.0544295703018	-62.6211615283512	144.32244863398	-62.6178655418451	140.698515779464	-0.419169104434187	-61.4908615184161	
23207500	-0.240002841198547	-62.2309880928059	-57.0580067406996	107.58565537935	-57.3051672388724	106.276148157215	-0.17404764019514	-61.7732985320495	
23457000	-0.281137828302323	-61.4594818207518	-52.0694837376947	79.1500237534429	-51.840476546256	77.6092517141881	-0.172795634643742	-61.437941160292	
23706500	-0.527153429363907	-60.98428797393	-47.9143004120998	28.5832932095147	-47.7225190445989	27.0424065447893	-0.42077064249588	-61.5339860440355	
23956000	-0.864883525123288	-62.2112019449118	-47.1417302852711	-24.970769361814	-46.9594592090985	-26.7122172009205	-0.778752394162697	-62.7593966012573	
24205500	-1.10912039223722	-64.2007574657292	-47.8709372301494	-69.8489297629817	-47.7589157981994	-70.5662131263635	-1.01149280398485	-64.9946131655083	
24455000	-1.0042504786201	-65.5052288514247	-49.3058054931157	-99.5135625657056	-49.0108939916581	-100.492976370351	-1.01562542683848	-66.5482593303575	
24704500	-0.675344325389765	-65.804612364661	-48.2605701432764	-128.077347707869	-48.2625785108987	-128.71317873711	-0.802054476839491	-65.9726833202354	
24954000	-0.455810445478713	-64.9291593463471	-47.7396252413448	-172.084173482508	-47.629627554484	-172.602929417638	-0.548300404547624	-64.2815142393024	
25203500	-0.45241476524468	-63.6521637990907	-48.9670089996661	144.045260265708	-48.8387359971817	143.612058751683	-0.485137399656926	-63.0232732855119	
25453000	-0.623948257529945	-63.2983063641079	-51.3352432923734	106.647697409114	-51.3280448509568	105.872913496882	-0.631632320038573	-62.8446833055505	
25702500	-0.818253175221384	-64.7905769137722	-54.7869001722233	76.3638404408011	-54.3629585098996	75.8384463223042	-0.821041738747347	-64.4265935445878	
25952000	-0.812444441016479	-67.4055692934772	-56.6905008923332	58.6694747779597	-57.1201194283142	52.3666836693067	-0.836602147128342	-66.895300650944	
26201500	-0.571413014145073	-69.5067167262697	-58.5490197894919	38.0292646739319	-58.6005052061701	36.6777110363254	-0.593931961139112	-69.0371063812145	
26451000	-0.254348525177552	-70.1602496305682	-59.2261315880519	21.0635811654807	-59.9550044130693	22.8355935651432	-0.296239561423226	-69.9414866042655	
26700500	-0.131841235216726	-69.8222438784168	-60.2019588502327	8.10846337228651	-60.1480037780692	0.666326778543191	-0.172688679255562	-69.5879870181109	
26950000	-0.30077744601878	-69.4366553565646	-60.4634536607703	-16.6437845605397	-60.3257794570004	-11.8107258141571	-0.312719903136342	-69.3002546125695	
27199500	-0.678507495412032	-70.2024575082436	-60.5692081539576	-43.7688142306603	-60.5946167427874	-42.2605152526461	-0.662458928911068	-69.9053036179083	
27449000	-1.02291879501461	-72.146580337853	-61.4856129900451	-67.1792647151992	-61.136864015467	-72.6312924934345	-0.969636919731883	-71.9132183787181	
27698500	-1.15611466021772	-74.0372029448047	-65.7253916941704	-74.5238203731487	-64.8432543019661	-94.1826877941111	-1.06953622197266	-74.050723768807	
27948000	-0.96565124588771	-74.2338011546443	-61.1974699038929	-58.0227833689782	-62.1442611489671	-55.4176998002529	-0.924613398385294	-74.8847318028539	
28197500	-0.599742324175615	-72.9083725827463	-55.3203376940868	-97.7202569558213	-55.597021253957	-99.433544139882	-0.671247213356005	-73.8047344754737	
28447000	-0.398885769264862	-71.6732607850874	-53.4118408016416	-148.153923531461	-53.5565363030593	-149.833894502499	-0.530719349177554	-72.2276292981785	
28696500	-0.492211718600844	-71.4379273572283	-53.2785375913608	167.082414996472	-53.0778501538275	167.865664947768	-0.602711353038906	-71.3659284748821	
28946000	-0.738332467147064	-72.7040252914284	-53.5120291725628	130.73604816321	-53.5999389620759	132.078412460285	-0.810265495770083	-72.1627834650814	
29195500	-0.886472972085112	-75.3158561009296	-53.314088466636	96.8877018138044	-53.4356758551525	97.9227898782717	-0.913948428093173	-74.4880175527368	
29445000	-0.790703548358474	-78.0221418240672	-52.6824211328555	60.7971826475453	-52.7577941748476	60.7060412948473	-0.76651047103106	-76.9592726252913	
29694500	-0.520723785717535	-79.1041476356414	-51.7831296787093	24.112232002433	-51.6510364173792	24.0369967705857	-0.499249719123698	-78.3497693371157	
29944000	-0.351458113575703	-78.3297422955516	-51.1389552390223	-18.2570935936905	-51.2667898259649	-19.0705103002729	-0.299731325606722	-78.3448454230485	
30193500	-0.392625540791304	-76.8900322752304	-51.6307326840778	-63.7321891048129	-51.6176664518024	-64.6025431678432	-0.398804907649379	-77.8334585698912	
30443000	-0.610790715719713	-76.330095235204	-53.2290585004568	-109.492801927496	-52.9411403856743	-108.662834880627	-0.767524420625339	-77.4905539083649	
30692500	-0.871468467962444	-77.4968983813181	-54.618233637832	-131.343546988571	-54.347398795157	-131.290772584969	-1.04318451312314	-77.9702746070908	
30942000	-0.976575586941817	-80.0209954883542	-56.5096820430538	178.502370850373	-55.7893498278803	176.326414662082	-1.23457564019216	-80.4532829969455	
31191500	-0.800060067060408	-82.2753166232083	-64.458289141928	135.353624114657	-62.5875553220984	143.155763872648	-1.07017828265932	-81.5596690786524	
31441000	-0.508531154114335	-82.9158090694309	-72.2613375334856	-175.294993206732	-69.1762301079657	-175.555016810911	-0.70482603534274	-81.4355827950798	
31690500	-0.358551059327752	-82.0939187126422	-62.2112007947788	-170.918902307989	-61.1897595899337	-173.664172121481	-0.438837834348007	-80.4601844356652	
31940000	-0.454966131005189	-81.2157626872133	-57.9616635504552	154.668990020316	-57.5342413879846	153.141081634394	-0.457416077674793	-79.6978531448331	
32189500	-0.76334278964328	-81.3917057549213	-56.2371581720885	124.860914639706	-56.3596365571975	122.814770665068	-0.700440995634893	-80.1054870858848	
32439000	-1.05353667225972	-83.1924073817426	-55.6864796841624	94.5101396346889	-55.5529495390639	91.4215988897807	-0.924276272463488	-82.0419563103558	
32688500	-1.08755708987423	-85.612010853975	-54.9986740477853	61.994152416777	-54.992310705718	59.7986557220629	-0.945500651256008	-84.6146675350287	
32938000	-0.879567742506707	-86.993155942327	-54.4337612413776	33.0721643682045	-54.2649812242281	32.4242365826422	-0.722806311294118	-86.6459169219895	
33187500	-0.612543139225206	-86.6780082357356	-54.0333950421991	1.94034611420749	-54.0087305306672	1.78680981928135	-0.469643954248166	-86.9478687037151	
33437000	-0.506838332349348	-85.3232633984007	-54.3448639634093	-26.8499154916175	-54.3651338064831	-27.8753113615309	-0.429562247034247	-86.138512866139	
