!Keysight Technologies N9923A: A.12.45
!Date: Tuesday, 05 August 2025 19:57:16
!Timezone: (UTC+08:00) Kuala Lumpur, Singapore
!Model: N9923A
!Serial: MY61181427
!GPS Latitude: 
!GPS Longitude: 
!GPS TimeStamp: 0001-01-01 00:00:00Z
!GPS Seconds Since Last Read: 0
!CHECKSUM:1273308761
!Correction: S11(ON U)S21(ON U)S12(ON U)S22(ON U)
!S2P File: Measurements:S11,S21,S12,S22:
# Hz S DB R 50
2000000	-0.108940835082734	-4.12581138538556	-73.5981279343303	84.7722057288538	-74.5394588965447	75.6504574799201	-0.145550745945129	-4.00587616242151	
2249500	-0.434725411798633	-5.12608955169359	-65.5127621458012	59.8099724920826	-65.6996440165555	59.5989723052502	-0.464081518084469	-5.05375901636078	
2499000	-0.575081566359861	-7.14892607396385	-55.8605407481414	-68.3581534204501	-55.7347185143527	-69.4815268511445	-0.624463447517022	-6.75257511659847	
2748500	-0.406548241007134	-9.0987325241953	-66.952759249571	-135.632526672307	-68.2212740418043	-131.239042095085	-0.435559084673259	-8.8554746310098	
2998000	-0.0689832898990986	-9.85699093810351	-74.587413443531	-91.1819350638033	-73.7593677270963	-97.1343731496143	-0.103402432383171	-9.70068163710208	
3247500	0.142755590881836	-9.46614976569118	-71.8451514630785	-108.33327793417	-71.811594350577	-107.886844343245	0.100715741614904	-9.20684949018879	
3497000	0.0788133993326899	-8.82681926876384	-70.7235317824505	-116.268405259706	-70.6798262319486	-112.460713748467	0.0307246744112257	-8.59770851806183	
3746500	-0.230672470476197	-8.921825858109	-68.0208052539635	-131.330832201686	-67.4171255879638	-121.868376007244	-0.270780489744348	-8.66310927223745	
3996000	-0.54776388465949	-10.2628468745627	-67.1618223235605	156.757095190184	-68.3999856135187	147.930013026148	-0.560896303248024	-10.0410763268336	
4245500	-0.569389359248354	-12.4459167538248	-85.1074772209776	63.1242800769777	-83.3554417639846	72.3186899258743	-0.596136773822424	-12.2797386302377	
4495000	-0.307753777900764	-14.1136480862075	-85.716710699112	107.603891313921	-86.2983602632263	-85.839802452189	-0.342397381124718	-13.9318205214562	
4744500	0.0176779749393618	-14.2391643170683	-99.2650165515899	148.600058627188	-91.3336786771556	-148.024970863359	-0.0192787629277911	-14.3052732462158	
4994000	0.154006040518327	-13.6092485260126	-68.1413598424826	61.0630005229365	-68.1610310345655	48.687716431229	0.0932952633528618	-13.94175039474	
5243500	-0.012898788905918	-13.0606991451412	-60.1046340705252	-111.03243282169	-59.8861169014916	-109.089529379128	-0.051032025366857	-12.8458230574127	
5493000	-0.363520997572959	-13.6263052519663	-59.2229865038671	-122.223470096577	-58.8859580132372	-126.527647288453	-0.390505602063158	-13.464418222337	
5742500	-0.628469552408778	-15.6432898466018	-53.1649665980772	-141.858860453233	-52.6798572356088	-142.252001068713	-0.624555686950644	-15.3146370077218	
5992000	-0.578565365190621	-17.8504674525392	-53.5211920868054	69.9203032088945	-53.6899432129318	69.4433555238502	-0.563191177895073	-17.1934060891532	
6241500	-0.236445611630366	-18.6675842842508	-55.5028801847365	106.256819626823	-55.5291579045515	107.117506302587	-0.248188425955469	-18.5090214686867	
6491000	0.0752396657025104	-18.6075984550481	-57.4727722610118	86.0521400848608	-57.5363910763139	88.4395184192094	0.0460363541688681	-18.3865887945509	
6740500	0.115038969523652	-17.8899169910615	-58.2466928260124	72.6563173417034	-57.8085095413026	74.1795635473609	0.0841611263162803	-17.628463867091	
6990000	-0.169720836834386	-17.5191740103458	-55.568627662475	34.8287064104037	-55.4973784384296	37.1069675168551	-0.161905733905394	-17.3101924328362	
7239500	-0.469142129842819	-18.3173253046883	-69.90873818935	-45.3225102126314	-70.6122575315605	-37.5450557592211	-0.497265269715894	-18.2958702577862	
7489000	-0.625404522010994	-20.6826100449126	-71.0489566217994	86.1158317876163	-72.120217178872	84.9431705650459	-0.65028503170296	-20.5133914874382	
7738500	-0.460702625544743	-22.8001675050691	-65.5450631790706	78.3957293922831	-64.8276849054691	75.3575530684724	-0.484558752769874	-22.5347367629075	
7988000	-0.109280631626681	-23.552912770962	-62.3408836204182	71.8460650761654	-61.8310144834803	73.240250728644	-0.142426570694808	-23.2484936604057	
8237500	0.130063286156265	-23.0410589982213	-59.9719471364968	62.9156975801678	-60.0154152308952	66.0997915746273	0.0934985355060319	-22.6490436901845	
8487000	0.0659866801301022	-22.2793461782498	-57.4843284339633	59.6014021251935	-57.1811197407719	59.0090786950663	0.0384540116399212	-21.7465298019976	
8736500	-0.269495719923375	-22.4404403684793	-53.2494915636996	49.1936453316091	-52.9413367982275	48.1923737105319	-0.264563124383503	-21.6587961456158	
8986000	-0.694671233328911	-24.3068497795734	-46.6860157715592	23.9366680070686	-46.4982277756775	21.4145162871269	-0.592179153126443	-23.1104523946581	
9235500	-0.818749617634001	-25.1910599824984	-44.4278704995143	-55.8993268435135	-44.6383230850517	-57.260977858523	-0.654786150677903	-25.3776089072635	
9485000	-0.403543799472554	-27.2765233729749	-50.2813441404353	-91.876549280363	-50.3019899916181	-92.6191253041997	-0.397534801474876	-27.2792577589329	
9734500	-0.0186697241105702	-27.8604351970757	-54.0786136987053	-104.929785436425	-54.0008864622935	-104.908396863548	-0.0492577556801679	-27.6369372396541	
9984000	0.145871171512286	-27.2295623714378	-57.0551888272576	-110.011241660857	-56.9306478959091	-111.501805206849	0.103857345065187	-26.8830105299221	
10233500	-0.0124262320795943	-26.6729949016231	-62.0496748088572	-86.0515513404884	-62.1621035899068	-89.3006418348685	-0.0459191412580781	-26.158619262695	
10483000	-0.409041332155204	-27.2363837071121	-50.0619109832798	-52.7727372932849	-50.0180387934257	-53.7818394852423	-0.41319494814267	-26.4754835925153	
10732500	-0.674224607075702	-29.2510358531783	-47.625390536013	-98.8952369243572	-47.575163495903	-99.9827502333515	-0.66962703749431	-28.3435581951509	
10982000	-0.634055443127481	-32.1961921018411	-46.1238997412855	-115.618087194358	-46.0586240066106	-116.721770964311	-0.62776346291381	-30.9304549442232	
11231500	-0.389494641989809	-34.2310401556813	-42.2396855162789	-136.347749786964	-42.216017677633	-136.569224722849	-0.327115232431223	-32.7179567750517	
11481000	-0.320515284494828	-33.7312239397929	-33.5710917409129	134.553927312077	-33.5590314555289	134.893842658099	-0.45321345642582	-32.5217679925395	
11730500	-0.36451363617101	-31.4058616344667	-45.7874484705947	163.530877396029	-45.6510608420552	164.219181354064	0.0711041363139751	-30.7738125550262	
11980000	-0.632113485000878	-29.6515465604917	-43.3114307178161	136.608292217718	-43.2270451362696	136.339195388192	-0.168495338930013	-30.626997422327	
12229500	-0.855869226326242	-28.8445867453628	-42.3758121869455	102.777174971893	-42.1807263964165	102.180907547211	-0.553955624987866	-31.8920014906294	
12479000	-0.848829787411227	-31.4613032522636	-52.0780412586558	71.3876347912354	-51.7869944385381	71.1182547156308	-0.740742005321526	-33.0695824942799	
12728500	-0.609823971302742	-34.4786832279185	-48.4799024514524	83.5373336172226	-48.2962158535709	81.2985827562374	-0.570734876406588	-36.1862596502951	
12978000	-0.206599995792812	-35.8315866376313	-47.2617040696997	74.0590956028115	-47.2146513733288	73.3161457177005	-0.219048775481178	-37.5198316523712	
13227500	0.077981998941377	-35.5086162317495	-45.8904313397804	64.6407624243371	-45.8241499016736	64.3818845885773	0.022488225017297	-37.3333650850028	
13477000	0.0440069468580332	-34.7017863989875	-44.0215468103207	52.5211364967805	-43.9747961320344	51.9756875667668	-0.0336659088489962	-36.8731343402923	
13726500	-0.279096208849878	-34.7357675331779	-41.1622363602394	36.6048776226943	-41.00680436672	35.7461625903089	-0.386098851611203	-37.352878074702	
13976000	-0.686314073985602	-36.2891407095912	-36.8375400545199	6.15680289541519	-36.6299733296889	5.28814719234492	-0.866486789284543	-39.8305619341592	
14225500	-0.768216921040549	-38.324752336315	-35.4523728615833	-62.1212138535335	-35.3230593703558	-63.7409190682049	-1.19512536617617	-42.0024975072642	
14475000	-0.432687837887661	-40.797672120916	-41.6576633493011	-108.094213250799	-41.2771188059204	-110.601963274759	-0.959759133148896	-44.7733730421749	
14724500	-0.070898595749119	-41.5842022554503	-48.6099624765602	-120.286079058162	-48.7205085458271	-129.185194312761	-1.11490311324449	-47.4519159226502	
14974000	0.0886513251113949	-41.0965086405304	-49.5917471741552	-74.3002683961424	-52.3138026505471	-71.6288380615124	-2.32171542107	-36.2009369206702	
15223500	-0.110325196706783	-40.8199444521698	-45.9184571333116	-106.614690861969	-46.0114261033495	-98.9301550987819	-0.491380704060233	-31.7540390337937	
15473000	-0.641483038238527	-42.039556561347	-60.1543117360003	-21.6402065164884	-58.805329301135	-18.1558529027535	-0.606257692970126	-38.8118540136496	
15722500	-1.15385179808118	-43.1054574002901	-30.6058632953925	-119.253678659093	-30.4699762686172	-119.807141806943	-2.78077702924949	-38.1757812382106	
15972000	-1.22728162092318	-48.8482829637244	-40.9038614672386	-179.410134365475	-40.6655016221048	-179.217623429039	-1.41582422384036	-34.4002623627823	
16221500	-2.2655139025226	-47.1976099062446	-36.1127364771088	165.460175440699	-36.1215938861919	165.253552645684	-0.638841279536172	-38.4643884295046	
16471000	-0.867184883156798	-39.314436509141	-38.5456266165037	109.739116686698	-38.6495707723145	109.639159592956	-0.140973433657835	-39.8654489420115	
16720500	-0.242475149280286	-39.5101099706891	-42.1861090331238	83.150824239245	-42.2417080495417	83.5030801557485	0.0470920415991891	-39.7279816899651	
16970000	-0.317575950745365	-39.6714682243643	-44.6444185313566	64.5894578263837	-44.7723189939789	64.929435109311	-0.12531438242647	-39.5356017217657	
17219500	-0.6746515512606	-41.0545629784924	-46.1929399546105	48.2866715032511	-46.383300343312	47.8725145268322	-0.481217456861665	-40.6857760796714	
17469000	-0.937427427158768	-43.9619206292049	-47.0256066155359	27.5386507429364	-46.9281709250601	27.1883434828571	-0.717889673572891	-43.3062403285309	
17718500	-0.889468463660696	-46.7701105452518	-46.8922698764568	-2.00704815814481	-47.1159560197951	-3.45907676126239	-0.612399002539507	-46.2556450461852	
17968000	-0.562831863718585	-47.3526612211383	-48.142867987339	-50.1625332820805	-48.3881180717414	-50.4868856348281	-0.258459671747971	-47.8610600344343	
18217500	-0.136387424851393	-46.2033781576399	-51.5599894981151	-110.270773703896	-51.8304941045798	-112.651704201173	0.0489814727267388	-47.8106469233467	
18467000	-0.0214652680899409	-45.075553336544	-53.0843007948846	-176.381836490295	-53.2447287201548	-177.693224639572	0.0190387936198255	-47.2907685685352	
18716500	-0.267309081533742	-44.9492747322803	-50.1849534538883	121.800755385145	-50.2218958800983	121.429512369331	-0.392125614648349	-47.8394940604006	
18966000	-0.632317470978274	-46.4998857767279	-54.521834861305	95.3196472529984	-54.5886917302864	96.8825863158907	-0.806069010771659	-48.5666847835973	
19215500	-0.76265089607977	-49.4861125391087	-44.1192606149943	57.315322036121	-44.0226119349815	57.8775724477728	-1.42170299101654	-53.9213882466025	
19465000	-0.547377259833001	-52.1771614052283	-40.8170951291304	-33.0225787264439	-40.7404231263624	-33.3639752524483	-1.69996043346079	-47.5881318136844	
19714500	-0.157953931178303	-53.0273611320014	-47.7412204206951	-92.8866844749053	-47.6414905667026	-93.0905183722555	-0.336910343955711	-49.7220118967855	
19964000	0.0786756120452601	-52.2539227002067	-59.9703279753325	-143.614708424596	-60.327035784111	-139.718671583783	0.00291279227052915	-51.6245068046976	
20213500	-0.0499020499243216	-51.2615095235364	-44.9544113410892	11.2172636629833	-45.0243745020453	11.1356098990375	-0.559677533982171	-53.564225230745	
20463000	-0.463938346886779	-51.3768127695228	-37.2328945101866	-97.4425994601828	-37.1605113637989	-97.4935465114251	-1.09953673431391	-44.5807757181587	
20712500	-0.862498613939767	-53.2693611687795	-38.8879684422458	-152.791841472241	-38.830972323241	-153.176474901838	-0.833899764692073	-48.1342380021694	
20962000	-0.964137672936581	-55.9068134994486	-39.1197222671825	164.346495361022	-39.1296386968607	164.077293010252	-0.802889140356154	-52.1074188495348	
21211500	-0.648697503024461	-57.447067456762	-39.4444901738566	124.641827059876	-39.5031035114716	124.455671349796	-0.508331625271437	-54.9179510810182	
21461000	-0.213495124541393	-57.2283448270451	-39.8320954894054	86.6002557755534	-39.8727194862028	86.6420087970582	-0.122269054555493	-55.7153417193736	
21710500	-0.0206425163951075	-56.0254099097434	-40.5628932267424	55.0941026426895	-40.5182042290793	55.4382080736447	0.0379787053795084	-55.431680602076	
21960000	-0.189968044768869	-55.3002487902666	-40.5672178163551	30.5459110041702	-40.3870156069904	30.7566860820247	-0.162449938776836	-55.4429579543032	
22209500	-0.583129950188027	-56.1601427037863	-39.2411424248182	8.15119553573349	-38.9948013524886	7.53240986343853	-0.635137056922883	-57.1959875892408	
22459000	-0.885764681534056	-58.9693923401648	-36.3127403043118	-17.6924952275898	-35.9898282398449	-18.7559219227316	-1.1429056963003	-61.2275371589756	
22708500	-0.844406819464288	-62.1389181771905	-32.0464144041352	-58.823605100061	-31.7761591886089	-60.541292783397	-1.76229601131826	-64.5965923809075	
22958000	-0.512916710989304	-63.6304580807554	-29.729791140884	-122.884124827473	-29.5613458924364	-124.892197740719	-1.86672669488461	-60.3251545873108	
23207500	-0.237788128429976	-63.0600327850257	-31.5654465091715	169.804788528133	-31.4441616692829	167.725734648016	-1.18050884816352	-55.4955560165082	
23457000	-0.201764065403738	-61.7648709042258	-36.650168311729	123.650704605468	-36.5415719811768	122.126093583113	-0.558451141207151	-52.9600472869284	
23706500	-0.561555800101186	-61.7131649651115	-40.541560776512	101.281808912087	-40.3510704952057	99.2452477727714	-0.534333456740409	-52.9653768305825	
23956000	-1.13364971245516	-63.5799937610992	-42.2751701125663	80.2940148208384	-42.0920588086054	78.4095639827321	-0.805953806566193	-54.3988135735212	
24205500	-1.60893230626856	-66.7583300706112	-43.1709270404218	53.7187668583452	-42.9507094723049	51.851781852331	-0.918375478950928	-57.608559014628	
24455000	-1.74285746746497	-67.9464097777049	-44.1425042033266	19.2480121185524	-43.9677680645961	16.6605090887528	-0.704211934135794	-60.7216694435366	
24704500	-1.31182239038945	-65.6529580842079	-46.44839107096	-17.7663499233573	-46.3468353803656	-20.1796060588372	-0.276170883257839	-61.8438066158425	
24954000	-0.724458847175777	-63.6108801112145	-49.4554612409736	-50.4932029704921	-49.3791510139748	-52.120178852468	0.0126987262278581	-61.3084316215033	
25203500	-0.649421504646219	-63.4324861092777	-52.3956115794321	-80.4403580068844	-52.1245726152872	-82.4225282390302	-0.0167080450063432	-60.3842507230703	
25453000	-1.33331474393496	-61.5676010904083	-53.0826131354424	-95.3791629141177	-52.4689124382942	-95.4441127549861	-0.33485895984144	-60.2845974710968	
25702500	-1.69988075880108	-63.0648055395977	-51.6795663789241	-132.731347610335	-51.3578647949933	-133.070990621503	-0.699743150720208	-62.2541613590192	
25952000	-1.90226345646516	-65.1749626256153	-50.3461307625198	-178.183446401795	-50.1333726378067	-179.849155430901	-0.807079545249149	-65.5477460383899	
26201500	-1.56035292541874	-65.6969755415008	-57.2852375797564	88.7102900170109	-56.7365283925153	88.6839999189888	-0.717273426056558	-67.8833405367503	
26451000	-0.888808407543019	-64.6555902071031	-52.436775706857	129.897876513829	-52.1449247201784	127.635788764103	-0.137585588076447	-68.0075359464424	
26700500	-0.433050867012884	-63.176911837362	-52.0890580170101	97.1634267866414	-51.8262717102349	95.9246465909077	0.0757048709920675	-67.1644154195188	
26950000	-0.4110641168525	-62.0424953762559	-52.103303212447	74.3744788088503	-51.99338230899	72.9697888400135	-0.055497234142297	-66.2171670595592	
27199500	-0.704506061641603	-62.5185302252966	-52.0595907711936	55.7231375295773	-51.8227150922065	54.1651880160869	-0.446781557073438	-66.4687840755053	
27449000	-0.968429579040461	-65.0017369919184	-51.3560889988719	39.3045320603993	-51.0420093776765	37.2148339379595	-0.761819480719702	-68.8016813956077	
27698500	-0.920209013317103	-68.3882837110005	-50.3704404812766	19.0036409374764	-50.1589588616292	17.4993723717918	-0.746611509659287	-71.9513080276381	
27948000	-0.546197251997209	-70.471719650607	-50.7508290023653	-13.2580811581018	-50.505320925536	-16.3892173597044	-0.420062321684971	-74.1214432771403	
28197500	-0.110364444037949	-70.373809694533	-53.5599288141665	3.1421763729564	-53.1950837091006	0.928073370992397	-0.0674436589045199	-74.2348355943408	
28447000	0.00406546222469839	-69.3805081081211	-48.4403760663639	-7.47470281812994	-48.3372276087033	-10.1169414238746	-0.00847811508240007	-73.4358953781143	
28696500	-0.250894098696853	-68.6796474407133	-45.8344167631925	-34.235009464132	-45.6594951146506	-36.3269418685631	-0.301044546806813	-72.8946779133628	
28946000	-0.66710401040419	-69.4569909592264	-44.3315503642788	-64.7987930215797	-44.1207519458539	-66.8594493504027	-0.761287243622272	-73.9960268230817	
29195500	-0.89878371839883	-71.9986008879837	-44.2256828945976	-92.8953469483335	-43.9087435592562	-95.208516919206	-1.02983791939308	-77.0450208378864	
29445000	-0.734749766332272	-74.8865541539932	-44.6260204994518	-116.786157888122	-44.289225912473	-119.624572916535	-0.919496905859582	-80.4065169309223	
29694500	-0.295935225941347	-76.0444415104373	-44.8950794058952	-135.918600416589	-44.6352274724478	-139.626344043652	-0.668518686788986	-82.2338959370898	
29944000	0.0196053014390605	-75.3148718488919	-44.7280977930444	-154.725079218368	-44.5828860834378	-157.277930570889	-0.524298606535644	-82.3648583155879	
30193500	-0.00750611572278877	-74.0022160963607	-44.4641473305298	-172.745079888689	-44.148321112474	-176.577621452576	-0.914263713988581	-81.8858635603335	
30443000	-0.343082726880258	-73.5880156133135	-44.0078844917344	167.006394403964	-43.840640779462	162.960205345639	-1.81519177313869	-81.476016645064	
30692500	-0.747096540878017	-75.1659081992369	-43.8380005652482	144.499261367492	-43.6061353871035	139.984205572631	-2.90256910292859	-81.1054015347075	
30942000	-0.900077338952014	-78.423631769992	-44.126680857078	119.751010368528	-43.9479570552738	114.996332837801	-3.43056892604073	-79.2601169997812	
31191500	-0.633695797384053	-81.2711595631571	-44.971922588033	96.1500862162189	-44.9451436457659	90.0482639957242	-2.84652987531269	-76.9746572126035	
31441000	-0.209663398090542	-82.0476650893117	-46.1119292405468	80.0713452487216	-46.2669091591341	75.2305101477624	-1.8542981873782	-75.8055333746422	
31690500	-0.000768011976539063	-81.0292768840543	-46.2180326206268	64.7778278104043	-46.835791299475	60.4930518536923	-1.24475104271125	-73.804363466559	
31940000	-0.150550476363295	-79.8478276541399	-46.7196890274788	45.9893025855231	-47.4375087250563	42.9648242446931	-1.1199602378493	-71.7067629911613	
32189500	-0.589926966037679	-79.9817534324287	-47.5824320282075	29.5084023924698	-47.808383629846	26.2563056875902	-1.35816460707804	-71.023157964908	
32439000	-1.0055882807912	-82.3190533779501	-48.4515564319612	10.0951487264794	-48.6265595473268	10.6876531632218	-1.59214109096585	-72.5219459403389	
32688500	-1.07443053027595	-85.6154106536481	-49.1780911919041	0.120816302636907	-49.335139187414	-3.0339171009593	-1.46147835652316	-75.8734048243042	
32938000	-0.831765903262494	-87.4453917764139	-49.6957084883731	-13.3481488094192	-50.0337840177791	-15.5268334820516	-0.952832930921953	-79.2824870829868	
33187500	-0.563017868438271	-86.6219665861871	-51.1119945726886	-26.5762517494829	-51.3791733916698	-27.5784079337915	-0.389270745272902	-81.1742399203975	
33437000	-0.501968144415931	-83.8752939053981	-49.2843307106527	12.7301630216936	-49.3051609450422	9.79331598507122	-0.708226976974712	-83.8420924264798	
