!Keysight Technologies N9923A: A.12.45
!Date: Tuesday, 05 August 2025 18:31:15
!Timezone: (UTC+08:00) Kuala Lumpur, Singapore
!Model: N9923A
!Serial: MY61181427
!GPS Latitude: 
!GPS Longitude: 
!GPS TimeStamp: 0001-01-01 00:00:00Z
!GPS Seconds Since Last Read: 0
!CHECKSUM:0483144678
!Correction: S11(ON U)S21(ON U)S12(ON U)S22(ON U)
!S2P File: Measurements:S11,S21,S12,S22:
# Hz S DB R 50
2000000	-0.0749363375261516	-4.78486158052968	-73.0495977904789	-103.635890925398	-72.4296730463942	-102.421639454699	-0.0887309106179676	-4.76710069939423	
2249500	-0.303476241987759	-5.68589063361747	-70.6815144637337	-107.296916825786	-71.3162184677267	-127.381238883365	-0.308202918039499	-5.63001972224514	
2499000	-0.40097390148709	-7.31994986021485	-63.1024944446171	-112.105907733185	-63.5680542098376	-110.563365692123	-0.398573989672187	-7.16890180643023	
2748500	-0.293995166331743	-8.69141557504057	-47.3606221052682	125.354907700997	-47.0861179785434	125.504467769281	-0.323242941205965	-8.36362812805762	
2998000	-0.0435152624459861	-9.53666501489739	-59.9227665787993	63.0488787609223	-59.2368556330464	64.5080929562922	-0.0398821426214944	-9.21761331906629	
3247500	0.114712407868185	-9.35555849533569	-64.224721263933	67.2099726740489	-63.261220181255	64.0792111342718	0.105467245694018	-9.1447298371813	
3497000	0.0734661578899111	-9.10840876162272	-61.1938634870265	57.4333025317209	-60.8816688330388	54.604844237648	0.0499378151696123	-8.97131494647259	
3746500	-0.157902321648799	-9.4245672817896	-55.6010866356807	27.8105553163533	-55.422674043357	28.2163603875794	-0.185613535314671	-9.36721586620635	
3996000	-0.425286605802015	-10.6845363521092	-46.4783899648619	-39.8660433173366	-46.4609391155051	-40.249208030593	-0.465058128604322	-10.5239215388933	
4245500	-0.457673367734648	-11.9322258778809	-48.8229517340961	176.203012432073	-48.985098510299	174.604552846807	-0.491153141522419	-11.4882741416305	
4495000	-0.27634124519966	-13.5679798226933	-52.23428153841	-4.38233658104258	-52.201911524133	-5.73373489770739	-0.25778951019906	-13.3613184941818	
4744500	-0.0506530254763617	-13.4731038788298	-51.4125289860947	123.420314702705	-51.3517380116603	121.005025741553	-0.0104139965513731	-13.141154488805	
4994000	0.109234104097961	-13.3259343027418	-60.9815559920458	66.4033685907693	-61.6396122049749	68.4513155000202	0.109336811179588	-13.1197384924254	
5243500	0.00477978359786746	-13.2729867350686	-68.0120687022463	45.5948349420589	-67.0163218441141	45.4869326712325	-0.00198659287494308	-13.077967462951	
5493000	-0.239012512031802	-13.9376969361672	-72.9978620595243	24.1515487087666	-70.7071279210317	26.7297513954642	-0.246387747338258	-13.7824885493022	
5742500	-0.413245470795179	-15.5661143205597	-71.2994613091267	16.233203088885	-75.9943566150483	11.4797118833973	-0.406277405731925	-15.3950432601477	
5992000	-0.361647431048122	-17.4721001088604	-73.9393798865998	-2.43790265633319	-74.6420628202452	6.36739639534552	-0.357241030166445	-17.3017400470713	
6241500	-0.124769945684086	-18.7207892599942	-75.9992004369855	-24.4244102133848	-77.6724944744131	-40.6679850403573	-0.144000654185817	-18.4800540882706	
6491000	0.0740756615277979	-18.9698942073268	-77.1226671672974	-122.270727785819	-75.184862040263	-113.567178684684	0.0625306884404141	-18.774651938777	
6740500	0.0950232995965618	-18.7832965680134	-75.819791714187	141.169922186015	-76.5573241983931	157.643838871531	0.0816374287915924	-18.5078659606319	
6990000	-0.100703563402998	-18.9845792330206	-77.0993750268183	161.922490381917	-78.1420122922738	156.148086422932	-0.101330037256392	-18.6212820872518	
7239500	-0.398696908969554	-20.2583045296551	-66.5565251102002	149.106696803155	-65.7510318851881	148.913286251939	-0.352795097417468	-19.7048347960151	
7489000	-0.65678826057495	-22.3169693202468	-54.4866084038251	103.056707039219	-54.3475654478472	99.3501506836417	-0.495290225186864	-21.6772820841368	
7738500	-0.720508610222288	-22.6195811037322	-45.7366992994778	17.0512081939648	-45.6191551167036	14.3677216648034	-0.459651324155053	-23.461385670894	
7988000	-0.296709950960806	-21.9568579116617	-44.5901149285014	-76.8474680494277	-44.6084838686665	-79.412103503566	-0.36557459441037	-23.7837751464661	
8237500	0.0249430795325572	-21.9833275693026	-47.8413219521118	-154.21271580811	-48.0791897670038	-155.338006492465	-0.194408783174133	-21.950438404972	
8487000	0.0365293795233449	-21.8664620470994	-55.6941433276504	165.236817125099	-56.0601699064676	163.198260080051	-0.0440098603318602	-21.6236372979425	
8736500	-0.168190288470626	-22.2350276508928	-54.9608886447394	142.386031660575	-55.1922910493525	143.454261400288	-0.260567679410775	-21.3264911215348	
8986000	-0.390070445953713	-23.6360211069284	-57.4066680515014	120.163470614897	-57.930537010117	118.41240692402	-0.429102263831662	-22.7690000675211	
9235500	-0.433001045619063	-25.7480022474406	-57.7841394805194	101.586882722919	-57.8016528893421	100.509825740214	-0.447211382370655	-24.8071034922889	
9485000	-0.253583708486211	-27.4779300606174	-56.3758096000639	80.7954676626053	-56.8056259445897	82.2699682421149	-0.26187993570868	-26.5372010610102	
9734500	-0.0204313437505455	-28.1590250803029	-53.4216991595418	54.158921546104	-53.4045732638275	52.7839201207713	-0.00971501578655309	-27.1778782948374	
9984000	0.0339130747882427	-27.8166516921936	-50.2177486731785	-0.258234044615896	-50.1731771559466	-1.95881891794138	0.0964575687079748	-27.011014106829	
10233500	-0.0673808496146178	-27.3399005247894	-51.7087380806228	-61.2969629231089	-51.6621157718239	-63.2723425012676	-0.010030529216495	-26.8170641712581	
10483000	-0.324665602484047	-28.1774286582077	-53.4635014492606	-98.6566384141977	-53.3506473307977	-98.5863585978886	-0.263258015984284	-27.4624290791738	
10732500	-0.57478503030624	-30.248437017155	-53.1497528518232	-126.129177918203	-53.1190213166463	-128.226181549853	-0.455718659463858	-29.2688591599322	
10982000	-0.713947091047347	-32.5567663398997	-50.7909463440145	-163.507996343789	-50.7642166826147	-164.686416751572	-0.446284760987904	-31.5028266683368	
11231500	-0.686384233826488	-32.2012997355937	-48.227992078572	138.247904769725	-48.1343765532054	135.360414474829	-0.266661754498683	-33.1414900968687	
11481000	-0.266557069481308	-30.8035452713126	-48.5800397791214	82.8253713307617	-48.5620058040976	79.6851715149394	-0.125626892462199	-33.6737081835876	
11730500	-0.0716465525703614	-30.4241068960184	-49.0341413245362	22.0123220292349	-49.1264562617031	18.2871714539072	-0.283389161240069	-33.1256003272407	
11980000	-0.189576189113403	-30.4194807953957	-52.3593515877662	-53.4519529189446	-52.4164262140747	-56.4839400079554	-0.611859131272726	-31.2693962125788	
12229500	-0.414952984566549	-31.5228524151309	-62.7714607071848	-112.762872388442	-63.1089796411536	-114.013096142681	-0.724287369859947	-30.459250226256	
12479000	-0.533444051301506	-33.6449659319922	-70.6841940104377	-70.6508341350272	-69.8578825941449	-77.234784411619	-0.670357907132949	-32.0646663276864	
12728500	-0.416766456820801	-35.8451457722391	-69.1026207548048	-83.447793652903	-70.2217545029603	-88.4312053980501	-0.469325743896066	-34.2324306328243	
12978000	-0.164036166891152	-36.9898349805578	-70.5738974820552	-144.309069778641	-71.2310866828233	-150.734321335058	-0.157395153552409	-35.61304689246	
13227500	-0.00874213031331381	-36.9433225746201	-61.7662885093765	47.7734134181963	-62.0804412632567	53.998602552653	0.0368371834766575	-36.1288520055999	
13477000	-0.0836394603877497	-36.3269654017429	-51.4012251618031	-142.71330726032	-51.3379632966904	-144.571749400371	-0.0678371719861076	-34.9505173402101	
13726500	-0.321966695258208	-36.2692902961784	-55.7037373000649	116.457916902773	-55.9083688682874	113.504177672541	-0.200206095533633	-35.4467791980781	
13976000	-0.571691130918166	-37.6548012192985	-55.3381645552643	34.4706295218558	-55.311453326746	30.5163718441413	-0.437324269950066	-37.0633572544215	
14225500	-0.699163246390889	-40.0723685866068	-51.7919462736425	-36.1615550798382	-51.5934307001362	-37.3678676105927	-0.527773872087801	-39.5133244442471	
14475000	-0.680468259652831	-41.3803319284301	-48.7899314636235	-113.067839360377	-48.4207650561142	-113.50321077399	-0.471904054176152	-41.8374465565881	
14724500	-0.368505956755612	-40.690869972094	-51.115317155216	-164.595471299409	-50.6521946940093	-166.786567076639	-0.533267458668816	-41.8819725953532	
14974000	-0.200328238527825	-40.0760788500624	-46.9310701365169	144.354457357885	-46.7290932601191	141.319510843163	-0.351694696474911	-38.8793592837526	
15223500	-0.270931613807585	-39.1214729608228	-48.037289302946	78.5748507365628	-48.0864053182099	75.8153755336359	-0.214596962943669	-38.1130036681237	
15473000	-0.460097056760469	-39.3184890075474	-51.0982239700368	30.4966442552758	-51.0893549496129	27.9188717687728	-0.364035954037354	-38.9868903460418	
15722500	-0.626362317585961	-41.1779903617016	-53.5379357343338	-3.28635603201023	-53.5750029078157	-6.41426719653941	-0.532166340198639	-41.0046645315828	
15972000	-0.584947906215343	-43.6053862589708	-55.0154166524161	-32.1300485467722	-54.965189090065	-34.9979723596306	-0.514861630581	-43.4386529287257	
16221500	-0.344785606329477	-45.3342722912947	-55.6189446466703	-59.4709368332993	-55.5502802195713	-59.9086331454941	-0.302253546444846	-45.1991833110915	
16471000	-0.110776908116722	-45.8265135802981	-55.0380487699575	-88.5001493461021	-54.8639162499483	-90.8744736969644	-0.089849266633157	-45.7821898003092	
16720500	-0.0894771608813146	-45.5200067384934	-53.4388609047469	-125.709937532757	-53.4633852310774	-125.393974179689	-0.0864098632120479	-45.6823323515328	
16970000	-0.334337504324007	-45.1860710994024	-51.5383607559489	-167.681216405224	-51.6239557028653	-169.015209128509	-0.373888455650673	-45.6491026050901	
17219500	-0.677440844899107	-45.6521376318877	-50.5600199875612	138.626137975064	-50.9694801928835	137.714095115236	-0.823494164562873	-46.1695198003108	
17469000	-0.847509919638598	-47.3479623493042	-51.515798733959	79.6869405344929	-51.7615542496683	79.7598106620533	-1.11918322735536	-46.6995101621532	
17718500	-0.787030905331513	-49.403699691325	-54.3303708436287	26.0854645946267	-54.498982553199	28.6400045216093	-0.977631011336588	-47.2494598772801	
17968000	-0.611395472481897	-50.2470903026155	-58.4158480794589	-25.5554929083051	-58.3995464145421	-19.5095833596492	-0.564453848591996	-47.6715433990976	
18217500	-0.435663555817713	-49.0584611268045	-58.118009503486	113.425623243372	-58.6537386995533	109.304144222203	-0.203427830358245	-47.8126033666573	
18467000	-0.365047408088303	-47.4376575819723	-55.8508348049	-55.9440279711032	-55.3671020402235	-55.2137404160186	-0.172522053115258	-46.8366643067151	
18716500	-0.465584985547308	-47.1135047454457	-59.8028927019174	-103.817184421735	-59.861429442735	-102.972276326535	-0.313549252875174	-46.978972530624	
18966000	-0.650791261165471	-48.4048831649012	-63.4475173162327	-149.43746865773	-62.8028486395977	-147.713866798518	-0.538644139191076	-48.2935659703055	
19215500	-0.694015304846685	-50.8164031750769	-68.2440787702797	161.622194523834	-68.2126116212211	171.202958294556	-0.617187102840764	-50.5602345620861	
19465000	-0.514126419093967	-53.0302973312893	-69.2195536071881	90.4452344339702	-69.0509054194424	92.890542630572	-0.469756006811658	-52.7472351111041	
19714500	-0.22461769608579	-54.0473698981846	-64.2068512370724	40.004973609477	-64.9596255721981	37.5563466535553	-0.200812092460087	-53.837259285385	
19964000	-0.0750141676100566	-53.8896190158543	-59.1723655797934	-7.08102830450949	-59.7717338140108	-5.31811267008205	-0.056780096291793	-53.8213055609263	
20213500	-0.213374503253343	-53.5185660760411	-53.7256043755658	-47.3291979467668	-54.1363683392905	-49.062528107327	-0.1701945497574	-53.5820276916166	
20463000	-0.552401831078571	-53.8506629354184	-48.9182051427354	-93.3659899506472	-48.9566134575667	-93.6570039270994	-0.488992570207568	-53.9882880836166	
20712500	-0.840806259247338	-55.318008926938	-45.2474590323329	-142.803411354001	-45.491430185394	-144.056495292674	-0.811109994870545	-55.5762735911601	
20962000	-0.902702617449668	-57.7065505138894	-43.0631889156226	166.11302272587	-43.2516387506289	164.487967922523	-0.944202803315421	-57.5541953209562	
21211500	-0.781827265916909	-59.4554517513008	-41.6577918366844	116.143729853737	-42.0253616741081	114.992014798466	-0.882347193169721	-58.6153400809887	
21461000	-0.656211150311938	-59.2139981177435	-40.892029351463	65.4724595810544	-41.1959134370602	65.2019061539238	-0.693205103292628	-57.7120317554209	
21710500	-0.661184867437705	-57.0050172923566	-41.4746719370938	12.4371353367108	-41.7869127075165	12.1023455754458	-0.538033094080934	-55.9212707671826	
21960000	-0.71404915803979	-54.8957113622342	-44.1195950228561	-35.6805680113478	-44.3321243625022	-36.0704327520944	-0.549933051926304	-54.7692680122752	
22209500	-0.81539261280704	-54.9113268198666	-48.1313989004217	-68.195469256062	-48.207032025023	-67.8280826140322	-0.714079520250499	-55.1298656404154	
22459000	-0.895130567463778	-56.9193132095511	-47.567619722809	-73.3676365396205	-47.7148942773396	-74.0874226421392	-0.808589157194322	-57.0568810258851	
22708500	-0.728387932452494	-59.4202011572033	-47.9206723549323	-108.676151989993	-48.1411433559085	-108.901543108589	-0.688811312683322	-59.3011340139939	
22958000	-0.405143293087107	-61.0718129820535	-47.8521930231904	-134.580307966375	-47.8853725534424	-135.316518761191	-0.3984189747475	-60.9020493486339	
23207500	-0.141195420516064	-61.3259469597079	-46.5243039750205	-164.41932867598	-46.4719204500783	-165.835409219811	-0.159266144758363	-61.2225060944469	
23457000	-0.119326358868541	-60.8256735341851	-44.3685863428605	153.314750441048	-44.5213674385626	152.056721864369	-0.174061151232212	-60.8527010028924	
23706500	-0.333538192341437	-60.7497608653925	-44.2545725781024	95.5356039859954	-44.5974621806889	95.2265699196761	-0.399829564377057	-60.4643302049756	
23956000	-0.627987255524937	-62.1637886683232	-47.1189609749661	46.3050074706995	-47.4293847440895	46.182339041677	-0.643986403557505	-61.4776889401989	
24205500	-0.808783355702006	-64.8234982896563	-50.2947342698413	8.19587500950152	-50.5569682446323	8.47012761199284	-0.755164074797777	-63.9429135770619	
24455000	-0.766647578726404	-67.1924614245507	-53.5729759737612	-21.3781552332416	-53.585406492098	-18.4542439279646	-0.651759513700332	-66.2902689863009	
24704500	-0.607583222149958	-68.045200195005	-56.0372228953308	-29.8168028936176	-55.5422348189691	-28.0824399957431	-0.437335593002998	-67.3002237621221	
24954000	-0.575361303227945	-67.2448712642011	-54.2065778195424	-48.788455015637	-53.5461656098825	-49.3993680989493	-0.378523106396693	-66.9410500384193	
25203500	-0.780416925622852	-65.2690470071895	-53.3741473243848	-92.0349790079028	-52.723580665167	-92.6747912925122	-0.578821590109624	-65.9636250082125	
25453000	-1.00809960407177	-63.3638882144712	-54.2366298676668	-137.192314506392	-54.3321577636412	-140.785076545808	-0.943401154935883	-65.0092101292733	
25702500	-1.09736930588063	-63.8399957718375	-59.0753576415737	-170.75178029839	-58.6450234303019	-165.411725385567	-1.21944909776109	-65.1891359208606	
25952000	-0.975568610993756	-66.1841542920765	-64.9751890321049	-178.74024448203	-63.3995634205605	171.759466063088	-1.17277070857246	-66.3894990819642	
26201500	-0.654040822933025	-68.3430240606453	-65.2040269283751	-178.677682522091	-65.0610864526486	179.475654350529	-0.797442547293581	-67.9538631236512	
26451000	-0.282425216007221	-69.130625398333	-63.8073106637678	-174.448394336175	-64.7555444315471	178.250989685818	-0.382711155494704	-69.0844830586887	
26700500	-0.11799012381908	-68.9447177027732	-63.9354993046319	160.022629004102	-63.7408903089574	163.607848919402	-0.388625415348533	-69.4311594264927	
26950000	-0.250780046195574	-68.7019954279344	-60.0696424182121	175.453431948713	-59.9309779695743	176.963288861738	-0.475862394228412	-67.1653510232079	
27199500	-0.600350393290372	-69.5577040161391	-55.4471529313282	155.268100380359	-55.6353461917745	153.781915683607	-0.63350684850193	-67.5336015752047	
27449000	-0.921467247424817	-71.3900860019935	-51.3645097100183	120.099791663906	-51.4046658546564	117.593950012666	-0.791778795980427	-69.6228433654993	
27698500	-0.968293330157713	-73.2083196207324	-48.87305348367	76.031742318426	-49.2349372253844	75.7620515111155	-0.747518054949957	-72.1931929518059	
27948000	-0.713345975161006	-74.1905205028602	-47.9219922252268	35.353703740641	-48.0282166936667	35.2225190864696	-0.502661960919699	-74.1263569387934	
28197500	-0.431083662630817	-73.6809754893821	-47.4866901181123	-3.3019918673547	-47.6823495203357	-4.32818263295149	-0.260966135276715	-74.5397182117744	
28447000	-0.335082143679309	-72.511258931829	-47.7914697038564	-40.8637250659068	-47.8424844571396	-41.2345148864093	-0.246979309178387	-74.2379757798535	
28696500	-0.471365752233829	-72.069339814337	-48.2210087684085	-76.6718829669205	-48.2791646581589	-75.935310761779	-0.502498406626949	-74.062475402867	
28946000	-0.724623220658406	-73.1744398300331	-48.7467412315512	-108.347504030189	-48.6214314100475	-108.854568907914	-0.902808070841892	-74.9501159674907	
29195500	-0.870334710064102	-75.7103340302308	-49.1747461786816	-139.252277072731	-48.8244643874632	-140.015553113025	-1.18860629622653	-76.7730832734689	
29445000	-0.773819582379772	-78.4296907259335	-49.4217439750772	-172.724750668951	-49.1928789627771	-173.641530467915	-1.17408843905225	-78.0842557792039	
29694500	-0.517337188981607	-79.6849546378221	-49.7593189140047	150.491257571855	-49.7368163834062	148.37594891983	-0.919892181350781	-77.8711931950007	
29944000	-0.399848118213868	-79.1433229653176	-51.0630022167511	113.153612697878	-51.1758200421283	113.039973505799	-0.576716138831097	-76.547896717304	
30193500	-0.530553806856441	-77.6042447051332	-53.546679076271	83.0431423201211	-53.3308559268625	82.163731319973	-0.439966487413656	-75.6665635439126	
30443000	-0.792192886269689	-76.4099844597561	-54.879423871835	65.1918626722742	-55.3210911330675	67.0353531578623	-0.595640813715397	-76.1488632958269	
30692500	-1.01054252471683	-76.9683774412687	-53.436047798382	42.5226582477023	-53.2326220315967	42.9829820265389	-0.970253742185191	-78.2937765422441	
30942000	-1.04374890271731	-79.2023986629298	-52.7559375272393	-7.52289081030298	-52.5722345609389	-9.28620073318923	-1.23527957096333	-79.5051468626522	
31191500	-0.80550818592977	-81.4286049932533	-55.0462800475555	-46.2031640760564	-55.1955998610044	-50.0743155008559	-0.93409296398173	-80.5624879665085	
31441000	-0.472794266022254	-82.225330931774	-57.4585254949998	-77.5435661592612	-57.5077305951547	-81.8273725564385	-0.521341366173479	-81.1252718302164	
31690500	-0.299548307659766	-81.5762889446963	-59.8514482154559	-105.443819430966	-59.4982194817904	-106.890867578107	-0.284977296628236	-80.7707335846354	
31940000	-0.369197484250223	-80.7838853534499	-61.1218344876694	-134.880786848663	-61.2875888108909	-132.366650566739	-0.352696571619531	-80.3989873648628	
32189500	-0.636321811190697	-81.02664335837	-61.4366708587141	-154.515269792798	-62.6649561143083	-155.607721170087	-0.645601007016732	-81.0162324618811	
32439000	-0.876183396589572	-82.9625181850401	-61.1766284672841	-169.011056830263	-61.7520437721012	-166.608231429918	-0.921433901746219	-83.0228994767288	
32688500	-0.871302172822922	-85.6411084439695	-62.2124802428288	174.69190386249	-62.7609788459578	179.189898484173	-1.00615627885389	-85.5413827720756	
32938000	-0.655196799809409	-87.4956818400581	-61.0727670128235	150.782297894466	-62.4254687036267	147.211268796703	-0.856489437459399	-87.3610142713359	
33187500	-0.430273606648269	-87.8059467831631	-59.8424159168361	122.131346378467	-59.8391141909853	128.18622877589	-0.669512788636453	-87.186816043893	
33437000	-0.42398101898479	-87.003665517355	-58.6806248783186	97.5141998244955	-57.9574075586925	93.6908737752885	-0.643293192997627	-85.6440668974244	
