!Keysight Technologies N9923A: A.12.45
!Date: Tuesday, 05 August 2025 18:14:12
!Timezone: (UTC+08:00) Kuala Lumpur, Singapore
!Model: N9923A
!Serial: MY61181427
!GPS Latitude: 
!GPS Longitude: 
!GPS TimeStamp: 0001-01-01 00:00:00Z
!GPS Seconds Since Last Read: 0
!CHECKSUM:2104198927
!Correction: S11(ON U)S21(ON U)S12(ON U)S22(ON U)
!S2P File: Measurements:S11,S21,S12,S22:
# Hz S DB R 50
2000000	-0.0751183607198774	-4.88666019477252	-90.7784884852143	12.0961438939228	-91.5255147745574	-18.5029297244285	-0.0866461402534588	-4.88699472279119	
2249500	-0.278422926370718	-5.82112692596122	-83.9630208920801	57.2776399449548	-88.2951934306747	81.3480038516621	-0.28508547580374	-5.81759202463252	
2499000	-0.365546762286604	-7.37795386054689	-66.7790869689689	-40.5413863681645	-65.4015805939477	-37.4571586545673	-0.381045742820942	-7.1760066305644	
2748500	-0.257265676366304	-8.85571412564503	-73.4117245764596	-81.3744030990511	-71.5576283361906	-91.1115926030874	-0.266175923843337	-8.6724347985212	
2998000	-0.0457650882896106	-9.6151620599968	-83.0750962008967	-162.94942587404	-74.64458795513	-120.297141385105	-0.0507860018348733	-9.4032786456171	
3247500	0.0863138074545439	-9.62415358383289	-83.3990799023147	-142.067084768189	-76.7240818748821	-118.990853307996	0.0791321385703883	-9.37222312218802	
3497000	0.0481632999492282	-9.4944843276745	-72.380976789693	-129.639617954085	-75.2686307982209	-104.727488851753	0.0322909081469329	-9.29574516177669	
3746500	-0.15290481541713	-9.84552007098331	-68.4804985211533	-128.10352417331	-68.0209369462098	-125.767398438354	-0.161260149264399	-9.66017119514829	
3996000	-0.352748903257036	-10.9108046544226	-69.2382302027924	145.71714993288	-70.4424808004134	144.250181230972	-0.340609827846923	-10.8242769374726	
4245500	-0.365337830727174	-12.6014963283132	-78.4970190757244	-79.5560187303149	-76.7857338392139	-44.6046672065165	-0.358250972349304	-12.5013712820837	
4495000	-0.203966112548084	-14.0170373452916	-67.2906990094685	-96.6371512626918	-66.2974240054906	-99.3825818566353	-0.197482486799092	-13.771502346018	
4744500	-0.0121317394333715	-14.6429108847184	-57.1991791060514	-117.473579911004	-56.5088984881983	-115.790720864496	0.00391146620486423	-14.2728007627763	
4994000	-0.0548462909098577	-14.7963694737928	-44.0817723840401	-160.334141031224	-43.8197508282853	-161.794726698061	0.0595920809022226	-14.2580790601068	
5243500	-0.0989334057353435	-13.1371442721434	-41.1101554417026	93.5614948853775	-41.0607219373604	92.6999526808255	-0.0687682064098875	-14.0879780267452	
5493000	-0.263246429448684	-14.1086103636535	-41.143242400726	45.7575881016007	-41.0603629005065	45.3914851292233	-0.360954115094528	-14.9468664660276	
5742500	-0.429330058583027	-15.5810880126517	-38.7747591598343	-24.667452101013	-38.7137485647905	-24.8347622596563	-0.667252535384073	-15.0639950952652	
5992000	-0.362150678245696	-17.4424435054109	-43.366827523596	-87.7206274125571	-43.1822226368386	-87.9906372394392	-0.409239186697942	-16.1185694685751	
6241500	-0.223003821112267	-19.0035745744787	-45.6408403907709	-130.294157885529	-45.3091633655832	-130.140317931451	-0.168941585666907	-17.5126203190947	
6491000	-0.194456023539028	-17.9064700977006	-50.2408580455441	142.381554903114	-49.6867247027437	143.133601532883	0.046836387931343	-17.961400274478	
6740500	-0.00120721248969238	-17.2989456493147	-76.3654406039726	-148.670170942829	-80.0369195360026	146.498890373099	0.06983438426278	-18.0730641086212	
6990000	-0.0950452754161669	-17.5505061305017	-68.1181557701835	-36.1117654155855	-68.2148819050152	-43.5140801088464	-0.147025203774831	-18.6084106756196	
7239500	-0.304081071391693	-18.6474676227088	-52.6716541998378	-115.932514816204	-52.7496956855114	-114.125138722949	-0.578014858073886	-18.6920636050589	
7489000	-0.402389378737833	-20.4017275653017	-53.0530341887346	-173.414413763085	-52.9828791232774	-173.852182915132	-0.496718268453743	-19.4566331403797	
7738500	-0.302401967909292	-21.9969009150243	-57.6360670982996	154.565755678312	-57.8598276059122	152.276097002788	-0.326156186743889	-21.5872395305705	
7988000	-0.0760668439018503	-22.7902700133126	-52.8895691108217	118.808052193654	-53.2210133548497	117.293326970928	-0.120210118803703	-21.8455759839966	
8237500	0.0859191232185589	-22.7886081107332	-55.4156236000773	96.5733672417688	-55.6273918148185	97.6028945196518	0.0636924575253504	-21.9722288674705	
8487000	0.0518206550972788	-22.5964762308214	-56.6846615145105	85.8112625988242	-56.6394391396244	85.3920892064815	0.0383022962030073	-21.8496986994747	
8736500	-0.14956295566764	-22.9335726670392	-56.5498328322772	76.4753919715364	-56.5194286035294	76.6206219081317	-0.149846664240783	-22.2048857366026	
8986000	-0.359063367286447	-24.2589403915607	-55.3875573721719	66.6493760027735	-55.2283790467458	65.5170193902122	-0.35152182205849	-23.5060575767729	
9235500	-0.412890640487623	-26.2771273666315	-52.2503800561189	56.3219497029135	-52.3718350032887	52.5855020788965	-0.388000668251342	-25.3330446047837	
9485000	-0.29658894445291	-27.9920193957139	-47.9281414240675	33.9612965211271	-48.0150248009373	32.910244978558	-0.238835974719197	-26.9292009298398	
9734500	-0.174236916150309	-28.1508760568209	-43.5805960083375	-15.6569831072878	-43.6799012169717	-17.0556895763644	-0.0333161413200072	-27.4993355766745	
9984000	-0.00255973955625642	-27.3982169682394	-45.4294310972495	-69.7006382115234	-45.4475883861858	-70.5764050990145	0.0682862304330538	-27.3026394852736	
10233500	-0.0629280239448692	-27.5211176069428	-47.7450500087923	-96.1425513069676	-47.7056130839393	-95.8977623986408	-0.0226793534703574	-27.2442801475822	
10483000	-0.2992844403315	-28.4802648725842	-48.319441294726	-110.986307177171	-48.2788300766598	-111.536093651392	-0.250826578189541	-27.9095287031994	
10732500	-0.516318887675313	-30.4744657628092	-47.1477483568018	-123.568173646392	-47.1422153993905	-124.734899630006	-0.419637329510584	-29.6105450685089	
10982000	-0.620393121910104	-32.8666808945248	-44.4692792378887	-145.815367504489	-44.4369089878947	-145.845674055494	-0.409456646647872	-31.6848371586687	
11231500	-0.702295738096499	-33.3622743608416	-41.1631659283079	175.125184927905	-41.1555370822761	175.185841389719	-0.2468677928149	-33.2403283706052	
11481000	-0.46666845275854	-31.1618373673142	-40.487721596797	128.167500791495	-40.3758602991451	128.114652210542	-0.0995411443652233	-33.8357990093157	
11730500	-0.242101892638381	-30.3384071818818	-41.0614780331694	86.9018985897644	-40.9213715160336	86.6078652745726	-0.215323445952523	-33.9927012625681	
11980000	-0.333307637810261	-30.0939588147776	-42.5594975856122	36.1075616429412	-42.3490721439433	35.4060546891563	-0.736561276939083	-32.5228737269528	
12229500	-0.475317086154674	-30.9312750430761	-43.537203501834	46.6501494856149	-43.1519889431336	45.5004159325923	-0.68494119752777	-33.7886699262211	
12479000	-0.552469613263486	-32.9829339919542	-41.4922081303805	-5.68415025831964	-41.4095204214141	-7.6367968343819	-1.18888161369978	-33.378429924085	
12728500	-0.435317848731391	-35.1029880649951	-43.3448240287743	-47.9129146295042	-43.2620114430764	-50.0388602229165	-0.83663418302173	-33.0706999151642	
12978000	-0.206730697624884	-36.262674770247	-44.7028384674035	-77.9921453537668	-44.5191385395661	-80.8142249753397	-0.400445376020522	-33.9833585433289	
13227500	-0.0680881030946098	-36.3103566001247	-44.6219747017691	-112.54936128322	-44.7636293235942	-114.47385757331	-0.113158620259854	-34.1642874847363	
13477000	-0.145049782912827	-35.7662289939838	-44.6673531867417	-158.202838718377	-44.7516910628942	-159.343261938283	-0.0568006884468152	-34.3058927996284	
13726500	-0.332454056069853	-35.4804521241876	-46.6085640150918	150.772374695704	-46.3891500089652	148.479105565984	-0.259751657235545	-34.6906995448498	
13976000	-0.495944362150227	-36.6303099260001	-56.4899000063907	61.4532954826675	-55.8804844558857	53.1156371467795	-0.563468788082123	-35.4465975558988	
14225500	-0.518601506567497	-38.8806841515022	-54.6830578734658	69.4881741517397	-54.1578256363561	69.0828434768756	-0.48016873884497	-37.3215341041431	
14475000	-0.413293980619253	-40.9862526608748	-51.6419610025744	7.02094177385821	-51.5920638585266	4.18954433163834	-0.310097615634741	-39.0773306124648	
14724500	-0.280725149801267	-40.8692469265762	-51.9687073252875	-85.2790336410413	-51.8750412899376	-85.8025862890839	-0.0685180402921104	-39.7856047012539	
14974000	-0.135439511315686	-40.1342987297626	-54.4353167440638	-150.094006450744	-54.0715142476373	-147.546589717565	0.0665513208435076	-39.7881603572298	
15223500	-0.178684890832996	-39.1066411293849	-56.7954467938203	150.312523165319	-57.0809414385986	151.574765400594	-0.0218647945926036	-39.6793782513185	
15473000	-0.278800378222927	-39.8014995237929	-65.6430500775195	113.292878218843	-64.8541063267607	117.168475520582	-0.248841208675598	-40.3978228083109	
15722500	-0.450059607027239	-41.948759637054	-77.3555835111056	153.335911611155	-75.7980495425987	144.408902931364	-0.437253163456342	-42.1744152752966	
15972000	-0.445274533868819	-44.3549932230449	-69.619223360917	-145.541167331771	-70.8940370890397	-149.110676184204	-0.454483787512874	-44.454273575916	
16221500	-0.263695778661859	-46.110388688646	-59.7411116246112	-146.495873256675	-59.4316560841522	-144.743631429338	-0.322452223150874	-46.3308845565951	
16471000	-0.102714766174067	-46.7978510721477	-49.9990476667128	-174.287091417261	-49.8611348921248	-173.753165431539	-0.292521635774432	-47.2643196241539	
16720500	-0.16963830231313	-46.6248717417144	-41.5673740256234	126.850495931921	-41.4623888524409	126.45161739009	-0.666914692348673	-45.8111683324971	
16970000	-0.442199479120759	-45.9470817036936	-39.4032649122533	40.9436034630126	-39.372871955704	40.7290704141144	-0.628441424659336	-41.7045257898579	
17219500	-0.732206926965002	-46.2980057203727	-41.923478881843	-22.3459120016644	-41.9735034411581	-21.5042470576122	-0.54276086725391	-42.7015556738002	
17469000	-0.927988818946814	-48.095512676788	-44.6039550715431	-66.7058806454603	-44.5999056900144	-66.4835045497069	-0.57416361600975	-45.0846912902009	
17718500	-0.987818847396311	-49.6869299889515	-46.8613984591634	-107.396737567961	-46.8080395757194	-106.453718359624	-0.458908695118677	-47.5697850412329	
17968000	-0.861597852690218	-49.3698471390509	-49.5492069540801	-151.060914611472	-49.540216298462	-149.592750657346	-0.220560374557038	-49.1982517852183	
18217500	-0.564161173270609	-47.6896581363912	-54.6848319142404	171.842656193466	-54.8167716632632	173.938248104768	-0.0331337789977536	-49.7914735682994	
18467000	-0.377021246431356	-46.5517397541603	-48.6880065254944	173.287716738158	-48.7011905620474	173.319341866958	-0.218495191492316	-49.1747643754089	
18716500	-0.439556148605813	-46.6999645346087	-54.2554129223264	96.2911325722395	-54.3347874520778	95.7358959509487	-0.314256288294695	-49.952124321207	
18966000	-0.597570193536021	-48.1277861310399	-56.1821300714659	51.3206436070352	-56.3948370299282	49.7018504077155	-0.656326267851182	-51.9179421395322	
19215500	-0.629910561427248	-50.4928754830257	-56.926503747114	-4.91718520419394	-57.281702337621	-5.0878198000684	-0.988547533198019	-54.4894810645678	
19465000	-0.460638844389751	-52.73996349221	-60.2182539148778	-73.6165802438057	-60.292447184779	-73.9609059603337	-1.29235898824183	-55.3457338082345	
19714500	-0.204173459497373	-54.1791443828314	-52.7675330395063	44.8880943725109	-52.9011900141201	43.5984218233954	-1.13842431846801	-52.4416060175557	
19964000	-0.209707249099427	-54.3344653912085	-41.4510907500922	-71.4392380443881	-41.5368718195202	-72.719499542014	-0.680028629875191	-49.8384833417326	
20213500	-0.369611393412649	-53.4817746873586	-41.4375780505342	-149.327876152412	-41.4736368632482	-150.767793132363	-0.408414028521344	-49.3186218473417	
20463000	-0.710184753385498	-53.3537817266813	-41.6042435121415	158.998647078362	-41.6464579498933	157.463344222038	-0.474358937866721	-50.0026020298409	
20712500	-0.943557649070699	-53.7382173465244	-42.2052262540733	112.241136672886	-42.2578509610751	111.337968015054	-0.600217832572774	-51.7891610328461	
20962000	-0.852585175075128	-55.238240248868	-43.5553708274342	74.2067477732848	-43.5144344422724	73.1312018714761	-0.569087232354607	-54.0701714929201	
21211500	-0.564318717495084	-56.9241059716123	-44.4813420694336	47.5103190439897	-44.4700074260921	45.237712761386	-0.370585965685566	-56.0254308901177	
21461000	-0.271736312473511	-57.5381851137139	-43.9228528797595	24.6990758227119	-43.8566333416637	23.4151959159567	-0.126212289921606	-56.9227320464525	
21710500	-0.189617458419059	-57.3848735766031	-40.8739595367684	-2.6917387608399	-40.9074007047921	-3.6267716449476	-0.092757032851835	-57.3484724299101	
21960000	-0.364287952784949	-57.1473178993644	-39.3890841719665	-85.1204915161914	-39.2065282742983	-85.9438077263278	-0.407314093874667	-55.5349056363536	
22209500	-0.690398369743366	-57.9372175089303	-46.8816190701206	-120.313563650295	-46.8147939743216	-120.374575538232	-0.430651661737452	-56.2929235304044	
22459000	-0.970089375017664	-59.2096221327243	-50.7057099756505	-125.314029433229	-50.6675851272187	-126.459751160149	-0.549276370016593	-58.4994835441918	
22708500	-0.885910005620406	-60.1601697565736	-51.2379157598263	-127.880712349281	-51.1957202618263	-130.690263652834	-0.505710365699055	-60.7809870946051	
22958000	-0.502561490130395	-61.0055582054087	-50.5986951034057	-138.667359627783	-50.6542531160193	-140.916466106846	-0.309769707253846	-62.3245619784005	
23207500	-0.197495342452077	-61.3598226763092	-49.2075461610803	-150.417377477756	-49.1830971179756	-151.732176013546	-0.143112899445356	-62.680386929642	
23457000	-0.168885604949848	-61.219329951632	-46.1795091298251	-169.163018881684	-46.3415836068504	-171.283126430993	-0.183359960062368	-62.6047590696413	
23706500	-0.383874370727179	-61.2448803712276	-42.671671576651	154.608814770936	-42.9606745606323	154.143993790547	-0.471377425771687	-63.0478081623235	
23956000	-0.609583214134819	-62.7514085445427	-42.2395211500577	106.765423596901	-42.4511268791169	107.385407603803	-0.923909054361578	-64.2850429596635	
24205500	-0.834923892992724	-65.8674016313558	-43.3938846769728	68.9536896259085	-43.4296913019935	69.5489848660121	-1.30497921650887	-65.473908551426	
24455000	-1.0042009606557	-68.0457723787531	-44.6887845580149	28.3721896466418	-44.5888601277987	28.9056868221147	-1.2461541188933	-64.4473271634135	
24704500	-1.01249918635349	-67.0049512259202	-50.0231179712808	41.6379162239232	-49.9514657665783	41.5886709548778	-0.621560460693461	-65.8221939281187	
24954000	-0.749453806370497	-64.5317203140633	-44.0388081968703	0.646913070207463	-43.7150371207895	-0.21455542341468	-0.71003427373643	-65.1807269605104	
25203500	-0.619170135186001	-63.1759530421357	-45.2145628752368	-48.227205850235	-44.9514637332631	-49.4407527378094	-0.74244635440799	-63.3060571664573	
25453000	-0.71792135092854	-63.0179558990787	-48.2706507553784	-84.4484805751847	-47.9296666833425	-85.3193777060259	-0.852477536799754	-62.5501492847847	
25702500	-0.861727487266778	-64.4505485957828	-51.2924188109034	-108.397909434006	-51.178826264418	-109.570653901455	-0.975246585566346	-63.6706312040227	
25952000	-0.838479129330354	-66.8355169426308	-54.8051419124617	-123.675652020924	-54.546300215393	-130.08004882855	-0.952120154052593	-65.7428834964582	
26201500	-0.611453144847399	-68.7267378807284	-57.4323210751912	-135.941602215424	-57.1019842656955	-138.086417331118	-0.703806851443894	-67.5798832836071	
26451000	-0.309030356153659	-69.3044115959898	-59.7901106206657	-143.578967263214	-59.6992275218146	-148.793864959817	-0.401909640749717	-68.3375008861238	
26700500	-0.172372525150256	-68.9913931020475	-61.8546306355214	-150.690574390393	-62.410671394689	-156.078053822312	-0.239011266956196	-67.982073526891	
26950000	-0.282113131832769	-68.6149003313575	-63.7222844524394	-138.735039738909	-64.1553667437823	-144.645088692263	-0.300709298037069	-67.719499232532	
27199500	-0.551254302605523	-69.2861261026464	-61.7350645151974	-130.256714337678	-63.1038227334639	-126.660535810111	-0.536208793107226	-68.2658306825592	
27449000	-0.762297082485787	-71.0986081714971	-57.7243707089778	-125.437350062539	-58.6104813353604	-123.208782034509	-0.713246721574908	-70.1530210412751	
27698500	-0.768935820166923	-73.2744933458206	-54.557916521795	-138.92534345293	-54.9409537594565	-139.061745006993	-0.69698932581422	-72.4547845327257	
27948000	-0.546878462240432	-74.6542616684583	-52.0447627896817	-164.038453226625	-51.912271166005	-162.180402895597	-0.495380052786903	-74.1994388598187	
28197500	-0.307156927360298	-74.7276538860068	-49.8582836399926	169.978790780551	-49.9693251464148	170.391452933967	-0.285715907263965	-74.565323290141	
28447000	-0.277521478602288	-74.2850031441058	-48.2585259241405	144.682859941339	-48.5134040691861	146.673357497339	-0.269408041595606	-74.2940506285369	
28696500	-0.494845051687912	-74.3138004170419	-46.9967872159548	122.665888245919	-47.1545632467657	122.917326790756	-0.484164656090023	-74.1825570097906	
28946000	-0.821377056122513	-75.4557642869886	-45.5482413567721	99.3257602944324	-45.6888815915001	98.9234872566084	-0.823056278893391	-75.1199057761353	
29195500	-1.05236189109869	-77.6320332218974	-43.7623002929043	72.0472783557803	-43.9740659742297	72.3568328215165	-1.08351211132934	-77.038245611249	
29445000	-1.07488074566757	-79.7267120355401	-42.6257411773102	35.5878536365978	-42.6492151888565	36.6613192841517	-1.09008371568556	-78.2414913354121	
29694500	-0.960097306901371	-79.7531416437053	-47.2025194844439	1.12800087922582	-47.1805713098377	2.07374309776656	-0.881337279632248	-78.1878240170834	
29944000	-0.709575248286865	-78.1202610240889	-40.2899595988679	2.92801184593663	-40.3200347731261	5.20402433476598	-0.649436532622425	-76.9979683502005	
30193500	-0.728022060342605	-76.5768453757046	-41.7959292573554	-47.8551636773729	-41.5383482335596	-47.6316996057504	-0.419560001857646	-75.8818741896376	
30443000	-0.891473553884773	-75.6562395553289	-42.7225125111113	-50.6168744968981	-42.928875594899	-50.0604186245133	-0.658912146135898	-77.598996203412	
30692500	-1.07095004096099	-76.3681629217122	-39.6671361175716	-80.6718578804099	-39.8368647626857	-79.0062473944491	-1.11471691357537	-78.378128004059	
30942000	-1.10044319609604	-78.4706056869998	-39.127870001522	-116.590800720945	-38.9936759606792	-115.41243201184	-1.23075900466026	-79.3543688643434	
31191500	-0.884310965270775	-80.595604446809	-39.3851414811348	-152.605267971294	-39.1974637748054	-151.614349270258	-0.969351340503797	-80.4385977067	
31441000	-0.590996876592166	-81.411954182762	-41.3690350831221	173.746662855592	-41.2781380766074	175.056516039212	-0.523007341439701	-81.1738612078134	
31690500	-0.434286263967115	-80.7704402443279	-41.3729570931581	168.500229355294	-41.3012053604209	170.432218823888	-0.484805895753929	-82.5489714141384	
31940000	-0.489180854666959	-79.9319076048542	-39.755441032924	127.074690015846	-39.4092852457291	128.467265250409	-0.827398282231215	-80.2240325715556	
32189500	-0.701594444760361	-79.9476976767583	-41.5891589055092	89.4460774923929	-41.2992148798564	91.0879845453345	-0.943939854362284	-79.1077068232211	
32439000	-0.878002823497825	-81.5322865351729	-44.1211003388473	62.1524955196081	-43.7415664436286	63.5402632053849	-0.994224206123702	-80.4272798443079	
32688500	-0.831541748521293	-83.8683211287485	-46.8863076091499	42.7276699405005	-46.3022124929125	42.8458167042657	-0.883202544776254	-83.07583857959	
32938000	-0.59073227707832	-85.556695940813	-48.9839448162175	32.7721189327551	-47.9372571085045	30.5288691565786	-0.628514754427273	-85.6359548968865	
33187500	-0.32426465876856	-85.9848883637215	-48.9908948434243	29.355540312845	-48.9067394957393	25.8154799592566	-0.416502365561275	-87.0083033701573	
33437000	-0.236230058996032	-85.5801932708218	-46.5503794687523	18.9238747591788	-46.438629328389	19.4517866440639	-0.697939688096739	-87.2360088825825	
