!Keysight Technologies N9923A: A.12.45
!Date: Tuesday, 05 August 2025 18:19:02
!Timezone: (UTC+08:00) Kuala Lumpur, Singapore
!Model: N9923A
!Serial: MY61181427
!GPS Latitude: 
!GPS Longitude: 
!GPS TimeStamp: 0001-01-01 00:00:00Z
!GPS Seconds Since Last Read: 0
!CHECKSUM:1308973704
!Correction: S11(ON U)S21(ON U)S12(ON U)S22(ON U)
!S2P File: Measurements:S11,S21,S12,S22:
# Hz S DB R 50
2000000	-0.0763113383548754	-4.88583218898086	-72.5964938279394	-89.0884546066841	-70.6756749873633	-90.7142472346442	-0.0883882357603369	-4.86633996675934	
2249500	-0.288585943161954	-5.81329956280331	-71.0231742752515	-99.4874973743124	-70.9000887297578	-86.7122258190576	-0.294149848584101	-5.77295045971535	
2499000	-0.379731938553322	-7.41203904332198	-63.5277717849016	-107.916387398754	-63.1586545053381	-110.052446745838	-0.37989084914365	-7.30680503248035	
2748500	-0.264442725507799	-8.84210845273768	-58.282258233799	89.671096151727	-57.988519824992	86.4960129197821	-0.275993786162406	-8.59586250594655	
2998000	-0.0456009302389807	-9.61477145089115	-69.9616455212555	88.4893313928503	-71.3424623942242	91.0280886611707	-0.0480365917151525	-9.39490675417889	
3247500	0.0982394148850018	-9.56171946480247	-66.8027594746406	56.8732071120723	-67.3287362921835	51.0340131583183	0.0679273256151495	-9.3161586606679	
3497000	0.0589046146106911	-9.36400807199635	-74.4279605013008	76.1562100457576	-75.2597521064314	94.835889897142	0.0403695398749077	-9.19476124121933	
3746500	-0.145606705032545	-9.66256328934287	-72.9630358288633	48.5373623959121	-74.7053546339926	47.726460662468	-0.1608331184657	-9.52870769119321	
3996000	-0.347947235859958	-10.8569832986601	-70.9093418770189	51.6663931752091	-71.5049367451246	25.7731192789775	-0.349289192158038	-10.7077784767676	
4245500	-0.377697663250344	-12.5442709163659	-68.4491174831251	13.6303631506801	-69.5924530725529	9.44672107818232	-0.36899058774497	-12.418292427012	
4495000	-0.209409494945058	-13.9485037708794	-67.5937829606715	-1.16815552318017	-66.5553814714683	3.63573169647162	-0.204929020375489	-13.7404320512446	
4744500	-0.00672944969838897	-14.5080462704137	-62.5177222005058	-23.227405947622	-62.5060814593245	-25.3715728562439	-0.000410100814759231	-14.2848843620287	
4994000	0.0322983277700057	-14.5595757728903	-54.7603424459803	-71.0947615998439	-54.5557459880487	-71.6007542618906	0.0431913656949803	-14.3060121331154	
5243500	-0.271247017201945	-14.0261045945148	-44.768834613591	-164.37725155665	-44.7425252455279	-164.68705384282	-0.226926296538617	-14.2182666079837	
5493000	-0.378571733016824	-13.0954415578118	-47.2075441382913	58.7963420394656	-47.1336643480841	57.564448023041	-0.457228360917915	-13.0268222160656	
5742500	-0.440387317469723	-14.7235939988445	-54.902419334742	-16.6479220594536	-54.9823783911594	-16.2649629376482	-0.462097984402414	-14.3632081495892	
5992000	-0.363198171645531	-16.6275626510034	-60.6014807069999	-56.7274062050687	-60.9479584201559	-55.9716196515022	-0.370698603715328	-16.3091974774603	
6241500	-0.132794399722673	-17.8689025316432	-63.7229465204981	-93.6020340052536	-64.0694664971091	-96.1211237075769	-0.144901681025365	-17.5597198747253	
6491000	0.0619921984413786	-18.1467389238667	-67.1138295777358	-150.384883614095	-66.2525030822484	-150.521869242701	0.0368154936332903	-17.8495133860274	
6740500	0.0940635525701741	-17.9994625357567	-76.7779953337736	169.157171737363	-76.6378619458152	173.808293529458	0.0695443057569114	-17.5795207482342	
6990000	-0.075504105545875	-18.164975192642	-78.8926226813887	-157.483143495629	-76.3585502201356	177.751512527666	-0.0855040115760476	-17.7005139620191	
7239500	-0.329074508489753	-19.4019629354874	-79.5474586045213	-75.7054675136772	-75.4758913663311	-53.8871785295938	-0.301634941550474	-18.6926503981617	
7489000	-0.466084936761825	-20.0947591708295	-66.0332822263114	175.541740206635	-66.2785287909774	178.72391854165	-0.402195915026675	-20.4883762782973	
7738500	-0.308381544138282	-22.135465114869	-68.5061889807936	131.189181713787	-68.3942355060761	127.301824146173	-0.307157208803214	-22.1102411356225	
7988000	-0.0699149584063469	-23.0840101232836	-67.2992575160903	103.002182374768	-66.8888586718925	101.611715566885	-0.0733879867088404	-23.076614707183	
8237500	0.0935786719901774	-23.1337250448714	-66.8728086808687	79.5766763451875	-68.7014596873981	75.3903436494857	0.0774191279906592	-23.231667975228	
8487000	0.0534566465696641	-22.9783632635542	-64.6980134126832	56.0335472278386	-65.0915357688288	56.3681433649216	0.000796717446460049	-23.4405140217412	
8736500	-0.161782242814128	-23.3806459797426	-57.6162884507036	5.6202616404355	-57.8460733420957	4.84378892679729	-0.502626297524693	-24.3951494561483	
8986000	-0.386539395139029	-24.8469055515345	-60.2799588002537	-105.934383013568	-59.6634542353613	-105.935234650915	-0.554182659148776	-22.1167520780897	
9235500	-0.451361991771078	-27.0926657644644	-66.388656466327	177.404289506372	-66.3167395477208	-169.216464054291	-0.440282318736101	-24.7324061768465	
9485000	-0.360421734504905	-29.127784755986	-62.1649770640476	101.480175911233	-62.2603428958997	101.497319044692	-0.253740073616492	-26.6458651788305	
9734500	-0.374522101661457	-29.4521047772231	-52.72774849157	23.8690398941638	-53.0310498097509	22.5511752104228	-0.0159632617095071	-27.3969763951376	
9984000	-0.232131494202522	-27.6168508022834	-49.3748708605275	-61.2410056749009	-49.3046103122897	-62.2133744125451	0.0841800711392458	-27.3508178499944	
10233500	-0.403881665354777	-27.6035221223809	-47.8525789768746	-122.362237869583	-47.8483784362261	-122.72328511406	-0.0205459128544852	-27.3127246536683	
10483000	-0.718501569556953	-26.1071178269765	-48.0486212263364	174.453720816225	-48.1076701536872	173.336318023406	-0.269123693487203	-27.9949649921908	
10732500	-0.645659191754682	-26.9688217659401	-51.4016932443837	128.301656415561	-51.4862165300787	127.360710128131	-0.458597718341949	-29.7555991045745	
10982000	-0.489390392811441	-29.2936310940419	-53.1517170586914	99.9215565239919	-53.5812912273404	99.7264684751476	-0.46947963536487	-31.9249042862227	
11231500	-0.231782080864974	-30.8871691650476	-53.4952347581666	74.6561069140734	-53.5370202750357	75.359123362296	-0.346113242456646	-33.5362360878598	
11481000	0.00980014191390658	-31.300781476365	-52.3355025929116	45.7211515190636	-52.4197070719953	46.4151057016892	-0.307516086197031	-33.8667312315353	
11730500	0.0646199644980569	-31.0986372454777	-52.6574586506426	-3.33350254098049	-52.5215258247293	-2.76582368694402	-0.50148455905239	-32.0927066079102	
11980000	-0.0924438073210232	-31.0992157806393	-57.7848621835911	-44.7868537955482	-57.1715613871995	-47.4765392680816	-0.542034854676894	-29.6977721213445	
12229500	-0.334790019429938	-32.1399517700949	-64.7211788437843	-37.2758525320545	-63.3798580792162	-49.0604133531141	-0.73973839437578	-31.1845385750576	
12479000	-0.466759767999786	-34.0872285951267	-58.9968050172008	-42.4940029412103	-59.5479263196568	-41.3663784684855	-0.69570885628041	-31.6980278773832	
12728500	-0.369739847966922	-36.127625753652	-57.711717734458	-62.1391351452811	-57.7666566940924	-60.6841677197669	-0.50059478209052	-33.6375733613251	
12978000	-0.145435095966345	-37.255527300582	-56.076651962619	-87.1252827986839	-55.8178917241369	-85.7647657089672	-0.204107809808188	-34.8323543705216	
13227500	-0.010917337430321	-37.3311890598033	-53.6813031620338	-117.765664815813	-53.5709106531821	-118.213328027412	0.00402595375715222	-34.9834103964622	
13477000	-0.104726722735904	-36.9673557431405	-51.6770348281533	-159.726437263101	-51.6483507700418	-160.053685226121	0.00724791385923569	-34.8805084459583	
13726500	-0.355533983846648	-37.1158547859765	-51.3871915526381	151.305191478233	-51.4449853274846	150.694158136711	-0.184574639770546	-35.1733847670153	
13976000	-0.653340488865165	-38.6599398078099	-51.7234572584996	99.3739362609351	-51.7841859433499	99.8373161145914	-0.404325436796501	-36.5145586264821	
14225500	-0.919479142677427	-40.7477786411143	-49.9088612834256	23.3102824062352	-50.0350501816083	22.9446189917952	-0.473826463187566	-38.6445041483177	
14475000	-0.897813861625355	-40.5784974316042	-41.0799040170836	-140.597840127432	-41.1045447246211	-142.455358003909	-0.460235586430882	-40.0551449904022	
14724500	-0.476667000580586	-39.3187167629417	-47.1065591173519	79.3076546398811	-46.9585316525555	77.8550562178383	-0.0880229485708647	-40.2932939023175	
14974000	-0.2225283178973	-38.9425999583782	-50.7515419339097	20.296873095143	-50.7344789030813	18.7419921821676	0.0545769494317795	-40.3827486159341	
15223500	-0.21921727167572	-38.446551610108	-53.9665870065492	-20.6085471350885	-54.0829789643015	-23.5553014639863	-0.0457285067734026	-40.2939625972359	
15473000	-0.388771690636465	-39.0292228865226	-56.3999104257758	-51.6307384768099	-56.053152951559	-50.9449135813315	-0.293388432215804	-41.0562942623446	
15722500	-0.552129601772905	-40.9415380592518	-57.1370581817427	-72.9561928207511	-57.4263462392764	-72.7696418252206	-0.503113054575816	-42.9118225457971	
15972000	-0.519506807218575	-43.2728414492488	-57.1914089730877	-95.019078225818	-57.0597576174875	-94.2025372911164	-0.535187518539296	-45.2560858796655	
16221500	-0.294480475417963	-44.9250977074557	-56.3863109680389	-121.631110253114	-56.2420049687323	-120.808181378542	-0.410482223013293	-47.0831777308097	
16471000	-0.063832464675487	-45.4384498493638	-54.3005988078675	-154.353161187913	-54.2425658156138	-153.015211922505	-0.359289566641601	-47.7609550837753	
16720500	-0.0156932464875599	-45.2586725521447	-51.7869644452377	160.432266248818	-51.882363842486	159.97216580145	-0.62405176715718	-46.9315417272053	
16970000	-0.203974185295486	-45.2325945511089	-50.4999704156134	96.6067858610019	-50.7166690305959	95.7904554332925	-1.02008414672905	-43.7991878047836	
17219500	-0.508253109072431	-46.2398876083836	-51.6208255147819	18.4410540059021	-51.8140454437424	17.6450640296208	-1.0280041005319	-41.9056475685045	
17469000	-0.704027448859862	-48.3282287171335	-53.4633847257271	-59.6763128385103	-53.42658402282	-59.9288251215313	-0.876296255719012	-43.2586930483782	
17718500	-0.699205752678042	-50.6242704451262	-53.7899469300832	-124.553920727549	-53.8182491286558	-126.368254907996	-0.618830237288737	-45.6907568672664	
17968000	-0.620962576340345	-51.9494012621496	-52.2084664619009	-177.692033500431	-52.2008020843301	179.926338418716	-0.283685881373778	-47.4348613525047	
18217500	-0.676476032083459	-51.0625470343892	-48.8010324197307	134.471597369827	-48.9798969155491	134.069220885315	-0.0235896710690115	-48.1279871691217	
18467000	-0.793672478432431	-48.0432221583293	-43.5093725980766	63.8752724926971	-43.5947383776307	62.8287923518758	-0.202859390901815	-48.8446867822382	
18716500	-0.814643330000266	-46.0909901840808	-56.041653975223	-15.4472272538906	-55.8081764194103	-17.9717148996185	-0.276756864226723	-46.9399830913221	
18966000	-0.835760615555931	-46.8125376577414	-57.1838934225099	10.669637182139	-56.9348895485253	9.02707397919716	-0.442432045137303	-48.7730430893246	
19215500	-0.777683789846896	-49.0824333129901	-54.7756509463037	-0.658087169123953	-54.9900175643092	-1.86396473071291	-0.528225440153161	-51.3148922480368	
19465000	-0.550819540713316	-51.269534393414	-52.6710888299481	-18.0272615145449	-52.43604370856	-18.6142795716515	-0.428076601634521	-53.8126450909888	
19714500	-0.232770068363479	-52.3139382956743	-50.0173012112002	-39.8538431810702	-49.8221507288282	-40.8408244118848	-0.26814880235068	-55.3759570878365	
19964000	-0.0387131121163591	-52.2216219819868	-46.9153938082998	-72.7158082438606	-46.7807189315476	-73.0667128044309	-0.35461962004463	-55.6133175662548	
20213500	-0.0956496048319393	-51.9430605383918	-44.5734653976449	-118.067844706326	-44.5193519340566	-119.157265880433	-0.748938399236302	-53.6424085629238	
20463000	-0.333282860899673	-52.4703535784815	-45.0253381581084	-168.888950746588	-44.8506204911208	-169.048985974667	-0.921222212946341	-51.145694934954	
20712500	-0.547863171408074	-54.1363081283031	-47.8549527964155	148.894895230388	-47.8898876743726	148.583874791435	-0.893757155456411	-51.6975359223044	
20962000	-0.559142072392227	-56.5166225725987	-51.4366664983064	125.401580141547	-51.5771942879228	124.996157561324	-0.753546577047431	-53.8498011005935	
21211500	-0.358913131047739	-58.4806899815267	-52.9195884011156	111.605767135532	-52.9585541207626	112.350208996409	-0.49770162605048	-55.7657644266925	
21461000	-0.127200407767857	-59.2278733642456	-54.7938463499926	93.7395592505605	-54.7178119594249	92.168335595553	-0.194542046832693	-56.4475578341134	
21710500	-0.0994865719864619	-59.1818976355883	-56.8474280648262	90.9767894344111	-57.1707121383241	90.7160756609691	-0.0675268326719529	-56.4943705665402	
21960000	-0.33818768738222	-59.3609689185933	-55.6377037453267	109.323119258951	-55.7038060760614	110.82167077174	-0.194380354463467	-56.6452454246446	
22209500	-0.76609284529755	-60.6335830274061	-46.9499536160361	104.750656566107	-46.9906326098733	104.598287145538	-0.531017937407708	-57.7320114715264	
22459000	-1.23270723182125	-62.8442770395808	-41.1863610151876	21.1792862068741	-41.2666492825766	21.5516604384601	-0.714729953947225	-58.516950444441	
22708500	-1.63258145942031	-63.1941774969856	-44.5132952903137	-36.328975053396	-44.4087273674411	-36.1488605530014	-0.577002862083995	-61.0321399809626	
22958000	-1.31150462188282	-59.8476546140163	-48.6217034511797	-76.1357260852737	-48.4655972322124	-76.2210294699912	-0.369698846279195	-62.842256658486	
23207500	-0.59998758890635	-58.4431279195776	-53.6107201738368	-91.0956547532104	-53.6045621015264	-93.4570998854117	-0.226443638279663	-63.3502500678739	
23457000	-0.285730790940424	-58.3832336657398	-53.7802658557268	-90.5925005093554	-53.3149244482649	-91.395941901056	-0.339282968471883	-63.2334000151665	
23706500	-0.342191392473244	-59.2123293406588	-53.5173084464791	-117.338306118195	-53.2943613610963	-120.772054945407	-0.734700991200997	-63.2449027884098	
23956000	-0.596049194835447	-61.7169361537624	-53.9165821374243	-115.684352459623	-54.1041946200996	-118.963253855763	-1.27669290365109	-63.3865984629319	
24205500	-1.05471523958111	-65.4604571479271	-47.5196189582417	-141.969544410837	-47.7309931657794	-140.768282800067	-1.55084836380639	-63.0368638705914	
24455000	-1.23611635674081	-63.6137048638676	-47.1097707473321	144.429739448082	-47.2241081329567	144.687824655598	-1.25412155139815	-62.4994964855654	
24704500	-0.604650862292877	-63.2728132634836	-52.1770041147067	96.1565111633344	-52.1747180062551	98.1154051355773	-0.672804326182689	-62.4672530887266	
24954000	-0.22793628025774	-63.2953918687368	-57.8652953321052	71.4277518466086	-57.8288180998487	72.5300199995778	-0.284335239569893	-62.4984927363285	
25203500	-0.16977551990571	-63.2473722724033	-63.6299613753041	69.6599462154765	-62.5747427125863	66.3415144675328	-0.213925848196199	-62.5754838018651	
25453000	-0.360824372610746	-63.7614529268302	-64.3319658641263	81.5733798203303	-65.4866939558947	80.8089425100164	-0.377075285118686	-63.2207709685798	
25702500	-0.582683305404075	-65.5492843922261	-64.406846985812	86.3896749074676	-65.124111428303	86.3352555592557	-0.588289311951137	-65.2683701581516	
25952000	-0.616475250784645	-68.1454981771712	-63.5443686556542	69.6451250101241	-62.7792450487819	72.3966375651693	-0.650473732318202	-68.0276178326939	
26201500	-0.428289459610812	-70.18866405425	-60.5263129750864	64.5797040771938	-60.7929236053308	56.4710753187435	-0.500423337141654	-70.5379861115815	
26451000	-0.15981723823075	-70.9022260735752	-58.6388098647152	37.404238144208	-58.2964002435177	38.7138168964698	-0.368914669941862	-71.9787164079365	
26700500	-0.0653232582505105	-70.7445385643826	-56.446145737049	16.9025499056502	-56.2871526067873	15.9318118386877	-0.545225884800133	-71.6612793607334	
26950000	-0.235279979013143	-70.6021336990895	-55.2489727876442	-17.0337793639491	-55.4625542126158	-20.9869093499033	-0.942434460385155	-69.0427807088546	
27199500	-0.59054075088311	-71.5959788836474	-55.9550976401403	-53.01744939835	-56.2371452326014	-53.9012888042684	-1.06450594653563	-66.8060030306646	
27449000	-0.91468796092848	-73.8276386244336	-56.972840827009	-78.6016118098536	-57.4214205840038	-80.4556046961065	-1.00873312156751	-67.9882102179188	
27698500	-1.10186949384713	-76.2682647254463	-57.4122436225865	-97.3976922294177	-57.9751470345306	-97.8178805432256	-0.837288402630798	-70.4523240533678	
27948000	-1.14734045047963	-76.7960865002313	-57.0973890194869	-116.038597442334	-57.633745323141	-117.351180463014	-0.527750206219703	-72.4601269696451	
28197500	-1.02424661281407	-74.1424247253238	-56.7198556843362	-140.247289329903	-57.1234855186581	-144.85420751699	-0.236510989152166	-73.0773005979681	
28447000	-0.768755199399949	-71.2600789611709	-57.4884973684266	-160.509323685344	-57.3238506905408	-158.902945181579	-0.15722997359916	-73.0724987263141	
28696500	-0.690308011864881	-70.5493931103232	-55.8235477560436	-161.537545569039	-56.114526078676	-163.966896044519	-0.334472250513701	-73.3595459246074	
28946000	-0.803328986648561	-71.9785462265126	-51.0966965686557	-170.592917794043	-51.1683170838137	-170.417172062397	-0.689267524451234	-75.0169156487501	
29195500	-0.911643171197891	-75.0819635557098	-43.0476751986634	145.544186786651	-42.9630628364911	145.850975297615	-1.22586643285788	-77.1215423821147	
29445000	-0.963251029437106	-78.1394682401803	-41.839694759761	51.9460045516351	-41.7918587317203	51.7559532329372	-0.884604491221072	-75.6901581482196	
29694500	-0.847491615061463	-77.5555512269942	-46.9587240538046	-11.8399642744599	-46.9582068680681	-12.0044750808161	-0.439641801704314	-77.8750545425441	
29944000	-0.44197567087919	-75.9994931620595	-54.2194735817148	-41.5567423246628	-53.8839604542887	-43.2834405555211	-0.228637473148781	-78.5333887516373	
30193500	-0.316644647713939	-75.3351503242368	-59.4990043711509	-45.6982715551146	-58.9889159990194	-48.7738833669846	-0.323217675013062	-78.6187520243459	
30443000	-0.471207410792976	-75.5245757224558	-59.6640655603317	-34.7993438033009	-60.1043438447572	-37.067836906044	-0.687799752461418	-79.0068029927555	
30692500	-0.706655871583555	-77.0168327855014	-56.4880853257532	-37.2947958573604	-56.5273111224384	-40.1028748628496	-1.14297890231848	-80.3118849413298	
30942000	-0.805119408778499	-79.5750499488947	-52.0314693917791	-70.7520464932782	-52.2427595875808	-68.3623154966158	-1.48589980596791	-81.2025421264804	
31191500	-0.640606629494081	-81.8655587848434	-50.1762474831218	-118.972850264716	-50.2968293346921	-119.085828937692	-1.19109539221651	-80.2557316031322	
31441000	-0.36093665063865	-82.7811510035977	-53.4365331928604	-172.243904931782	-53.2813145629361	-172.872374894282	-0.505772808258076	-81.6940250431279	
31690500	-0.223875374445072	-82.4917759243152	-59.0368622283907	169.731617184389	-59.4233645149792	170.726965528604	-0.51412427776139	-83.1557544653595	
31940000	-0.340419918068733	-82.1501835326809	-58.8798055119505	169.444352818437	-58.4527398364662	173.521641630479	-0.939468168017019	-81.6901900834171	
32189500	-0.668829138716316	-82.6455925965226	-57.6979021562877	152.500588414067	-57.4175622031354	156.053194861145	-1.27551388080101	-79.8070389712911	
32439000	-0.984600317130324	-84.4800513258556	-57.1075631664733	132.384355441495	-56.8816123543044	136.735589445491	-1.36735262750871	-79.9819216042565	
32688500	-1.07598394545196	-86.7223822900862	-57.0835032419636	108.020542133299	-56.914780815047	107.137456190765	-1.22754554005578	-81.6145762349648	
32938000	-0.956457543672608	-87.866905372503	-56.5687345582428	81.5235971960054	-57.2173331017431	79.0851879121133	-0.87111372745359	-83.2991631459788	
33187500	-0.774875604823647	-87.216747003553	-56.1674994391565	54.7133455138536	-56.4018946865206	55.3936714682856	-0.495416268271812	-83.6742857575221	
33437000	-0.70014096561843	-85.4437627810654	-57.0896828035604	25.6839912229304	-56.864350590607	25.2387372830403	-0.321747556777355	-83.2225269414063	
