!Keysight Technologies N9923A: A.12.45
!Date: Tuesday, 05 August 2025 18:45:54
!Timezone: (UTC+08:00) Kuala Lumpur, Singapore
!Model: N9923A
!Serial: MY61181427
!GPS Latitude: 
!GPS Longitude: 
!GPS TimeStamp: 0001-01-01 00:00:00Z
!GPS Seconds Since Last Read: 0
!CHECKSUM:0962161759
!Correction: S11(ON U)S21(ON U)S12(ON U)S22(ON U)
!S2P File: Measurements:S11,S21,S12,S22:
# Hz S DB R 50
2000000	-0.0664678398206705	-4.4864873881474	-72.3912126137254	-101.695285782206	-72.484448796574	-100.302565335164	-0.082010383768189	-4.46845521793496	
2249500	-0.313667651418906	-5.34245249996775	-69.45696485429	-108.77670577521	-71.736767930866	-95.4478811283575	-0.320395873208603	-5.28003046387959	
2499000	-0.42280676445929	-7.04367173748997	-60.6822947002301	-127.108864874139	-60.8563844301624	-130.994823444999	-0.423616957525346	-6.8851300783004	
2748500	-0.315372894164078	-8.48887523858433	-46.3964912994143	127.282577776572	-46.3631556049811	125.599558395749	-0.332528933876731	-8.22370639059833	
2998000	-0.0504259752087793	-9.31878351512553	-50.5005995462499	31.0312138082887	-50.3582810740867	33.6913143304128	-0.0466296432907594	-9.0457760551537	
3247500	0.135675788572781	-9.11102211777497	-55.3494148750484	27.9840017837366	-55.8614743651488	29.7750572477566	0.0960685503364206	-9.12286781311018	
3497000	0.0869655155817132	-8.81775764888633	-50.0514566587597	-55.2208374524703	-50.09339304701	-55.9859926708057	0.00171318114983437	-8.30455323475543	
3746500	-0.167810366312433	-9.22894821769868	-51.2141445928813	-113.140441058733	-51.2073090462227	-114.886474555456	-0.183688835332921	-8.6976034663302	
3996000	-0.42124828807154	-10.1570275559698	-56.3957105913008	138.958684260125	-56.3574717877051	137.300742176134	-0.395410438811481	-10.0612419447401	
4245500	-0.42233710724625	-12.2581240055183	-73.7564196219044	105.02916729081	-73.962129199299	86.7591286094512	-0.415992486133695	-12.120904083325	
4495000	-0.223229331477641	-13.9582387255674	-76.2313478078978	-129.131590649316	-75.8093411670063	-131.99226140384	-0.217562541576329	-13.6606017443789	
4744500	0.0181636505150684	-14.581580720873	-63.5292156008682	-122.792800905574	-63.3487015819722	-127.794619432052	0.0327067192822471	-14.1856049709293	
4994000	0.0234692586338738	-14.3246177313551	-52.6205217717701	-173.567488221773	-52.4305721379001	-173.509351467093	0.12971515622598	-13.9647604306755	
5243500	-0.0286512873006455	-13.2764375695994	-53.5341998746399	100.22000916868	-53.622835073292	99.4021287705637	0.000335077411528752	-13.7799063163791	
5493000	-0.264524506647391	-14.0218476403771	-55.6186221037025	72.7303172676897	-55.5791665059097	71.6836157588032	-0.270852376332277	-14.4335619597599	
5742500	-0.448319534133827	-15.7334994229286	-54.093269379846	53.3213281254154	-53.7851700790653	51.2144987959971	-0.460360643124974	-16.1149185385001	
5992000	-0.400932869107577	-17.7333608040362	-49.458143901034	24.2450325860069	-49.3761665913417	22.5213550615514	-0.466750245436741	-18.1550401711602	
6241500	-0.172632068828985	-18.9425572561392	-43.4767549974642	-37.7649389249505	-43.4959711137642	-39.5841203018713	-0.391756585322888	-18.5286420655906	
6491000	-0.0209183915078858	-18.7345429401495	-42.976892919008	-128.78400095402	-43.0025347820516	-129.811450284286	-0.0388887273866671	-17.6589876207473	
6740500	0.0511986864886006	-17.685845949176	-48.606712715366	155.008032372246	-48.7416371130347	155.265688482749	0.0706222397363984	-17.2156527910296	
6990000	-0.0993628457667782	-17.6934617199948	-55.2710332692986	118.114766514784	-55.0718744697012	118.159435313985	-0.0861777378693878	-17.3305769955788	
7239500	-0.38212564857623	-18.7818338435598	-60.4544985512814	97.2704235161232	-59.9340355103567	95.5540110185033	-0.339547955667451	-18.4887113129208	
7489000	-0.523781204256072	-20.626410866251	-65.0352087941913	70.7159294887936	-64.9199165158954	75.7087209602655	-0.46010176464922	-20.6534155661795	
7738500	-0.381725347497091	-22.4891745544543	-56.7251805593683	163.929481280834	-56.3499659696311	163.151098370128	-0.538968581896295	-22.815520835191	
7988000	-0.113391048580067	-23.58032723701	-53.4139129160129	69.8498627900003	-53.3422861724395	68.7658880038244	-0.0973581431640286	-22.5903077724553	
8237500	0.00691846308858077	-23.6614947735503	-50.7825509015365	34.7667821695743	-50.6375114309383	33.2739812863249	0.1102338497698	-22.8017634652566	
8487000	-0.13537640557858	-22.4013620104469	-47.7024583146699	-25.1443496247411	-47.6544782339623	-27.1930045059075	0.056723698031162	-22.6084542321728	
8736500	-0.260299155781999	-22.1071451269734	-49.307795195524	-77.3490379691414	-49.3030240457437	-78.4056671530079	-0.186189429500936	-22.9944969711262	
8986000	-0.461583768677411	-23.732285100413	-49.7884940855568	-107.611440708473	-49.8749408063038	-107.408233793623	-0.450605830095156	-24.5915558286586	
9235500	-0.505631947163731	-26.1459165598364	-48.0372805756397	-136.103403560392	-47.9743567172471	-136.757699547985	-0.544337622607878	-26.8690876278406	
9485000	-0.341396304656668	-28.0633645536849	-44.3110840896464	-177.730337372851	-44.2312894875453	-179.404948424674	-0.482476043355069	-28.5439913338097	
9734500	-0.158213829954122	-28.4461580990205	-40.865824429922	115.664894085809	-40.8960718665231	113.146417337817	-0.329168230850604	-27.7615678812012	
9984000	-0.0893461511398096	-27.1306731413407	-41.888378898709	35.1547818265943	-42.0439877503541	33.3949205218229	-0.10844508485182	-26.2444143828598	
10233500	-0.113052828982088	-26.1656537649101	-47.0162617931772	-27.2937613111313	-47.0844805675472	-29.2285604311612	-0.10651520448544	-25.6018303525352	
10483000	-0.32761903140321	-26.8212037332546	-51.8339056622357	-67.1257817962847	-51.5644999655523	-67.365325125833	-0.313908871413373	-26.1718393990145	
10732500	-0.525091530475182	-28.7697304969686	-54.2760744348531	-96.725759136528	-54.2469236573732	-96.8811474901946	-0.486975742551018	-28.0223405703695	
10982000	-0.514646911413604	-31.1610911135601	-55.0238149537206	-132.093548914994	-54.915411980906	-129.933962548287	-0.446853074043496	-30.3138923371718	
11231500	-0.330564304150863	-32.4616276703428	-54.8619013458138	176.647677908009	-54.7019825458281	176.45634491503	-0.209136132831903	-31.9455576583873	
11481000	-0.101244105006022	-32.1487981812766	-56.1220491694583	127.946761876795	-55.3803703701268	125.061026238703	0.0269276758008652	-32.3485115639923	
11730500	-0.0352678527111967	-31.4596158408804	-56.3063165015787	69.0799893460313	-55.629449976275	64.7535729841439	-0.00661411050654461	-32.4009367634902	
11980000	-0.24245797358042	-31.0487074267729	-54.8645458139414	-19.8156055422263	-54.290104868961	-23.0888803009919	-0.307052203835578	-30.3764502658913	
12229500	-0.507870914056722	-31.801975086352	-58.9236387419902	-117.084308912854	-58.7982431040419	-114.669250673581	-0.396823412357784	-31.8718530099849	
12479000	-0.646002242305535	-33.9390295446137	-60.1742888395054	162.012599239072	-60.8293674842713	163.587412334248	-0.547553819041204	-34.4056152729688	
12728500	-0.532786308599904	-36.2371279462436	-57.8281746552422	91.8714395676443	-57.8120637649246	89.7357029081123	-0.500247014692888	-36.8145500428791	
12978000	-0.296510273503967	-37.2509513854688	-52.8969625295627	27.3339947542094	-53.1337803274581	24.3418426617409	-0.353039896764625	-37.940000628662	
13227500	-0.144800161284647	-36.5965247699168	-49.9448565751126	-48.5058509324829	-50.0566170622741	-51.7096699588589	-0.309516589985871	-36.8302597065925	
13477000	-0.159308491922527	-35.3734991835833	-50.0858973941053	-126.600033465212	-50.1007663395327	-129.945807877242	-0.295735882022248	-34.8858387374984	
13726500	-0.336457725502255	-35.2061130308524	-52.2577979190955	168.170675620501	-52.3588085504732	168.068635016985	-0.401003847953785	-34.3546046091096	
13976000	-0.566190246280791	-36.6599458163812	-54.5648624701746	115.346898524067	-54.6408344732867	114.715191808126	-0.570865065561903	-35.6173464119649	
14225500	-0.641387107676411	-39.1519474960191	-55.099078827865	61.8564381255367	-55.1613860157709	60.4747801648708	-0.588080002395841	-37.866944930588	
14475000	-0.524261408338897	-40.9811223177466	-53.698100940263	-11.6856492242489	-53.7989762828813	-11.5039807089682	-0.379061905007522	-39.8117880097244	
14724500	-0.20855791346425	-40.8285925880578	-55.9124062022209	-101.842253959765	-55.8897329410647	-104.061552283583	-0.0890691435708072	-40.5709874012578	
14974000	-0.0487671657893304	-40.5440891728869	-58.9101676342279	-170.554214623346	-59.4637458316887	-168.776176690274	0.0536688269432133	-40.4823297429352	
15223500	-0.213251688087142	-39.9202301572419	-66.7427852121057	141.097496133685	-67.1215431843651	150.052150848643	-0.0772044169588226	-40.2337210170648	
15473000	-0.513726548588188	-39.8991271675576	-69.9577614194906	173.688669829934	-68.0694943905697	-177.035846498131	-0.400130894733503	-41.056582475662	
15722500	-0.727085427425785	-41.6034537383513	-62.1475146591818	164.940335098287	-62.9186048823897	167.704838904289	-0.720325148469537	-43.0815781011672	
15972000	-0.704393357333698	-44.0780037315982	-56.5624262605799	130.071132113123	-56.3786270870508	128.460654519642	-0.87849420946879	-45.1320131240248	
16221500	-0.480411986534083	-45.7612752790922	-52.0660424574352	74.2531332475979	-51.7085747301729	72.3817219785316	-0.761067737985385	-45.1511864031785	
16471000	-0.273691263639217	-45.8112235012927	-50.0185087669449	10.7617304560194	-49.7042031291055	8.86786270524154	-0.340738307482664	-43.8353777921444	
16720500	-0.244427442410723	-44.5490792089395	-50.1839331302378	-60.3639695461212	-49.9830666176171	-61.6615346709242	-0.0646114443934752	-43.4389714039488	
16970000	-0.379393137800019	-43.4252146158103	-52.0514465382722	-147.865227784901	-51.8909683377214	-148.361677078421	-0.219114221230518	-44.2574482512172	
17219500	-0.601321427388421	-44.0754286991136	-55.669667102499	65.4326286709238	-55.8579163661264	64.5867387743582	-0.783624585139442	-44.7397677838522	
17469000	-0.735047241183267	-46.3325316600275	-55.2887564066568	-56.8514685381409	-55.4236366587948	-59.7530434200403	-0.846645575798628	-45.2472310184133	
17718500	-0.635641702720477	-48.7749299868668	-54.5251240857127	-116.708845508434	-54.7534747742594	-119.09252739219	-0.635273589812526	-47.4513361114514	
17968000	-0.388143887898976	-50.0901701858197	-53.616510012252	-164.374132244623	-53.5832247153279	-167.72260510066	-0.302049277691234	-48.8678645754259	
18217500	-0.21048915986069	-49.665745218252	-51.9376775322349	146.718824724878	-52.2398866395949	144.582452713435	-0.0373546183450835	-48.9457336970014	
18467000	-0.227881790929176	-48.3807926722124	-51.3711730834368	99.3033631357199	-51.3458463251603	98.1301909625976	-0.0501401662982957	-48.5376120205796	
18716500	-0.430403564687283	-48.0792194103157	-50.9301350655767	57.2336696497513	-50.9846029146654	56.6543254672057	-0.311604022708469	-48.7472636357488	
18966000	-0.703506641385074	-49.4331754902937	-49.5613717099547	21.1665953310432	-49.5666498818724	20.4676114757627	-0.662448035852607	-50.2341860493892	
19215500	-0.824005440079082	-51.9828924037964	-46.9908836928953	-15.7882879112205	-46.8989181761918	-18.0311314263415	-0.885239538387953	-52.5809697473508	
19465000	-0.716982988872146	-54.1627270739922	-43.8330472544062	-60.5420298392736	-43.8081698309056	-62.1280805102909	-0.879924767318561	-54.142190733109	
19714500	-0.491198985906195	-54.6324842656848	-41.5898792873894	-115.279554542417	-41.6794020250748	-116.482804174331	-0.625132628905286	-53.6494381502957	
19964000	-0.357191730399839	-53.3771881816341	-40.8933784259619	-170.709180682263	-40.9897110293458	-171.953604387916	-0.342460588264126	-52.2497247516061	
20213500	-0.414160033470558	-51.8841690520732	-41.3955056735349	138.52704495392	-41.4499825032916	137.18823833353	-0.287790189835926	-51.3290253858211	
20463000	-0.623096045402257	-51.8226749790188	-42.2848584668197	94.9743839477561	-42.3908722628296	93.8539826524873	-0.465590945078381	-51.652829429854	
20712500	-0.830551188793857	-53.5926101156352	-42.5640428889396	55.5802724757969	-42.6536792370999	54.5770290193651	-0.682021481724385	-53.6222581609119	
20962000	-0.847491173368038	-56.2394234802111	-41.802581950104	14.5654138686758	-41.8042806643519	13.4247018178663	-0.734725089972913	-56.348074634265	
21211500	-0.634232868451243	-58.0383335326959	-40.6799440858099	-40.5594554399531	-40.7152886253061	-41.9314343492166	-0.665095438736128	-58.0803417236362	
21461000	-0.359002605306575	-58.194110318357	-42.9345917672718	-111.894059528684	-42.9334515059344	-113.655111060448	-0.404861835248856	-57.1265002023387	
21710500	-0.304227232864767	-57.0483034779765	-50.6847522741792	-167.058049519876	-50.6722411868774	-169.184844578262	-0.15943761358585	-56.2721591816037	
21960000	-0.442781384296576	-55.9785938488507	-58.2159145044476	-145.311998287369	-58.9820631524126	-149.211426840173	-0.250201634986784	-56.200244495639	
22209500	-0.706303824264196	-56.5609597245286	-52.8645303435841	-145.798232167216	-52.936907747999	-147.20921288237	-0.567168073483221	-57.2734449859372	
22459000	-0.922770303949608	-58.8907265936195	-49.2108143668732	-178.100320397967	-49.2252172380691	-179.614038359508	-0.823378900878253	-59.5779333674382	
22708500	-0.916515205766648	-61.454876642539	-46.0832709214376	139.238663006993	-46.0343576883004	136.982858507197	-0.866305448339248	-61.8757241457042	
22958000	-0.720323674471559	-62.3241625926254	-43.3546896926141	85.9811947108811	-43.489021544484	83.1076799696669	-0.708102783046612	-62.7051567326167	
23207500	-0.458959050830669	-61.187269426535	-42.4855868224472	26.3500383460241	-42.6838806455867	23.4402371039161	-0.494634801730086	-61.6042091961006	
23457000	-0.347365245476212	-59.8218617668809	-43.5098479738616	-33.1307496233161	-43.8787801944138	-35.4610708176247	-0.412825593049046	-60.006356570838	
23706500	-0.541863196143679	-59.4648037546837	-45.9281141481204	-88.5509123264997	-46.5011495250608	-89.4000132000232	-0.539519145169625	-59.3807417354612	
23956000	-0.843158485860552	-60.2410946918212	-51.1483165742251	-134.255720818621	-51.2412654979182	-131.711490390359	-0.767500798076355	-60.3599372372205	
24205500	-0.92121928003645	-62.4344355248717	-56.431413967961	-137.968423671671	-55.9488385399888	-138.168074727517	-0.841531236125	-62.7925631578253	
24455000	-0.720768526899638	-64.8069847871056	-56.0534557053084	-138.706431086798	-55.2543581175178	-141.635915611914	-0.665394658520696	-65.1754354708318	
24704500	-0.405489083314918	-65.8962071899217	-53.1826299231346	-159.629255794057	-53.0363021566062	-161.489034594665	-0.352452598494359	-66.1459283771374	
24954000	-0.222495504957127	-65.4461113549918	-50.7206021142434	168.663881899457	-50.8701429104223	168.07394103633	-0.186289225496069	-65.8827994818894	
25203500	-0.297543153894402	-64.5176455070185	-48.9505522353585	132.047372194413	-49.0665997454544	130.949272539405	-0.310282520354523	-65.3219207558251	
25453000	-0.581012860856125	-64.2600371019476	-48.0017454541216	91.2377474243189	-48.1194570898177	89.6762940152312	-0.668679077270237	-65.1969969272039	
25702500	-0.860811836350295	-65.7418118087237	-47.9693727566486	45.080649115423	-47.6140882577931	45.7331755490506	-1.03666716893159	-66.3474552709507	
25952000	-0.908919962320218	-68.3996239400889	-47.8121719539863	1.71593386051234	-48.0222922251556	0.00126982942293092	-1.13971277454165	-68.0316101173225	
26201500	-0.705061511042677	-70.4291930045603	-48.7099985280295	-40.8398861897013	-48.9625503710663	-43.4631639073768	-0.870574150251578	-69.2984973543562	
26451000	-0.42566226424944	-70.7116943568935	-50.1544122033618	-84.7449861582673	-50.3242858232454	-85.3376676928686	-0.481392838892345	-69.5130714565881	
26700500	-0.342981265590777	-69.6065939776847	-51.8480096021819	-125.531490090593	-52.1676492812275	-126.747267189503	-0.265245915446681	-68.7672160803969	
26950000	-0.50369401417308	-68.1838867867143	-54.0926153662031	-166.050620749529	-53.9270938749548	-169.271268595566	-0.344301423967377	-68.312193885513	
27199500	-0.790914774109	-68.0931850172059	-56.8396330786316	158.589147239146	-56.7825404140493	156.834234982903	-0.663315801518516	-68.9249442848052	
27449000	-0.972672540447699	-69.835730304717	-60.1280406129476	132.354212487594	-60.2855510895301	131.136767903294	-0.953882685809757	-71.0923590203481	
27698500	-0.904517709837736	-72.4263600586718	-61.4113018260987	130.0767204439	-62.5657296193555	122.736581775106	-1.03969790911192	-73.3066659478364	
27948000	-0.60089523343742	-74.1677213953556	-56.7547062664122	107.193961006316	-57.2504421078754	107.769191248602	-0.800796981401391	-73.9287566339036	
28197500	-0.319731181028496	-74.1592435288706	-54.4250014946786	63.0843017888881	-54.682534392313	64.5290341249796	-0.390871033323486	-73.4457112634564	
28447000	-0.290246006004952	-73.1763019134569	-53.6886300612129	23.1040297473434	-53.8681896633609	22.9994247901727	-0.247932672624201	-73.015020275461	
28696500	-0.522473677259738	-72.5075162933358	-53.7717461830894	-19.1522369665121	-54.1700540106809	-18.8627230143571	-0.449924500035097	-72.9106178208276	
28946000	-0.843010005618609	-73.2002362079498	-54.2425591548216	-58.5877352028004	-54.0951053520985	-57.9009544623374	-0.832678614383389	-73.9373155322971	
29195500	-1.00932511439918	-75.4288136425851	-54.5902965316045	-93.0119476791715	-55.14834541655	-96.7483495840224	-1.09049798870428	-76.0321791345544	
29445000	-0.886114935424451	-77.9171453450699	-56.1676823753147	-128.821057190525	-56.4383161724023	-129.177946589442	-1.02630788200226	-77.8209101551418	
29694500	-0.568478519355123	-78.9157214816411	-57.7371588131513	-163.754750893388	-57.7176479589005	-169.361637415064	-0.747240444187704	-78.2401280525523	
29944000	-0.375241453117478	-78.1919165125692	-60.1994939138394	170.326200401261	-60.6562781450608	161.419649975764	-0.457453335210033	-77.3080337131756	
30193500	-0.448048317927971	-76.7733449377221	-63.0365739261959	154.183544031858	-63.2850332555557	151.69000497062	-0.423085023499608	-76.2354722093712	
30443000	-0.71998088255573	-76.0096086835587	-62.8613808516944	152.330674045339	-64.0612301881329	163.043069264504	-0.645911368292722	-75.9701848620817	
30692500	-0.996176373848485	-76.9559829226142	-62.527206736999	140.307840026493	-61.9142367700161	147.029830308597	-0.911600957917155	-77.3982842053537	
30942000	-1.06667522532875	-79.4450894214918	-59.5717757429599	117.992515162705	-60.1810712770301	121.079387404119	-1.00930762525322	-79.992916221343	
31191500	-0.822084024654318	-81.7798765959931	-57.8264188578166	80.708390510094	-57.2685902404718	84.3862674203839	-0.822748694452686	-82.2085537229189	
31441000	-0.471383072720994	-82.5192634757876	-56.9569103882557	52.4197620175616	-56.8665370411456	53.1214145158047	-0.50247872705046	-82.8264005044035	
31690500	-0.304196987126385	-81.7164408291208	-55.7618900023045	20.0914653036474	-55.739648477977	19.7886861397894	-0.34729865262882	-82.1100403027041	
31940000	-0.416581059277528	-80.6677066941889	-55.3366097314265	-18.5994593416587	-54.9552893633568	-19.9039401650507	-0.490803228555178	-81.1971329464657	
32189500	-0.736867023059273	-80.6167306508325	-54.9826321239987	-62.3502452080429	-54.8459223998653	-60.9418487842863	-0.848084196387989	-81.214309013493	
32439000	-1.01534998754548	-82.361413863409	-54.9243966115821	-102.832671151499	-55.1525046065312	-101.142904156121	-1.14783486674047	-82.6553728299182	
32688500	-1.01098514596657	-84.9530245766176	-55.1649994226004	-140.893203022176	-55.4440980798378	-139.531758610114	-1.17948342133823	-84.6908222350472	
32938000	-0.757542122026601	-86.6533470538462	-55.6427599818221	177.712054549487	-56.1516693311873	177.762034685253	-0.900040401980314	-86.1561427812328	
33187500	-0.473704689664589	-86.6442486207987	-55.7834637750394	136.408266885405	-55.9351362948985	132.303852715864	-0.552360266257335	-85.9712791945486	
33437000	-0.399715315621127	-85.4700443021885	-55.6632457657342	97.1781708984926	-56.0340446558333	96.2499060751406	-0.408203164683187	-84.8788363076508	
