!Keysight Technologies N9923A: A.12.45
!Date: Saturday, 02 August 2025 19:13:42
!Timezone: (UTC+08:00) Kuala Lumpur, Singapore
!Model: N9923A
!Serial: MY61181427
!GPS Latitude: 
!GPS Longitude: 
!GPS TimeStamp: 0001-01-01 00:00:00Z
!GPS Seconds Since Last Read: 0
!CHECKSUM:1113248901
!Correction: S11(ON U)S21(ON U)S12(ON U)S22(ON U)
!S2P File: Measurements:S11,S21,S12,S22:
# Hz S DB R 50
2000000	-0.0673081133154246	-2.87239674784029	-86.8074674173718	130.419280246232	-84.5062831372922	-91.7035770812947	-0.0956776665688888	-2.83904741270823	
2249500	-0.321709178825383	-3.56254182529151	-76.7080842919641	-74.1449457128727	-74.6841823536199	-120.218226914889	-0.338040119110165	-3.48820287842698	
2499000	-0.435575368509353	-5.02128058746061	-62.1711664078835	-109.835352583064	-63.8343125664162	-123.645502122056	-0.440332408035525	-4.87734000708874	
2748500	-0.307360275139277	-6.3652417149297	-54.649364448498	90.8671985574407	-55.3264283454228	96.8112310369537	-0.308105100097501	-5.96773712373201	
2998000	-0.0430868124513269	-6.98163621843272	-63.6025766513517	72.1008428161623	-65.4494500957154	63.5449814636402	-0.048505705413187	-6.53106269637202	
3247500	0.0844299144231555	-6.68605046132725	-71.4802071046811	91.6418025832268	-78.9009535574948	84.4458670124174	0.112271375955634	-6.14992195517852	
3497000	0.0770376661393277	-5.61489635742467	-62.0485941005274	97.9946405025279	-61.2226770945467	98.8140948139772	0.0672504031916097	-5.6227253902686	
3746500	-0.143729780176569	-5.75781483337437	-58.89582963687	67.1162184607471	-60.0401150796584	60.2904453831366	-0.177911165881823	-5.74425475053585	
3996000	-0.38623415350654	-6.90845918347161	-52.9297880917972	25.6019280514218	-52.1482591042207	26.1769841791676	-0.47292179428894	-6.92143778025448	
4245500	-0.445920974444779	-8.55836393044689	-51.2107409001003	-62.3539942378046	-51.3064587426717	-63.5002726188402	-0.575390410899312	-7.78488968722707	
4495000	-0.268401743351556	-9.54922648206811	-56.6042030981849	-123.568265873612	-56.7660170400758	-127.942427949671	-0.295028476077714	-8.67331484179399	
4744500	0.0292837253631076	-9.80079871212565	-59.9418539843885	-105.898867684643	-59.8987821845889	-104.736294869663	-0.000230508186290576	-9.0729094650661	
4994000	0.14424361882915	-9.36634649786096	-55.5736951368778	-119.628036341186	-56.2020453236502	-116.619056884137	0.123165912689368	-8.70585451301192	
5243500	-0.0190361464275245	-9.05669604448953	-50.2332006852831	-141.089482527676	-50.5451888653254	-141.571403046115	0.000620999266826226	-8.37231847532515	
5493000	-0.342037952989208	-8.70610719731918	-47.481771244163	143.800984013102	-47.5625999657073	141.628840201408	-0.261988053470623	-8.72569085326793	
5742500	-0.459449992889706	-10.1498369572364	-52.0942008478903	98.288954003928	-52.0115007294205	99.8146267232895	-0.445854723786341	-10.1522545940153	
5992000	-0.407388435013575	-12.1111064263746	-54.0928674070788	88.2054877300845	-53.8395187637166	81.7965208117402	-0.40271029911659	-11.9254912547436	
6241500	-0.156081125381743	-13.3313747903417	-53.3966149758059	77.3280341329286	-53.6560528601531	76.0586025493647	-0.138031820585138	-13.0486225880652	
6491000	0.0670359420142156	-13.4835916067847	-49.5436979873031	62.1015236314983	-49.8571322176665	62.1769500916833	0.0693558683648173	-13.022554344004	
6740500	-0.00617505442513114	-13.2343007718857	-43.2065628234454	33.5602932752098	-43.1283469236903	33.0666650487946	0.0990533277177295	-12.517431762839	
6990000	-0.237273123274011	-10.9498799748345	-40.8689005163093	-52.8729781904186	-40.899546747736	-53.0017185246833	-0.095256824133519	-12.1185075132237	
7239500	-0.363048449808504	-11.9699554169809	-44.9344443099283	-90.6065059496233	-44.8222533351962	-91.0164073799389	-0.365831328066811	-12.9266037017359	
7489000	-0.491573864883594	-14.0125363287114	-45.0066379183107	-118.392690368029	-44.7221871581144	-118.699513207569	-0.534328914538189	-14.7338942085387	
7738500	-0.370125212015934	-15.841767064056	-44.4384013537881	-128.542783449013	-44.4966522577641	-130.06615501251	-0.478342442180258	-16.6208909667572	
7988000	-0.115621951346493	-16.6766212578194	-40.2358268805689	-167.484282376608	-40.2969606989413	-167.599430319164	-0.392353436737159	-17.0418928064001	
8237500	0.0515128754527799	-16.2143722907825	-38.2686990244056	132.825230021908	-38.36332819658	132.031284434087	-0.221672199962375	-14.7883180655802	
8487000	-0.00572248804818314	-15.3905900674984	-39.261127831792	81.0227698614238	-39.4411644018857	80.5560621378899	-0.0723379073936714	-13.6291917010954	
8736500	-0.272482076922476	-15.0013213581355	-40.5523289627349	36.9615620703536	-40.6030359077208	36.6654254099354	-0.239105802811287	-13.6467422972286	
8986000	-0.537069962958682	-15.7184383653018	-42.0318449789985	-1.88315475564693	-41.9262256392056	-2.65900331927991	-0.472918868691879	-14.6961896295126	
9235500	-0.578122297647964	-17.3965638267519	-43.5611122076213	-35.636683778986	-43.3657377705319	-34.6716557446927	-0.522115298094299	-16.5259279738556	
9485000	-0.36109427106934	-18.9286393216359	-44.4373661720138	-63.5784057575405	-44.2168611403693	-64.1238132169691	-0.325257545658672	-18.1133743555345	
9734500	-0.074660529365196	-19.3967107171021	-44.4109622885734	-87.5705794121771	-44.3390843837299	-88.479909655964	-0.0364558613728588	-18.6414206005121	
9984000	0.0392968997622163	-18.9661724464189	-43.3085895481256	-115.726632107151	-43.0640192751923	-115.681314710975	0.109098134321579	-18.2499942932233	
10233500	-0.161349898039409	-18.1881335256922	-41.0751483270549	-152.109610388681	-40.954620518578	-153.248771507858	-4.76998563232794E-05	-17.8125572393469	
10483000	-0.461953316856952	-17.5020299968418	-40.7181741391106	159.474830334746	-40.7356858852586	158.710297987547	-0.284074952256364	-18.0672543040979	
10732500	-0.58916233030215	-18.7000074679566	-42.6502705703405	120.986983853902	-42.6382082430166	119.670318794932	-0.51065543448886	-19.5552173855717	
10982000	-0.532433062915254	-20.9335566284587	-43.8715326162125	99.3368701458145	-43.6937624181734	97.4692573556216	-0.515205470945514	-21.6660069902831	
11231500	-0.271514210805597	-22.4928458188612	-42.3962048694873	77.361584809963	-42.3034156484129	75.9079105806366	-0.316781943055469	-23.1869820946454	
11481000	-0.0243104464937818	-22.8450970676019	-39.711639591246	48.5912128683393	-39.5090762303514	47.4165109465384	-0.141685083767298	-23.4533993340454	
11730500	-0.0108604438605707	-22.3254265349851	-39.0540782210805	18.4981298323183	-38.8630132345506	16.5803897815349	-0.152068784943266	-22.714989051618	
11980000	-0.352908955875822	-21.7723615371714	-33.3287052324706	-31.2739190220504	-33.1778411150947	-34.3163526143023	-0.552606077969249	-21.2124838668608	
12229500	-0.700988659419935	-21.218464000026	-32.2382164505043	-100.623660551725	-32.3820446630426	-103.521060434494	-0.749019452186385	-20.2815778613923	
12479000	-0.820716272695574	-22.3216843967573	-33.8418247257117	-160.337324847709	-33.9921070802351	-163.057764076418	-0.885282673990329	-21.5725984304866	
12728500	-0.617614179624187	-24.0716660424886	-36.3854508388096	150.445317043588	-36.5893487444896	148.628770387156	-0.707842455093766	-22.9187023323732	
12978000	-0.270426516336752	-25.2647829029543	-38.3796588329212	111.924790318088	-38.6388939377733	110.636428930805	-0.331582236158447	-23.7830388960634	
13227500	-0.0478049608817785	-25.3001653871182	-38.9090270897321	77.9144645653896	-39.082525452893	76.7432602995449	-0.0364976704252306	-23.6803071186207	
13477000	-0.153650401953618	-24.4980514838366	-38.3295902666821	37.3685663247511	-38.3740826283949	36.1653261435189	-0.00373874427744399	-23.0958049821094	
13726500	-0.44984536613992	-23.1172034786155	-38.4333170914426	-15.6854952983993	-38.5270585564046	-16.1490741767811	-0.220254066871994	-22.8227670035822	
13976000	-0.610763185129816	-23.5626537493739	-40.6520714468584	-61.7215201932552	-40.7919327151472	-63.4250355829592	-0.482124594470069	-23.8001024507735	
14225500	-0.633556544493461	-25.98109575507	-42.6485431905196	-96.3395591969542	-42.4344727937253	-96.3759170780741	-0.581279684343516	-25.8746074498696	
14475000	-0.473996483196435	-28.4523961059846	-42.7143699979706	-130.436023973629	-42.3165925223774	-132.820526949616	-0.434228516398117	-27.819580277065	
14724500	-0.325897957036345	-28.9655131308159	-45.0879627832287	161.917139336486	-44.998740642816	160.38810789888	-0.151260648535723	-28.6401753469653	
14974000	-0.0670355077631446	-28.0699413683412	-49.2601504238704	-135.738882169308	-49.7539900887345	-137.756603701102	-0.0192176694461782	-28.7310344273993	
15223500	-0.258345336054267	-27.9617827207966	-39.7085910602652	176.78298780713	-39.4593042531582	175.223716715259	-0.278767144753806	-28.439632802554	
15473000	-0.778618753493251	-27.217902222283	-34.9099296888473	95.6152568761985	-34.8115905332473	92.119376643229	-0.861159202815526	-26.8743892093872	
15722500	-1.04324316709794	-26.3871658502011	-42.2112726192506	-12.0789460382174	-42.214005425837	-12.3282024576171	-0.810655920173823	-25.6469751964875	
15972000	-0.805020963435543	-28.334766146833	-46.2494806797988	68.7738605086665	-46.3211417509692	65.1616650502188	-0.660027660050635	-29.254574472659	
16221500	-0.499650484680555	-30.5536729024475	-39.1291506336073	21.6228945560184	-38.7999165130342	19.0731034821716	-0.565186409948763	-31.6395321996962	
16471000	-0.229628276395384	-30.9702954073736	-35.4975925217338	-34.2743289589487	-35.4023216439415	-37.9518543088852	-0.417981676689908	-31.0413016511799	
16720500	-0.124274198421718	-30.0921840265101	-34.3725385589777	-90.4888023045292	-34.4142228074309	-93.9124903157585	-0.206930645583003	-29.5410699204012	
16970000	-0.299778811091154	-29.4995318832513	-33.7455720455883	-139.686414143174	-33.7119925220776	-142.509336622037	-0.31182591457633	-29.2387679889196	
17219500	-0.663620938654691	-29.7836670946428	-32.7778172713264	169.718236255845	-32.8350409711472	166.615615148752	-0.722214459778885	-29.6805253049565	
17469000	-0.900676624759355	-31.309849652853	-32.4974325849768	112.933457730184	-32.4843704369964	109.490569213316	-1.01797132583375	-30.4780819908362	
17718500	-0.906566878659124	-33.2209182360247	-33.5133976170071	46.8036815228148	-33.5492716272233	43.225691577876	-0.987890447925644	-31.739940247357	
17968000	-0.505859562776415	-33.4780907067975	-42.8669181240249	-14.9562397152078	-43.1505898900482	-16.5082932259234	-0.574437899886628	-31.8785135753726	
18217500	-0.190481046642269	-34.0502047027577	-44.6718509341919	28.7158427688518	-44.598404101463	27.6416110104456	-0.164512021160043	-32.0527975592742	
18467000	-0.298538288248835	-33.2457329868867	-39.7342024702664	-1.17983729469301	-39.7012693817069	-2.80698750138999	-0.0704948209737744	-31.5155340925529	
18716500	-0.60462999091144	-31.5536334220391	-38.022337385417	-45.7899022493294	-38.0070338692666	-47.4167636884079	-0.252751899724433	-31.2145423464759	
18966000	-0.809474701679728	-31.5127929477348	-38.0266159952116	-85.6671541061918	-37.9686964792828	-86.8982718034855	-0.555858637614334	-32.1490695208788	
19215500	-0.860507959649294	-33.6208535480404	-38.020770062389	-117.598768437642	-37.9978933620528	-120.267934284196	-0.732535551332812	-34.4148760051604	
19465000	-0.692173376530062	-35.9907030916979	-37.299003978923	-151.887825719526	-37.1837872253954	-154.088379431494	-0.671041219732475	-36.6239772344013	
19714500	-0.405506748837078	-36.9501642222647	-36.0937004199428	170.196633316378	-36.1067844753734	166.56256210578	-0.441165578554912	-37.2939961026116	
19964000	-0.215362045353195	-36.2787981821235	-35.8638342194751	127.653039747691	-36.0009922033028	124.290592721098	-0.222719073563384	-36.4303383693962	
20213500	-0.272704222764341	-35.3229023723068	-36.1938657758644	89.1261241801642	-36.4092932539643	86.6040384088452	-0.217728038739411	-35.5264721728255	
20463000	-0.592822977289266	-35.3398278415218	-36.1521142356097	54.4882727999975	-36.2272638056956	52.3877123573535	-0.490746913728736	-35.610573450869	
20712500	-0.988715313668621	-36.7683881556383	-35.3132795669716	17.2072917691174	-35.3992315696265	15.6577329978658	-0.86647487002134	-37.0635653892256	
20962000	-1.18176301031816	-38.7534164625961	-34.2578467372027	-24.7013274513096	-34.1293227970136	-26.5532160882156	-1.08952324986047	-39.126035877645	
21211500	-1.02075473155545	-39.6638251720948	-33.5087113867079	-71.9012946677544	-33.4878824700669	-74.2730490014309	-1.01554144807007	-40.1406633769446	
21461000	-0.653127546151467	-39.1724147338288	-33.6075667322654	-121.254591971099	-33.6668219373518	-123.863189191497	-0.740047230401415	-39.4345572076698	
21710500	-0.432805713763759	-37.7876593189593	-34.3874293771044	-168.868759518755	-34.5079034760751	-171.915297992757	-0.526984372544945	-37.541350352337	
21960000	-0.490075071927324	-36.4645582396091	-35.6221793682122	145.569907954969	-35.803587737148	143.698520355099	-0.515327536905606	-35.821881752789	
22209500	-0.740585637863761	-36.4125459547625	-36.9277246952951	104.448924194941	-37.188139759938	102.633635454684	-0.689857363538969	-35.6185707335313	
22459000	-0.961537158709215	-38.0914113106017	-38.2416918631555	65.4603183283956	-38.3031658815381	63.8360373669653	-0.869947015907052	-37.2496223071155	
22708500	-0.935420835055929	-40.4144345320165	-39.2989255451686	26.4731900219171	-39.6909664751541	25.1494965546675	-0.839816971469566	-39.7158516006265	
22958000	-0.645628814244539	-41.7309250625011	-41.5019137222479	-10.4994683294138	-41.7617911073635	-12.1027654473787	-0.55478547967904	-41.3534669285239	
23207500	-0.308776557596669	-41.805235908151	-43.4658963084198	-20.1278653971974	-43.5623116930363	-21.2493669394567	-0.22695148572082	-41.8093301886321	
23457000	-0.261240452443255	-40.8758862466305	-40.1276749830943	-54.4876551058012	-40.3490001439735	-56.7351390175888	-0.149538622347948	-41.0085507318982	
23706500	-0.49031051720244	-40.1764178056654	-39.859109126365	-97.9824089149123	-40.119815964917	-98.6492922210383	-0.313804967740268	-40.3621768347549	
23956000	-0.892829296441043	-40.8736837808842	-39.9179345025649	-135.450634578807	-40.170215299058	-136.261371685566	-0.62669958430093	-41.1075302768501	
24205500	-1.20095585234971	-42.6703823944851	-39.6615420820348	-173.400406237866	-39.7597496348394	-174.661252240616	-0.86462776269018	-43.2917652011617	
24455000	-1.1546727959393	-44.1300427396135	-39.5592136206481	145.676402055157	-39.7271817921735	143.734828660535	-0.83810938911975	-45.762156168139	
24704500	-0.776292255010779	-44.3301808579375	-39.8513115964924	104.025393933135	-39.8339148995966	102.815209538986	-0.613644903594406	-46.8662223876456	
24954000	-0.408715766209605	-43.4929065254967	-40.1174345424693	66.1313504737987	-40.1778079809052	63.6562191468705	-0.495616173200301	-46.5326391062461	
25203500	-0.33402472317041	-42.432120525631	-40.0419537798572	29.0168542774478	-40.0973689533101	25.7087916439074	-0.650038711934624	-44.8222589996884	
25453000	-0.561364571149779	-42.1092628752896	-39.4757986201425	-12.545123414507	-39.6210722122166	-15.3920340953902	-0.992808806892165	-42.90894933336	
25702500	-0.894509423361595	-43.2175385429711	-39.4161418256358	-56.4992868460637	-39.6100022761859	-61.0427166940954	-1.27223466199941	-42.2562773755785	
25952000	-1.02388522650181	-45.5157835319886	-40.1691882146602	-103.241716907244	-40.4526877416861	-104.481728180547	-1.25157472975827	-43.6293153101438	
26201500	-0.830229055973939	-47.5198538152765	-41.5413447660979	-145.369332201558	-41.9087507255438	-146.280545209655	-0.944620635418655	-45.7159738800362	
26451000	-0.500845804715839	-48.1256791204504	-42.9679991797123	178.561509306485	-43.0441072029755	175.702742898116	-0.51683239359525	-46.7806175591224	
26700500	-0.329838816473536	-47.3338066399266	-43.8413526312307	143.490034175195	-43.8913094926034	144.18126252367	-0.247306574950951	-46.5727581608324	
26950000	-0.489858742131146	-46.0386551865454	-44.4492573824903	110.363214508066	-44.7573056519013	109.837709163645	-0.289673976864034	-46.0042783239037	
27199500	-0.873560403248628	-45.3795758821666	-45.1163759288288	74.7441739318323	-44.9806221142738	74.3197036818562	-0.612985086976149	-46.3448966566013	
27449000	-1.19439433791096	-46.1005373398763	-45.9215550273815	38.4864594043731	-46.1655743478549	33.3029475031935	-1.01905895892034	-48.1611738715388	
27698500	-1.17083970773622	-47.9788999407501	-47.3994126122349	2.18242141196004	-48.2328444097445	-2.11752102646559	-1.26759030395946	-50.5096784233367	
27948000	-0.807748245442498	-49.6473938480216	-49.9172370760894	-26.3107066325527	-49.6598504675851	-29.2014219033104	-1.22017255825414	-51.2759541510473	
28197500	-0.396585824812934	-49.9468998151746	-50.5411066151061	-61.6441771300671	-50.675195464619	-65.0755644532488	-0.87330225735188	-49.6148464845782	
28447000	-0.217736308136622	-49.175380801578	-53.7382178309094	-95.179582157462	-53.9878894553658	-104.915079910608	-0.520336910833251	-47.8104543187488	
28696500	-0.372040361158195	-48.6071410081929	-57.0928957908329	-121.620117666447	-57.6436629358451	-130.351358604111	-0.503456204308599	-46.908768056799	
28946000	-0.731178382404384	-49.324840686225	-61.489230463435	-152.104885805427	-63.4944609969351	-163.058936689795	-0.733347382205316	-47.5420016644176	
29195500	-1.04395467490563	-51.6231612826577	-72.9551569057064	164.958125095599	-69.0314752147442	-163.41563983951	-0.964610573841592	-49.7893351665403	
29445000	-1.0854435564098	-54.2966171657775	-69.154138448697	-101.156355499792	-71.4679099797927	-119.952800486978	-0.95014505929921	-52.75397360832	
29694500	-0.890186003293087	-55.3364634763767	-58.77792102972	-93.0404739850816	-59.5443666838095	-95.2038989933131	-0.711292487646167	-54.698734040488	
29944000	-0.673942067945794	-54.2913716491558	-56.5429857809478	-165.490784725562	-57.2840902140086	-176.199750716384	-0.48092727695225	-54.9324391667362	
30193500	-0.679205177980541	-52.1887014872117	-58.2329589048162	150.73615111168	-59.2749840151065	147.157570743706	-0.541175575432976	-53.9900859242813	
30443000	-0.926882499348726	-50.4343683222802	-61.1359645268265	136.045314069729	-60.0278460355287	145.073674654102	-0.913160370634031	-52.8474202795657	
30692500	-1.23035263596601	-50.3075680337192	-60.1080884852632	110.694673847403	-62.0520439672806	108.673650358594	-1.39678809183622	-52.6362289704444	
30942000	-1.31809111535175	-52.0549821815367	-62.2384338757982	75.0818913908919	-60.7590101217454	81.1518255318694	-1.67463473780946	-53.4660728520593	
31191500	-1.06685651360059	-54.3785240373819	-61.6349192230159	56.1815910708431	-59.427709418968	60.723799929141	-1.53183438914697	-54.5290335242747	
31441000	-0.644161476055658	-55.5230165121527	-59.442281683671	33.9791705100043	-60.7465863968104	29.2965123108227	-1.0893787504984	-54.6487826267023	
31690500	-0.355147841472117	-55.2451099367518	-58.4163413937987	5.85313247760777	-61.4081989884817	9.68896384543754	-0.671954766687463	-53.5866284144591	
31940000	-0.401893191903551	-54.4547990868394	-60.3768798737743	-23.4235361218265	-62.1778388195725	-22.1578820750273	-0.549591622438658	-52.1982791374306	
32189500	-0.745088586319054	-54.5069453996489	-60.5046090292858	-67.6354878652972	-60.5466716075741	-63.6891961713296	-0.715707348745632	-51.7150886577201	
32439000	-1.15774089077245	-56.1504240910984	-61.6692733776206	-74.9096326234629	-61.334927682159	-76.664955945816	-0.988823269891996	-52.9400996782836	
32688500	-1.35843565866242	-58.7564787809924	-59.1546979189293	-102.304305976425	-60.7308696221593	-84.9592218453394	-1.09537658452934	-55.6242332369323	
32938000	-1.22880966063042	-60.367789345604	-58.5151473510257	-134.62696396338	-61.8675447214554	-129.633768189683	-0.907721594301547	-58.1780613064042	
33187500	-0.912139573091249	-59.7426432339909	-58.8261905175023	-174.050241709336	-58.5985728364082	-174.440933656659	-0.575724373071219	-59.2432492079132	
33437000	-0.684932009479231	-57.7014757162877	-57.1614058554014	148.790131056639	-58.6608265141223	151.818556930185	-0.401724723516652	-58.8037998050638	
