!Keysight Technologies N9923A: A.12.45
!Date: Saturday, 02 August 2025 18:32:01
!Timezone: (UTC+08:00) Kuala Lumpur, Singapore
!Model: N9923A
!Serial: MY61181427
!GPS Latitude: 
!GPS Longitude: 
!GPS TimeStamp: 0001-01-01 00:00:00Z
!GPS Seconds Since Last Read: 0
!CHECKSUM:1550523721
!Correction: S11(ON U)S21(ON U)S12(ON U)S22(ON U)
!S2P File: Measurements:S11,S21,S12,S22:
# Hz S DB R 50
2000000	-0.0556097831364785	-2.9989860141145	-56.3883398216131	-85.4882016226393	-56.3464227515086	-87.227145195162	-0.06936432528705	-2.84375177570472	
2249500	-0.22499765980465	-3.61250921664473	-69.4385948147143	-94.7969433661959	-67.9412175917348	-91.6048369124572	-0.226325246207288	-3.48083018576231	
2499000	-0.299375452983592	-4.76706708129306	-68.9755289481786	-90.0837079621986	-70.701092981424	-94.5300094190498	-0.292304112746978	-4.56632885876294	
2748500	-0.211889001752164	-5.88004052513155	-69.6402844571074	-88.5137807439951	-68.5924041910568	-97.7800382133539	-0.208518774177039	-5.62092824046899	
2998000	-0.0339372107832489	-6.38527239671857	-68.4495951753436	-98.2735283455338	-67.4116713698666	-103.012690355717	-0.0460281151076486	-6.12320451326811	
3247500	0.0822793986467184	-6.3282328638873	-65.4503646076538	-104.145243682451	-64.4658042675695	-101.870674878579	0.0586453813821906	-6.05897702408072	
3497000	0.0456199684684092	-6.17995555205974	-59.6962903616619	-114.136183174187	-59.4831715953921	-113.776079538573	0.0284442273304021	-5.87783997232802	
3746500	-0.158434249925241	-6.17325445535159	-53.4094858098173	-179.854021048659	-53.1689133952575	179.363179689095	-0.128699051823919	-6.04760703489884	
3996000	-0.276838012261168	-6.96089838395317	-61.4118337173426	150.358273327148	-60.9433533623654	145.457529619224	-0.277781490044877	-6.89502164147226	
4245500	-0.299595950475536	-8.25584570969575	-64.5418560275102	92.9451705909297	-63.9764302164151	100.082291812525	-0.293071280527345	-7.97593576273537	
4495000	-0.171541073275199	-9.3249243372327	-69.9479112682654	163.705570096505	-70.4678215499643	161.917266874032	-0.167624168889579	-8.98522695404303	
4744500	-0.0193381974763447	-9.67145888825119	-55.5880633106133	177.677482192276	-55.4758807607053	175.166045530906	-0.00970083644583478	-9.34402353120462	
4994000	0.0718121639165888	-9.19232064057077	-54.7005781805971	109.308286696759	-54.6024921672547	106.020108020363	0.0650741269763391	-8.8218618446104	
5243500	0.00189326680089479	-9.09279495391228	-55.7400889614816	88.6165929996447	-55.6193941504148	88.0995853384587	-0.0110093172414663	-8.84239597649824	
5493000	-0.178605261207892	-9.56302493089319	-54.8370337749752	82.2926239025098	-54.8810712303876	79.4691499279747	-0.179701633170809	-9.22935628479726	
5742500	-0.316694689128044	-10.7757734165268	-51.5403594832721	73.5623349657458	-51.637169829061	73.9429530293313	-0.300863019749674	-10.282039985307	
5992000	-0.328326896197709	-12.458809121283	-45.005077494186	61.4429812074535	-45.0304099757404	61.0432711106363	-0.277322450917407	-11.5907457704134	
6241500	-0.41009766499831	-11.4837903561907	-36.2880405379226	-35.3607050102788	-36.2431401519039	-35.5505242071129	-0.170445804397427	-12.1870712312517	
6491000	0.0260898513925313	-11.9396407644933	-44.9674551436022	-86.5419488046935	-44.8558630040057	-86.536780233107	0.0226755095059606	-12.315091839002	
6740500	0.0752850844029236	-11.9785867160938	-47.2692467746141	-97.7596536555269	-47.2792364477194	-98.337196627953	0.0524945078085844	-12.1561910585239	
6990000	-0.0515757545108747	-12.1389458017184	-46.0324455792619	-106.800575434134	-46.0460351982508	-107.056839613636	-0.0708460150974783	-12.2528840708437	
7239500	-0.272614712252968	-13.1369488414199	-38.0969157860508	-134.701893920762	-38.0429594195749	-134.9887887282	-0.345601148706091	-13.5134200404293	
7489000	-0.361849435367511	-14.2262447824966	-50.7104192093729	103.343384675402	-50.5861681273887	102.880331777553	-0.337403501427998	-13.2312820014837	
7738500	-0.36069788325677	-15.8237104732832	-45.7846813406927	106.052244926003	-45.6804963802245	105.806940568324	-0.336922367572556	-14.1125343088342	
7988000	-0.342584446226826	-15.6442211782509	-52.6683855295565	151.348751476227	-52.7329796280622	150.62279389899	-0.0723064436148841	-15.1696061915387	
8237500	-0.0623133306569488	-14.6857835117951	-51.1614378799048	115.767736677188	-50.9377183210174	115.179778177212	0.0555868641866665	-15.2222263190485	
8487000	-0.0127969129907826	-14.5433754168613	-51.7682689616031	99.2735039647843	-51.689320554452	99.2436010995632	0.0365624950923557	-15.0069070377084	
8736500	-0.153259091925695	-14.7784311934895	-51.4442764057174	89.1474180107203	-51.2562273535145	88.3569505658933	-0.113032354444313	-15.1297386918292	
8986000	-0.329841140638575	-15.7514841608653	-49.8564532983192	76.4842168700887	-49.7501957091154	75.9527314163909	-0.27634752373242	-15.9806298562735	
9235500	-0.389197818007875	-17.2311721510085	-47.2575936425116	60.7604409360469	-47.2303849356568	60.0676402249795	-0.320700002691304	-17.313535445106	
9485000	-0.308098685081166	-18.441902587956	-43.5289351278228	34.053771088716	-43.5151643996172	34.0617661488622	-0.218777092537133	-18.5078996843334	
9734500	-0.156619872377105	-18.3284872026097	-40.9077544386399	-12.8537989091801	-40.9040239201335	-13.1298656102243	-0.0724113766796722	-18.8601020774466	
9984000	0.0210965257624787	-17.7720503277095	-42.5666987605403	-57.8475279325963	-42.5331360575839	-57.9709760411217	0.0230558412914966	-18.4818972509865	
10233500	-0.00406223409123193	-17.6663934777696	-44.5571612261721	-81.2556531860533	-44.5143168483659	-81.5396565256685	-0.0319316769274944	-18.2554244440576	
10483000	-0.173490067340487	-18.1875451599997	-45.027970452915	-95.5578397897713	-44.9377033386964	-95.3318538601219	-0.203028555963242	-18.6223211524378	
10732500	-0.321944519718244	-19.5362238748972	-43.5826381417046	-108.120693083195	-43.4616477563445	-108.694528142172	-0.353354825765139	-19.8011052145536	
10982000	-0.339035661360216	-21.3658099185255	-39.0479055848035	-133.410039822432	-39.000537150993	-133.378030541291	-0.410365269808259	-21.3968006272689	
11231500	-0.241883107746368	-22.22042068563	-40.0457707331924	142.2860676959	-39.969009747081	141.992589680442	-0.274764025332461	-21.2900126294535	
11481000	-0.0727000395854569	-22.996527733605	-48.1135558257017	162.618535840901	-48.145895874595	162.776420720358	-0.0379830969628828	-21.9685587654588	
11730500	-0.314195150826228	-22.7741183373245	-35.2340260378903	130.881582138876	-35.1555007027322	130.668502341556	-0.132345367062875	-21.7929235666517	
11980000	-0.536077958349315	-19.3953408399747	-48.0389916281487	-112.174590972102	-48.0032261085501	-111.238337717245	-0.130591040916341	-20.9513934008415	
12229500	-0.446293295936638	-19.9060860098884	-42.5131224909103	106.179590226051	-42.5206214833967	106.071393406082	-0.249230464933305	-21.94034126766	
12479000	-0.463147134623384	-21.6473249101779	-42.6672980809724	84.5610154699384	-42.5865745886396	84.0854557113353	-0.3699295749246	-23.5308822404134	
12728500	-0.364829070954038	-23.5217734960394	-40.8182646121778	71.6691954281615	-40.7582609581791	72.0014797860911	-0.324106960236393	-25.2775288104769	
12978000	-0.178445079934823	-24.7863147367491	-36.6646341026404	56.5530546298263	-36.6199931079521	56.3817285811359	-0.197475196894996	-26.7321153066108	
13227500	-0.156311947695029	-25.2696102323215	-29.3065946565434	15.2274934520107	-29.2858427731376	14.8381972767339	-0.371769361201352	-27.6625418485583	
13477000	-0.120540095126212	-23.2990756737311	-30.3780027540164	-72.9788570103622	-30.3774039187264	-73.2242566391056	-0.322236340847712	-23.8732403367206	
13726500	-0.186673690214152	-23.731867573602	-34.679335370165	-103.322143048472	-34.6410242086809	-103.400721655047	-0.319723540655383	-24.7206312130282	
13976000	-0.372470640529742	-24.9626571316976	-35.7475720388888	-120.332919860124	-35.6800065523441	-120.440897544984	-0.541378309704031	-26.2902550952017	
14225500	-0.4641489684194	-26.8518402088063	-34.4487563235724	-139.546492389945	-34.4538712779664	-139.862934145321	-0.764328328388336	-28.3625708033408	
14475000	-0.426853037405503	-28.6327407782665	-31.4347411126645	-171.229806578214	-31.4205686807909	-171.56795347863	-1.03496202282776	-29.2823842474158	
14724500	-0.347833404494679	-29.1635711484288	-29.4326769275987	133.664421587254	-29.4541522304492	133.448755482728	-0.917720507105835	-25.6191630925804	
14974000	-0.313453368004641	-28.9889206636769	-31.3223755540543	81.4260051430381	-31.3105104135983	81.2081395433729	-0.258956380274462	-25.2874557467468	
15223500	-0.675066555664124	-28.5044093406275	-34.8386575232509	42.0796475982433	-34.8412937048245	41.9254347392352	-0.238800079618622	-27.4448810215673	
15473000	-0.967803956899962	-24.2295741138537	-30.4439243093531	56.7662209457318	-30.4088514512183	56.1267696563927	-1.27899906739459	-28.294239750194	
15722500	-0.706253410457954	-24.7385643551448	-30.0402823082038	-34.6621913993349	-30.0750860794855	-35.1869027329473	-0.953573518011905	-22.8657050692494	
15972000	-0.516674377963213	-27.0749477275375	-34.3092606888552	-77.2128306324861	-34.2917437177128	-77.4546636971886	-0.574717625389483	-25.4631278721136	
16221500	-0.296583914601839	-29.0674553919587	-36.5572236099491	-103.328052052316	-36.5647296348286	-103.458808386565	-0.330472211917972	-27.7072639065905	
16471000	-0.0920192800288597	-30.0109135416602	-36.8572939670996	-126.938926461215	-36.8509413394647	-127.304710627382	-0.125132304204457	-28.805151049179	
16720500	-0.0671316226510763	-30.1944471466229	-35.2571328648429	-156.610109614225	-35.2848038726	-156.706349033613	-0.0840580069147681	-29.0386128135695	
16970000	-0.296913014768807	-29.8048470328637	-32.9931406476623	155.079592721474	-32.9978022493514	154.601646730095	-0.255642956874723	-28.5441145880508	
17219500	-0.45269321092061	-29.6942205088965	-34.0727454749372	94.7676411810727	-34.0686395815755	94.2819430598304	-0.342392757924057	-28.449131767681	
17469000	-0.577000466004629	-31.7856700989829	-35.8636409783651	49.4069124745896	-35.8787260973893	49.0653142013509	-0.407284990619249	-30.1557145120491	
17718500	-0.772661893845404	-33.5345476103328	-35.8775911452086	-12.3185891860625	-35.8733637354442	-12.6603222090263	-0.388713990745667	-31.92831982688	
17968000	-0.489739496439702	-34.0007501660442	-42.6068882033413	-82.0115112650608	-42.6288706916643	-82.2647683630555	-0.173586654936794	-33.2549808263177	
18217500	-0.652436111204798	-34.9318372585431	-45.0576559131368	-123.992228306599	-44.9801243074587	-124.000996515269	-0.0143441244891104	-34.0090162485895	
18467000	-0.693655010150081	-29.4261223464561	-44.2424056386499	152.542757716095	-44.2660206974472	152.620288767682	-0.0259646654738447	-34.2637998261438	
18716500	-0.33243531438028	-29.3847014745369	-45.0026445578896	90.4495755192499	-44.991778928551	89.8297042211898	-0.221596899514539	-34.8266033850179	
18966000	-0.410225814783346	-31.1839083110155	-43.4208727807455	49.4083518066086	-43.4623461175245	49.0596990487158	-0.522628083862338	-36.2430146547725	
19215500	-0.499575049439551	-33.4436612955834	-40.212374800916	12.3753792004759	-40.2685599711053	11.6853272968863	-0.800998356258811	-38.3745183553257	
19465000	-0.453092181859258	-35.3129341932062	-36.7161573600735	-34.4318107844983	-36.75406653893	-34.661150795902	-0.995115527245581	-39.6921580021498	
19714500	-0.257765928776368	-36.051076602467	-35.1406127670918	-89.8035915064206	-35.2202299195537	-89.8645498482078	-0.932377166669379	-39.6080194983314	
19964000	-0.0944217930642927	-36.1399970067244	-35.284261356177	-136.809840564444	-35.3230774372449	-136.756243915007	-0.970153093697732	-39.6495924208556	
20213500	-0.144755905269999	-36.1767615368184	-35.0832692512818	-176.447131719229	-35.1260628850942	-176.437466109844	-1.41046067952478	-38.3472266484727	
20463000	-0.387750491153133	-36.8149697793165	-34.2830945590797	145.158997993398	-34.3552378271276	145.022022135443	-1.90224225151997	-34.867304925729	
20712500	-0.680896833861001	-38.4504779338299	-33.002391202473	104.123206206442	-33.055191880626	103.959728307973	-1.93368571676592	-31.8722066936467	
20962000	-0.893788250460937	-40.7302213033275	-31.1501916894995	59.1856662459731	-31.1994193308327	58.6785741949575	-1.56936665581298	-32.1327970407073	
21211500	-1.02449450530161	-42.1609063012924	-28.2400719918095	3.00492322688398	-28.2831409867371	2.53571512296349	-1.22566807441757	-35.1764579806548	
21461000	-1.06481105312568	-42.5410718618962	-28.2739115275598	-92.0774080558659	-28.278443087587	-92.6054085166757	-1.66955610239551	-34.2882842593365	
21710500	-1.44428461555438	-38.6673713629398	-36.8208178919741	-139.7196516653	-36.8811188526085	-141.069858137405	-0.931700180816211	-30.2393940810239	
21960000	-1.39791617332052	-33.8941720800546	-38.4571169652839	-168.65371235768	-38.686946531417	-169.978510281265	-0.636772199093848	-30.1917494261957	
22209500	-1.16116409942337	-31.6051759089208	-41.2056667318337	147.138961040976	-41.4331906945566	146.347693160073	-0.635478270726846	-30.8608857616128	
22459000	-0.901453933854104	-32.8822745842967	-45.2134962107433	108.632159129407	-45.5107704531444	107.369424639712	-0.682043367438361	-32.4264106905789	
22708500	-0.669889731560886	-35.5110269822515	-49.2930635570621	75.5576745462797	-49.6787169097521	73.1197711490993	-0.619189432904893	-34.473817202434	
22958000	-0.386359602897386	-37.6067142299936	-54.5131606363529	39.397402196924	-54.4932145732519	37.3338082552929	-0.412725399580859	-36.1167428442903	
23207500	-0.127031947051143	-38.5423342559804	-64.4619614537595	-89.3428245097233	-63.7054474466054	-91.9085113654587	-0.192803427156359	-36.9161916103726	
23457000	-0.049727197010177	-38.5638186635041	-50.5262530780898	124.012229612363	-50.7676131156538	125.07832618653	-0.138549936810829	-36.569434736663	
23706500	-0.159138748364296	-38.6760971937433	-51.1385356449771	65.4458699487688	-51.4243178790298	65.7955862126968	-0.181729766240836	-36.2833143510118	
23956000	-0.373842332590239	-39.648647223981	-52.5754453622857	31.000433864652	-52.8748635020669	31.0137318343559	-0.336222197427705	-36.9442661198607	
24205500	-0.525942628122754	-41.4600245278724	-54.1936126823819	2.4064580962519	-54.1080944079058	1.29151243999299	-0.442250428746258	-38.4412246350802	
24455000	-0.498377267187399	-43.3193471641818	-58.9707868649115	-33.4972989258926	-59.1597482371769	-34.0366939025744	-0.381167060343172	-40.3048330277604	
24704500	-0.314127505154447	-44.3067728148192	-54.7275966172961	109.396085139605	-54.9508532381083	108.129441234685	-0.212856520006442	-41.9100891300302	
24954000	-0.157175931423963	-44.4735544751586	-42.0698533537305	-2.20229530273462	-42.2648485508761	-1.40318284098603	-0.32048924950977	-40.904918974422	
25203500	-0.202227437076025	-44.1409991355282	-45.1608980127065	-62.8335347843302	-45.3262076624785	-61.5447510375512	-0.106782509630984	-40.024368818586	
25453000	-0.431799069014409	-44.3397392344958	-46.673376215185	-94.8725746024305	-46.8456892113778	-93.1669613638043	-0.19166357869807	-40.1020594594898	
25702500	-0.75484097050585	-45.5136670059338	-47.0537152573236	-122.173226488864	-47.27243608272	-119.407518878341	-0.362110763254023	-40.9840785427788	
25952000	-1.00067163563648	-47.1663551448756	-47.0048923736675	-149.286975647183	-46.946318852489	-147.063823881467	-0.43014233412677	-42.5616648978427	
26201500	-1.04376933730791	-47.8626385981124	-46.7591777564041	177.525526942695	-46.7891655575858	-179.075258371412	-0.331254301603663	-44.1335081596407	
26451000	-0.844518600415395	-47.0687119170231	-47.4201753937746	142.79797498785	-47.4037326378033	145.305852212718	-0.123992548621191	-44.9198115568092	
26700500	-0.611296874237028	-46.2263958967681	-48.5279860388602	114.503120738803	-48.4530588428209	118.043194073891	0.0188064947179259	-44.8724941841462	
26950000	-0.706528750757692	-45.8511411117873	-48.9344943912404	91.5836815323758	-48.94504813298	93.2222019990098	-0.0125123774826431	-44.5457934842549	
27199500	-1.07247250984959	-45.5184119383743	-49.1891227196719	63.8991087692156	-49.1267533417959	66.7060921211528	-0.185135764863518	-44.7248647104956	
27449000	-1.38500731283519	-45.0358532768932	-49.4866357086811	34.5008947572132	-48.9477792816666	37.4269709041062	-0.361422028444191	-45.8468746016922	
27698500	-1.31697585270307	-45.0004056677599	-49.3642758263456	5.06021035719409	-49.2265373084741	6.84013498648472	-0.400598421251352	-47.5097967597425	
27948000	-0.914119104966624	-45.5378082026871	-49.3915328340749	-20.6009666360358	-49.2655897458165	-21.4510787764114	-0.261298264789773	-48.9333507616477	
28197500	-0.475311336057225	-45.8883495297118	-48.9561432510475	-49.9385012110342	-48.834572994239	-49.6646625831919	-0.0745571101092455	-49.4733203032076	
28447000	-0.221206080047909	-45.8598099779981	-48.087309218985	-84.5372724508126	-47.8830279195968	-84.3064061823969	0.0065249432671191	-49.2744403019302	
28696500	-0.244173223957606	-46.2103518517772	-46.840139895261	-132.506971296062	-46.6087720330558	-131.366835866984	-0.114661276749159	-49.0020202755223	
28946000	-0.481339011906016	-47.3770953904856	-47.9513054437814	163.883680880461	-48.1268550943485	165.757970473053	-0.311555395625827	-49.3162597860733	
29195500	-0.711250182925772	-49.1978529076227	-53.4414171762838	94.1298519424371	-53.804494149564	97.820079570633	-0.439272115236024	-50.8223201952509	
29445000	-0.755476401648699	-51.2573935154166	-55.4961405870951	-1.74293269417014	-56.0568411319904	3.86853394992058	-0.428578246141779	-52.8984308131628	
29694500	-0.647289411471626	-52.4941734658642	-50.2599719817022	-79.9908236231546	-50.8751929314243	-78.6085746980663	-0.341130604028086	-54.5380654744876	
29944000	-0.57028926855153	-52.366988361469	-45.5301926514308	-149.218128991197	-45.5870294103688	-148.858737743716	-0.177188175477661	-54.3078946239243	
30193500	-0.686018175683617	-50.7661647016378	-43.0391825615704	161.723526077318	-43.2793286602858	161.536972869646	-0.14610627320163	-55.1975917819462	
30443000	-0.822495762424157	-48.5368475816432	-40.6613510631728	113.045257335487	-40.8291178486099	113.340981920636	-0.564210522497065	-57.1794258625294	
30692500	-0.848929279697247	-48.1486319478462	-38.6085637396977	53.5730745361066	-38.8103875377431	53.9015162206417	-1.99940777756368	-58.6919935402889	
30942000	-0.806760075323178	-49.7213396417899	-42.3798164717422	-22.1900606383506	-42.5216975368239	-19.9640593140207	-1.90528252435318	-46.0752399367858	
31191500	-0.620555024225841	-51.707524961964	-49.4701958578115	-47.5027530895327	-49.3949308240164	-46.4776780984271	-0.78768288364286	-49.2881612299783	
31441000	-0.342753214726503	-52.8877589064547	-52.8235250570522	-50.0987082305028	-52.7262250513008	-47.6204545401852	-0.33415939869353	-52.1656261734392	
31690500	-0.139706072722961	-53.0394513678475	-53.5351261722628	-51.9037472618568	-53.173700277473	-51.4132892633696	-0.0748568188379094	-53.2846709984842	
31940000	-0.145604044947435	-52.7792055941975	-52.669089966814	-62.9266509360925	-52.5680726298311	-63.5047346212876	-0.0516066402790943	-53.6190758118072	
32189500	-0.332538013123367	-53.0697875768887	-51.4234089893838	-78.9845940368244	-51.1101334310946	-77.5055663531357	-0.207450916251827	-54.2217809979434	
32439000	-0.55139723279513	-54.4073892903555	-49.7935304220756	-97.7538523538691	-49.6736651550357	-97.5560261822862	-0.406090302834174	-55.65211769807	
32688500	-0.632885760665553	-56.4898803394416	-48.2827038048423	-120.320139749872	-48.141377029239	-120.279749273548	-0.487094230048873	-57.7848563365152	
32938000	-0.52113395560845	-58.2974154690443	-46.7236610034377	-148.390323646412	-46.742554729641	-150.115419817952	-0.391566797833891	-59.7786806403006	
33187500	-0.33878380920989	-58.9503758959913	-45.5809124966377	175.942813445309	-45.6242789353361	174.642945336918	-0.218180053328992	-60.9175791331161	
33437000	-0.269642942679371	-58.5129525763961	-45.9145648065606	134.358906063103	-45.8561381338464	134.598663726518	-0.140769338081879	-61.180413429328	
