!Keysight Technologies N9923A: A.12.45
!Date: Saturday, 02 August 2025 20:06:36
!Timezone: (UTC+08:00) Kuala Lumpur, Singapore
!Model: N9923A
!Serial: MY61181427
!GPS Latitude: 
!GPS Longitude: 
!GPS TimeStamp: 0001-01-01 00:00:00Z
!GPS Seconds Since Last Read: 0
!CHECKSUM:1393280592
!Correction: S11(ON U)S21(ON U)S12(ON U)S22(ON U)
!S2P File: Measurements:S11,S21,S12,S22:
# Hz S DB R 50
2000000	-0.0662606559164052	-2.16753153570159	-61.7109160426279	84.2903919601992	-61.7568063275115	84.1352089028778	-0.0789515057833963	-1.57579814602371	
2249500	-0.389953090537887	-2.82044567624686	-57.5153134648495	35.4367187155896	-57.8118521220867	35.6340180414724	-0.432443806029613	-2.43005063171059	
2499000	-0.535017106993045	-4.57419144440026	-60.2821732898828	-57.2244853153849	-62.4462918240135	-66.8489220627181	-0.542687608582737	-3.97742644139253	
2748500	-0.375748101627603	-6.35033361437768	-71.7445806795691	-94.8013146029724	-69.1245862895464	-88.7151229282103	-0.370983861174424	-6.04404434712184	
2998000	-0.0882063638898726	-6.99062186789792	-70.9279894179643	-125.775768293195	-68.2272013480715	-74.4014817852162	-0.0524305864244389	-6.90364863456655	
3247500	0.1681173339116	-6.23546061212513	-71.5032938823792	-125.9402460347	-76.7784665344067	-102.518628804565	0.161535912001765	-6.50729078063206	
3497000	0.121458197113942	-5.64036063064628	-66.3299687501905	-122.62720256522	-65.2349125297419	-89.7903587673557	0.109625718740555	-5.67810154371191	
3746500	-0.18365890270015	-5.70295700459815	-62.2268188792344	-120.856666803767	-61.118085813522	-120.099745236546	-0.176071593278947	-5.40933943760885	
3996000	-0.513649079670148	-7.04633445520498	-51.4882581708873	-173.300491053417	-52.5713220857564	-172.536749506502	-0.510664863470546	-6.40217342984618	
4245500	-0.575838729132319	-8.76562876295162	-47.363487719907	59.8010593801422	-47.9809623140875	60.0893519176602	-0.585992723915254	-7.59208312956968	
4495000	-0.290143209262335	-10.1314309960919	-56.0757725480285	-32.3970995596082	-55.8441926862705	-33.1193961913225	-0.299293364382407	-8.68885393621771	
4744500	0.0528816599120845	-10.3179303573258	-64.4073795774362	-65.2861299521002	-64.7871486448679	-73.3126883513883	0.0388294703088806	-9.04913774393656	
4994000	0.17679668986716	-9.58734637578396	-76.8857866123604	-124.184718146501	-77.874806905685	-143.853593956182	0.188303025670752	-8.5699702358224	
5243500	-0.040266037659211	-8.27695813855383	-63.1229430249436	-8.21150720841731	-62.6476679433307	-0.207114982597733	0.0363066533934092	-8.15688706421661	
5493000	-0.296902853753653	-8.36420313178055	-61.6742666136491	-72.0575644119574	-59.3438679384462	-76.8282323957944	-0.291905972913845	-8.6494131525077	
5742500	-0.536864075475415	-10.1136832983785	-58.0811115483809	-115.110447239551	-57.2704466886011	-109.20960827718	-0.547161100364227	-10.4314682609949	
5992000	-0.494490502884969	-12.3532539478925	-52.3903561438851	-154.613362163198	-52.0344945412236	-156.221202286376	-0.56173297228884	-12.4954312034301	
6241500	-0.23795352827227	-13.6542656164559	-46.4911983071243	126.456821679107	-46.1526518717289	124.970985052246	-0.342581958280707	-12.6220278671104	
6491000	-0.0206875722839111	-13.1411088294898	-45.8665852120959	35.4651686158208	-45.1582977901547	35.4929083052768	0.0570082824481917	-11.918623747546	
6740500	0.12058186191337	-11.6076452556501	-51.0515308311779	-42.3146103679953	-50.9611803156395	-41.4329372003841	0.159821010222218	-10.9456974719788	
6990000	-0.0676401015196193	-11.3795559465552	-55.8438783474295	-79.7928165776628	-55.1589093120782	-73.7554566768576	-0.040014842259453	-10.5037533192413	
7239500	-0.412554704367855	-12.4340242352428	-57.0355482022408	-93.9383309330377	-57.3114131242337	-92.8491859659858	-0.379470749632362	-11.3768322692192	
7489000	-0.604759594140902	-14.6879556137794	-56.0125704252851	-119.580551321077	-56.1627584368917	-118.081834861445	-0.568090848384221	-13.6083356068641	
7738500	-0.508721481597079	-16.8173011141375	-52.8233567248946	-149.645135345256	-52.1823260933742	-153.480627381688	-0.467564145446115	-15.9396293627667	
7988000	-0.233903215845864	-16.8230265488053	-49.0258843198885	136.388348025946	-48.8122913977701	135.828627352926	-0.234784776378746	-16.7874983429286	
8237500	0.0897528624531578	-15.6318442703126	-51.076909265659	50.792940724086	-51.0874191841342	48.0672566477481	-0.0501569054566425	-15.1721739995121	
8487000	0.094316831592434	-14.6339168030854	-57.9809168655547	-15.6895421948153	-57.2508266917572	-17.2738972502636	0.0428927132280119	-13.5759042621062	
8736500	-0.20056675302697	-14.4298018594833	-62.7981737696108	-67.1529747012966	-64.1144133578924	-52.6083661876732	-0.17072320478595	-13.2973300689715	
8986000	-0.553403440725455	-15.6865736535062	-69.4791180779614	-110.124706878339	-69.9672312052887	-96.1613468371223	-0.474060566007899	-14.5370524408094	
9235500	-0.658560241959936	-17.9073402815941	-79.4059634794875	-174.075393342537	-82.4011241901434	103.116507074745	-0.574212674083019	-16.9045694336532	
9485000	-0.445925975569193	-19.6530190420358	-66.7053148904718	45.6854717208327	-72.055139580346	35.3446874097882	-0.401781556431448	-19.0621810134433	
9734500	-0.12296899126239	-19.8265838460434	-58.9721460840867	-50.0737291211552	-60.1588328399191	-53.930858407172	-0.194726081055005	-19.5318072198775	
9984000	0.0440840744781546	-18.6762268405873	-55.8137291688783	-139.757606074066	-56.2025952969254	-142.365696641066	-0.0499072898503884	-17.5206283986951	
10233500	-0.0595142614368755	-17.5466430410808	-55.8773679955003	153.538499275342	-56.6692130927845	153.145815425606	-0.0278233682703612	-16.4116870869054	
10483000	-0.374288175882426	-17.8425625982603	-57.3744511561508	115.477334439379	-57.2632189877756	107.364608733408	-0.298738985036981	-16.7768226378157	
10732500	-0.674840692417899	-19.8162532833137	-55.3886143977872	77.5298802278872	-55.6699213883055	75.5061688971589	-0.576605785067284	-18.6116412772771	
10982000	-0.688847487374546	-22.0076978534989	-53.8398505454587	30.5784702050989	-54.5330673411461	19.2230015165306	-0.620899793291656	-21.0498875096773	
11231500	-0.382066207516354	-23.3750321858705	-53.0862638080466	-16.9579941447064	-53.8058412254944	-11.3384340041275	-0.448286556179839	-22.3024157204211	
11481000	-0.105326580059875	-22.8876961017657	-54.0087266122921	-75.1475816327652	-53.4119761910462	-65.1574670192796	-0.156255232732541	-21.1600001931909	
11730500	-0.0378936842707761	-21.0729853331152	-54.6566014222398	-122.273059045509	-54.1770295650111	-120.172262449491	0.0450704585115273	-19.745074386689	
11980000	-0.192974542821135	-19.8504020515866	-56.6163114482041	-164.068738591453	-56.0646883672492	-163.046086421808	-0.0933172873768274	-19.1862795930842	
12229500	-0.513237804512986	-20.5852266446728	-57.4965147310507	164.318797208057	-58.1980602688439	165.498636090778	-0.436874745720666	-20.0233502940522	
12479000	-0.748138112886034	-23.0297357482259	-57.4437980187779	125.459853649211	-58.5374952978723	128.306312772268	-0.692931476806725	-22.3090892570581	
12728500	-0.657625728565881	-25.6424807897105	-55.3960363466779	77.7578721214911	-56.0312668031392	82.7619574587426	-0.644435808273418	-24.7802702400798	
12978000	-0.390989559912586	-26.6394664605038	-53.966307103775	19.3743250643558	-54.4445482913977	18.074142744436	-0.409599695852323	-25.6347841576667	
13227500	-0.165320329437336	-25.3519913841054	-53.1983699959169	-61.3619412962927	-53.9121759821227	-63.7816896927622	-0.178319876492063	-24.2746919463507	
13477000	-0.108382957862813	-23.5499020676535	-54.6999445835622	-135.184201204111	-54.8938718984766	-136.54130775254	-0.0969036265353222	-22.3916409240263	
13726500	-0.324424722701006	-23.1001262858873	-56.8817964910571	164.422798419158	-57.7837273752853	160.457984428317	-0.279723271320998	-21.6775332317612	
13976000	-0.668231111555519	-24.5285000464299	-59.9596311350542	113.053649028958	-60.8833111330651	110.729941694863	-0.586646852608137	-22.7922707178091	
14225500	-0.822538289420091	-27.2143705798917	-59.9217019368508	47.8779150058123	-59.573705671895	48.7910660267907	-0.722351297278221	-25.2800999676151	
14475000	-0.689907476282319	-29.2525907058063	-57.2526169842912	-12.0991278359408	-57.0501289065759	-24.8110445365157	-0.55683359047059	-27.5948744790162	
14724500	-0.391488276073135	-28.8823468889919	-53.3426784076641	-92.0982712357595	-52.6446430870586	-98.5623657823962	-0.257950431469431	-28.3596115273707	
14974000	-0.101189072390116	-27.0900049911414	-48.9489271908803	-169.21636702094	-47.9935334566633	-170.152625777932	-0.113073073023296	-27.361784117861	
15223500	-0.135228837323163	-26.0539199338975	-44.4716687967716	116.057308982439	-43.4929487729868	107.611249519457	-0.224242017614276	-25.6904894911222	
15473000	-0.532416042994808	-25.7631138839436	-43.2007507891039	21.7139662566559	-44.5804721920926	14.2445632192028	-0.564142642481536	-24.9467236443273	
15722500	-0.807095463281512	-27.429169311833	-47.6080035800901	-43.0698585277798	-48.3360270323364	-39.9492660516995	-0.83036458254535	-25.8386406834187	
15972000	-0.852453708068013	-30.4591271836205	-50.2124774075134	-85.2968290376725	-50.3220391734767	-78.0254525613707	-0.812210448746004	-28.2126704833475	
16221500	-0.636135507515405	-32.3507765775282	-51.6135619009783	-126.54580417739	-51.6159039758631	-118.471242232284	-0.505880184968227	-30.1590630762419	
16471000	-0.349685374947381	-31.7691521423529	-52.6734755409668	-173.6344000841	-53.0998933651002	-163.012779969811	-0.147413072200021	-30.4752010522714	
16720500	-0.184543968657716	-29.7667787450872	-54.9427117566898	143.279456762853	-55.0840174426924	148.101521539235	-0.0232656670552607	-29.5718568315897	
16970000	-0.296628987904216	-28.4888341165271	-57.2936514749925	97.8247056891233	-58.0478849032567	103.935710510709	-0.250546359204915	-28.5615892664393	
17219500	-0.635417449050628	-29.0323669563729	-60.578190026948	52.0087032759668	-61.8967861098916	59.9691489705494	-0.690730298842321	-28.4923993692395	
17469000	-0.905732992515121	-31.375017488089	-63.3507503018129	17.8491233808318	-62.8877109742473	12.5561350709375	-1.01420847555942	-29.7638881247323	
17718500	-0.865335989927738	-34.0145751550206	-65.2489198210426	-2.94123655990132	-61.4576334275143	5.44570196316651	-0.944022339519189	-31.6799041202454	
17968000	-0.562556833131728	-34.9852132583196	-60.6149678008874	-30.6431530658073	-59.7729828500684	-29.4682085614152	-0.553494444814034	-32.8363739750662	
18217500	-0.248673077299081	-33.83275268287	-59.1325144998344	-78.887782263464	-58.6711109424517	-74.6788737113947	-0.170799785210052	-32.5892255586124	
18467000	-0.156378588227238	-32.0273477650632	-57.7170880729498	-125.844456322001	-56.8225708573121	-117.744676550021	-0.0734616615936448	-31.5246705203018	
18716500	-0.384344989745957	-31.2818168971026	-55.6488347475959	-165.369179626483	-54.6443916859368	-157.709349276624	-0.321687600419949	-30.9196450874245	
18966000	-0.77814555800592	-32.4379939988337	-53.9352403035642	153.772718951403	-52.8583455295849	157.534872358634	-0.732461347559277	-31.6505511663004	
19215500	-1.010246612872	-35.1821422565163	-52.1011175844874	109.929919527514	-52.0417305538378	115.01740314224	-0.994102389794923	-33.7705714913723	
19465000	-0.895299849321817	-37.5857641493649	-50.5594519319987	64.0163386255701	-50.5338868218138	68.5940560465012	-0.912356617420695	-35.7713936820308	
19714500	-0.553427813384077	-37.9397396155273	-50.0675350635109	11.8128308682468	-49.693313106063	16.2023596577083	-0.575353674688189	-36.1144668398641	
19964000	-0.279398134210783	-36.5066740226245	-50.9137303962072	-36.6333690039648	-50.2613236969964	-33.0848922799573	-0.280296663878481	-34.8541460549921	
20213500	-0.303820192310434	-34.8636544835317	-52.5563026389098	-82.6426901783578	-51.6298470829267	-80.2562338728343	-0.247582461555952	-33.3144169925031	
20463000	-0.629619806852357	-34.4678480395015	-53.8814875684392	-125.926244092535	-53.1279118035858	-120.669555366737	-0.513356939520456	-32.8424115071554	
20712500	-1.01585448248184	-35.9809657941565	-55.3549722421749	-163.966228527748	-55.103359333519	-156.49835174727	-0.857283862215013	-34.2099243824907	
20962000	-1.1420687573252	-38.663635538048	-56.2906084656517	157.390661217285	-56.4961737809165	167.793641812775	-0.977453065956257	-36.8902506174733	
21211500	-0.919308492554177	-40.3601373859006	-57.3968453312442	120.60991088377	-56.1723082157352	125.058649327471	-0.771647160106037	-39.0459685436442	
21461000	-0.531532954694507	-39.8239739554042	-56.38066737934	79.4556010755203	-55.1434436907749	85.4578838476593	-0.444931502416035	-39.2841068355458	
21710500	-0.28878769794859	-37.9669755576936	-54.8019133326386	34.0861508500806	-54.9797753815294	39.4381464529309	-0.283354463792632	-37.8308932112461	
21960000	-0.382237363734678	-36.4798844570574	-53.5065124627222	-9.78705088845427	-53.239178009658	-8.82802115642683	-0.421093071660961	-36.0259844333154	
22209500	-0.749221898758925	-36.6618670227567	-52.8403457233821	-59.0534322540582	-52.0873161916107	-54.9392823309821	-0.763299800041459	-35.4757374494413	
22459000	-1.0950994460719	-38.8426537906013	-51.118687040044	-101.510914982691	-50.3505057938397	-100.60523319241	-1.05300585547886	-36.9946176210974	
22708500	-1.11944093288774	-41.6072148341338	-49.9703555374305	-150.634331641878	-49.4507795972422	-147.898277980224	-1.03776325809611	-39.7022432728472	
22958000	-0.79458380349406	-42.7652285036093	-49.3225421016334	158.499563367781	-48.8996299446579	160.968687223566	-0.712113979288171	-41.5545287628527	
23207500	-0.375354973729378	-41.9195040346589	-49.2413947835976	109.707570126177	-49.0492459974644	110.189161990853	-0.34720996937514	-41.4898972916197	
23457000	-0.213255642868558	-40.3256520623814	-50.4465429517264	63.7091580154301	-49.9014211204737	64.716018236032	-0.237479296064501	-40.1095715949902	
23706500	-0.44914071426463	-39.3982426745449	-51.7821591424181	17.2326749369713	-51.3239985093275	18.9773730663475	-0.480052039474874	-38.8090442643061	
23956000	-0.892764832094217	-39.9660026741863	-53.5710265101133	-28.5221655970934	-53.149569350881	-25.5087468146738	-0.90446015656093	-38.8311077614075	
24205500	-1.14742431111265	-42.2035274705346	-55.7462926484072	-65.5228102906835	-54.4857258173018	-63.4527938824996	-1.18838584362162	-40.5676498663044	
24455000	-1.00375738607193	-44.811062482524	-57.4954459812424	-103.404975492569	-57.3623319897538	-106.725706671453	-1.082678920779	-42.9062927500202	
24704500	-0.610573500265991	-45.710951195994	-58.4104399486125	-150.68115286976	-59.0047006529093	-144.764016475052	-0.668168532043158	-43.7789389915453	
24954000	-0.296829637758334	-44.5429560230588	-59.5820305694302	168.453286159254	-59.9386101543771	178.637970602946	-0.311048894131486	-43.2303677586528	
25203500	-0.276846959491449	-42.6958343049113	-60.7760575170127	123.895690894677	-59.6737508928258	125.785227604822	-0.262618314029503	-41.8259394187362	
25453000	-0.568174093031216	-41.8713180723503	-58.5422556711001	83.5619040133677	-60.1150129634288	76.4364016852106	-0.551309441878219	-40.9790518058287	
25702500	-0.971780994704218	-43.1657997837695	-59.3853422065478	42.506081704256	-57.4201146923098	37.913342307912	-0.975104976914234	-41.7624335692056	
25952000	-1.1420101167138	-46.1022544041319	-57.5860813452342	5.31973936675712	-56.5505676896969	1.24669298211179	-1.19113979361082	-44.0725016516975	
26201500	-0.923558130607624	-48.4776940228658	-55.2047434561592	-43.3191319567436	-54.9065004520388	-42.926935032543	-1.02645775494289	-46.2846469126595	
26451000	-0.521385518531124	-48.6969096026597	-53.7112677103467	-91.2850265468639	-53.6622887821835	-89.5143372501211	-0.633357724726472	-46.8050583835691	
26700500	-0.255641600212668	-47.1600611500402	-53.684158636594	-140.825849261598	-54.0828441325952	-141.551065446295	-0.345899805128479	-45.686872647806	
26950000	-0.331415105739132	-45.4608581126298	-53.9964731009413	169.503652666893	-53.8596791434731	170.30760996312	-0.385609812460103	-44.1838960894477	
27199500	-0.683119929887226	-45.2433764232884	-54.6442512725504	127.480002247425	-54.8957627170506	127.37363169256	-0.715512868830016	-43.7126971627381	
27449000	-1.05443964543283	-47.1809243099378	-56.3675182092943	80.448636225186	-55.6312114598499	81.4714141146866	-1.08478647679281	-45.1645339579858	
27698500	-1.11358523525914	-50.2398633408811	-56.7902842471688	27.4026095874997	-57.0107298463584	26.6306189691614	-1.1818033155868	-47.8177025311983	
27948000	-0.811356599399643	-52.154688282931	-58.8610114394771	-22.5124035770698	-57.5498466621992	-18.0973615819768	-0.910976147238599	-49.7798472140122	
28197500	-0.435396934744106	-51.7480757041499	-58.5101644535514	-86.8047002015972	-60.2175902509477	-79.3653471734642	-0.536738786616638	-49.7559713080931	
28447000	-0.288288772756523	-49.8429757768709	-61.0071188530377	-167.699787058431	-60.5718085816929	-152.836993510359	-0.366611910334889	-48.1916787808698	
28696500	-0.488900395279311	-48.2961147221558	-60.694724517769	144.378591288726	-61.8660713015951	159.288428136709	-0.542657346893341	-46.5039936657365	
28946000	-0.906572504261641	-48.5515213267464	-62.7693517395436	103.026428274258	-62.8408868054897	115.363195104973	-0.933793292561238	-46.2450224139586	
29195500	-1.23024844832021	-51.0319837857868	-61.2187285896353	47.326569437013	-62.7684304787586	51.4174476900499	-1.24966884500956	-48.0743115751886	
29445000	-1.17425411748484	-54.1252197772623	-64.6368245564794	1.34471560850818	-61.0195685741077	22.7616855740533	-1.20930540980761	-50.9410781455808	
29694500	-0.818056382837057	-55.4005128141307	-66.1709550837716	-27.7061859402424	-65.143417000578	1.26876715876526	-0.848531305455121	-52.6344551680246	
29944000	-0.471210036787196	-54.3203328819813	-67.2724886243321	-49.5037777936615	-65.7919506432457	-35.6280856758435	-0.476309241687844	-52.2945833744711	
30193500	-0.408336023219587	-52.181598680441	-64.5327344715345	-88.6151351553768	-64.291509133753	-68.1976994298538	-0.389819838404614	-50.641179424704	
30443000	-0.671534133616505	-50.8386723860287	-64.7020765676483	-115.618532875723	-64.1621445629114	-119.206044248217	-0.659525633337871	-49.2384534821183	
30692500	-1.08685118755119	-51.6776104114589	-63.6404986064272	-160.353877139345	-61.7494811907997	-153.962759855467	-1.09198482303844	-49.4706859541232	
30942000	-1.31324556813075	-54.5081786150709	-63.3385936384478	151.225209199372	-61.9827787509014	141.946615803471	-1.35223522377283	-51.5897469339595	
31191500	-1.13310188382541	-57.2473905705393	-63.3964434392078	62.9571052979086	-61.9049069673175	97.0253156147632	-1.21575761673324	-54.1069138993715	
31441000	-0.728700749710868	-57.8027828429141	-63.3496020615643	15.8596029221154	-63.617477806039	17.8323933892097	-0.804075703948106	-55.0911174888162	
31690500	-0.444594200450614	-56.3094414524413	-60.7201741525078	-49.9387105405012	-62.2088100222497	-38.8208331338905	-0.461752375740299	-54.1101466824721	
31940000	-0.500896980431776	-54.2864164189516	-60.9803025505256	-101.872588058005	-59.566614990238	-111.806061618951	-0.462875263010133	-52.2770407963258	
32189500	-0.875603570379651	-53.625367711138	-58.6752049913836	-154.41995240392	-60.6288648441865	-149.239475062535	-0.794504311825496	-51.271288301841	
32439000	-1.31590166051961	-55.3529337176252	-58.7252973836249	149.76244053592	-60.3258467040855	150.844293940424	-1.23176818287778	-52.2198517860222	
32688500	-1.46033419238294	-58.6650216503084	-59.0130812747409	96.3395347729644	-62.9963747845878	105.96666250469	-1.42840410775256	-55.0047870876496	
32938000	-1.18528770977564	-61.0303946505124	-59.2707910618134	32.4281273434521	-62.2289287417862	43.0887821438305	-1.20901927730159	-57.5850913302894	
33187500	-0.764715363590109	-60.8444386957917	-62.560338157076	-6.29598593116528	-63.6401658349034	1.77342836146475	-0.772059723227187	-58.2004060549188	
33437000	-0.541681504723753	-58.7761246660533	-63.9634628167184	-72.4988560965762	-69.8449909586471	-88.7650594552385	-0.490738247292533	-56.8819923690707	
