!Keysight Technologies N9923A: A.12.45
!Date: Saturday, 02 August 2025 18:46:54
!Timezone: (UTC+08:00) Kuala Lumpur, Singapore
!Model: N9923A
!Serial: MY61181427
!GPS Latitude: 
!GPS Longitude: 
!GPS TimeStamp: 0001-01-01 00:00:00Z
!GPS Seconds Since Last Read: 0
!CHECKSUM:0987685620
!Correction: S11(ON U)S21(ON U)S12(ON U)S22(ON U)
!S2P File: Measurements:S11,S21,S12,S22:
# Hz S DB R 50
2000000	-0.0599200368421154	-3.05356151356328	-62.8538553265884	-99.5048006238561	-62.9733753831551	-101.186171640608	-0.0800242314877824	-3.00394239770403	
2249500	-0.264427205860118	-3.69640179411477	-74.99393922294	-95.605524232508	-69.9893056190867	-100.545811211877	-0.271010737986805	-3.67475551985351	
2499000	-0.354765424045784	-4.98043753963011	-69.9708771553196	-98.2371212976548	-68.7937315336514	-65.967493244466	-0.347770534880997	-4.90529453899924	
2748500	-0.249702669048339	-6.24338214082983	-68.1994204600646	-101.48760172138	-69.437860695102	-85.4907486660736	-0.246212771589936	-6.09349526987007	
2998000	-0.0421049350125549	-6.76618972898602	-66.133200256421	-101.655545461641	-65.9676404365586	-81.9612847900963	-0.0517681288293489	-6.62314787701582	
3247500	0.0965367644531751	-6.64900624397018	-63.3288384429539	-119.146412111158	-63.2657270999172	-101.47185342403	0.0722878223169658	-6.46427806924472	
3497000	0.0309125086383986	-6.42013008018424	-53.2772017212076	-132.36218994332	-53.3927395745526	-129.832327214111	0.0348169706513305	-6.18602643095561	
3746500	-0.153390260857637	-6.05423987396862	-54.8851646701601	129.495239301131	-53.8093052304236	133.579979238039	-0.146054409739742	-6.25098318744437	
3996000	-0.326606933011108	-7.1252696200931	-61.1250994062716	120.15413114755	-59.2697265923495	114.268346015688	-0.329881668789483	-7.18909720934934	
4245500	-0.355765692388942	-8.63320536315829	-64.6416383242232	88.2627712784218	-66.1197547399859	81.6208378928776	-0.344597172547107	-8.46530357674348	
4495000	-0.210839211473291	-9.85752532336185	-65.6473387724904	141.007841949788	-66.1432765110044	164.334444672655	-0.192345867410531	-9.54193816883806	
4744500	-0.0415051050865835	-9.89596902108812	-52.3190607662121	124.739865106738	-52.6836591654516	127.055486760792	0.00150966643788802	-9.79392589903527	
4994000	0.0931928057969402	-9.49380796230326	-52.4178652330164	85.1721274419285	-52.4092461040368	79.8026726613594	0.0887224684094349	-9.50170618471472	
5243500	-0.00267772486588177	-9.34212769098477	-50.8514746784462	68.4327427329724	-50.6519992207411	70.5001206767012	-0.00965755704990534	-9.28514482812933	
5493000	-0.238450699655356	-9.94416762657524	-45.9190209775515	55.7616492786036	-46.0447448649581	56.097243441247	-0.219440140606887	-9.72475608827331	
5742500	-0.593683142541809	-11.3315088129637	-36.1570412012345	12.7254083075392	-36.1310099420412	12.3145088258472	-0.431698805881328	-10.9882085945332	
5992000	-0.383129954338312	-11.2593867445172	-39.2120693848649	-84.3451514647146	-39.080817331311	-84.8724773189869	-0.357739816071752	-11.9299176822799	
6241500	-0.153233298234864	-12.511720233614	-45.4581971561537	-98.562651038494	-45.2075467895873	-98.1957322690967	-0.127713182945691	-12.8201324879779	
6491000	0.0589185910988105	-12.7773897341127	-44.2066600169074	-108.459041154835	-44.1032107642097	-108.908437479612	0.0235580983176294	-13.1440714696017	
6740500	0.0898368130871732	-12.5352569272162	-41.2493112626769	-121.4841637909	-41.14749503016	-122.375778455062	0.0146482229212107	-13.1012507519305	
6990000	-0.105619008079986	-12.616705612113	-35.5639295129791	-149.502692458655	-35.5233483443761	-149.724353189685	-0.287491056478496	-13.355974001529	
7239500	-0.393080325882836	-12.6022030127237	-31.9598397905385	132.301642606264	-31.9417835888853	131.790450929903	-0.609777747593121	-11.2658381823628	
7489000	-0.443625219531189	-14.2848058473929	-38.6349931232194	85.6181942767096	-38.5982932609499	85.5556929438585	-0.440037150103362	-13.4494804607901	
7738500	-0.408529082855142	-15.3016305650714	-33.023506236045	78.9050153621413	-32.9605371060877	78.8525446444552	-0.481192574433183	-14.9281662804105	
7988000	-0.211778915851408	-15.9780274925594	-32.5593214463862	22.1000426235925	-32.5624341805068	21.4309670801765	-0.380318327029451	-15.3551496412945	
8237500	-0.0186779570159404	-15.295293040284	-35.4148227967313	-32.1066204613025	-35.3986330765473	-32.3971471750007	-0.140824167336145	-13.8859174144488	
8487000	0.00321982690489288	-14.8432424156956	-38.9273620113566	-60.5249431765488	-38.8273367623425	-61.6231669610673	-0.0316985285075802	-13.5120438075222	
8736500	-0.177232744843198	-14.8892920176131	-40.6822875304728	-81.4534070631227	-40.613374522808	-81.3411663273194	-0.156477149435887	-13.7655402397922	
8986000	-0.39066191850043	-15.8188997636853	-41.239080313717	-101.0899126472	-41.1642101336147	-101.38452934004	-0.335609812499026	-14.893668283829	
9235500	-0.453329201209455	-17.36811051525	-40.9662772483035	-123.094236167678	-41.0568995187009	-122.99350892099	-0.390053519852577	-16.5821663842346	
9485000	-0.32336316855232	-18.6371616890589	-40.2367290372787	-149.330379314008	-40.2361666078602	-149.049433797587	-0.278994078848603	-18.03282907679	
9734500	-0.107150154233228	-18.861818040474	-39.4535300085077	177.257521660528	-39.3967256842703	177.184609043994	-0.10404269914722	-18.4267353714098	
9984000	0.03134211133104	-18.3286794447021	-39.5757568806975	141.524166252451	-39.6317754668654	140.524517883235	-0.00409373807307572	-17.9037985972105	
10233500	-0.025522871530667	-18.0152190408337	-40.3217059340652	110.189903759659	-40.3829602130301	109.391093267021	-0.0630423254902541	-17.4928617398133	
10483000	-0.245819328387718	-18.5716907380461	-40.2474558113903	83.7327405659551	-40.2439362746039	82.3523366782825	-0.277893574815651	-17.9469960636209	
10732500	-0.474618293263712	-20.2044175598565	-39.1650506001627	51.9838852261288	-39.0650220179027	51.9905882212561	-0.542707913701533	-19.0467963359281	
10982000	-0.628336439892108	-22.0174894404831	-36.3190764015674	11.6456747938283	-36.3483520201211	11.0518765565998	-0.553934500722316	-20.1666195178107	
11231500	-0.505444516213503	-21.9409995796773	-35.8027635091404	-65.7169715937993	-35.90988316375	-66.5968460968123	-0.370032664191112	-20.5675837381872	
11481000	-0.334273029747561	-21.4065236882098	-42.5213982215701	-136.399946718137	-42.5806515661196	-137.281907240642	-0.0644081475591567	-20.6237002260848	
11730500	-0.109416283980022	-19.8608099999887	-47.9165481789286	-114.038897146847	-47.8363327220181	-114.972842224775	0.0346117553644903	-20.6336870952245	
11980000	-0.147449258919395	-19.6244881576344	-64.3231118654146	127.789839782376	-66.8152131153357	142.624042940764	-0.0645996833236781	-20.3251784108254	
12229500	-0.320459371316605	-20.5988565753373	-52.9998932165166	-86.8916101108329	-53.0966869006894	-90.7814351956279	-0.270758251868441	-21.3034189656565	
12479000	-0.456157578613755	-22.4317985330148	-47.0603103258552	-117.083905642074	-47.1428270268623	-114.460553323489	-0.428489204213347	-23.3136643562726	
12728500	-0.394528872170077	-24.441167842803	-39.1762786838504	-157.995434019453	-39.2562732977143	-158.399585914851	-0.592781321270947	-26.2484387628619	
12978000	-0.175808926480558	-25.4327296043113	-37.615138203704	88.8668398352945	-37.4759801571598	88.3998413641375	-0.559256190924122	-22.484999660799	
13227500	-0.0807131407445195	-25.8471813391505	-44.0272299942633	15.7327185735066	-43.9027833094543	15.395413117886	-0.0413970384979341	-23.0790848804864	
13477000	-0.191513451992284	-24.1884588560026	-51.3944476181157	-126.017502078766	-51.4191798842025	-126.392432020785	0.0357419358714272	-23.2427682891189	
13726500	-0.228094280727011	-24.0461096853866	-48.389894914123	123.257203598408	-48.2644049755609	123.046125425505	-0.129341760842548	-23.5413087749958	
13976000	-0.450577506631176	-25.7833514939559	-45.153616320657	83.1108932934981	-45.3230187996712	84.1794778417959	-0.348126340516856	-24.6280934935502	
14225500	-0.670198882679309	-28.5971206315661	-40.9932139685347	53.2877987604063	-40.9624889172328	52.3165824577912	-0.44277174339718	-26.4511803092455	
14475000	-1.05160436921497	-29.9873967471769	-35.9084140624123	4.95044961190601	-35.9423411420052	4.67931720509818	-0.367653222783674	-28.1631351623386	
14724500	-0.765114421777971	-25.7336055144436	-34.3684415315435	-63.9712587554946	-34.3956932824343	-64.5350138004648	-0.202986282967691	-28.8321518731808	
14974000	-0.244168383506503	-25.4671137397202	-34.9374583138151	-130.118056390542	-35.0172517130769	-130.964278437902	-0.160690510590147	-28.3587975294047	
15223500	-0.208228199274227	-24.8041231221655	-46.6062368275505	149.487955266828	-46.9628790671969	149.395284673145	-0.0933642779305013	-27.5088093223099	
15473000	-0.31479540522651	-25.3914341587205	-48.9442428594976	-118.960194344234	-48.8707277479786	-119.329233247119	-0.329924963803943	-28.6488364888577	
15722500	-0.488291910290307	-27.0684739545211	-42.0854170669497	-138.323115319972	-42.0793724333329	-138.739332909366	-0.696122062232805	-30.5444940678712	
15972000	-0.522428694811241	-29.2647188513609	-36.8585583955297	-178.984318747964	-36.8364818756558	-179.026350963226	-1.08549831618419	-31.8059551394054	
16221500	-0.377552641416157	-30.7392703837361	-34.2900606871784	122.380882607268	-34.3153397473342	122.046873829347	-0.930959572918901	-29.7042025227573	
16471000	-0.151741396074979	-31.1849977842853	-34.6153242236555	73.8983334820724	-34.5482740095478	73.047783091833	-0.382503818755547	-29.8645025889012	
16720500	-0.109577676488377	-30.9939164629597	-33.8938478453389	33.5259302088772	-33.819642327772	32.3607843896835	-0.270180797635269	-30.4056790853467	
16970000	-0.347575494081126	-30.6589347939149	-31.9636630091175	-13.8440517821049	-31.9024468549874	-15.2229611461371	-0.55410151628887	-29.9807656331123	
17219500	-0.682131017641427	-30.6032480901784	-30.7287315003175	-71.5971511491947	-30.7450894010292	-73.5779624628496	-0.795964256959083	-28.9893699926021	
17469000	-0.905445093726206	-31.7747988956669	-30.2602304375454	-128.833645720229	-30.2709238402238	-131.229162601531	-0.860780031905835	-30.5716517362939	
17718500	-0.922572593791587	-32.7875068007976	-29.7030149267528	162.468561642625	-29.7886279389883	160.080787106429	-1.07619409366532	-32.2406346517492	
17968000	-0.683761605493087	-33.9136740609573	-35.5034498751051	79.9768404612258	-35.6836771685739	78.1471276252195	-0.710473617798733	-30.2159940805027	
18217500	-0.567029392437795	-32.1328163591872	-44.9579014986921	99.1160270848747	-45.2669165979513	96.7502417139825	-0.162178602015983	-30.9317318272415	
18467000	-0.270832574662503	-30.6632216505421	-40.6091893362962	84.7014146953169	-40.7780677883884	82.3275096357085	-0.0290369708675921	-31.4880553245321	
18716500	-0.287244115302025	-30.9753638071571	-39.2591103488252	56.0498839404034	-39.5074036472595	54.7346384479717	-0.170203497578139	-32.284847600419	
18966000	-0.487355600854921	-32.4477118059866	-37.7914182533171	29.5405059066199	-37.7581138644395	27.8046533726784	-0.469311919689247	-34.168012111569	
19215500	-0.636890049115573	-34.7869104577245	-35.2582294135794	-1.8018636805177	-35.2717232119114	-3.53875493896605	-0.819677757721537	-37.1120516034158	
19465000	-0.620203388092892	-36.8600975999644	-32.7099950424469	-48.0636487777566	-32.6699682066964	-49.643486375009	-1.26282527074756	-38.4949777160163	
19714500	-0.495357283120782	-37.4866721578755	-33.1546159221313	-108.044718014727	-33.2487965001276	-109.379354992274	-1.2877212126224	-34.9790692265978	
19964000	-0.344937037359307	-36.5683827305244	-37.7586593144111	-147.666937457194	-37.8176408328086	-148.146047316306	-0.730229249626352	-31.9685769221503	
20213500	-0.414578604491844	-36.137737548051	-39.4639333164801	-158.758467565896	-39.5570662214863	-160.359438390091	-0.428445915336748	-31.3032411240513	
20463000	-0.793087562520517	-35.9248288475094	-38.7991729114289	178.272407825736	-38.961908445475	176.873461277881	-0.468706600410828	-31.6248728464625	
20712500	-1.16572396218778	-35.8010602628577	-38.2168662630539	148.937740613989	-38.5601740209147	145.873372911374	-0.6127358408713	-32.8939094692223	
20962000	-1.18082767478574	-36.1500680762921	-38.4261910684203	114.873122042681	-38.7126083665002	112.359516127287	-0.634157059322443	-34.869347498172	
21211500	-0.863217322931475	-37.0293811524187	-39.1774048475654	81.5224619163596	-39.3807225537595	80.7300840841712	-0.459016015918577	-36.6288308885541	
21461000	-0.49763270685973	-37.4558879159131	-39.8408288330164	51.0222583472175	-40.0731371469499	48.573193924817	-0.202674824580782	-37.362867283892	
21710500	-0.323184767513132	-36.9148172213793	-40.6734337633976	16.4961158005329	-40.8872263410608	13.2098776001741	-0.0583557971708499	-37.1595332703203	
21960000	-0.367163062087045	-36.0108804672066	-42.2975979958986	-19.4824375343275	-43.0507363226332	-24.7338558194886	-0.115569466212536	-36.7695690918713	
22209500	-0.524150646652623	-36.0881382646866	-45.2288054127258	-51.1985821406267	-45.8400254174122	-56.2343737303165	-0.319071638010441	-37.1687382234214	
22459000	-0.654481459550769	-37.6358328074281	-48.4628284770618	-76.2583304403278	-48.8235335883909	-77.2385413540194	-0.498324766131357	-38.675058091366	
22708500	-0.607140209132362	-39.8160721839359	-51.6463862984377	-93.2009255221049	-52.3836013062539	-92.7548848108802	-0.502888269863894	-40.8244394229458	
22958000	-0.38370755581633	-41.4473332152207	-58.2742514429137	-92.2732092664807	-58.4030962521321	-89.7462655355912	-0.336808763420226	-42.6301484456063	
23207500	-0.157757094512086	-41.9379741517254	-49.7391362047034	-30.0149104487752	-50.306380845988	-29.071841165486	-0.268818654973625	-43.8124843007694	
23457000	-0.124577514289252	-41.5162860313436	-40.9978308671796	-94.9259224997522	-41.8875159485151	-96.913300656191	-0.330835172582059	-40.167875713166	
23706500	-0.310718600676846	-41.4944264632402	-41.0827226525904	-141.384982528485	-41.9717677440472	-141.197190754448	-0.236517861602087	-40.5811938224044	
23956000	-0.643145893452497	-42.5731042661984	-40.4901632578234	-171.205191778843	-41.1927779266032	-172.816018597328	-0.458710120243494	-41.7809318434838	
24205500	-0.929651906185444	-44.470359468957	-38.6980210039282	157.834002990879	-39.3843346175912	155.729528342006	-0.637222877439956	-43.7413987837747	
24455000	-0.985023315575902	-45.9345382634742	-36.6912638931355	121.35917983111	-37.7934042723161	119.679977855888	-0.614889778738454	-45.8088321630105	
24704500	-0.783672726350964	-46.2272289759619	-35.541169960919	83.1649056682165	-36.6205284661334	82.5221765691828	-0.414159983310235	-46.9569917321096	
24954000	-0.615127981515822	-45.7136007971989	-34.7177415955156	47.975475314369	-35.7729337411759	49.1385870151635	-0.289571178897151	-47.4376785349828	
25203500	-0.749052781803556	-44.6221881276013	-33.3621539660831	14.076407251897	-34.3555512409199	15.334463360881	-0.423018666340597	-47.3872554509139	
25453000	-1.09424592477885	-43.0498403746283	-32.1386394158507	-24.0305102062337	-33.1288554906819	-21.9955857183552	-0.819368546329551	-47.5610074030503	
25702500	-1.3048789769062	-42.2237461802346	-31.4396032153319	-63.9323116678075	-32.4006597339346	-60.4206352818887	-1.32605667343287	-48.4189140644936	
25952000	-1.21268177264962	-43.4573181468005	-31.2776809178198	-101.95887648477	-31.9918846223993	-97.3171478977731	-1.72901726227845	-49.4990099952371	
26201500	-0.925346853415474	-45.520720905301	-31.040464180226	-139.042076126906	-31.6546602116074	-133.400019152796	-1.91109605039063	-49.2779447860309	
26451000	-0.632194134402537	-46.700364719441	-30.9334596341849	-177.190995481405	-31.2788061531953	-171.638182001854	-1.75664043323601	-46.4213540606671	
26700500	-0.538280485094112	-46.448605877243	-31.0489400444353	143.548783862773	-31.2092716973339	149.612526130246	-1.31063614154043	-42.8269440410621	
26950000	-0.706597817005578	-44.982839031363	-31.685162730127	101.399683064893	-31.800989920071	107.403094463	-0.935436732686965	-40.9038882616711	
27199500	-0.909689645935119	-43.755742362475	-33.632688315573	60.271485056369	-33.5811222103647	67.1663971142945	-0.84091350109459	-41.1841405595882	
27449000	-0.991260186782032	-44.4141637779499	-36.4804123418775	26.0107471868383	-36.1100538109245	34.9842060866372	-0.899268511400249	-43.1126779777487	
27698500	-0.891253374508157	-46.6870040039469	-39.2239702149099	2.68144217020902	-38.1904178254821	11.2971675374591	-0.866915445197601	-45.8389570149678	
27948000	-0.617589807731479	-48.7868465362369	-40.4863098271169	-15.8840526574702	-39.1094890220939	-9.58393689628642	-0.670450674111798	-48.2338839117881	
28197500	-0.343419003583438	-49.6082898119336	-40.772666328594	-41.7338926524973	-39.2259871686748	-33.7235766268218	-0.475155727746593	-49.4262285608667	
28447000	-0.256120062789982	-49.3946081061255	-41.4625020677577	-74.5628117295488	-39.1953409859686	-66.5489694645966	-0.511660059668871	-49.3289547515496	
28696500	-0.452627266132635	-49.1865832116665	-43.2914651789717	-118.785525074514	-40.0984420715232	-111.56807361281	-0.861923990662764	-47.7982747833478	
28946000	-0.828586257112352	-49.6620604219224	-50.9150018685364	-174.960646336264	-44.7120735044698	-163.532675675127	-1.05283465937346	-45.7170765189272	
29195500	-1.14127288692035	-50.916409917245	-56.1951956823886	-35.0290257411653	-58.0475930734294	150.545401326699	-0.969171958932589	-46.593431621227	
29445000	-1.1712250442375	-52.3086055450147	-46.7528837936635	-76.364955598164	-52.3609759565907	-66.4816274104719	-0.781436969496406	-49.1039297803552	
29694500	-0.943929342710468	-52.8289783842981	-42.840202880034	-114.122062287905	-45.0066725267886	-107.783826217869	-0.523978148884206	-51.157378419316	
29944000	-0.71118387951949	-52.1953977422722	-42.0589747944362	-165.678691732744	-42.8486072944607	-164.401477225929	-0.240145616128604	-51.5481159099587	
30193500	-0.665166328511674	-50.5162230087002	-42.4452683853802	165.2183605577	-43.6794357272901	165.548613920098	-0.152060970748703	-51.9692732246173	
30443000	-0.768252829896903	-49.1487082132267	-42.0600941096942	136.632747524939	-43.1647327607722	142.565220218334	-0.399504802786392	-52.886663996603	
30692500	-0.902110054105295	-49.4271145411148	-41.2674470294054	105.751148439008	-42.1611847194193	111.837412929354	-0.934039808093095	-55.0401613404218	
30942000	-0.928014138225625	-51.3536002507457	-40.3187502407962	62.4886297369436	-40.1821165074528	74.3266833446189	-1.74932076830082	-55.9918082066137	
31191500	-0.745302124147613	-53.630442930455	-41.4782383209794	16.4732855460376	-40.7871446556136	28.9734588475174	-1.72592830543021	-51.9913464207721	
31441000	-0.446343698594521	-54.910194578312	-44.0327348454883	-14.6946229479955	-42.5640837052785	-5.69678119788807	-0.916879687820526	-51.5318584760562	
31690500	-0.24715351206217	-55.0101428631964	-45.358163385613	-33.9742488472912	-43.285714340765	-30.3209210994644	-0.418010526615228	-52.0749302315048	
31940000	-0.30555273328139	-54.6701804824857	-45.1547621680146	-54.6445826796873	-42.9977954963882	-55.6380150317497	-0.309736716073706	-52.213332886436	
32189500	-0.594504500008837	-54.9783496010159	-43.670609102204	-79.1032525562711	-41.9385781938683	-83.189282717268	-0.473380910174967	-52.7211881211264	
32439000	-0.932563934002221	-56.5045182981626	-41.6568062463501	-105.648346275996	-40.4715032573318	-113.70403043437	-0.731991639747514	-54.2719578362671	
32688500	-1.10465315792524	-58.7955454372972	-39.6039995077426	-141.036909874331	-38.9900292959559	-148.964781581828	-0.871529993902916	-56.6444709494283	
32938000	-1.04633741438554	-60.3925693240039	-37.8106106395963	176.760358032981	-37.3969577461588	169.499473005543	-0.819148321002819	-58.5813060485561	
33187500	-0.873529379160018	-60.1317622653936	-36.8976940841475	126.006479252515	-36.6733562970485	122.981322368269	-0.645006352750571	-58.8448778442067	
33437000	-0.759475911299388	-58.5069727930444	-37.9205335678252	75.6394361499021	-37.6317641910825	74.2385411986889	-0.469108351544984	-57.7698108773767	
