!Keysight Technologies N9923A: A.12.45
!Date: Saturday, 02 August 2025 19:55:49
!Timezone: (UTC+08:00) Kuala Lumpur, Singapore
!Model: N9923A
!Serial: MY61181427
!GPS Latitude: 
!GPS Longitude: 
!GPS TimeStamp: 0001-01-01 00:00:00Z
!GPS Seconds Since Last Read: 0
!CHECKSUM:1451338027
!Correction: S11(ON U)S21(ON U)S12(ON U)S22(ON U)
!S2P File: Measurements:S11,S21,S12,S22:
# Hz S DB R 50
2000000	-0.0623219401869535	-2.2036160552635	-78.5421974177989	-160.668469167075	-76.8151055194065	136.629269118393	-0.0771693943548149	-1.7407069175841	
2249500	-0.379768053675188	-2.86609589200294	-77.4536429918457	-144.478452258856	-75.9238796269942	-165.878182909721	-0.376098914408991	-2.35411401486936	
2499000	-0.525804711043132	-4.58337837823949	-67.9265176340027	-152.820718219028	-68.1193822949639	-132.589721890102	-0.526640386647234	-4.14361450826723	
2748500	-0.376784048723245	-6.3714648690791	-55.294078305142	117.605242345187	-56.0731163272872	122.271840121134	-0.434158521144587	-5.59281474288105	
2998000	-0.0980589278756023	-6.76878407390413	-52.8174614254858	5.73398346258838	-52.5500081283045	5.46090367026376	-0.0702119847114526	-6.26133522861606	
3247500	0.162499110656746	-6.26030983394722	-60.522996842209	-65.961040655728	-61.1176531090543	-65.9072620428726	0.144881555787407	-6.05369068111918	
3497000	0.118450939093894	-5.69106528096387	-62.4818089018888	-83.1695519499832	-62.4106847384632	-90.2078367445826	0.0954724451145737	-5.51325784010915	
3746500	-0.183385404264637	-5.75462945489104	-64.3907283243857	-99.345117320922	-62.9303013713977	-86.1055125534837	-0.182001144373801	-5.50966380774273	
3996000	-0.494352124917758	-7.12550116098676	-59.599595984576	-127.094366160897	-60.2816950458706	-119.921168428537	-0.461187655863823	-6.65441967673725	
4245500	-0.584800190507194	-8.74108037561683	-58.1733426769567	170.761435219104	-56.93854010385	165.341237875408	-0.500361567053174	-8.45358241873008	
4495000	-0.283524512488734	-10.1083551276141	-62.3960182595392	120.85403635567	-65.2454054166065	114.875160823914	-0.261157230613221	-9.76649355791133	
4744500	0.0523041945875399	-10.3001402289001	-68.169548783878	110.54100797433	-67.9546156647674	112.447876064566	0.0416949892703428	-9.86549010424321	
4994000	0.17240811454612	-9.56360463042372	-59.0828168346359	168.762650989473	-59.660184910913	171.961727443614	0.144405350047156	-9.13748108887807	
5243500	-0.0274660236885663	-8.29459455203502	-45.5889072661395	82.9644645955251	-45.6330409731814	84.1089867021458	-0.090192916171457	-8.10229656189729	
5493000	-0.299639723060969	-8.36874614810925	-47.664539031572	-16.3959869912873	-47.5845019577155	-17.0819373446521	-0.405035076989976	-7.43084423287925	
5742500	-0.529890931221667	-10.0924534281248	-51.9973151779207	-65.8103637474577	-52.0452671204134	-62.4346792972968	-0.556931343269736	-8.90455750949814	
5992000	-0.485737023648341	-12.3189456679616	-53.7829129901763	-92.3179159978992	-53.4625597731096	-96.1387493031619	-0.481199156947934	-11.1577141035386	
6241500	-0.23519505085503	-13.712566708262	-51.4429576198402	-120.539711535194	-51.2462267895943	-120.077985297472	-0.167708222765919	-12.6032705231999	
6491000	-0.035478871451381	-13.047231327533	-48.3769057361888	175.124096157732	-48.2434860563673	175.109374696118	0.099821719723053	-12.6644266320831	
6740500	0.120308753125534	-11.6547617164042	-51.2350096709337	116.083213550047	-51.3261523836231	113.214190238987	0.15620864802018	-11.9870313621751	
6990000	-0.0674009700089644	-11.445337510029	-52.6450192180743	79.087926284425	-53.1276669462624	79.0527635058661	-0.0728411191970722	-11.6646651396499	
7239500	-0.41051786879652	-12.471360363599	-50.3949884889607	18.5565363528639	-50.1854129888421	23.0250627309292	-0.500507838204754	-12.2919619076384	
7489000	-0.594006455917474	-14.6867710248481	-66.2388915638371	65.3696000680252	-68.7730421041432	58.2165470712208	-0.549159945543604	-13.6455901817454	
7738500	-0.506752611225217	-16.8249580507076	-51.5416409447168	32.9408555633993	-52.1151550046046	32.9292545488739	-0.429590950959554	-15.9045042432508	
7988000	-0.243679369920969	-16.7517662565928	-45.1255812418723	-35.6110287154697	-45.0551396543169	-35.6384721503754	-0.203930361018806	-16.7574577532216	
8237500	0.0879340872734848	-15.6303657446562	-44.8115743591822	-116.331820404623	-44.6496539859937	-116.529145231819	-0.102451232719367	-15.4076482007793	
8487000	0.0878151202106074	-14.6516368207412	-47.9293636917155	-179.653457300125	-47.8164667292543	-179.431510504358	-0.0631576475748549	-13.2073009778541	
8736500	-0.199313837707903	-14.4309859096321	-51.5297856586431	143.4980938037	-51.9289128165736	140.278544629028	-0.232235695795185	-12.7878535514922	
8986000	-0.54156240977101	-15.6700125271291	-54.2982298234455	106.282811878695	-54.2278624819171	110.139026706483	-0.50091535203721	-14.1068341805933	
9235500	-0.649506548002701	-17.8882722038003	-55.4221903163678	83.791058532713	-55.7232782083846	84.2520013157167	-0.571453465953475	-16.4979950916237	
9485000	-0.444561001321541	-19.6502914812403	-55.0804063122199	53.4559095496667	-54.6936694803124	54.2488084500109	-0.350735849579919	-18.5658873441305	
9734500	-0.136425114385562	-19.8106171447317	-54.3938795274953	19.4798017499579	-54.3544710575424	22.8443844859881	-0.0182738605557732	-19.2446813858441	
9984000	0.0306259370924342	-18.6161966894404	-53.3792942790089	-25.7339887166762	-53.6428138383508	-24.9141098550022	0.135762990769787	-18.7432496763319	
10233500	-0.0590332840621852	-17.5632825547173	-52.7961761144119	-71.377903084692	-53.0526094643945	-70.6629918413102	-0.015936767146013	-18.0843361539404	
10483000	-0.369244795872034	-17.9012127550682	-52.3283213089737	-120.713475317943	-52.1159732588738	-115.649495577238	-0.411998128018207	-18.2535130981306	
10732500	-0.662468742846331	-19.8597227007868	-51.4732171679492	-177.335529903878	-50.8843720762609	-175.089245526283	-0.806443216552986	-19.396993796172	
10982000	-0.687766076903049	-22.0434848253139	-55.0427933934094	101.07644501029	-53.9659929896567	101.329523986023	-0.862778436302889	-20.4679876013071	
11231500	-0.391608632181975	-23.3450397497645	-65.3814183066879	133.003381691582	-66.0084263369828	109.786453110038	-0.499337280368658	-20.8455695402247	
11481000	-0.121765994168092	-22.7815465316433	-58.5653496635636	73.9595163479599	-58.8636363883496	71.6960739646042	-0.072958417002314	-20.546501836339	
11730500	-0.0385443858609189	-20.9526186475465	-58.910733724001	37.0662194712041	-58.9196504939859	34.5853349390745	0.0901648645100996	-19.6975989930207	
11980000	-0.185513091794211	-19.8289296911579	-60.1253355234242	-5.52678464105084	-59.8594735115522	-4.55262181682655	-0.0761248780780273	-19.1546789286151	
12229500	-0.504937612554164	-20.6294803756713	-60.5157420383664	-36.7976637225404	-60.9865265402989	-41.4111327343393	-0.412619346973127	-19.9195735195369	
12479000	-0.7400605570365	-23.025256675957	-61.0068534571847	-56.0844872557422	-59.5472161481171	-51.9787643532635	-0.635887457875062	-22.1436894330275	
12728500	-0.665389396205836	-25.6535058768679	-60.2058060710649	-80.1266888888068	-59.0737485468727	-78.7844834392897	-0.565324555206401	-24.6592405373681	
12978000	-0.4082416233591	-26.5857678189681	-59.1355164295147	-126.375234688755	-58.8206848762118	-121.665081844943	-0.292521851827515	-26.0090775846859	
13227500	-0.174539836905291	-25.276259548744	-59.7368557105689	-178.027030353212	-59.0137623982356	179.719114639585	-0.119632444791821	-25.6469809351654	
13477000	-0.106891527985432	-23.5578237391431	-61.8159090148417	133.62220983573	-62.1583193457435	126.170765849262	-0.229179993603052	-23.8455179456358	
13726500	-0.320325388201265	-23.1515021988396	-65.5273762881932	132.45870830317	-67.2643906161389	133.375137938897	-0.425804796385929	-22.1087752458937	
13976000	-0.662520626647941	-24.559240323089	-56.5706355479743	14.7505335494531	-57.5482444496778	23.6418522540924	-0.802031553614307	-23.6720035748878	
14225500	-0.820349897280409	-27.1844371462902	-58.2174883525395	-91.9134467980507	-58.4817321699424	-93.0021983131928	-0.899049318025177	-24.3692308709394	
14475000	-0.698095544126665	-29.1909472768923	-56.925305541192	-169.452464339954	-57.5285082431906	-166.780216783469	-0.60234945064436	-26.2107846993967	
14724500	-0.404252918501068	-28.7984081758934	-55.5615498419713	132.156050737377	-55.7304583272966	127.945201536048	-0.192616682956987	-26.9709245873921	
14974000	-0.115029846272815	-26.9821487926068	-55.1205006991272	68.3296629154179	-55.8004719435468	65.4647434763839	0.0551297705430613	-26.4648903189661	
15223500	-0.118469435745871	-25.947025413334	-55.3663190597476	2.75255418213863	-55.8735267122805	-0.453421614596377	-0.0181521907282024	-25.6825823747868	
15473000	-0.539567075115759	-26.0013271349483	-58.645863781579	-102.619034258818	-59.7687007254557	-99.6624203360771	-0.360923501501196	-25.8720448085468	
15722500	-0.809780287444012	-27.4078103194654	-70.2660523624804	-6.10034276917669	-74.0521654959115	6.05108332325993	-0.734813841681948	-27.5869748848593	
15972000	-0.857161310557242	-30.4026999968883	-61.4996084139432	-63.2958451921872	-62.5097200397191	-54.668671304098	-0.869279884909083	-30.16252053434	
16221500	-0.644995883198372	-32.2416728344475	-59.6688372127573	-115.783533820208	-59.4197873423486	-112.920889740703	-0.7122457216579	-31.7054548981201	
16471000	-0.355401935473285	-31.6874270640268	-56.4635245779053	178.522442938967	-56.9272975714394	-174.029887147384	-0.446101868825068	-30.971096738809	
16720500	-0.185923493226424	-29.7901918316539	-55.5398065836131	130.317428642664	-55.7799735542785	131.122786912173	-0.268601964168623	-28.8647541184928	
16970000	-0.300729935282618	-28.5642504912779	-56.1114902937145	85.6201833367427	-55.8651207149649	83.2870906886211	-0.334156144972254	-27.2091311852651	
17219500	-0.633316462858081	-29.0715545086628	-55.4494906402269	52.758673116254	-55.3668687507507	53.9125656091119	-0.596307713212356	-27.2321026123162	
17469000	-0.902423285323255	-31.3369961722619	-55.3167174978962	21.4268100329835	-54.7624343429745	22.4433946048615	-0.804977519573009	-29.1032869316811	
17718500	-0.867999145113131	-33.9006091139535	-53.7116169116467	-9.42756289527343	-53.5311600053729	-6.56224237980108	-0.731548646267895	-31.69597063609	
17968000	-0.569384543376533	-34.8555523431579	-51.6329743751112	-44.2062262150967	-51.5236218229631	-43.3704122510737	-0.403027224879484	-33.3107002284182	
18217500	-0.252317016813611	-33.7498672463183	-50.2929323508122	-85.2290653461498	-50.1943233871352	-82.7745738630968	-0.100405594275429	-33.3300356902673	
18467000	-0.16210070266897	-32.0474082656746	-49.5222651639134	-123.47940394534	-49.5213482895401	-124.729119522091	-0.0801813016420225	-32.4140738751657	
18716500	-0.386612600561719	-31.3107386500158	-49.2006254837286	-162.083852205962	-48.7051247734127	-162.489921080423	-0.392768436658036	-31.8148484273467	
18966000	-0.777583674668755	-32.4347191328211	-48.4648418856791	154.50732406548	-48.1092261036464	156.05093092115	-0.860644017900882	-32.3623125916095	
19215500	-1.00861677698874	-35.1043252883043	-47.400464524892	110.185227611213	-47.6441788858337	111.68440913474	-1.13844926989298	-34.0179511169996	
19465000	-0.898779212743593	-37.4576193771616	-47.1972957002938	61.2767883609894	-47.0656351588802	63.5528441889183	-1.0199129428118	-35.4981024068396	
19714500	-0.56024764528418	-37.8305678933051	-47.289218426447	13.9987137557478	-47.2256244570617	14.4750402317957	-0.60603384083621	-35.6771717479683	
19964000	-0.288993373085227	-36.4735983999684	-48.0344426341394	-33.2513723627175	-47.9867106365095	-33.6862362028615	-0.254869373964606	-34.5932115183938	
20213500	-0.310084079505966	-34.9042515851446	-49.0103007898901	-77.700608530359	-48.8861670968323	-76.0956095498975	-0.198585418324792	-33.2825736618146	
20463000	-0.62980699715842	-34.522539085988	-49.4543739072412	-116.940932592668	-49.2444506697066	-115.310368632572	-0.450959664351077	-32.9496628216618	
20712500	-1.01303299868654	-36.0132159601829	-49.7375333576567	-151.328537672829	-49.0041754790189	-150.735721167326	-0.784776676584059	-34.344679415083	
20962000	-1.14608243622506	-38.573469214906	-48.8369573881266	170.892654765084	-48.5861798444181	170.6317378618	-0.903272036127272	-37.0554582605425	
21211500	-0.923599261703474	-40.1703566444419	-47.6518496906503	134.656908941931	-47.2052874175078	134.829317896059	-0.703385608508878	-39.3176872137976	
21461000	-0.529705907198103	-39.6407188657204	-46.0707951268762	94.6907819834197	-45.9319800778852	93.1793006245246	-0.393742947664919	-39.7618880732771	
21710500	-0.288950124752761	-37.9174982957159	-44.8899310944081	51.3539498526197	-44.8025702602131	51.7108419034715	-0.272267368768196	-38.569018275253	
21960000	-0.388455624234876	-36.5622786063748	-43.8669534896373	6.9548267623504	-43.8897749532609	8.42235326193539	-0.458946770357432	-36.8506071449884	
22209500	-0.762087629775952	-36.7424748932528	-43.3783509860982	-41.5841037257858	-43.1688602221566	-42.2520553542602	-0.835557885538582	-36.1090516249174	
22459000	-1.11164827299986	-38.7543403402875	-43.0504255038519	-90.9350292755417	-43.001332118165	-91.0880376204762	-1.1226183502341	-37.3556858597782	
22708500	-1.1171013377573	-41.318044758662	-43.4106006526012	-144.396947450067	-43.3986085424166	-144.258249048802	-1.10597234975874	-39.8830937202686	
22958000	-0.768621122059829	-42.6161016559284	-45.1183879790345	160.620250088706	-44.9087193168004	161.707294329581	-0.779302510504085	-41.4774262109666	
23207500	-0.377162155969175	-42.0494545021599	-47.5514710530691	110.345100898296	-47.242053529201	110.811620160023	-0.383057341797396	-41.2461018378553	
23457000	-0.254513533261915	-40.4130186368405	-50.0528252939395	64.8505297374906	-49.8050395982482	65.7270595515127	-0.21517828546471	-39.9217903740046	
23706500	-0.474213906134762	-39.2478425749449	-52.4081322744076	26.5584487470413	-52.3045611579284	27.2062333233913	-0.391923542262906	-38.9231306145107	
23956000	-0.868633162310309	-39.8372738847278	-55.0249350788543	-12.02710668992	-54.326053306543	-13.1517725856972	-0.769952781985157	-39.3951298794049	
24205500	-1.12190897986356	-42.2481939860673	-55.5628055777107	-45.4526805914717	-54.9232725645357	-44.9036316984181	-1.0534234458223	-41.5617946861041	
24455000	-1.01009250713903	-44.7932037340012	-55.5606464150004	-81.4405367449941	-55.2688501696507	-85.384767373165	-1.01530740992266	-44.1482049379329	
24704500	-0.626990822788765	-45.5667011532982	-56.3344401099397	-112.726290557941	-55.8031903984508	-108.887036776167	-0.712851185964786	-44.9957402428888	
24954000	-0.30568325374921	-44.3857626904778	-55.9659991084228	-146.316874573803	-55.4111655051563	-148.339649205926	-0.459506953949813	-44.0251875116823	
25203500	-0.28257962901142	-42.6247555315174	-54.3661604118804	-176.048117371023	-54.5060006555075	-175.066698730344	-0.444994150382318	-41.9849941163697	
25453000	-0.569476354615187	-41.8614065920287	-54.1295931129069	147.278949797124	-54.167458031584	144.117714956759	-0.685797937868551	-40.6643895064538	
25702500	-0.968990543379816	-43.1433109976517	-53.226738540719	101.462410444195	-53.4944672802336	102.689909504278	-1.01529453995589	-41.3561032752951	
25952000	-1.14273223647062	-46.0010616338188	-56.0710024380133	65.0041842661062	-55.573472194642	56.1608344095333	-1.18688646189154	-43.9854945575774	
26201500	-0.929231792661039	-48.3456128032152	-55.3469054920084	45.2337145994942	-56.897913099354	31.6528308059866	-0.965618047250442	-46.1934962918148	
26451000	-0.529568795908616	-48.6201968476423	-53.4498395729619	4.58402621556593	-53.6317106844159	4.12811369762358	-0.541956892326082	-47.1425222967206	
26700500	-0.266231403577416	-47.1458069169527	-54.7517152517062	-36.6740367686046	-54.4304993074013	-34.2537907985313	-0.278399707932362	-46.4793005423294	
26950000	-0.340659474778599	-45.5131491964956	-54.5007290621837	-83.638466408689	-53.9819770043411	-76.0046337277002	-0.365531569427438	-45.2231879161232	
27199500	-0.685448960744774	-45.2652151245085	-55.8048888993891	-125.961619566188	-55.2369487900844	-123.582615664749	-0.751333402034856	-44.7714994064938	
27449000	-1.05027602071989	-47.0797572286932	-55.6333394294169	-174.708055743426	-55.6041478471691	-165.780822055863	-1.1686928126119	-45.9868423870619	
27698500	-1.10989803714928	-50.0609368261201	-56.2421353478696	142.741137999254	-55.7785259755831	138.921049011602	-1.294291696719	-48.2183832797789	
27948000	-0.811254199824033	-51.9599666631622	-56.6450768085545	79.3002932346289	-55.9887229097689	90.9951741608277	-1.0346202094909	-49.7802611463979	
28197500	-0.444060106775896	-51.6110138354524	-56.5112693782899	37.3188129971179	-56.3300747621213	38.1602891870833	-0.636486228593221	-49.440951058374	
28447000	-0.30313118482337	-49.8215690629915	-56.8526923761591	-24.7900240391912	-57.0301336492033	-15.33827405011	-0.408840415580946	-47.8156556529294	
28696500	-0.502271559210549	-48.3061159476608	-57.6676108519948	-74.4338736244314	-58.5109512220713	-81.6103513717954	-0.522100132759311	-46.4707824343278	
28946000	-0.908701836277553	-48.5351264521917	-60.8094517258414	-129.676660127963	-60.9706794017694	-124.421726745353	-0.898328337681454	-46.733674574376	
29195500	-1.21799252074202	-50.9360681476039	-64.9166759567503	-91.0298751508958	-68.6190711562477	-116.541506891171	-1.25132571997438	-48.698787883138	
29445000	-1.16723039567085	-53.9768552479652	-61.0017593961323	-107.588098877193	-61.1892464194854	-108.675159323545	-1.20436980772862	-51.3225995883383	
29694500	-0.822425249148133	-55.2388244105296	-57.8049593660819	-158.746814097417	-58.5908214413445	-171.020924038489	-0.831306450007993	-53.0430589197779	
29944000	-0.489064055103315	-54.2190002792304	-55.8525081171784	148.034441151657	-55.4913732368597	148.353298399209	-0.468080942553433	-52.8100387444251	
30193500	-0.427252493061208	-52.1308594491316	-56.0907772508432	107.33061515871	-56.2789041568576	103.710912678909	-0.402628309442405	-51.262408050945	
30443000	-0.683398707080686	-50.8452743558414	-56.1745375669951	69.2341659627078	-56.7032923544186	58.0617372220204	-0.69774052967712	-49.8625136875601	
30692500	-1.08583809568214	-51.707063352524	-56.4963169304867	20.5578801599317	-57.4669130144113	9.14873688373689	-1.15006332242348	-49.9416248748227	
30942000	-1.30316444633404	-54.4637635248964	-57.8118723959426	-33.311941559458	-56.8962608848551	-50.0462802166098	-1.42520747153159	-51.8052257401217	
31191500	-1.12932758945582	-57.0831848368668	-58.3928586444635	-79.4878652994057	-56.8953223866857	-92.6330636703489	-1.29882198132303	-54.1187124040213	
31441000	-0.736044743394083	-57.6015189830029	-57.4062421728996	-144.953037479908	-56.4795989848825	-147.620622486493	-0.875546106828406	-55.0075444721302	
31690500	-0.459086979725682	-56.0997949481392	-55.4234159669098	160.495522972734	-55.6187854435348	162.91223593143	-0.510002204073341	-54.0828533717509	
31940000	-0.515087325832696	-54.1568055834113	-55.2035294511889	113.933858731668	-55.0951188041396	109.096764797333	-0.48091984660098	-52.4324971610868	
32189500	-0.8821306193394	-53.5728735230558	-55.0309555527395	67.2404394532826	-55.5288234195988	76.4462060723307	-0.772774746468263	-51.6244338043384	
32439000	-1.3145727113838	-55.3482491603591	-56.3502266307383	25.9197718601111	-55.8982071606542	21.1120475028463	-1.17969933163722	-52.7495997003813	
32688500	-1.45827766303136	-58.6359599884753	-56.1812651616455	-14.6350792654365	-56.3343114320386	-20.1395181905983	-1.36762498958168	-55.579805787209	
32938000	-1.19316045247002	-60.9607949143432	-57.5417599542422	-51.7684859084387	-57.1685305407057	-52.5088112750122	-1.17343848116261	-58.1521595347826	
33187500	-0.774880066018575	-60.7337967743346	-58.1037269671713	-88.648956975552	-57.6437894538537	-98.3678834471917	-0.792130940726339	-58.7589531970992	
33437000	-0.549733138170498	-58.6528532621378	-58.5442530185314	-137.507156059691	-59.5157318339224	-134.134167696787	-0.561975978003649	-57.4087832795587	
