!Keysight Technologies N9923A: A.12.45
!Date: Saturday, 02 August 2025 19:56:32
!Timezone: (UTC+08:00) Kuala Lumpur, Singapore
!Model: N9923A
!Serial: MY61181427
!GPS Latitude: 
!GPS Longitude: 
!GPS TimeStamp: 0001-01-01 00:00:00Z
!GPS Seconds Since Last Read: 0
!CHECKSUM:0114060280
!Correction: S11(ON U)S21(ON U)S12(ON U)S22(ON U)
!S2P File: Measurements:S11,S21,S12,S22:
# Hz S DB R 50
2000000	-0.0611912632536652	-2.192077168044	-79.9485436331809	153.495198350111	-84.745496237085	18.6776702857507	-0.0763491723677412	-1.69913290746191	
2249500	-0.37842989280685	-2.85102444627336	-85.3662429518777	174.804917652956	-73.0711803268652	-147.728397302248	-0.377914039381048	-2.33718181431352	
2499000	-0.524561392771404	-4.57619867437437	-68.4547743104609	154.241914267199	-66.9691360117206	171.208755084358	-0.544822593337413	-4.13809741342004	
2748500	-0.373778741601962	-6.37642033283648	-58.9923117348467	88.1656075382127	-57.8010128276694	89.1065704421115	-0.396512077360911	-5.40582562900792	
2998000	-0.103334848000089	-6.80468322930778	-55.6205699536468	-2.29224679290126	-55.3425718045106	-3.7430561647472	-0.0585946053364451	-6.31073068021638	
3247500	0.166289004057686	-6.24789794624793	-62.8229431785798	-70.5195771548153	-62.3848611597421	-76.2639113252348	0.14743343962753	-6.07755360867764	
3497000	0.116524821798477	-5.66810133233952	-66.8207998064983	-115.840541504725	-66.3988985613634	-111.209364707521	0.0958840210980682	-5.53110705345149	
3746500	-0.179703612694797	-5.74636322388001	-65.8467780294799	-96.9088172224686	-64.9360736527918	-100.282093649088	-0.181703304488879	-5.5108595233535	
3996000	-0.493908812039036	-7.14623383126542	-59.9009583463529	-111.898953577932	-59.7955595238118	-111.952922306783	-0.461476705736697	-6.63338695612667	
4245500	-0.59579380667237	-8.74110666328951	-55.8594643384239	168.811984792065	-55.6732831935759	168.197246054159	-0.499398904200902	-8.4348816510357	
4495000	-0.284881988029176	-10.1052546370546	-61.6611377458239	113.137685462983	-60.2760218498537	122.877992580204	-0.264816321164094	-9.75318539394634	
4744500	0.0494381499268173	-10.302676923473	-66.0115158548768	123.89010002313	-70.8781497863311	133.351806474082	0.0248494111314199	-9.88889793667093	
4994000	0.174297943367388	-9.55692774650852	-54.4360093066797	149.861730735038	-55.9170399385335	148.682428665801	0.072647353831947	-8.98767662959157	
5243500	-0.0311753926255309	-8.37382178418319	-45.1889389130147	43.8447692752713	-45.5695306807317	46.5597805218626	-0.0633927423737934	-7.3068418630266	
5493000	-0.299213146485233	-8.34096031073087	-50.0177609164063	-41.9608092579648	-50.2809858523144	-42.3111999183091	-0.311089525973567	-7.37218860638437	
5742500	-0.530388365824284	-10.0867299092458	-53.8736966845352	-79.1633445519283	-54.4319651921602	-76.5977019161697	-0.521522658997883	-9.08634476210602	
5992000	-0.485733244868193	-12.3211625072253	-55.571381186566	-98.6165626684296	-55.0293283202891	-101.221198801682	-0.465859716346352	-11.3156901936532	
6241500	-0.202078180717597	-13.7524904463131	-51.7618586913519	-129.96599514169	-51.8190602365724	-127.202904032952	-0.193002202461917	-12.7035248098194	
6491000	-0.0352569038779787	-13.0105501527392	-47.9985778285281	166.870969049451	-47.8972866790972	168.912626324113	0.102154257695972	-12.7569584194083	
6740500	0.124222820268347	-11.6614633637383	-50.486213477494	106.378509680054	-50.2704132548923	106.35018722893	0.154091804342377	-12.0645520351741	
6990000	-0.0673367708635315	-11.4510078058067	-51.7046863850482	74.1815394382088	-51.8536209896772	73.5185618550711	-0.0792444081517852	-11.7143382753319	
7239500	-0.411274931751434	-12.4827815524815	-49.8707569513152	41.4395904165524	-49.9305107056703	40.9111700788294	-0.471504135231798	-12.4813034992091	
7489000	-0.603623847473019	-14.6574838611512	-46.835614753133	-27.2524470094078	-46.7658360492928	-27.858929488594	-0.723841691846915	-13.2943117229496	
7738500	-0.505350047042766	-16.7777635552893	-54.1809339560398	-98.1960456550784	-54.0477176350222	-100.492226874773	-0.434716961017331	-15.0235925049403	
7988000	-0.241742250197669	-16.7645266561175	-48.2465089347296	-49.1156686142868	-48.7603945656469	-45.5189815887404	-0.203046314741091	-16.4483028744169	
8237500	0.0840057835117163	-15.6411810748686	-46.7173484484727	-160.922583749052	-46.6238865013783	-157.433569461563	-0.0162971194121601	-14.3265195911293	
8487000	0.0887626018285373	-14.6290715512321	-51.915206159059	148.656857226614	-52.0194865934942	151.402636387354	0.0784512595414338	-13.3032517225537	
8736500	-0.199203431887364	-14.4186875156006	-54.9812365088309	113.892518172851	-55.8347637208859	119.733171387132	-0.160136357602211	-13.2141841381335	
8986000	-0.543765610899768	-15.661599097441	-57.1980062345549	94.0130664217878	-56.7989858375168	94.3186483081065	-0.463896744384171	-14.5564660432246	
9235500	-0.650660731629215	-17.87376397834	-58.089564452953	69.9426857408619	-57.0534286798308	61.959502370039	-0.553171744840687	-16.9384812199463	
9485000	-0.447008441189513	-19.6358697376318	-56.0686905776904	42.8638404537806	-56.7638513829366	39.1243607837422	-0.348572492877463	-19.0222239457697	
9734500	-0.134939897926224	-19.8034567053917	-54.1667236966658	1.94300609567771	-55.0435520281731	1.22822274628526	-0.041108710745308	-19.7340054549234	
9984000	0.0319809979702437	-18.6297759237415	-52.6957046361978	-48.5636745061962	-52.4360002025101	-45.3882277801692	0.0670313569852223	-19.2434671893754	
10233500	-0.0596265518455722	-17.5758124881867	-50.9942118782727	-106.566278953149	-51.0541560345635	-106.089214493878	-0.174871378281191	-18.2866804584432	
10483000	-0.371349569438365	-17.8975540585923	-50.3115300251134	-168.864794669047	-50.8876020911577	-169.982369522289	-0.607654528234145	-17.2110757258644	
10732500	-0.662667995931991	-19.8498993926972	-52.3066717960514	125.766402240543	-52.3997022448354	122.463384777691	-0.793881858479535	-17.4660357783328	
10982000	-0.690311610509298	-22.0420310096375	-58.0431686709952	51.455415300638	-58.1941375380216	62.4129273334476	-0.671047381906248	-19.3570960632166	
11231500	-0.390259809821206	-23.3287559390822	-63.7339416167805	52.1829676577924	-64.2329457819456	61.2163895421426	-0.320849682061594	-20.8674799282235	
11481000	-0.117536554315332	-22.8006854680188	-59.092825829756	31.0295907892736	-59.9421374451928	29.7463525478968	0.025796910684694	-21.0109081552347	
11730500	-0.0408629408589721	-20.9728576205618	-61.0640317377079	-5.69351085656497	-61.6322113239658	-11.2393462706526	0.133879908338934	-20.3034917207342	
11980000	-0.187602491767296	-19.8227646567947	-61.6804266362783	-46.4554493446387	-60.9463737082708	-36.3171437129632	-0.0733045481982942	-19.863428837716	
12229500	-0.508390596837113	-20.6072590304026	-62.7487868001585	-81.80630330819	-62.9409220910254	-66.4430360171316	-0.451200703433279	-20.7026302006565	
12479000	-0.733749744476316	-23.0399991008698	-63.9302018144572	-107.049826418585	-65.2487440924852	-96.4212885105527	-0.743953045908983	-22.9566481982638	
12728500	-0.663064454525236	-25.6516079295521	-64.3070614851506	-159.129686668462	-63.1099889118354	-130.874695753468	-0.77679818962268	-25.1702779139547	
12978000	-0.40635633963509	-26.5977159477044	-63.4480695276789	137.209548498806	-64.0167390669741	143.148212519743	-0.575714873702257	-25.2759241499926	
13227500	-0.174811837839119	-25.3085036956294	-65.6236453222274	38.4231041799032	-65.9715457977163	52.5828380329582	-0.239335565062986	-23.4969459605303	
13477000	-0.108921608522816	-23.549638140959	-65.2461629011913	-35.9913337177101	-64.5782159923375	-41.3573297003798	-0.0851170117637857	-21.9631254552828	
13726500	-0.322247265958647	-23.13160504456	-62.4423434567811	-98.9216490029289	-62.2356743116087	-96.8832824959248	-0.252877547958193	-21.506570290146	
13976000	-0.66206089817529	-24.5372743372508	-60.0502082159716	-134.84631805312	-61.2785043409079	-131.189965637591	-0.547466544032304	-22.6499401869168	
14225500	-0.818629746894056	-27.1843479442686	-61.2807671801406	-164.214509597829	-60.0769052105645	-172.817541953257	-0.669506454645286	-25.0615189518664	
14475000	-0.696184992250294	-29.1969272760886	-58.0952951501439	138.89835129576	-58.8503472868707	139.918131757995	-0.497371738979038	-27.3380035369052	
14724500	-0.406654128873995	-28.8181875885188	-58.2230348234925	64.958804843853	-57.7737336337132	63.6144683671217	-0.192714206670854	-28.2480182229124	
14974000	-0.108619737244612	-26.9776612725637	-55.9449352241359	-85.1148699924537	-55.7770708214981	-82.5131772301697	-0.10084961134742	-27.4764302855979	
15223500	-0.134667498225588	-26.0190167348664	-45.3810361981286	114.708048797602	-45.117310245666	119.364363889736	-0.158628747957229	-25.3326769534715	
15473000	-0.522315464614062	-25.9366991729459	-43.0709143648973	-8.82221042282536	-42.9446511415155	-6.29753642668787	-0.449345360050116	-25.6065395052361	
15722500	-0.814211483046329	-27.3748539100527	-46.8443069318393	-115.285674496271	-46.4308215199798	-110.08641973732	-0.824683624539987	-27.5065786591325	
15972000	-0.852892221431993	-30.3676525850622	-52.8601320720135	179.29481053403	-51.769395358834	178.664208501855	-1.07460367735977	-29.3774897582376	
16221500	-0.644353092504007	-32.2777652370701	-56.2985045263183	140.237210994528	-56.4709527121628	129.701216401305	-0.783567206541209	-29.6169983142156	
16471000	-0.358546258087951	-31.7140192969705	-59.1109653448676	106.28541700948	-57.8406679154602	101.868675298432	-0.286834171470469	-29.1975946620333	
16720500	-0.192064749130746	-29.7904231938871	-58.5886069354257	83.6481804285907	-59.3994142271464	77.1702477958725	-0.0276890463865268	-28.2421387354626	
16970000	-0.301235552981898	-28.5338340791738	-59.2816587792433	46.4537754175723	-59.7890051633656	54.871623372207	-0.130177034202081	-27.4751871779765	
17219500	-0.631888244012239	-29.0438060726027	-59.2113280984811	34.6418847666397	-58.2925285365628	27.4027262976881	-0.464044590058531	-27.9240415941061	
17469000	-0.902087759723292	-31.3174369537306	-55.635742937836	4.27330687478685	-56.3112006784624	3.81463655714085	-0.738893519700655	-29.9988475309501	
17718500	-0.865363608458008	-33.9086214584559	-52.6427096037627	-24.9197373468331	-53.7281845909584	-26.0354643155436	-0.73315889581867	-32.6813418749449	
17968000	-0.569104057457467	-34.858153080184	-50.4736222039359	-58.1724354602539	-50.8822890314393	-58.6673584654043	-0.488469616047481	-34.2884771040394	
18217500	-0.256246374855945	-33.7642057265705	-48.5644918103763	-105.583683095638	-48.76303159826	-105.264193300198	-0.284411553755295	-33.9605024658355	
18467000	-0.164560563394821	-32.0356119561583	-47.4891765639171	-157.060933331555	-47.6073255257722	-156.214243998318	-0.327358225074135	-32.1467813218583	
18716500	-0.389945209510332	-31.2753112143104	-47.8155756757067	154.492122608594	-47.798129122217	154.891580693825	-0.590935085661215	-30.3155043848743	
18966000	-0.774447215236822	-32.4165985664486	-48.2242031495477	108.099248815772	-48.6510838366508	109.894709926549	-0.878623589492476	-30.1570817316515	
19215500	-1.00518362996275	-35.1136387052651	-49.1622028335723	63.3843333408024	-49.0842885098506	65.2536214285391	-0.975523576059482	-32.0573492991126	
19465000	-0.898393552559035	-37.4778262948295	-49.3498257031709	20.9983693770085	-49.0399570265795	23.8976609532284	-0.761237691724213	-34.3924933208129	
19714500	-0.563912066982966	-37.8481025441214	-49.4741827450796	-22.9903128712163	-49.760996584181	-20.4254968391154	-0.35641201001687	-35.503112584089	
19964000	-0.29037107030799	-36.4660109519954	-49.7649364294498	-68.1557715484444	-49.9545539694776	-67.7124784412826	-0.073272164957492	-35.0968728390212	
20213500	-0.311036949621587	-34.8941847947686	-49.843361226004	-109.308303268361	-49.7371556530875	-107.408408058429	-0.105761510251794	-34.1768853867233	
20463000	-0.629484349583434	-34.5065823496279	-49.4116022637072	-147.983146151424	-49.4373139942564	-150.662758481847	-0.453381570488893	-33.984419023237	
20712500	-1.00955412196239	-35.9916290179158	-48.7030084644192	174.436635525174	-48.9866391570496	170.956825526007	-0.884032239679672	-35.2748916693623	
20962000	-1.14185333302841	-38.5664349597485	-47.71533123288	134.644316593219	-47.9060804875439	130.773978531588	-1.08656637640264	-37.5322151663879	
21211500	-0.925162936865457	-40.176311518021	-46.750304179274	92.7293924842453	-47.2813339558985	89.8714928514622	-0.921179135608869	-38.9384663010258	
21461000	-0.535809849261303	-39.6575879158732	-46.1118364520905	45.9303277369368	-46.3787808302733	46.0014294599116	-0.550883999726625	-38.4811855731348	
21710500	-0.291247496706965	-37.8939527700461	-46.1269294604564	1.29131938739598	-46.2935226180661	-0.2634006203382	-0.281641999244346	-36.7863612506782	
21960000	-0.384406597007402	-36.5116149704672	-46.4478015991697	-42.6213987954323	-46.4683290063951	-43.4065496736753	-0.315711581784757	-35.2750408446933	
22209500	-0.753062483817714	-36.7383726882792	-46.5664906561547	-83.6816374748058	-46.3475062579393	-85.4806959795026	-0.608198933722591	-35.2208941405629	
22459000	-1.10929312713118	-38.8326847903664	-46.4022268475016	-130.02513214474	-46.4916038150032	-131.648905991147	-0.89843796601211	-37.0905331807999	
22708500	-1.13353452837554	-41.3075090684197	-46.7166713745456	175.386519954617	-46.7161726138304	174.03759071033	-0.913897956173509	-39.9560623176262	
22958000	-0.765461720787534	-42.4957634751992	-48.3245685278267	114.82228038069	-48.9466657316663	115.31723696919	-0.618121178308305	-41.8478144679035	
23207500	-0.361544685772269	-42.0854472401143	-51.4549152517299	62.6714977174583	-51.6654072830901	65.0610428778003	-0.278737123534276	-41.9640950039009	
23457000	-0.257897094087562	-40.4895628052345	-56.0390217292345	24.1418956178384	-55.4434709872499	30.3998826865571	-0.197440830113081	-40.7880840943384	
23706500	-0.485005079502686	-39.2207442285176	-58.6132660314869	0.452393375847133	-57.3894681258657	-3.28277636012427	-0.463925995741313	-39.5678245246896	
23956000	-0.867624329886464	-39.7618581633773	-55.9024066694296	-28.2657038339545	-55.977320369629	-32.2082909760056	-0.899845882987534	-39.4487438177615	
24205500	-1.11624276548173	-42.2213184344571	-54.7468614575672	-72.7663062764874	-54.2589534981017	-68.6681642922902	-1.16583286725267	-40.8621037536684	
24455000	-1.00466590029879	-44.8083130131663	-53.8130979567033	-112.407829417966	-54.3044956173313	-115.290211322219	-1.03080854284223	-42.9484576000593	
24704500	-0.630012063503712	-45.5956726436234	-52.4818242674746	-170.73416952796	-52.8383545407957	-162.861850886878	-0.596827312607776	-43.9195084917965	
24954000	-0.308081399938475	-44.4110716567176	-53.0227875490978	116.189085807365	-53.0358109045158	131.266371208816	-0.292362745181581	-43.7489312189217	
25203500	-0.289309997852918	-42.6055131999213	-67.9919452628075	-9.25846218362655	-65.8086530300561	35.2741938434008	-0.301499925456034	-41.8401054589692	
25453000	-0.570465996153856	-41.7877135581596	-61.390276571642	160.838389104541	-61.1713865809533	154.500560304586	-0.502327701698604	-41.0060586929348	
25702500	-0.964495797900208	-43.0929466452601	-58.7540182869023	130.145181193605	-57.9093938052375	119.883735772047	-0.879272635269713	-42.1900018774528	
25952000	-1.13650371884473	-46.0094994734249	-57.0029825212356	74.3233784276973	-57.4843402569102	79.5114032538222	-1.08029634776592	-44.9335784862827	
26201500	-0.928074664878585	-48.3846428876409	-55.3167170346232	43.2343096411496	-55.6228819694545	38.1265834927447	-0.958982340792281	-47.5470568884005	
26451000	-0.536682552403629	-48.6383851492449	-55.0447708914886	-3.1123176240028	-54.820836879427	-4.1911147020349	-0.647633614376908	-48.2737355732797	
26700500	-0.272162648823203	-47.136913587947	-54.4872866863335	-48.459280061111	-55.150310396088	-45.7500897080212	-0.466812584010673	-46.9666521249674	
26950000	-0.341174804854559	-45.4536902952353	-54.8054822819882	-98.9649918304414	-55.4774108008867	-98.947965909779	-0.565175096178178	-44.8953906484292	
27199500	-0.681286498330239	-45.2256485863239	-57.8432944192301	-157.729333886238	-56.9058205781856	-150.065055480466	-0.87943321732999	-43.7041482500517	
27449000	-1.04476169716765	-47.0806661148272	-59.0493621645585	156.807634169387	-58.8304097779353	165.553555718936	-1.18304035780152	-44.6234805619065	
27698500	-1.10771854397354	-50.0742991473153	-59.0363589605233	101.589223695425	-61.8447434207861	111.002926232203	-1.20703096667076	-47.0246876902639	
27948000	-0.814329768764114	-51.9782042364113	-60.3273900161962	33.2773487299157	-60.1897381428855	39.2524537477722	-0.884888991596595	-49.0158122547566	
28197500	-0.45246159421185	-51.6165991812514	-60.9835819552988	-35.9786118310647	-59.9275144908763	-31.6685188491407	-0.466382847239133	-49.3158189048647	
28447000	-0.306340577536221	-49.7804631126715	-59.7086696743432	-81.7972985377867	-60.1776896039772	-75.2806315330217	-0.281305618342397	-48.3044370210889	
28696500	-0.499660258739327	-48.2652163559334	-57.3886240935335	-127.176934776247	-59.8569322505823	-123.510979707017	-0.482100903091995	-47.2448748551261	
28946000	-0.903943153470977	-48.5281305283106	-58.7191416937486	177.135520310072	-57.7394820645573	165.281562460188	-0.945347068492798	-47.3298667129761	
29195500	-1.21898913949696	-50.9299552469815	-58.6321785157888	84.9842752473194	-58.3107255966848	89.3900536416315	-1.32027294562973	-48.7469211658054	
29445000	-1.17083778122967	-53.9817554090694	-57.9103598801874	-21.1749058546147	-57.3826699782264	-29.4394812534449	-1.19218808395536	-51.2812480178274	
29694500	-0.823446395149555	-55.25823261364	-59.6172579841913	-113.566593779483	-57.6648489587467	-108.525976440703	-0.854154943920506	-53.4702162996708	
29944000	-0.488538206118441	-54.2066575949431	-59.5717331764058	-177.559716362392	-60.7977998805216	171.278165617941	-0.566442295775737	-52.946443794524	
30193500	-0.426371419648128	-52.1276380176726	-61.4689666416311	125.872974790144	-62.0589555046106	124.025289421027	-0.50993864459327	-50.7751433613825	
30443000	-0.683785242694883	-50.8381174621918	-64.9909253935056	76.8355251834281	-66.7536309720493	105.77748370789	-0.741770918948483	-48.9373752583738	
30692500	-1.08415886887912	-51.6873861511697	-67.4313007314696	72.8479500900223	-68.0049426633316	29.8975247226811	-1.10366380646876	-48.9990399116526	
30942000	-1.30190076806928	-54.4435133196156	-76.7163250618735	-119.296616455976	-73.3626835312194	-43.625795564462	-1.31333423921407	-51.1688644551506	
31191500	-1.13017800652466	-57.0843654726291	-72.4830343154192	164.709516659038	-68.8115164980156	168.322245719442	-1.16248159131457	-53.9056665685204	
31441000	-0.737267497060002	-57.6031705277211	-63.4877462955627	112.970236029041	-62.4623152777844	108.179769883624	-0.762400037859781	-55.246407234275	
31690500	-0.458261138459871	-56.1052113979176	-59.5225929478167	64.6048451656454	-60.4655910530146	65.4052760585375	-0.443817464122562	-54.6123249837717	
31940000	-0.517406156404238	-54.131262244007	-58.5292712439976	23.4776201927019	-57.0441271117001	25.0968566616029	-0.476205478053532	-53.0424628130036	
32189500	-0.883542891504049	-53.5599054565237	-57.02855320369	-32.8725365316394	-56.9641783752892	-16.5565639190167	-0.833934985086364	-52.12456248812	
32439000	-1.31651990988819	-55.3222551453503	-56.1878962879339	-71.6036550035285	-56.5340939645945	-74.8590835898891	-1.2888110587841	-52.9328258059446	
32688500	-1.45736791054844	-58.6231982499734	-58.8598580836817	-112.954422148664	-56.1116537321243	-109.568391096346	-1.49146265233736	-55.3600387126568	
32938000	-1.18658140789109	-60.961472349905	-58.5974421120463	-164.311699713905	-57.3592759485129	-157.963889680196	-1.26967830281187	-57.5292014892278	
33187500	-0.772499805623821	-60.7640143107906	-59.156389116889	136.403985682528	-58.7636759579104	151.360258785695	-0.826762783265162	-57.9340163921687	
33437000	-0.552099475688576	-58.6776068168221	-60.3477552438643	93.7516795455218	-59.2387414387139	84.6189960276126	-0.523140553157588	-56.6346698161999	
