!Keysight Technologies N9923A: A.12.45
!Date: Saturday, 02 August 2025 18:39:32
!Timezone: (UTC+08:00) Kuala Lumpur, Singapore
!Model: N9923A
!Serial: MY61181427
!GPS Latitude: 
!GPS Longitude: 
!GPS TimeStamp: 0001-01-01 00:00:00Z
!GPS Seconds Since Last Read: 0
!CHECKSUM:0890794360
!Correction: S11(ON U)S21(ON U)S12(ON U)S22(ON U)
!S2P File: Measurements:S11,S21,S12,S22:
# Hz S DB R 50
2000000	-0.0573043360206014	-3.00494382894278	-60.8740623599662	-91.4816320265966	-60.1729707196341	-83.1452995799416	-0.0752002172311401	-2.92044651323984	
2249500	-0.24669740681537	-3.63101225326809	-68.6912154651789	-79.1693493337102	-66.4442113012635	-82.8955976865504	-0.25296379976261	-3.58690414958741	
2499000	-0.326739926963211	-4.84153251947976	-66.5606610470519	-97.1863581358168	-69.088813205898	-89.428852225192	-0.328980125479602	-4.75224969987954	
2748500	-0.232997439923598	-6.04303780361493	-66.154188693472	-81.160627663706	-68.7722521502426	-101.073482327868	-0.233059221276456	-5.89171981562788	
2998000	-0.0380361746543046	-6.55199562878503	-67.2200993521181	-106.949209511548	-68.7442977775697	-98.0807971196262	-0.048695720975724	-6.4131449443106	
3247500	0.0896224339381481	-6.46491912911648	-62.3241844617789	-97.1516434255318	-62.599920972265	-108.007972453097	0.0695993894068449	-6.29219886351199	
3497000	0.0444775091470592	-6.27784340053469	-56.303459376696	-119.952310750839	-56.3252824606909	-121.323695600366	0.0309036477152416	-6.04827859835588	
3746500	-0.162196636263032	-6.037478711786	-52.5161817196269	150.025165256319	-52.3933874748256	149.970624049827	-0.142107958897643	-6.16147947500826	
3996000	-0.302569217726895	-7.0298891960034	-60.7883919241945	121.837542812512	-58.2221371405263	123.602815964441	-0.311007747607399	-7.06745174322523	
4245500	-0.330065926807801	-8.427086714525	-67.9838903685927	91.3939776352244	-64.2573492176004	95.0279992113492	-0.324375271633577	-8.29321703491341	
4495000	-0.190586434829664	-9.56480270140696	-67.6322660028488	166.997073918735	-68.8697407562176	162.069504451689	-0.186712311030347	-9.34027796115247	
4744500	-0.0381193916950425	-9.80593710433887	-54.423012095969	150.923787048656	-55.5459517155317	150.002863477446	-0.003085898327477	-9.62304966408801	
4994000	0.0847859665903834	-9.33267097039047	-54.2170119364734	96.3472545366734	-54.2271561162165	93.2772653312277	0.0796954361346485	-9.35575800164439	
5243500	0.00108230170444638	-9.19222576001758	-53.7777025490565	82.0574778357808	-53.5766477785909	79.0832846664015	-0.011191920415735	-9.17532154558522	
5493000	-0.20298648019456	-9.72097240502647	-51.2754870596764	73.8654959011201	-51.0922039790144	72.7553578458961	-0.203860941858495	-9.586155803483	
5742500	-0.380385305055719	-11.179097712347	-42.2176487840948	44.5592405656098	-42.0833059478061	46.216782706302	-0.399896491608985	-11.0503507476333	
5992000	-0.555404881102345	-13.0702816985879	-39.5856878282895	25.9895431640237	-39.4735342142624	26.3652721984037	-0.32760036028018	-11.9374807172692	
6241500	-0.2008731204627	-11.7839687596135	-42.7126103205974	-78.4862599193921	-42.6191176317057	-78.2838834555458	-0.13668979880687	-12.6174057063494	
6491000	0.0437272395440121	-12.3689597199035	-46.588489733109	-93.3001050050922	-47.0214721119315	-94.714061349018	0.0322080049462054	-12.7607571293333	
6740500	0.0852228369259434	-12.237667552977	-47.3287289158225	-102.217032687468	-47.1550030692039	-103.928873677064	0.0610278103166617	-12.5204437255846	
6990000	-0.0586941224692665	-12.3325668644993	-45.7419685279742	-110.548025495229	-45.7623577169655	-111.469428554263	-0.0776978716756637	-12.5164957797775	
7239500	-0.290900635998803	-13.3338185821757	-41.10723069362	-125.577412050864	-41.0649549642712	-124.915097431605	-0.29668949650244	-13.3710391929749	
7489000	-0.482449065154931	-14.1581544265801	-38.363220134446	137.526201045901	-38.3445683221859	138.437060689657	-0.457651750767862	-13.8095134587932	
7738500	-0.574919734924359	-15.9051124801448	-36.4026696096277	172.506441211486	-36.3602974104255	172.897005982604	-0.354154611807778	-15.7895003752995	
7988000	-0.18883353026888	-14.9660979843088	-35.8878521159507	101.845392301772	-35.8933587106849	102.298882184743	-0.164409770455804	-16.2518850800571	
8237500	0.0409450615077906	-15.3521866832173	-35.6635843905892	72.599868796351	-35.6796341651029	72.3448491217713	-0.0816195324588284	-16.5617017283494	
8487000	-0.0434933327015041	-15.3901451238111	-32.0200479751163	17.3543174226577	-32.038405649188	17.262025659043	-0.385165969699124	-15.1958702444239	
8736500	-0.217874308124069	-14.784135063377	-37.4673518542432	-57.0807942260077	-37.4441142526797	-57.3607163065216	-0.215946080183889	-13.7898507215247	
8986000	-0.378357137155094	-15.7048494767963	-44.2096457168151	-85.0575629811437	-43.9746591393231	-84.5444803440274	-0.319818840495377	-15.4539392877625	
9235500	-0.424746445733418	-17.2584692419654	-50.482473737708	-100.419635570528	-49.9601555332707	-99.8102988502698	-0.362746746127023	-17.3343896621417	
9485000	-0.313201026305017	-18.5674647972313	-56.435419149157	-28.8705500200499	-57.1879163543157	-36.0771131413162	-0.24693194109933	-18.9912638666755	
9734500	-0.132602921784448	-18.5643563579359	-42.1707129457865	-36.9557839331431	-42.0417694074186	-36.9986307952251	-0.124745899788146	-19.9067426578465	
9984000	0.0571924700032431	-18.1399188852544	-38.6827952098388	-92.9601504183763	-38.5348043972933	-92.3117806203615	-0.12254129205589	-19.624732140933	
10233500	-0.00322080359059262	-18.1056127500124	-37.2573329364423	-130.070445800421	-37.1176563881907	-129.705247954298	-0.325854651173087	-19.3528618608353	
10483000	-0.235044366160279	-18.6300314187231	-35.0454338617803	-170.067014305065	-35.0088471524066	-169.716497169043	-0.744500904583169	-18.6604397861183	
10732500	-0.437137153202105	-19.7873749773053	-34.392227755413	139.02411959461	-34.3036560232267	138.850268145522	-0.811001886449617	-17.4201973074237	
10982000	-0.442110810274864	-21.3841959693838	-35.7863883147958	94.4189777454844	-35.721203351453	94.4570929885748	-0.535616236571979	-19.3633098781774	
11231500	-0.295441731838322	-22.8101541961769	-38.5849616895953	54.9043675723969	-38.7178530002616	54.5663667173521	-0.545997124827417	-21.8488444878452	
11481000	-0.28814237851122	-23.5162813441341	-36.6417714046948	69.7575498753402	-36.300542260561	68.4934509208423	-0.419812212050441	-19.3412452312094	
11730500	-0.496844958364608	-20.4468365662598	-31.8016036074765	-4.22281730028891	-31.7364717223621	-5.12536150895725	-0.189537512847086	-19.422367147731	
11980000	-0.281123690132219	-18.8948859065859	-36.140069253819	-70.5937222679761	-36.0321061372359	-72.71108717481	-0.307607259143281	-19.0326377964897	
12229500	-0.355249969360321	-19.9398452091823	-44.2282282353401	-107.239342883896	-44.4563595969311	-108.219623603029	-0.486012237756606	-18.7987515579374	
12479000	-0.436240255112813	-21.8339535220524	-46.5680951026379	-88.5877172862914	-46.0760309814791	-85.728688913894	-0.48884356519329	-20.1563871036302	
12728500	-0.364405280566805	-23.7688171158321	-44.66712158719	-99.9711697550831	-44.6023869702856	-99.9668481407474	-0.3634521113616	-21.9840853883776	
12978000	-0.176809541816907	-24.9440403073643	-42.5372540239041	-115.573354814596	-42.592758156473	-116.121195858253	-0.148979508206089	-23.1664894971048	
13227500	-0.0627033119739514	-25.0922188804696	-39.2235070916365	-141.998539823255	-39.2344799099401	-142.192440375411	0.0135668809732099	-23.5167080924995	
13477000	-0.144833635194706	-24.1358675812305	-36.2348407569588	169.183454173289	-36.2625140730736	168.75690068953	-0.0380336380334756	-23.2003692607974	
13726500	-0.231853428631459	-23.7112776417597	-37.9582684113888	118.447212888588	-37.9372327500562	118.288854615471	-0.190977801903917	-22.7801945159956	
13976000	-0.419282684952009	-25.0038897854087	-39.836198598916	89.034083766653	-39.733298129329	88.8184505015368	-0.361639135416893	-23.5553643278511	
14225500	-0.534439385901727	-27.0678329688061	-40.3191092495744	65.8888881961622	-40.2040722144796	65.7441859462955	-0.425704363639306	-25.2146385243088	
14475000	-0.529310472385255	-28.8819754479131	-38.8069593293657	42.4711697109076	-38.8627509727498	42.5498117154542	-0.326259673953087	-26.8798799799766	
14724500	-0.515861628739313	-29.1554067883148	-35.9741756814616	6.48267361987109	-35.9780739798006	6.18469221762339	-0.179405499652717	-27.9189760544006	
14974000	-0.476217778810149	-27.0489925085024	-33.3542503057547	-59.605399301819	-33.2527369536045	-60.0280702190433	-0.26849163182964	-27.4700592830085	
15223500	-0.481770646531903	-25.3967203622729	-41.1376156020251	-152.721939435915	-41.0882867546954	-152.497079103744	-0.172156003208748	-25.0481878145019	
15473000	-0.493592421298332	-24.6676365975119	-52.3751230503019	-94.8970383099545	-52.2289305483476	-90.320378887502	-0.216683236064779	-25.9947433015048	
15722500	-0.537820546639262	-26.0181391962014	-44.3266358046098	-98.740576709024	-44.449911218036	-99.6615929236179	-0.408559108447327	-27.8774530274574	
15972000	-0.49312144842439	-28.1900865751686	-39.405463265707	-134.087153522004	-39.4451894669079	-133.633768979851	-0.564868102477687	-30.3937055423832	
16221500	-0.334204306590273	-29.7727289079242	-35.1006618778197	166.480532793833	-35.0533243788503	166.185311662427	-0.779273899437824	-30.8216731020192	
16471000	-0.0878559582554098	-30.1931098192315	-35.3222166495235	101.99645554461	-35.2967011535103	101.980614191147	-0.441574078555024	-28.7105227387751	
16720500	-0.0108057334443233	-30.4044856083246	-35.0769802384239	54.4793704850572	-35.1160771625498	54.5050389431499	-0.199308124244331	-28.3277555703328	
16970000	-0.353193376752088	-30.2471570112925	-32.9069714973493	-11.4501776720912	-32.9445108026576	-11.7498796481518	-0.292609541853688	-27.6657661614275	
17219500	-0.495680165609502	-29.2371742641811	-36.7661565694419	-89.7062530038253	-36.7445194075605	-89.3536953467913	-0.33392304538274	-27.8582541082448	
17469000	-0.599238174240011	-31.4053215291757	-40.3865342924003	-132.029323965527	-40.408290557611	-132.445608051564	-0.436770957591251	-29.6564213780589	
17718500	-0.774871175590583	-33.3193075264291	-40.1701377628397	172.207045661703	-40.2323639966053	172.238354079153	-0.40818917299943	-31.5209784185355	
17968000	-0.522668500959995	-33.3867120022169	-43.1193711200355	92.5194220978799	-43.1315390403476	92.8538057418976	-0.207207313602099	-32.7079714478657	
18217500	-0.481508023754735	-32.698442123642	-45.3445414603897	11.1177479429448	-44.971800938478	11.0389387431662	-0.0192683054280757	-33.0282053169108	
18467000	-0.241717043142142	-30.7338336986441	-48.2416865645118	-66.4537248955174	-47.782164760576	-65.081048401708	0.015766452401952	-32.7571680174223	
18716500	-0.237177152589484	-30.893128683756	-48.9795803417282	-108.775577033452	-48.6804400213037	-110.716467252326	-0.130464237201398	-32.8282428146177	
18966000	-0.414262520358042	-32.1188455577351	-47.7414992583499	-137.10995921996	-47.9602894454641	-138.03555205089	-0.365226531451637	-33.763470636713	
19215500	-0.519877679821102	-34.1572501975441	-45.3757768946977	-161.965111216868	-45.225314653108	-162.839163729144	-0.504474146656742	-35.5617425831687	
19465000	-0.44800294932811	-36.0527229206139	-42.0891085950793	165.581917620904	-42.3496693692353	162.897741231921	-0.477382943895237	-37.3163491604469	
19714500	-0.246361905242392	-36.8878366504018	-39.5598070228857	121.805320925017	-39.8010473441421	121.619906512686	-0.313170613523022	-38.0402498142183	
19964000	-0.0873377511208886	-36.8298349113784	-39.043186114653	83.0475736235595	-39.0957496333759	83.542996904221	-0.15639091951822	-38.0182236971068	
20213500	-0.150057653606814	-36.7313368750489	-38.6045970744046	52.3290744211167	-38.5546383212899	53.2913573304443	-0.206322733690329	-38.1995464181659	
20463000	-0.431039906938467	-37.3303557246322	-37.0879806307369	26.3613949151006	-37.1453436484651	25.7045715031024	-0.503365560314156	-39.2781775052851	
20712500	-0.791506179647926	-38.910230209559	-34.4163938114784	-5.46409210352254	-34.3902758186873	-6.01534146739782	-0.979409265274149	-41.6815301136396	
20962000	-1.06251323210745	-40.7659910969715	-30.8681869199219	-49.8937550609463	-30.9179152615464	-49.7702370215369	-1.7198253701148	-44.0489824884861	
21211500	-1.11917047408626	-41.5391731355316	-28.6783202291615	-115.62712869511	-28.7397085809941	-115.485019012553	-2.41467649137107	-38.6813530011392	
21461000	-1.08121380558926	-40.4367667098186	-31.2221276078707	171.795342779773	-31.322314767107	171.634547121228	-1.21351018505564	-32.1655623269054	
21710500	-0.991930743101612	-37.7682206951968	-37.110106180857	121.25681088809	-37.2104239837806	121.367308049658	-0.314673003782354	-33.6245884152443	
21960000	-0.970016542339915	-35.1235319625697	-43.2448074398615	100.872813083089	-43.3310853858145	102.183570850871	-0.166230967733276	-35.6870148580028	
22209500	-0.9435852874242	-34.1298507671566	-45.4585727103971	101.017446345992	-45.5835151791407	100.939690824053	-0.374228232896764	-38.1341427003237	
22459000	-0.90611164563222	-35.4151940146227	-44.2085892160005	85.0736247393642	-44.4538506517706	86.2383895294191	-0.719844459771836	-41.5874889897845	
22708500	-0.76672102983909	-37.6151276894638	-42.7275210729169	56.5857032795938	-42.9215990002709	57.5015607701597	-1.19811159827337	-45.4315350590861	
22958000	-0.493839074465439	-39.308804369603	-42.2506095122696	16.9288759558868	-42.1820508923532	17.5985611339258	-2.01519826646167	-44.6883496763399	
23207500	-0.221583289080775	-39.8720058687822	-45.9781820039238	-2.37200341612514	-46.1130539322104	-1.21453237575135	-1.59540103340392	-36.2536964241602	
23457000	-0.138508671932183	-39.6556550068325	-40.7728949806251	-24.4958788655422	-40.8160054927444	-24.2021553819879	-0.96758321723895	-34.9623957574243	
23706500	-0.272851018328241	-39.577817496433	-40.9717537154341	-69.4376476286907	-41.0121871459522	-69.2632519833629	-0.699675083155002	-33.9718435336835	
23956000	-0.509964795656339	-40.4790855688046	-41.4578406357462	-100.511914918644	-41.4459401757605	-100.012641487367	-0.644180682072632	-35.1437133910635	
24205500	-0.672224888178981	-42.3763702834642	-41.3623415656509	-126.621906841026	-41.4181222888669	-127.779569810625	-0.656690615813654	-37.5319698348159	
24455000	-0.634458054270697	-44.3494645651537	-40.7328648468734	-156.511057850301	-40.4989756512825	-155.988086865164	-0.55603201525538	-40.2779721322263	
24704500	-0.43694891571673	-45.3997264411027	-39.3182027937307	170.343422644326	-39.3043418914221	170.823208077666	-0.377485070675364	-42.277411129293	
24954000	-0.271969552113982	-45.3585916382591	-37.8172442981294	118.724175375898	-37.6531718387303	119.130156913859	-0.490519798617379	-43.1008754284806	
25203500	-0.339674299811004	-45.0688892804596	-44.5188988264726	45.0314253884245	-44.7468279652515	46.2838694955965	-0.485257653889411	-38.8925981017814	
25453000	-0.645494241361533	-45.0474798971904	-54.5279767137544	94.2750529251102	-54.4534249169999	97.7140239393801	-0.321772038515558	-39.0387834972311	
25702500	-1.03538438488878	-45.8191251037075	-48.4652699346263	100.208227430915	-47.8934893573891	97.5008684683702	-0.459240136519996	-40.4548398878604	
25952000	-1.26354587663933	-46.8750327802454	-45.1424062676603	75.5380574568143	-45.0190810976769	73.4460525527383	-0.526134899770965	-42.4843133580541	
26201500	-1.13896225626878	-47.3949503494526	-43.3876864842104	46.0676492890254	-43.396599459973	46.7793960271097	-0.404848105849527	-44.4067322406778	
26451000	-0.817045410079008	-47.4048688532139	-42.8235968629845	17.0846433904304	-42.9715412807488	18.392030667207	-0.168784015936712	-45.4126059885218	
26700500	-0.633542871225638	-47.1069040103508	-42.6601569581095	-5.71996355929278	-42.7629295280527	-6.66321033467613	-0.00480360853415386	-45.420690025037	
26950000	-0.815065466213333	-46.5154687191401	-42.2375416418012	-30.632476977546	-42.2127172877777	-30.1307396982354	-0.0397841226266401	-45.1424919872077	
27199500	-1.22295692712246	-45.6258640546407	-41.7143266565142	-58.9558493526349	-41.627703711501	-58.2163933587598	-0.237310053730226	-45.3972732613239	
27449000	-1.48670717661868	-44.8427633541833	-41.9984122488711	-84.1724551439286	-41.6630871770464	-87.5309399075516	-0.4364709415013	-46.7157481763037	
27698500	-1.34368417510921	-45.250138689459	-42.143588660814	-112.388318195333	-42.0910482058526	-111.671866026017	-0.481100962505101	-48.6759724212565	
27948000	-0.924281489836115	-46.3531221064097	-42.4732827018975	-134.177546021221	-42.6699094012693	-134.728269671435	-0.330136639572989	-50.3421631649079	
28197500	-0.499574602803963	-46.9356192548379	-42.8779566363859	-152.101865731326	-42.8484244894472	-152.841702613606	-0.127302292810949	-51.0392175308158	
28447000	-0.286385916094433	-46.8567248218669	-42.4324146202412	-170.500239094536	-42.5812117527629	-170.776068738426	-0.0505137590918054	-50.9540834433221	
28696500	-0.36143861621254	-46.9493147067802	-41.2172004225321	174.25203827725	-41.1791708071638	173.009399883339	-0.208687473640072	-50.9749206295934	
28946000	-0.631344460459794	-47.9274148271059	-38.5003992342983	154.268115513861	-38.4207497840004	153.901122730907	-0.52868922767794	-51.8453558534771	
29195500	-0.927437667337658	-49.7212195758977	-34.889453992282	117.420304923145	-34.8603668377977	117.322117117256	-0.83531932220243	-53.2086061093732	
29445000	-0.968565927087469	-51.2030919368437	-32.8719297960094	69.4384331495914	-32.8115258022702	69.2042727722616	-0.847170321686608	-54.9557221627435	
29694500	-0.761026328861064	-52.2137314107296	-32.3681401972454	22.8400370526949	-32.3808520605433	22.1018831354012	-0.760586674884825	-56.528476276745	
29944000	-0.60251268508209	-51.9017147785421	-32.8531812186299	-20.2681667646424	-32.9031850248142	-20.89897193994	-0.601188973529166	-55.811646482518	
30193500	-0.607869642029983	-50.3349013267796	-32.5087823359472	-60.3816809540449	-32.5119279323193	-60.6647055889645	-0.659476224948022	-56.3185373609917	
30443000	-0.711524407469067	-48.9197747630698	-32.3657244295627	-105.29587470207	-32.4897758664394	-105.592118242332	-1.13713368917536	-56.4679317067293	
30692500	-0.847970411881246	-49.07870058649	-33.0881253696821	-150.625034969349	-33.0710932876714	-150.716474613223	-1.85751120143653	-56.2509721947059	
30942000	-0.878293901060507	-50.7399330399521	-33.9681179145013	170.838950705327	-34.1123854656151	170.096622025963	-2.30099298258821	-55.7188298180834	
31191500	-0.703726547579053	-52.6713653400011	-35.2178315190895	125.561949441742	-35.1875091528536	126.073672713626	-2.35568433124179	-52.4629121790311	
31441000	-0.40019656929497	-53.8189877496111	-37.4625919748733	87.7700760702408	-37.6022193066012	87.5076591733728	-1.62239824942012	-50.2361730477864	
31690500	-0.180433319521035	-53.9299691804556	-39.6593316682746	56.851136930658	-39.6582654011031	56.7286673017058	-0.950704629896032	-49.6345768253503	
31940000	-0.198874454823241	-53.6689989372602	-41.7217396273895	29.864671685229	-41.6932204741013	30.2411345458605	-0.654211370788971	-49.5290658405824	
32189500	-0.420860901127028	-54.063535859574	-43.4033587691421	2.21487449628644	-43.4818116474847	2.84911755012533	-0.671726110708367	-50.1701735514314	
32439000	-0.689532023971894	-55.6189685159014	-45.1916863807513	-24.4820823546308	-45.1267716330619	-24.8712576596719	-0.809465591130248	-51.9132378950714	
32688500	-0.807546651375547	-57.9759457761034	-47.5328852215787	-53.7950155614537	-47.6007260493083	-53.0903247626811	-0.855466935417631	-54.693589220897	
32938000	-0.716709052992204	-59.9297384038353	-54.3089355909881	-91.9081886879449	-53.9536595846852	-97.8055803422444	-0.739604570929985	-57.541402806323	
33187500	-0.549489594272423	-60.5806786757345	-56.4190338998567	82.0781973013027	-56.0794670615857	81.0338680148467	-0.627370550902881	-59.5980096426351	
33437000	-0.54066497438565	-60.0035657209779	-42.8015565083653	19.03629632287	-42.730175442116	19.7300829123113	-0.85451658805582	-60.1934933727908	
