!Keysight Technologies N9923A: A.12.45
!Date: Saturday, 02 August 2025 18:59:51
!Timezone: (UTC+08:00) Kuala Lumpur, Singapore
!Model: N9923A
!Serial: MY61181427
!GPS Latitude: 
!GPS Longitude: 
!GPS TimeStamp: 0001-01-01 00:00:00Z
!GPS Seconds Since Last Read: 0
!CHECKSUM:1877178756
!Correction: S11(ON U)S21(ON U)S12(ON U)S22(ON U)
!S2P File: Measurements:S11,S21,S12,S22:
# Hz S DB R 50
2000000	-0.0670508011387582	-2.99006745891819	-67.6392884360156	-95.9690355551379	-67.7009207290459	-85.9668039885208	-0.0931177906913107	-2.98125351344796	
2249500	-0.294568899514276	-3.70681489340008	-69.0501814520527	-82.1126102498375	-72.6929999087154	-103.642203681966	-0.312764845203225	-3.68684399115233	
2499000	-0.395972424158466	-5.09601545871525	-69.5791265236269	-82.3796356968757	-71.2255191595404	-99.2801500330159	-0.400603724386531	-5.02851402698516	
2748500	-0.28022051430629	-6.44421297612783	-68.4739501853089	-122.084358577241	-69.8307295171341	-112.995519279267	-0.284773394789393	-6.30469570068656	
2998000	-0.0451045021900472	-6.98670303778948	-67.8162221449821	-73.4477232224764	-69.0521862120907	-91.9565861668156	-0.0572374122607887	-6.81756696512985	
3247500	0.104357594387995	-6.76919802657096	-60.9465132707839	-110.754976903347	-60.9740539118707	-108.467334340973	0.0899364273338288	-6.56376546102755	
3497000	0.0067434321204702	-6.41711818307248	-50.023192342462	-154.126864545366	-49.7173853558732	-153.319657120237	0.0404403356707404	-6.13911003216249	
3746500	-0.15664376935016	-6.01124926198721	-55.0972310769533	114.554316701548	-54.6301254517497	114.53266745818	-0.164429631456918	-6.13086087365168	
3996000	-0.353861037563495	-7.14758772538946	-58.9819371756383	101.219189703932	-58.1914431153622	104.976780415653	-0.372425405021424	-7.10671560947772	
4245500	-0.395082242791186	-8.76318337646329	-59.6768671387088	87.7596677767138	-62.4432875558247	78.6799498402387	-0.393247433843733	-8.51716510249269	
4495000	-0.243113628521931	-10.0602944081694	-61.1810537029813	117.289863874272	-60.5986705760769	127.574594227613	-0.224188234740366	-9.69812087240459	
4744500	-0.0369861448112568	-9.87975246498276	-49.8551659096263	97.0452498262993	-49.8283759623629	94.7815880490811	-0.00421618124082765	-9.92541656701731	
4994000	0.104959730058498	-9.50355835327257	-47.1083966165554	62.8190001374249	-47.5907657563824	64.2708937243414	0.0918530991986857	-9.60266770622772	
5243500	-0.0269501961670247	-9.28340480729593	-41.7053300892585	40.0350296921456	-41.6463863143678	39.1779078881489	-0.0643573006603344	-9.4548566386451	
5493000	-0.355188151304566	-9.03984055694119	-34.3215008837157	-33.7933666925487	-34.4466264775021	-37.008241842313	-0.430604495275283	-8.85415848951854	
5742500	-0.426214436360439	-10.237054832807	-37.8446703281116	-96.0489856659707	-38.0870854482261	-96.6789963309134	-0.455253801869097	-10.0566843724398	
5992000	-0.397489203963593	-12.08261135166	-37.2661023546633	-125.701076077856	-37.413607937115	-126.855426160332	-0.466881229199045	-12.1131068708467	
6241500	-0.245418233856901	-12.7395927671269	-34.8842669656959	170.818710388017	-35.0757406305689	169.946342998052	-0.438895421431858	-11.9936056062545	
6491000	0.0470903323871662	-12.516729104517	-40.2058102336873	114.62915640254	-40.3822635574676	114.652358578524	-0.0282516625066897	-11.2498427676498	
6740500	0.107209294977054	-12.0938840809338	-44.1671809723077	93.8635271752259	-44.2727626557452	93.8806030839987	0.0777378802405412	-11.0617285822576	
6990000	-0.0593325005108317	-11.9696559892153	-45.7698192448652	80.4733278079591	-46.0129212172731	80.474920658212	-0.0616164834738854	-11.0282308471804	
7239500	-0.326412685516654	-12.8261005096646	-45.1080848890085	66.1671786274028	-45.5557035376013	65.6413651026507	-0.299050658880467	-11.8601741929575	
7489000	-0.534116286148238	-14.6070205447654	-42.1878862392987	31.7632491288751	-42.370409029684	30.9969348506114	-0.46715479359672	-13.6319379114141	
7738500	-0.563485094961779	-15.1592296568718	-42.9800904240598	-14.9286189648144	-43.0681198209975	-17.473428163918	-0.343209261186292	-15.029522548494	
7988000	-0.167625160582443	-15.2893252854613	-51.6266350520927	-39.8729955933673	-53.2207273021224	-33.4177143769984	-0.158652338566876	-16.4809340274023	
8237500	0.0587586527347543	-15.2648301661414	-42.6563518999242	-26.9484676184637	-42.3047873774946	-32.1962807776401	-0.293019532359695	-13.9999643197274	
8487000	0.0447212187533169	-14.8277152577547	-45.0973465952721	-77.9046800026658	-44.9379057132069	-78.3925952932597	0.00694706207485133	-13.4442574390776	
8736500	-0.173616341633086	-14.8793464382723	-46.1951696919109	-96.3806057113962	-45.769328366037	-97.7628270757814	-0.149508108691352	-13.8016750987886	
8986000	-0.431544451732226	-15.9309336901181	-45.3002455100738	-117.182424388731	-45.2090122729392	-115.198229694287	-0.369202727415434	-14.9918578120828	
9235500	-0.526136095203938	-17.6146540931034	-43.7341831844426	-140.32596785571	-43.490198737686	-142.745282825556	-0.438642626898352	-16.7994664855334	
9485000	-0.397504963513801	-18.7838644274345	-42.1831094548556	-174.997965893108	-41.9852881038199	-178.701517493649	-0.300563443242204	-18.2869781874953	
9734500	-0.121664382421167	-18.8118582513883	-41.9866640697472	147.154317508857	-42.0263096138298	143.843392278668	-0.0621553110034603	-18.6844238636257	
9984000	0.0546323411077155	-18.3909488718708	-42.4645069634333	116.811543708421	-42.7624810005898	114.636136698441	0.0706098997500782	-18.3006794089035	
10233500	-0.0204050501450189	-18.2084667721905	-42.2494422712635	93.0339133966378	-42.340744050585	91.5124428504882	-0.0141777381597244	-17.9501542316813	
10483000	-0.296194211997986	-19.0476112038681	-40.3159767805654	67.7019895334258	-40.2083118509639	66.1108580317691	-0.265249423676032	-18.3990342887808	
10732500	-0.690691187630336	-21.0543758706995	-35.9097065458517	24.7510620090668	-35.9676151798188	20.4582425967015	-0.538531355300935	-19.7771691438085	
10982000	-0.902125337335295	-21.1035067056402	-36.2132079543069	-42.4825335937763	-35.9936222190188	-42.1473919109762	-0.520935965397764	-21.0460075207101	
11231500	-0.470762483456861	-20.901106210022	-37.8400448314174	-97.4535917249378	-37.3944333125763	-101.011396990947	-0.301215794219764	-22.3170224546566	
11481000	-0.14990917257067	-21.1700574334857	-40.7207145704148	-146.035214688701	-40.5498459653955	-152.754786845173	-0.0713841695914811	-22.4955231746983	
11730500	-0.00153860509323749	-20.4313010544832	-45.267536513196	-146.178633891278	-45.6095631166699	-150.528645252558	-0.0149632345227896	-22.3823849655253	
11980000	-0.145644711425953	-20.127244538426	-43.509189477527	124.626220772371	-44.0623313816484	119.811889116938	-0.166319768546181	-21.6566821053405	
12229500	-0.357560663241064	-21.0294962917391	-64.0869061204073	80.2926919193583	-65.2817382108236	74.1044972639639	-0.461477821180506	-23.3480096000049	
12479000	-0.51777233351663	-23.0601443876717	-47.4772291923902	-142.5410844364	-46.6730385010397	-148.876056140147	-0.916351220085221	-25.9384804889676	
12728500	-0.467573794623688	-25.2028894790591	-37.4229356832639	157.953036288063	-37.2138101989643	147.735058249501	-1.40148246826003	-24.5965663871733	
12978000	-0.268635166140639	-26.2125864494063	-34.3400281870432	87.0736944009298	-34.9369434937008	79.9226555311202	-0.654201777752864	-22.2970170831319	
13227500	-0.141743004398096	-25.9850305778938	-33.3020047847571	33.8661157429031	-33.7731462704408	28.5342920557009	-0.230517561076201	-22.9487770160338	
13477000	-0.21098466259129	-24.6811044670577	-32.7034530705456	-20.3807956178188	-33.3672423663	-26.42028793082	-0.200826165032081	-22.2421674500751	
13726500	-0.379745382883558	-24.2609129261819	-33.8164398012244	-68.5840219084848	-34.5853463170703	-72.1988516838712	-0.298788296126254	-21.8301332814014	
13976000	-0.68818970607203	-25.7388432517148	-34.3787943259653	-105.513122831217	-34.9459012861396	-108.141506709606	-0.477425334760193	-22.9659556093191	
14225500	-1.04463834287394	-27.6808796242035	-33.4535242518941	-145.143834029752	-33.8999747476548	-147.562357482556	-0.564083705597904	-25.0261497438611	
14475000	-1.05894116133093	-26.3530831135538	-33.5240485448242	159.918565608612	-33.8925986497792	157.518716184406	-0.44697486019778	-26.6792406445992	
14724500	-0.422252146782176	-25.5578341438352	-36.2155688462083	113.088653943108	-36.4344222144814	110.696066834125	-0.178078319954377	-27.4525909758694	
14974000	-0.0582050371187309	-25.5960100593892	-37.8989056242694	77.0985584376964	-37.9884406093486	73.0872284059555	-0.0653117082211606	-27.5420043380664	
15223500	-0.05894782702589	-25.3805834903061	-39.0688141627298	15.1917955893333	-39.8257083935534	8.29532798327646	-0.374857748167736	-25.8379582552683	
15473000	-0.249692239171474	-25.8008086484275	-55.2533377722113	-11.1747952909984	-56.5108815395892	-11.6646825831576	-0.316635351849878	-24.911491475441	
15722500	-0.470856996525	-27.5019376066918	-50.5864579155552	53.0896819307632	-51.5195402981099	50.2067374586037	-0.476646896081497	-26.8033834080839	
15972000	-0.509677349455526	-29.8687139579933	-45.4839670524647	37.3974949561302	-45.5745889381185	34.7059757815424	-0.522411196479486	-29.2033751083784	
16221500	-0.355620961928094	-31.716229366612	-40.3834464758327	11.9650931069994	-40.296752765468	6.27851212422365	-0.409745687256202	-31.0298840371552	
16471000	-0.198055791171166	-32.0353616364946	-35.4089361720595	-35.8099229026126	-35.5942155466265	-43.3409635804361	-0.29419440209941	-30.8577694311106	
16720500	-0.134185025510996	-31.1968105781499	-33.523126007959	-94.1345805416129	-34.0231759071499	-100.698560389576	-0.124611955472585	-29.4687094338747	
16970000	-0.373364838585437	-30.9890973324862	-32.9065973992709	-141.433170449672	-33.2021157957124	-147.119091104193	-0.190655798296111	-29.1711050248174	
17219500	-0.888982766516981	-30.6793336559422	-31.4703641115323	169.951034286659	-32.0081569714577	162.528340377001	-0.473333397756112	-29.7119336937929	
17469000	-1.01757785753926	-30.1170763509358	-31.5300202723138	112.916192182194	-32.3988701355827	107.653655473133	-0.64939600513566	-31.2048060204079	
17718500	-0.797199841410585	-32.5809530843581	-33.6183531883659	64.6329303862988	-34.2513031542144	62.1607667108317	-0.588430374571252	-33.6521195675304	
17968000	-0.721263209100811	-33.5236703204391	-37.00170461258	35.196624643697	-37.0431102114322	33.1570093795156	-0.428515861697597	-35.9314781268512	
18217500	-0.370759141296641	-31.9798085101431	-35.2776229535263	25.1275735883923	-34.9544866042904	19.1965368341067	-0.583758052459694	-36.8980709811982	
18467000	-0.192113799998451	-31.1419088115754	-32.2547341444378	-19.7400151699388	-32.5510353486377	-30.9335332691283	-1.02868918016968	-32.3922441463448	
18716500	-0.289828331319973	-30.9708009368389	-33.1248811395191	-69.0448516172093	-34.1441556698108	-76.2831713824613	-0.783695154050978	-28.8191240891234	
18966000	-0.506278007952468	-32.2223072161156	-34.9508932109686	-99.5726264039626	-35.7020645671846	-104.657881267492	-0.753147413189474	-29.8643869373578	
19215500	-0.631926965059512	-34.6451060715805	-35.3188794325918	-121.419499728811	-35.8344224373856	-125.545397919942	-0.795301794746655	-32.404342272101	
19465000	-0.555293636492156	-37.1226653220909	-33.9837722402803	-143.252238876992	-34.3210834638715	-148.859028476285	-0.704889475994024	-34.9219354926211	
19714500	-0.414970143060324	-38.4752175260138	-31.1520487257154	-173.229202983496	-31.5419668264395	179.122482924292	-0.549886220232698	-36.0060328714412	
19964000	-0.440652103767546	-37.4136162985462	-28.5219397863645	138.972889366542	-29.4239247678721	130.608784288758	-0.424496766252314	-34.5578335089837	
20213500	-0.444290386261136	-35.6299277515008	-28.9871900679222	87.3434755619195	-30.0313275756305	80.2917358861964	-0.278808256798422	-33.1037717730761	
20463000	-0.698578603939053	-35.9695306035075	-30.2981771643486	47.7801492470169	-31.3690714169475	41.2113096207893	-0.399998739925071	-33.2343070267495	
20712500	-1.16462979186871	-37.3363198732375	-30.9410945181778	12.9084810486089	-32.3426689569052	5.83273089933967	-0.62445143139983	-34.4982380745322	
20962000	-1.42478679235116	-37.8214701969069	-31.669737113512	-25.1698094761697	-33.3362422105491	-29.744328933962	-0.679308281570068	-36.5676205871607	
21211500	-1.12385772082283	-37.762995187112	-33.2520490752456	-60.8113571036942	-34.6127465952141	-62.8524582173209	-0.481839222229108	-38.4197135250449	
21461000	-0.683683762877466	-37.6956099706383	-34.7732266791952	-89.5601017370297	-36.0664421371046	-93.4176416897053	-0.195066355775341	-39.2848002519705	
21710500	-0.488219145812024	-36.6836936848873	-36.2583092227893	-111.110279979022	-37.681795736273	-114.077337458173	-0.0683557433243565	-39.3094740451572	
21960000	-0.401125860675605	-35.164323253654	-32.9841782799819	-134.732335682895	-34.1390269351462	-144.841631299404	-0.296497124254453	-38.5734096764822	
22209500	-0.597060656275019	-35.9661523486653	-33.6044002384472	178.213739338158	-36.4076728242076	169.843815475967	-0.54484682044917	-38.5458428730362	
22459000	-0.787992856685091	-37.7200656332577	-35.0166054020827	141.895980214903	-38.3699308355832	140.994977246492	-0.789719085441361	-40.0334030627179	
22708500	-0.746749286480991	-40.2139808006358	-36.5276253737725	108.242652887035	-39.4419945919215	115.372153262703	-0.823915068708646	-42.1980014358176	
22958000	-0.514367478176449	-42.1701145786019	-38.2115089750826	80.1346437464313	-40.4806851494506	90.9151396882996	-0.644966755650373	-43.7975632429315	
23207500	-0.337127047830482	-42.7038607110546	-39.7679738534915	74.8262223524773	-41.0502776783754	80.1856699586753	-0.478145096549039	-44.3461307708928	
23457000	-0.34375903711512	-41.6053130852429	-34.3432103377894	44.0630924829704	-36.4416861457538	48.3965908119387	-0.58577067081299	-43.2966659497881	
23706500	-0.619205723012426	-40.9485885698946	-33.1583791830859	-5.01353484173589	-35.1713471741464	1.31666371361797	-0.913435716248193	-41.9954549928752	
23956000	-1.01406420249076	-40.7516397515699	-32.7062965080602	-52.9230450893024	-34.843898865365	-47.4753975020369	-1.35032468754221	-41.0359374877251	
24205500	-1.17676438099452	-41.6246869065038	-33.1117922885568	-101.41837873588	-35.3544613668695	-94.4757175315365	-1.54689405968475	-40.8718498580923	
24455000	-1.02193981925419	-43.2850106104596	-34.0733462296509	-149.213088758191	-36.3267127919459	-140.729645971844	-1.35320341462206	-41.3693771604953	
24704500	-0.703696719449885	-44.1605718944788	-35.4702879035174	163.971009030172	-37.7474908988772	172.325749434554	-0.877212865600519	-41.4915280069479	
24954000	-0.449054731979686	-43.572176627062	-37.3848337540067	118.095328541525	-39.9768867908353	126.498970856961	-0.451622130548275	-41.2981914695241	
25203500	-0.421292804514232	-42.348085325686	-39.6735802682629	76.2421875220532	-42.6926518965208	87.1745572712738	-0.317439884744629	-40.7540638611251	
25453000	-0.606595406047832	-41.7052994855713	-41.5438129675955	39.6840299893644	-45.3149864124152	55.1430486171737	-0.455341270978039	-40.6409246555132	
25702500	-0.845676557917586	-42.558660331892	-43.4681074409525	2.97726589854735	-47.261135470184	25.1339493724791	-0.691368500661497	-41.7573325808073	
25952000	-0.910723410047091	-44.7349395834211	-45.1243162474737	-30.3827248264711	-48.3590496350119	-2.03831698726398	-0.787929138393365	-43.9920214208169	
26201500	-0.729351905824447	-46.9261749555819	-46.6748676735745	-65.8134361321787	-48.800580017824	-34.9916574654716	-0.64348087079567	-46.2185916113032	
26451000	-0.468330715967045	-47.862718865998	-47.8467105779507	-100.320887400656	-50.0646297705062	-68.708451030276	-0.355153700881678	-47.3072013176894	
26700500	-0.365533919379002	-47.2813199493209	-47.6106194883518	-140.394168310988	-50.0821579725425	-105.831440694395	-0.171473245585513	-47.2820584949591	
26950000	-0.516710389964715	-45.8316961742942	-46.5416347693495	175.384496520298	-49.4350229943796	-150.887809624631	-0.257517522513075	-46.998198462371	
27199500	-0.757438018801891	-45.0184467779799	-45.0586731675058	120.605571502832	-48.6890820533432	152.740278944279	-0.598735736583223	-47.5527373766752	
27449000	-0.923434209296275	-46.1600237547704	-43.2369792708562	69.2937614646141	-46.3717492102035	93.847867977736	-1.05579191052344	-49.3664540785499	
27698500	-0.892274502443648	-48.6836722311701	-39.906034136025	18.4351972749266	-42.8861374015949	31.7989626391424	-1.46341788219293	-50.8766875910233	
27948000	-0.655284108205929	-50.7464490612131	-36.8320339070302	-40.7075792265534	-40.2606376233472	-31.1071776341593	-1.4005105852345	-49.3858787600075	
28197500	-0.384524722005209	-51.3308216200045	-36.5466561135447	-101.176400352643	-39.7740466283107	-87.0193820393204	-0.802681519633543	-47.750856599709	
28447000	-0.338779655277694	-50.9542270890915	-37.7804309659326	-147.420373080227	-39.8749445926479	-132.324145393575	-0.375059628357736	-47.086055204317	
28696500	-0.642748619371344	-50.5055380061341	-38.3269773955759	176.876051277896	-39.7954356497671	-168.20038524323	-0.353856979110984	-47.0942221651708	
28946000	-1.15371088091319	-50.4793161366839	-38.5022284675942	144.761145800778	-39.3166138629095	158.959195746182	-0.595312131397594	-48.1584524845998	
29195500	-1.5303758609036	-50.9784304570332	-37.9395358230984	111.78819793915	-38.3198464345676	125.010524150435	-0.831066857229504	-50.0678804463195	
29445000	-1.47771672034969	-51.8574252383927	-38.1538704411311	75.5180920479619	-37.865819944424	86.730265015355	-0.801465718975165	-52.8853822345894	
29694500	-1.12386225820498	-52.2671132574262	-38.3375928715826	41.5610173462597	-37.8731830168925	49.2581643277504	-0.601986165940214	-54.9095964387638	
29944000	-0.805781104455541	-51.2872969228342	-39.0947557348568	7.51826528889509	-38.9358655624421	13.4778807952632	-0.435997440592991	-55.5347568890231	
30193500	-0.646923918015953	-49.3615841223304	-40.0211916270062	-24.2900138378828	-39.5548586538353	-17.9927679856022	-0.553401576899702	-55.0636211858523	
30443000	-0.685330532651923	-48.3230193429909	-41.2980794851469	-55.818554567263	-40.2291768284736	-49.2539147268505	-0.97456440505653	-54.3037805936216	
30692500	-0.849203334097523	-49.1973060072965	-42.7110544892088	-82.7400519945678	-41.0144382453281	-77.1438300605343	-1.45655805585791	-54.5164669930265	
30942000	-0.927031408392526	-51.6810239222486	-43.4822333140948	-105.948102485447	-41.5104467329939	-106.288719648686	-1.90249315555805	-55.4508957283407	
31191500	-0.769006266455664	-54.3340077674764	-43.8535312524997	-131.363962155501	-42.3271905059576	-139.178224931182	-1.97014080859	-55.5865854994172	
31441000	-0.470460757041052	-55.7412660144028	-44.3015037861839	-160.660648689318	-43.5445459532697	-176.326391921009	-1.6704892715937	-54.1646968767236	
31690500	-0.279787660493426	-55.7748737922507	-44.7134785670556	160.940883762542	-45.5985550486468	146.185945335707	-1.23724638424675	-51.6820429776637	
31940000	-0.399616381358776	-55.3017681659728	-48.3576277512067	121.691616620791	-49.4649015921847	115.44985170185	-0.974003512241879	-49.4474975236113	
32189500	-0.798262386166291	-55.2978110478752	-52.8853486959694	100.12089417695	-54.0105633377663	93.1396956101815	-0.960437124445232	-48.6514173598301	
32439000	-1.23012933505387	-56.3292605561244	-54.8530743757466	84.9314314284999	-58.2399719553127	71.3855234428681	-1.07978789454315	-49.68221788582	
32688500	-1.4008300724851	-58.0520579142568	-60.4377441213567	60.6725408414001	-65.7517782102989	42.6125489725564	-1.08078784291518	-52.1712197775896	
32938000	-1.22470631970897	-59.2873673277723	-65.0793201488001	56.2286754380359	-70.9641725831149	-174.283135110902	-0.842614192757133	-54.6116391941122	
33187500	-0.91404325629569	-59.0221739644094	-68.8114062476816	117.816855862285	-60.2154810080264	168.304477358278	-0.477564053845058	-55.8127377058206	
33437000	-0.742375946819699	-57.3662091996676	-57.5234285106248	125.88758347076	-53.4796695965536	128.667598283756	-0.239022912582179	-55.7157922646561	
