!Keysight Technologies N9923A: A.12.45
!Date: Saturday, 02 August 2025 19:11:17
!Timezone: (UTC+08:00) Kuala Lumpur, Singapore
!Model: N9923A
!Serial: MY61181427
!GPS Latitude: 
!GPS Longitude: 
!GPS TimeStamp: 0001-01-01 00:00:00Z
!GPS Seconds Since Last Read: 0
!CHECKSUM:1922865536
!Correction: S11(ON U)S21(ON U)S12(ON U)S22(ON U)
!S2P File: Measurements:S11,S21,S12,S22:
# Hz S DB R 50
2000000	-0.0663255057939561	-2.89952005001688	-80.1167300599364	-152.97475481535	-77.4893053787503	-136.023692284029	-0.0923746243845407	-2.90399256539111	
2249500	-0.317547066583658	-3.60319865050707	-71.803969638024	-106.184193788498	-70.6485629297252	-126.601273374684	-0.326918931970393	-3.56066221106955	
2499000	-0.43585710833834	-5.09207218867063	-54.5499619829002	-141.095747913408	-57.4145245192278	-132.10545089688	-0.442626005221666	-4.98688383049026	
2748500	-0.29732483992457	-6.47895681812289	-98.2352139486721	-89.1680292167137	-86.7238496247434	158.784316747346	-0.292483828776327	-6.14408283007721	
2998000	-0.0429166784058693	-7.04248972364643	-69.7341644324516	-112.038416712672	-66.3518000028903	-98.4793081646965	-0.0465081275045632	-6.608173801868	
3247500	0.0662313770905714	-6.77253233049637	-53.0583003512847	-154.839381187749	-53.031266882354	-161.896583432438	0.102269587456404	-6.2613477711535	
3497000	0.0785132385950124	-5.68871411764439	-53.0293731108338	100.333168522746	-52.3935356814859	97.2985318958265	0.0622323227583371	-5.70170808962086	
3746500	-0.144308530534688	-5.85102583819419	-54.5913005426684	75.0898960008091	-54.1204874310642	76.3241112266063	-0.175005002401758	-5.81514764212001	
3996000	-0.383379130397804	-6.98884787326443	-49.5851715110644	43.0631132896701	-49.8546285913262	40.4364726695668	-0.464300699119137	-6.91788935533709	
4245500	-0.454994879025789	-8.62782776895335	-45.7698842757263	-21.5600282814991	-45.8140139954105	-20.2841106671034	-0.545081718279782	-8.15222302874918	
4495000	-0.270719448915914	-9.53235934013861	-52.7817549057328	-96.8790686672597	-53.1208313632648	-92.9108174442359	-0.306614954940899	-8.53442295921975	
4744500	0.0305982255098352	-9.74857001805102	-54.300360443556	-89.0140579149649	-54.8304335542878	-98.3042123062067	-0.00446390640049132	-8.91966768521361	
4994000	0.143971358361325	-9.30350458187843	-53.0913310392699	-109.43349887097	-52.6668940062313	-108.393732485641	0.118864253493894	-8.57710214096867	
5243500	0.00180210581742349	-8.9603388229643	-48.4799724090769	-129.978374680899	-48.5742626673545	-128.77612019191	0.000958157170233447	-8.29042892482701	
5493000	-0.345814455002571	-8.89921237700194	-43.5169614670261	167.114881201177	-43.8190726004972	164.312048342494	-0.270182395917622	-8.59542281305107	
5742500	-0.455326329235021	-10.0560219517616	-48.3281174043752	108.182713923739	-48.2216306145533	108.920655804774	-0.432584765759084	-9.91791615029803	
5992000	-0.398722919273176	-11.9857052368583	-51.1907912161741	89.1522590914591	-50.8955797509518	90.1295681914809	-0.389365107846146	-11.6630522166761	
6241500	-0.137148105150585	-13.210335050042	-51.3958136441386	81.9068211957509	-51.2199247784835	78.8296208534907	-0.174384703483373	-12.7396913621491	
6491000	0.0708598739011293	-13.3405466370366	-48.9506915934953	70.1457813474049	-48.9218980702407	67.088044085729	0.0682168495180603	-12.8102823457052	
6740500	0.0381092354998127	-13.1364121906927	-43.7684076684478	45.0052277481252	-43.7710982504568	45.4283237315229	0.0999166073148142	-12.3705513290746	
6990000	-0.333819608648396	-11.3466953300624	-39.1519616508766	-28.4323138595949	-39.1594007075723	-28.9184131236576	-0.100341755186093	-12.0510573842909	
7239500	-0.388858590759234	-11.7629419396742	-43.3020253192863	-80.4169149943357	-43.6048589508666	-80.1777368506784	-0.345767287471522	-12.7961327333953	
7489000	-0.499275296717636	-13.8766979779143	-45.0977520054946	-117.915034538494	-45.2183931125188	-117.619411658691	-0.496342183152208	-14.5257807870702	
7738500	-0.367549478562654	-15.6999912047505	-46.4370558081377	-111.584481875574	-46.318555838671	-111.793711584388	-0.390308616122774	-16.3387019012224	
7988000	-0.100323221199936	-16.5981194850444	-42.5452049207617	-132.996357930686	-42.7486032603243	-132.929706753729	-0.210946586221899	-17.341827068573	
8237500	0.0585218313571214	-16.315955885759	-37.6935728562405	-178.859816559499	-37.815533119215	-175.916946318829	-0.243024836603037	-16.6508787141524	
8487000	0.010325112383829	-15.39944868509	-36.7093748856864	115.053017679578	-36.5342796926836	117.39877564948	-0.239419017693532	-13.7909500746764	
8736500	-0.225055078911392	-15.256638777303	-38.6983858758166	67.7240826150818	-38.3862468432805	68.930488147087	-0.287777094401818	-13.5541779587885	
8986000	-0.512313050694524	-16.2577142516173	-39.6469713650313	31.3015681625334	-39.3634199949003	31.9697531526093	-0.494893466222005	-14.7279338354745	
9235500	-0.608243446485005	-17.8794866637769	-39.8587530794337	-6.70896738839239	-39.6881777377211	-6.74670115244426	-0.552317685786647	-16.4156163501746	
9485000	-0.41940666610058	-19.1186460487362	-40.3926949006894	-45.2278380238334	-40.2872745240098	-46.1628421022737	-0.356380720442523	-17.7910049159014	
9734500	-0.138885110604703	-19.3812480228544	-40.862211158121	-79.3225367220814	-40.8411640713282	-80.5552141876936	-0.05937429117958	-18.212977571672	
9984000	-0.0331399209369811	-18.756154400732	-40.5891675618692	-115.413352139795	-40.562632750079	-115.488624486636	0.0905233591914062	-17.8121162819252	
10233500	-0.198650134269129	-17.596700263985	-40.2629432866749	-158.548631927152	-40.2362058469631	-158.765148268728	-0.0112348134898597	-17.3344864169809	
10483000	-0.419838494237322	-17.086620369855	-41.8787422888595	157.88961539499	-41.9089217357529	157.425572732288	-0.271728965347363	-17.5448994911671	
10732500	-0.559702120394977	-18.4874826575766	-44.4025952713151	125.142259183291	-44.4505968119747	124.597055249118	-0.479035060296351	-18.9705455989461	
10982000	-0.509070367015664	-20.6526259334751	-45.3866447099795	105.302677181759	-45.4831203096435	105.092312773526	-0.472199718106091	-20.9675601000565	
11231500	-0.249916271866522	-22.1866553672754	-45.0754137257657	85.8753372557718	-45.0348769292081	87.2739639097963	-0.258851066253238	-22.4242561567189	
11481000	0.00711880096169894	-22.5055324503792	-42.7981849045832	59.6390785163464	-42.9691586906356	60.2192409430443	-0.048916834558331	-22.7359974401473	
11730500	0.0533656879850759	-22.0716444399545	-43.9890056845636	38.7937607357536	-44.0300574215707	38.9827536664986	0.0113462102680782	-22.0621433588355	
11980000	-0.220954108776189	-22.1032334273096	-37.0081415873201	10.9040176494501	-37.1759912062846	12.0321633827947	-0.272960197744748	-22.133024617646	
12229500	-0.696898472786791	-22.0678306156819	-32.3973395954687	-53.1340031891426	-32.4180310212237	-52.2778365150494	-0.70757026305582	-21.8377770442796	
12479000	-0.847207920367425	-22.988320042318	-32.0173462831459	-120.04278364669	-32.0835250684021	-119.2366541251	-0.834204264156848	-22.9714851885093	
12728500	-0.743113532930322	-24.5787417998653	-32.3216342555155	-178.766307048426	-32.3294763345966	-178.109554022099	-0.821340454094147	-24.367357564704	
12978000	-0.407261539684368	-25.0184738615013	-33.3349461385694	123.375928158457	-33.3360958644099	124.253708938455	-0.499593163500465	-24.2820993699991	
13227500	-0.140330996960755	-24.6871157269583	-34.3177166849794	71.0720283028669	-34.3261850690592	71.4025234735677	-0.182456221593475	-23.8862013361637	
13477000	-0.169355218860271	-23.4180071050377	-35.2962120892665	9.03809596547282	-35.3490630293024	9.43338315421111	-0.177972808512597	-22.8271776493349	
13726500	-0.27207654903073	-22.7267572531964	-41.6723431336257	-57.916481176235	-41.4147869526796	-58.0983330827185	-0.269675688313711	-22.0139112977446	
13976000	-0.538322844568866	-24.362664401581	-48.4799226424022	-1.62259870730621	-48.5843607915257	-1.9980553810508	-0.453623235336966	-23.5441517783766	
14225500	-0.665247442908697	-26.1440405281217	-40.5678062498376	-57.5779733001809	-40.7575973910522	-57.3623739643237	-0.594602345756651	-25.5765065278158	
14475000	-0.471448299546117	-28.1626812824374	-40.4363813227818	-99.9335426033502	-40.6855769097819	-99.4917129279788	-0.437432236638126	-27.4026591594863	
14724500	-0.207711959680771	-29.1275758579537	-39.169250213766	-132.799875104624	-39.328232383648	-133.707373453433	-0.183659931709034	-28.3700189526163	
14974000	-0.137966210790527	-28.7672531973044	-35.953962497	-176.664319545156	-36.1391519192508	-176.856809632256	-0.149201301159109	-28.2321028590485	
15223500	-0.323473162442249	-27.5605537773784	-34.4003332031705	108.408695677878	-34.5337956903846	109.397746357324	-0.399235422090073	-25.8047562378282	
15473000	-0.767533535202132	-26.9995154755045	-40.6038625341455	35.6764656436736	-40.6651667327349	36.0331750465448	-0.403030876820869	-24.8780651310692	
15722500	-0.99730796583652	-26.4537367205836	-52.9474754689083	43.9138286034629	-53.2719466554826	43.987071447186	-0.547792175083496	-26.8754054048046	
15972000	-0.824623414929532	-28.1912385729605	-44.7962231802082	65.980897265428	-45.0625213007809	66.0617053275911	-0.592772411725031	-29.5917622981271	
16221500	-0.501668072257934	-30.1814618479681	-39.4480619188615	30.4647726139324	-39.6028020028933	29.8699936433676	-0.477914242854666	-31.5453284085092	
16471000	-0.22149813327061	-30.5936198610809	-36.1203520081246	-25.014628804289	-36.2629055948989	-25.3656527876424	-0.323429911161034	-31.1570493895914	
16720500	-0.0782644836023968	-29.7358416678749	-36.2266552126088	-79.1512059997933	-36.3595330783245	-79.4719171179426	-0.131369180362705	-29.904359317524	
16970000	-0.206378865908275	-29.37444138124	-36.711568781083	-119.121619618433	-36.7606302532397	-118.899738430708	-0.233317705144739	-29.7093538995528	
17219500	-0.539799499342047	-30.2498105782617	-35.7953888084405	-156.202919154931	-35.8591907140748	-156.116042975598	-0.590388733534583	-30.6011710104347	
17469000	-0.868601525664739	-32.1656023044775	-33.9357255403882	155.851884692451	-34.1843101500398	155.825361024705	-0.937499788315703	-32.1758456578694	
17718500	-0.870519866705405	-33.5740962286806	-34.5555335699093	89.6637729229919	-34.9127252489163	90.9325904363849	-0.972791477858777	-34.062912969618	
17968000	-0.533194217081352	-34.707515510406	-41.2924405170335	53.7440062582855	-41.5580768214601	57.0994286423111	-0.989130881866144	-33.8519985779907	
18217500	-0.35742416398356	-34.7356313980304	-39.302829237886	49.2361445610137	-39.2927114568571	50.6345917209829	-0.5067559877331	-31.4384852301486	
18467000	-0.474576531376436	-33.1147748122187	-37.3314877195415	9.77140899302612	-37.239115169501	10.2218170389436	-0.237287296385236	-30.5385771817325	
18716500	-0.704451370329756	-31.0286759711086	-36.6970384042263	-34.1398371028051	-36.6645685682545	-34.4697191864981	-0.333904248083271	-30.3894911941868	
18966000	-0.868582689152809	-30.9041008255681	-37.0063650008104	-73.7238690111007	-36.8823090002408	-74.6353678711763	-0.58799131259704	-31.4471681706087	
19215500	-0.887398661613117	-32.9863253661203	-36.964715005051	-110.04071876837	-36.920304949074	-111.291166907011	-0.748680080744533	-33.7358673975186	
19465000	-0.706042283969817	-35.33821397882	-36.2227621245443	-147.971517274968	-36.3384023311846	-150.022813393359	-0.699707836498624	-35.8562207663641	
19714500	-0.403959210824188	-36.2615243026124	-35.7878001304287	168.271534179832	-36.0493669905329	166.557159446341	-0.468792307811923	-36.2571702223299	
19964000	-0.17691455726609	-35.6909267951221	-36.4161790186198	124.700419878931	-36.8103624694288	123.941610985947	-0.208683255217704	-35.269280021272	
20213500	-0.209657674775897	-34.9374953253042	-37.3132830625187	88.4956356628368	-37.6074541711142	87.8283429477194	-0.156004881234479	-34.4104492090747	
20463000	-0.507500152266425	-35.0909931258842	-37.5700897169848	55.3328152447131	-37.8834160544788	55.1859681676622	-0.367633737005515	-34.5328594777456	
20712500	-0.873062409200885	-36.644642461935	-36.8287452585577	23.9538143062286	-37.1862366869969	22.8064358342791	-0.659787129436198	-36.0801739904118	
20962000	-1.05256376931811	-38.8568923876961	-35.454883273058	-12.8947382600337	-35.9093935149027	-12.91559567765	-0.800316454950231	-38.5626820228072	
21211500	-0.910228526542908	-40.0508812425394	-34.0103661907874	-53.9596337079751	-34.4586019019975	-55.1549442211695	-0.69850273528558	-40.4718423595728	
21461000	-0.573072771147051	-39.8674482836985	-32.9478657377778	-99.6001172761109	-33.4330324034353	-99.1836932196003	-0.498021178633931	-40.8322350785674	
21710500	-0.432202281948136	-38.9182789520277	-32.0399361684572	-146.485399747238	-32.499322645208	-145.582707606671	-0.457929274708918	-39.7956858668316	
21960000	-0.641488809920487	-37.3824742175781	-31.6226083945729	163.286825272061	-31.9855155942336	164.306292634938	-0.670378522841668	-37.9732348978671	
22209500	-0.923617041695562	-36.307275202666	-32.4928482248424	112.722782510623	-32.7585724482555	113.752737292522	-0.941897803847654	-36.8882693061512	
22459000	-1.06662525196096	-37.4105891822396	-34.0772891480612	68.8133280824078	-34.4953979583594	69.3466029289997	-1.12106384416936	-37.8262650139714	
22708500	-0.968495556079724	-39.7287415442595	-35.6785812257766	28.4822703209286	-36.1999795306933	29.6249239675413	-1.08240953389916	-39.6911601973011	
22958000	-0.651637226958443	-41.3308508972296	-37.9251843843019	-6.66140368566067	-38.4946969014292	-5.34315557086313	-0.752277536169651	-40.7389051496929	
23207500	-0.334855886841833	-41.5966656103692	-39.5954532409664	-17.9331988769386	-39.9860830669182	-17.4387120427091	-0.329580570689427	-41.0522730836303	
23457000	-0.289278818294027	-40.6367344554394	-36.7457057609111	-52.6098649212984	-37.4574536288417	-52.4600100284175	-0.236529312580033	-40.4234209643241	
23706500	-0.50533528601315	-39.9257708896565	-36.7814115572991	-94.3719676083846	-37.4865505929264	-92.0860641743489	-0.36581888573216	-39.7770778153496	
23956000	-0.884829725189651	-40.5653667680986	-36.8064560138639	-132.004268977697	-37.5022133130047	-128.112030064089	-0.650963769433265	-40.6071096721022	
24205500	-1.1607022521888	-42.2952632718473	-36.6239216031223	-171.288316222084	-37.2897585337265	-167.505316575906	-0.890121110506914	-42.87335765365	
24455000	-1.08378479916863	-43.9074718031308	-36.3619570388477	144.163583051048	-37.2241576637794	149.906884960648	-0.92326930833971	-45.2596838061481	
24704500	-0.709544493273304	-44.4494535130823	-36.6359598772938	93.7726377557668	-37.6010712865398	100.814874904193	-0.770613580715315	-45.7521159401848	
24954000	-0.400223291582702	-43.8550309911197	-38.1886468793276	39.3589301916575	-39.1308077644873	47.7705745861514	-0.59761722188051	-44.280799841775	
25203500	-0.38844424851682	-42.6026083847569	-40.8480096362925	-14.9922607928452	-42.1842681636804	-5.19156319580644	-0.519039676930195	-42.1480962588399	
25453000	-0.60921219071541	-41.8626968182891	-44.1685998903556	-68.6656061903253	-45.9590831085342	-55.7950722792147	-0.627784113798078	-41.1827725919789	
25702500	-0.896596586384591	-42.7158084061693	-47.7951137582129	-119.838511228629	-51.2717287634585	-108.27946898947	-0.839216086901289	-42.1208046466605	
25952000	-0.98171838856264	-44.9142329267005	-51.2842784374049	-173.748506059846	-56.3438632874092	-152.900453435639	-0.911903988422972	-44.5701417582952	
26201500	-0.75419277189681	-47.0576842376498	-54.1290890592429	132.052846041869	-60.1005659692075	145.21753120771	-0.738345422301983	-47.0349201135801	
26451000	-0.409764761342578	-47.8572669439154	-55.1094140967557	77.357142664424	-58.5185351890452	85.5257152442346	-0.433549959358476	-48.2681386804842	
26700500	-0.221016529477171	-47.384561474217	-53.8040718758321	38.3301388732805	-56.6513608221579	29.3848052552228	-0.275003062302134	-48.1271321304831	
26950000	-0.362459659803496	-46.6340511727685	-51.6034526290046	-1.74038870167777	-53.4893948009641	-5.69760427560019	-0.432452413737394	-47.5213178713541	
27199500	-0.771576877457252	-46.7423571894018	-49.0415341708974	-39.8408494542396	-49.8585533099365	-39.4092426400793	-0.863119612071924	-47.4022989113671	
27449000	-1.22654869753733	-48.0200003869582	-45.8744514000325	-85.1791971843406	-46.5902492269956	-86.5811645483328	-1.3239526290258	-48.2442113438941	
27698500	-1.39564724834047	-49.4820518835347	-43.7003706208769	-134.008095376525	-44.0076737789772	-136.684249970577	-1.46371120125795	-49.4145443141942	
27948000	-1.11171216770552	-49.8922380715705	-42.9978727685308	169.807442069655	-43.1168101001363	168.925644915164	-1.25391891872403	-50.5720076241424	
28197500	-0.648579984197762	-49.2347262096748	-44.2428831224688	121.969048365422	-44.0677273201844	121.900650398504	-0.975645705430984	-49.4089360454002	
28447000	-0.383839222553724	-48.0809995556028	-45.1306631173525	84.1587494485626	-45.2371375607702	82.9898627572405	-0.658844498961209	-47.2067597781595	
28696500	-0.471762589455197	-47.3967737681764	-46.0297417841758	49.8053633101257	-45.7254493744934	50.2337813600338	-0.6081563462633	-45.9443777382464	
28946000	-0.781298404091855	-48.0021532445395	-46.2276041519114	15.4949772113748	-46.3780697329314	14.4927015732024	-0.788297003161256	-46.2864952332142	
29195500	-1.04562886642062	-50.0589310506977	-46.1666545787813	-14.5438591245867	-46.658560887012	-17.5550210618443	-0.956133062786607	-48.2952597386993	
29445000	-1.01189745693108	-52.5103721324706	-46.0278421480827	-48.510793217762	-46.6696107553898	-49.462877546953	-0.891448536647159	-51.0363849225907	
29694500	-0.706697121640962	-53.7175372055747	-46.171506611096	-87.8686720118244	-46.3057026266283	-83.8613075313849	-0.59922279129888	-52.9107492063334	
29944000	-0.399109549310924	-53.4497199921891	-46.7560586891665	-123.597503681457	-47.085881332848	-124.14355323332	-0.30664358950076	-53.2363657049841	
30193500	-0.376813449624867	-52.3770531597112	-47.2305353275644	-158.117817766205	-47.4381851181564	-156.663179251115	-0.265986364156192	-52.63430905037	
30443000	-0.661777098342301	-51.6428733676615	-46.8731367879853	167.37533801932	-47.0276451811129	168.059102732835	-0.538378047377458	-52.3190241837156	
30692500	-1.07804357547709	-52.2397342298497	-47.0554305172344	127.890499598389	-47.1610959911414	127.615940029766	-0.977126119123589	-53.2556850994053	
30942000	-1.3202812985917	-53.992843529016	-48.0155802643702	78.937312890669	-47.8277121738704	82.5533292520123	-1.33079235640062	-54.8698394323372	
31191500	-1.18415618328862	-55.7005978054077	-47.4445168955979	48.0894418560185	-47.5695646667998	45.6261782384021	-1.21056287086182	-57.1609881770278	
31441000	-0.807793294560722	-56.1141448149942	-46.8398290528702	-6.1528163139284	-47.6373627783186	-7.36161965148846	-1.08357788125598	-57.9604951074964	
31690500	-0.507582828280255	-55.2685934430711	-47.8091860062904	-59.7676824196757	-49.2648045319881	-59.2988760415868	-0.944954338420065	-56.2209420081055	
31940000	-0.51154546801401	-54.2476093466154	-49.7653381266594	-99.9583802432227	-51.507790576934	-94.122469966761	-0.972037830753015	-53.5620803659813	
32189500	-0.834708610794821	-54.2462682464301	-49.4381757125536	-128.948908411105	-50.782371341111	-122.091732426899	-1.15454505020051	-51.7834978927949	
32439000	-1.23639689197032	-55.7117086835129	-48.8192139890959	-164.191816052264	-49.4543682643468	-158.614320644258	-1.35961524374244	-52.0163221826378	
32688500	-1.39994276504116	-58.0428178734191	-47.8751322551854	159.857226968299	-48.382036467996	162.983350969197	-1.37071084146096	-54.1042692414902	
32938000	-1.20030155456743	-59.6014086867427	-47.2397649446637	116.83696993324	-47.5786111020891	123.173763520324	-1.0969931588529	-56.3001214998995	
33187500	-0.842098655034248	-59.4387517785609	-46.688576603795	80.290253526445	-46.8513963061561	84.5931645817946	-0.685845259244259	-57.2067716985071	
33437000	-0.648692397079093	-57.896743977123	-46.3270659110897	45.5930185668314	-46.3729721256435	49.9683888326502	-0.425464816689006	-56.7418337924788	
