!Keysight Technologies N9923A: A.12.45
!Date: Saturday, 02 August 2025 20:06:03
!Timezone: (UTC+08:00) Kuala Lumpur, Singapore
!Model: N9923A
!Serial: MY61181427
!GPS Latitude: 
!GPS Longitude: 
!GPS TimeStamp: 0001-01-01 00:00:00Z
!GPS Seconds Since Last Read: 0
!CHECKSUM:0409242671
!Correction: S11(ON U)S21(ON U)S12(ON U)S22(ON U)
!S2P File: Measurements:S11,S21,S12,S22:
# Hz S DB R 50
2000000	-0.0659838975414935	-2.16539079660075	-62.6505808794957	79.7004451656152	-62.2016735165098	84.5795860282408	-0.0780359486791931	-1.5530116470812	
2249500	-0.384785791650639	-2.85363292557718	-60.9931855131431	38.8191937612145	-56.782941309449	46.2625146423355	-0.42448484694087	-2.43962339404844	
2499000	-0.535877709817878	-4.56904680432138	-62.7323863176381	-49.2688701396506	-64.1097220778243	-50.5946783612385	-0.54471131651495	-3.92091862008067	
2748500	-0.373988450097412	-6.36405479958907	-70.2541814255896	-76.2979069186927	-66.7293826072413	-76.2130330385009	-0.372020575019479	-6.00789406732176	
2998000	-0.0894742946102051	-6.94568756077635	-80.0184780256177	-69.0174349331276	-67.9584442596772	-118.587140406524	-0.0526791619330749	-6.88641704584227	
3247500	0.173247661464354	-6.2491138580871	-73.2329330049389	-93.175979540166	-66.9509622514414	-98.7364654753087	0.159681827577107	-6.5012079587276	
3497000	0.120549218772669	-5.63494805378108	-67.7037809547715	-105.417801788507	-64.4719664689253	-102.624987889893	0.105744580211436	-5.67341025230725	
3746500	-0.182816497020265	-5.70329264501844	-62.3680521599462	-115.28305053419	-61.9500372356447	-113.328089280429	-0.174272840570987	-5.42746975324625	
3996000	-0.512843928058251	-7.06495310354506	-52.5789077555928	-160.874275069851	-52.6884828620771	-164.404104557362	-0.494598250979011	-6.40716958098883	
4245500	-0.571275392555531	-8.73746665686778	-47.5166949285558	79.344376062544	-47.4890372303861	79.1702869143104	-0.586252569318312	-7.79446855372107	
4495000	-0.287468737896856	-10.1318752770257	-54.0208881364413	-19.7237530114174	-55.0957588451812	-18.6822814856034	-0.317818615751492	-8.64546789812129	
4744500	0.0560767197466949	-10.3319146396991	-64.2436591453739	-72.2304735674362	-65.7765352624586	-62.6590375550104	0.037045796213238	-8.96671363545498	
4994000	0.175987396853377	-9.57772339439497	-76.3320533286255	-107.604811312935	-77.0517832182491	144.609683183841	0.185306627692569	-8.47763604895345	
5243500	-0.0378175614475631	-8.2584271587716	-63.4795329531726	-8.68922197843529	-60.8837266440012	-20.092258010067	0.0366899383098503	-8.0622707425723	
5493000	-0.296021119148875	-8.37009745554611	-61.0257128161123	-74.2559720276486	-60.274005874912	-70.5620322538577	-0.290937760158368	-8.56584952510826	
5742500	-0.535017460015781	-10.1154931961158	-58.9000735171245	-106.016826767188	-59.0835146539773	-109.463611290969	-0.538686509128734	-10.3344002836964	
5992000	-0.49175117755294	-12.3555529791898	-53.3250726744563	-139.562259257518	-53.3994199511374	-143.171092869172	-0.523268638751155	-12.4833354766923	
6241500	-0.231878529104167	-13.6753376998018	-46.2119308143793	154.083660492431	-45.8696129075433	148.260712574388	-0.311463097942096	-13.1185161653509	
6491000	-0.0124642438929952	-13.1190850370547	-43.7447874954402	53.3616835466357	-43.800567536025	47.5872213556482	0.0204326586386508	-11.9945569508386	
6740500	0.120033402541224	-11.617603061814	-49.5039681263979	-31.4554725729238	-49.7225821220369	-34.0713207675986	0.143830261003714	-10.8497852617358	
6990000	-0.0673579454086618	-11.391632481967	-54.8553702252311	-74.047890210761	-54.8501169602982	-72.096383414729	-0.0460626092810617	-10.3723763363314	
7239500	-0.412656005398136	-12.4425433577608	-57.5770829046049	-94.7898747231808	-57.0358251809329	-89.4575292728724	-0.379058999196936	-11.2348860431459	
7489000	-0.605282376918207	-14.6894844953673	-56.7122863200495	-110.412036977371	-57.4033962313059	-112.281703107663	-0.559431034962849	-13.4301209100625	
7738500	-0.509509598666137	-16.8156571479558	-53.4409753127741	-145.759874864881	-53.905676404227	-143.32657311481	-0.443665024108757	-15.7555260043833	
7988000	-0.233442031533476	-16.8310678766809	-50.6029148958806	152.756150455921	-50.7519553686762	152.133947735878	-0.172736820392719	-16.8241089031521	
8237500	0.0900141905873046	-15.6260994923549	-51.9218318093406	74.6426706732423	-51.7815326719034	74.6274204873646	-0.052704651514858	-15.8453813892704	
8487000	0.0947325969422632	-14.6255681120802	-58.2036638072789	2.68163553543132	-57.6361674613066	5.0749381166453	-0.0237528725448602	-13.6354242939377	
8736500	-0.199073434250374	-14.4215431939384	-65.0717388315112	-53.9305525622844	-67.0574417385062	-61.4869039855041	-0.195202641981155	-13.176717176957	
8986000	-0.551278252956287	-15.6826138387221	-81.0746484108878	-136.617651448573	-84.521047702553	34.8173142848269	-0.478262172978085	-14.4129941271028	
9235500	-0.659476957132792	-17.9141745403721	-68.0002420109519	67.4790023798903	-65.035770388251	66.7233988108649	-0.569644545302652	-16.7754214739587	
9485000	-0.446642424829454	-19.6635669894756	-58.4819436432945	19.9532312947767	-60.3464960859316	17.2243963247889	-0.388441918753	-18.9496836860236	
9734500	-0.122791167194033	-19.8093655731395	-52.582800120688	-47.8004570715931	-52.4492623674849	-48.4847156098274	-0.17433098165298	-19.5451395917979	
9984000	0.0477303948065791	-18.6714951910187	-48.8439092185105	-135.446744607327	-49.2171820620277	-140.85734299752	-0.0581452850349294	-17.6136862821457	
10233500	-0.0602784089342755	-17.5579797513935	-50.1706841753669	152.466268936664	-50.3901795180342	147.91030639489	-0.0409189390890337	-16.4544304804272	
10483000	-0.375516490069639	-17.8563482173997	-51.2704396982369	101.010431890269	-51.8682615173004	96.8062532544877	-0.316026596386327	-16.8532868616678	
10732500	-0.676208100909283	-19.8055450697293	-50.9500866562925	45.6241470806913	-50.8700803221238	43.5774577505735	-0.606851974224412	-18.6488382215024	
10982000	-0.69078775892831	-22.0096543979854	-53.0644289013438	-30.5176128576667	-52.5471644184184	-32.4841732318563	-0.643778663460582	-20.9200722522273	
11231500	-0.383057958560449	-23.3580890395809	-65.5691304196423	-53.230871776417	-62.4821371638408	-53.9759469211271	-0.437935031814391	-22.1634144030168	
11481000	-0.103967176073632	-22.8903531022905	-65.8512398811565	-62.5742198949225	-62.1135459190537	-41.5816059255724	-0.147981147946478	-21.213696289404	
11730500	-0.0397227408281305	-21.0754151680882	-58.7946976369878	-79.032187865353	-58.9343491908319	-89.1638828736964	0.0301298927105175	-19.7306573486815	
11980000	-0.193844707627017	-19.8537944073297	-57.9525559727018	-122.653720978418	-58.8998116888545	-130.788705894544	-0.111164592726791	-19.028894446637	
12229500	-0.515081017053822	-20.5798721075292	-59.2754733870964	-165.763830544223	-59.8005519788726	-169.742754706324	-0.447989948578272	-19.8084194332125	
12479000	-0.738956297782513	-23.011343729094	-60.0546322318524	156.616357040034	-59.147330018451	140.149604445892	-0.696023925589686	-22.0462571575327	
12728500	-0.657939972784652	-25.6374906918445	-58.4314230493656	118.281466294413	-58.2261416652382	105.038213596903	-0.624635004149967	-24.5413294656638	
12978000	-0.391411479380349	-26.6459088046183	-58.3552788560671	50.224166661809	-57.3719695598693	42.920102756615	-0.364289592260787	-25.6094435140602	
13227500	-0.16804924975813	-25.3631334117191	-57.73365296667	-25.798822743164	-57.8529515932893	-36.5195667415193	-0.151624965355568	-24.5881950050344	
13477000	-0.11061133854082	-23.5455017676857	-58.8478928353647	-109.422360062299	-58.0809060317559	-110.446128673292	-0.122682307977905	-22.6547088336944	
13726500	-0.327329868981797	-23.0999726632859	-60.4486141328227	178.644739831652	-60.2159047018131	172.156524716072	-0.316988946726882	-21.6849631077861	
13976000	-0.666268605315672	-24.5273141768421	-64.1209607239952	109.064320377166	-62.1346480660727	112.156355427085	-0.611990658807961	-22.6230973411993	
14225500	-0.822520411510931	-27.219907631095	-60.9670494855785	59.1489610827812	-61.0372713480905	39.9565005219516	-0.732766080161993	-25.0092491160331	
14475000	-0.691391017058204	-29.2501497796762	-59.1581984275823	-19.0187562449463	-56.7144164749418	-22.7446183216287	-0.553345601768898	-27.2940065221046	
14724500	-0.39201665920281	-28.8737452666586	-54.4509089229539	-94.0470358676838	-52.14129349454	-94.5853067744034	-0.235072718787693	-28.1115305587078	
14974000	-0.0982373866089997	-27.0648321056918	-49.8235518739047	-157.048210700858	-47.2418956318526	-164.194131016886	-0.0736210590323039	-27.3292521575097	
15223500	-0.137088154867315	-26.0951162350133	-44.6223958428558	135.409470914168	-43.2927807283003	109.52406521033	-0.20406130090209	-25.9384982966059	
15473000	-0.531490642535296	-25.7270348392749	-43.7221974662437	46.4938805219394	-45.8066898476919	31.2844404946009	-0.57934721325725	-25.2583864394525	
15722500	-0.806289542521757	-27.4522987125714	-47.0333752828706	-16.7877996728452	-48.4433779943548	-17.5261832021431	-0.880402086303481	-25.9910072517659	
15972000	-0.855420104120375	-30.4737713413525	-49.3304254669378	-57.1367604167563	-50.4110227603414	-57.6953816973974	-0.862066859310671	-28.1058233454726	
16221500	-0.636397659621196	-32.3512221005986	-50.4314333747969	-98.451719765183	-50.7777691318877	-98.3248655949835	-0.538159168348233	-29.8723662613175	
16471000	-0.350686257732765	-31.7853126026438	-51.4363218228399	-144.925298692485	-51.8198835106	-144.684610131785	-0.15738631269858	-30.0952723062252	
16720500	-0.185195084904322	-29.7724119208378	-52.8952077927208	169.284969036686	-53.5733732763458	169.751455314772	-0.00787740669783982	-29.1666906927075	
16970000	-0.299602721761978	-28.4918880964966	-54.8688946574087	131.332083252764	-55.8423486957178	129.630165508925	-0.209872841891557	-28.2379852573729	
17219500	-0.633964059480594	-29.0233510250967	-58.3077547530851	91.2735897547594	-57.6168134699746	90.2214873877294	-0.631716796942337	-28.4060940713006	
17469000	-0.905246628346619	-31.3603256449067	-58.8363240890311	49.9381385760724	-59.1130767373143	54.3637027143217	-0.972898059145936	-29.9827402422977	
17718500	-0.864779846586802	-34.0219047113073	-57.4523289329934	19.9660392825748	-58.4944915031795	26.2269125064349	-0.947432633090374	-31.9793835423124	
17968000	-0.561765300910658	-34.9925289053263	-57.5795434840749	-17.6959651074789	-57.7866325303985	-22.3824222012677	-0.586071189867399	-32.953209166778	
18217500	-0.249015637610834	-33.8394587752433	-56.9275168643914	-58.9810434078148	-56.5897311304094	-67.8385461562321	-0.200705724581722	-32.4759379599133	
18467000	-0.159846324223647	-32.0389448129015	-55.2027727847042	-105.403824869616	-56.1770206465128	-109.301576108283	-0.0866638402810431	-31.2419592744746	
18716500	-0.389935626183129	-31.2699265221109	-54.1134481005054	-148.419035187322	-54.8389469167494	-151.451452458178	-0.305723767462021	-30.5179657164392	
18966000	-0.776651396902335	-32.4330497980702	-53.1590637281523	174.954745206062	-53.7244927993388	170.98275776594	-0.691943011183923	-31.2566345707182	
19215500	-1.01087457279963	-35.1930995508493	-51.7062078475947	132.10671882944	-51.9129323856257	132.89364441562	-0.92698992184082	-33.4952587344332	
19465000	-0.895844779371602	-37.5964135582433	-50.5630037051543	87.7433764272937	-50.4014979232192	82.371130118002	-0.838420970326671	-35.7363859517364	
19714500	-0.553433669006028	-37.9493864582481	-49.7021261697326	39.3485473113413	-49.7061635736267	34.8043602649848	-0.523441949864447	-36.367928208093	
19964000	-0.280248077481495	-36.5038016608222	-49.9599448470499	-9.9216020059877	-50.2482901050374	-16.4601377469378	-0.27220420661908	-35.185234626998	
20213500	-0.305130474887868	-34.8596625616523	-51.237324515978	-59.6896592291887	-50.898973999136	-63.8509037741434	-0.268952178268767	-33.4939647932781	
20463000	-0.62944843797092	-34.4463099119887	-52.5627404225857	-102.835391846682	-52.6287727931812	-103.733603057427	-0.532147223678505	-32.8141083869591	
20712500	-1.01482116355788	-35.9960585767359	-53.8810463516023	-139.588840548739	-53.8119486674178	-147.712041274637	-0.855422693525712	-34.0291668264038	
20962000	-1.14155076041336	-38.6780935407976	-54.7419037818828	178.563357715463	-55.5238436491673	176.471715985591	-0.954460520268013	-36.6267501037649	
21211500	-0.916511199318267	-40.3680069831347	-55.7347140614132	132.309436320711	-55.7736166645491	131.345389785778	-0.727189713492265	-38.7950946988931	
21461000	-0.532261702010156	-39.8259067587655	-56.1308911754163	95.9414065311119	-56.5369479174401	87.3129417771937	-0.383184006156376	-39.1563124247879	
21710500	-0.290764418205087	-37.9586571855653	-55.3437638077205	53.5476853278811	-56.620487028423	46.0642262313968	-0.221583404116237	-37.9256075141953	
21960000	-0.383479093064485	-36.476046423055	-55.6208911858508	7.35004806402974	-55.0603926214641	2.36826913503345	-0.380596209089498	-36.3154982379681	
22209500	-0.749405609796906	-36.6470523577083	-53.8490190105	-37.9302868118532	-53.943036187462	-43.9281375103904	-0.752276431343713	-35.807359268197	
22459000	-1.09294288520324	-38.8409132187094	-51.8268167163972	-81.5638042674345	-52.5556123073558	-83.9489887798362	-1.05382377306459	-37.2458642853965	
22708500	-1.11806521250261	-41.6051054046171	-51.1201269626324	-126.669564336615	-51.5623780661507	-132.486400615292	-1.0354963153207	-39.855567898583	
22958000	-0.792856803749651	-42.7977093871971	-50.6331045941971	-176.559800516944	-50.4464660571624	-178.335417954654	-0.698940145809614	-41.6117054148394	
23207500	-0.379113888212942	-41.9143374414458	-50.5195848457334	132.671452668357	-50.8005333129702	131.961320731331	-0.323466143852496	-41.5292393032571	
23457000	-0.214706163408601	-40.3147022657336	-51.3294800249201	91.5212795134858	-51.445093912656	87.1406247097596	-0.205583849909979	-40.1660590362738	
23706500	-0.44756581536593	-39.3987427092589	-52.3104396581089	49.457286942345	-52.6320072065197	45.7757426068524	-0.442681717232406	-38.9365805784463	
23956000	-0.890576592357757	-39.9761860927498	-53.119645972005	10.5011142777637	-53.5185374604391	0.863426154881323	-0.868228299254384	-39.103214484846	
24205500	-1.14859771061047	-42.1971548327353	-54.6978662720856	-36.7081252704052	-54.0400694692123	-46.4131384609818	-1.16405374088677	-40.9523407756336	
24455000	-1.00418577547041	-44.8009957047682	-55.5455856324381	-89.7877059776392	-56.5762603514498	-90.4868458286061	-1.0770004421623	-43.3502686886299	
24704500	-0.610261089729066	-45.7181285734317	-58.2909454168248	-144.456142646624	-59.414087860971	-145.380142530966	-0.679681731512453	-44.1956619411321	
24954000	-0.295988207942425	-44.5600227645908	-61.2765623942948	160.892430550371	-61.9474312689832	163.859865541174	-0.333343655282115	-43.5368888022849	
25203500	-0.279927424851242	-42.6821935008628	-61.8359764146088	114.625394710463	-63.6217989410563	104.386687568936	-0.284573960600126	-42.0498683319184	
25453000	-0.567164418339531	-41.8492295373205	-66.3479077936742	52.3076585509812	-67.9076591216182	65.0924521209318	-0.568618647496939	-41.1784441140386	
25702500	-0.970875048049498	-43.1539066662249	-67.5311696612439	21.7884982563437	-68.645921827145	11.574016371898	-0.990187237028873	-41.935078053898	
25952000	-1.13666049553763	-46.0927040100243	-69.2715579363545	6.6690853319212	-64.0708631361304	-5.39381871286782	-1.20689775794696	-44.2500150018881	
26201500	-0.920684800005751	-48.4896618525099	-61.7480285527995	-21.097980380902	-61.6092418822164	-23.9071569119082	-1.04560881847181	-46.4709650683619	
26451000	-0.522629499317832	-48.7194249188068	-59.5039859344536	-69.8175113502966	-60.8345318847278	-79.6775654509607	-0.661899731915861	-46.9968528956547	
26700500	-0.25776787148932	-47.1619790976792	-59.613577566143	-116.191593805328	-58.1261376050512	-113.990252675444	-0.382550742426792	-45.8476283776311	
26950000	-0.333600059491673	-45.4681978119198	-58.9165315441661	-174.969538958234	-59.2813612713859	-171.582861966089	-0.423730312341655	-44.3043548767205	
27199500	-0.683841321713528	-45.219892488253	-61.7607551586091	150.770292475902	-60.8421250237132	152.697899441383	-0.749828390107071	-43.8177536459681	
27449000	-1.05306075029004	-47.1445556354269	-66.4665251416074	102.360309041413	-62.0302864562349	116.998477846714	-1.12025710559204	-45.2494858370995	
27698500	-1.11029721615844	-50.2370882585677	-67.1296044079223	79.8549279697277	-66.9417610020849	61.9212318051946	-1.21674319140875	-47.884250670315	
27948000	-0.807432337261502	-52.1689530121851	-69.96881498244	18.4741671285398	-70.938010841803	-7.68880784739598	-0.948673888951516	-49.7889637194797	
28197500	-0.435390506018759	-51.7630256244094	-67.2122527459266	-109.536088653206	-68.7404434263249	-105.723103524096	-0.575119358458039	-49.6368625121794	
28447000	-0.290055183466431	-49.8437449996816	-65.7101666891749	175.128807132953	-63.2376696341934	157.919047960995	-0.387288798203828	-47.968074250166	
28696500	-0.489107539044903	-48.2742957273064	-63.0729880486886	99.2461063693959	-62.2807972257857	102.192057545041	-0.544549922175119	-46.2922993509321	
28946000	-0.905999437626331	-48.5273201919194	-62.1334005946378	35.6992747837825	-62.1861957226176	45.4851565391989	-0.92260991344937	-46.1606906279045	
29195500	-1.22815932779399	-51.0243638937097	-60.0351800579886	-1.10679450482394	-60.9802117328856	18.7240717239964	-1.24180683994199	-48.1294007214401	
29445000	-1.17410189771146	-54.1302796584475	-62.6941700707331	-59.6692656129085	-62.4114827136278	-50.4819870536722	-1.21498754588017	-51.0612190015425	
29694500	-0.817827705311069	-55.4244242811104	-62.5923732461153	-116.740669698345	-64.0428692050557	-104.512759240578	-0.867869277596757	-52.7865736243534	
29944000	-0.471754229719205	-54.3418371948757	-63.5812268092442	167.556661848911	-64.4162246543816	157.355579681348	-0.504133549602293	-52.3481475273106	
30193500	-0.410444621479378	-52.1832822981956	-64.129329334926	110.51834008855	-65.6636402372897	94.391060017684	-0.418887869763062	-50.5683746234551	
30443000	-0.676545277904796	-50.8131058496528	-63.7657505572748	30.7033147829798	-63.9693566491348	24.7295301683259	-0.674712179041929	-49.0812406226616	
30692500	-1.08810292136914	-51.6683094478529	-61.2791684211954	-17.5370709210713	-65.7209952120375	-25.2603459645945	-1.08620829966532	-49.318891605583	
30942000	-1.30987323398013	-54.4966689952185	-66.142247959253	-81.3509172447538	-63.9549189964301	-89.1882628737368	-1.33385631947152	-51.4895488372936	
31191500	-1.13074826723062	-57.2379732387892	-62.79228988198	-116.309497640915	-65.6226587216132	-106.577936766084	-1.19669261791175	-54.1095559048152	
31441000	-0.728229822883594	-57.8295029854867	-64.975410271318	-170.330883687597	-71.2533251056906	171.756606979264	-0.79268335749108	-55.1924871424029	
31690500	-0.447555645253524	-56.3166140300385	-92.3050100601982	160.280715182129	-76.4776028252476	-164.391343044942	-0.463433840259834	-54.2403244618156	
31940000	-0.504763448024225	-54.2746592001092	-73.0851981295641	-121.685717573993	-77.6537928006616	-159.497086093856	-0.480392961944205	-52.4339333754542	
32189500	-0.878132980909612	-53.6043296608334	-68.0327808290545	-148.087967625663	-69.2290896714176	-138.607546437482	-0.821128839128358	-51.3536153238823	
32439000	-1.31429888125336	-55.3442437227076	-66.3268966249483	152.669324183143	-64.3275152203765	148.187554153388	-1.2634011819368	-52.2144914947563	
32688500	-1.45654981966617	-58.667605598689	-65.75665777474	120.03132686617	-65.6758016432521	88.5636770814155	-1.44704064251622	-54.954827899464	
32938000	-1.18427744311048	-61.0421847700536	-66.0713142450843	40.6806049327518	-64.7926788710463	30.0397282932669	-1.21314665685191	-57.5430396029517	
33187500	-0.764822424373735	-60.8561773590239	-63.3465400454573	-14.9867999935583	-64.6190425916638	-6.47012130652401	-0.770701333212936	-58.2025158722734	
33437000	-0.544951442307916	-58.7723577501912	-66.4711176029749	-93.5166207411698	-67.342031338742	-80.8788725184076	-0.489248727889137	-56.9401531818436	
