!Keysight Technologies N9923A: A.12.45
!Date: Saturday, 02 August 2025 19:19:51
!Timezone: (UTC+08:00) Kuala Lumpur, Singapore
!Model: N9923A
!Serial: MY61181427
!GPS Latitude: 
!GPS Longitude: 
!GPS TimeStamp: 0001-01-01 00:00:00Z
!GPS Seconds Since Last Read: 0
!CHECKSUM:1167081686
!Correction: S11(ON U)S21(ON U)S12(ON U)S22(ON U)
!S2P File: Measurements:S11,S21,S12,S22:
# Hz S DB R 50
2000000	-0.0593527499712999	-2.72292427432904	-75.2487729525946	-32.6130325318929	-77.2746246268847	-126.964674782212	-0.0872012599746332	-2.64947165369834	
2249500	-0.322322759273222	-3.40578874731162	-68.0768683804722	-79.3114878415873	-71.0948138901261	-120.369189701511	-0.336822163701453	-3.23840363560224	
2499000	-0.442363164791219	-4.91112440526859	-64.145241712159	-116.019853069246	-64.3529037325352	-111.752859005405	-0.440017562443761	-4.63730428751315	
2748500	-0.318367501876306	-6.3980074836861	-50.8829364383617	-145.941235102812	-50.9766744802944	-147.409508639892	-0.331252485707711	-6.093480051763	
2998000	-0.035801405403957	-6.70133445800417	-46.4303994707796	89.0539284426326	-47.2913135905591	91.6264237378033	-0.0593658051688875	-6.18573759330114	
3247500	0.124230678964516	-6.3769923480531	-45.9487305122401	33.5834892845653	-46.1253245108983	34.0730725901493	0.0885216308452186	-5.9070566089977	
3497000	0.0972164935916973	-5.56487185589543	-50.6304714913016	-53.2516308626119	-50.6999307149692	-52.7980326605041	0.0655910987774625	-5.11732099737715	
3746500	-0.141857179763849	-5.67468239343157	-56.3162549184295	-68.9689340315253	-56.7482241873606	-74.3851070854048	-0.159705885275132	-5.31921044812259	
3996000	-0.400398528446742	-6.85974251156095	-52.1369854434323	-62.4867589239175	-51.9168614842443	-61.4407644872489	-0.475530177571429	-6.52528519081012	
4245500	-0.47279459206157	-8.67042245522637	-54.1411880561959	-132.060958387156	-53.1000394023222	-133.191386410588	-0.446658027023705	-7.92750629144672	
4495000	-0.258367629362302	-9.69474965369451	-60.4144058997922	-133.7335380635	-59.7174334684942	-131.213796986369	-0.23630927691627	-9.44192511049805	
4744500	0.0323786161653011	-10.0869908798343	-53.2341612636876	-118.769408325872	-52.7528111056859	-122.210859258513	0.0200359979144919	-9.86482722759576	
4994000	0.0953065853698608	-9.65837360945491	-42.4505757821287	-161.342838172132	-42.5084970263441	-160.624723296837	0.0956223195991056	-9.59560898923317	
5243500	0.0115964113507821	-8.61734069882287	-42.4942045352563	103.458703822207	-42.3075251535153	103.102695939792	-0.0208491127339579	-8.71216935106748	
5493000	-0.253987561946684	-9.23206946199614	-43.859035211163	71.5052352776458	-43.7516719079377	71.2777654232326	-0.279592173565313	-9.23509696117975	
5742500	-0.509957836454973	-10.8794993709632	-39.5459777942618	30.1281639970663	-39.5029361545677	30.2496210095695	-0.539578073022037	-10.7377160699044	
5992000	-0.46326752679888	-12.0700800416725	-40.6190043610332	-58.0229655934447	-40.6358084328544	-56.9965642666417	-0.467558508099242	-11.55531650564	
6241500	-0.17791688042692	-13.2409447300399	-45.283099622185	-91.8497384935641	-45.4200238049219	-93.1846837912663	-0.184962406572101	-12.7088931362207	
6491000	0.0781774592036762	-13.3059090784438	-45.8544226572977	-116.231510762155	-45.7518347535417	-117.866943826376	0.0797249853701466	-12.735514036076	
6740500	0.0371848354660569	-12.6537999693133	-42.8580720434119	-158.444061202705	-42.9329900945219	-157.91500388978	0.106248774254928	-12.1409342116602	
6990000	-0.158236086402384	-11.1746616103051	-43.7679560795084	125.660529812057	-43.7014971529809	126.012976691197	-0.086343732943912	-11.7432704492432	
7239500	-0.358131930948921	-11.9571213318435	-49.620647097297	73.3350142074528	-49.6302836446642	77.5634148717539	-0.408054131780639	-12.7179667318736	
7489000	-0.488341020096311	-13.9349068835365	-60.8389446372475	97.9862908881489	-59.2823994712699	90.3286070892733	-0.688316435772326	-13.3018793127506	
7738500	-0.377224805899193	-15.8828929064993	-49.2816663068332	57.1930801838603	-49.0549163027973	54.2631144481051	-0.425517276059936	-15.6790714726724	
7988000	-0.120797705350771	-16.7238328057992	-49.6495426362681	-15.7884866888712	-49.1195854240178	-16.559308089477	-0.371777905923399	-15.5944015385438	
8237500	0.0213779322163508	-16.2085836732678	-54.0029231246919	-50.2668585133115	-53.4947886747421	-47.4166719747567	0.00258956842919973	-14.5162876627833	
8487000	-0.0277295991232477	-14.9493873208267	-55.8011451091592	-82.3388667299533	-55.8073153398688	-81.4815152803811	0.0462567870737098	-14.0779302973672	
8736500	-0.235880344114214	-14.58694223277	-57.3067908738571	-112.250847060694	-57.4335026269632	-110.354558413179	-0.163812052911308	-14.2013411214094	
8986000	-0.489866218233085	-15.7078658996918	-60.5937025062661	-136.550333520146	-58.9080325832092	-141.326069253416	-0.419912394314603	-15.4508233494624	
9235500	-0.548135154011	-17.7121096043988	-61.5433902599108	-156.879938434576	-59.9584673657437	-159.157779954825	-0.487382443261882	-17.4662454482145	
9485000	-0.347040762226715	-19.3834376229326	-63.5946403452694	-157.62980096367	-62.8019941237007	-148.855060776073	-0.303594215771333	-19.1259816250382	
9734500	-0.0702255472638931	-19.8629227980201	-61.9914769262677	-161.842332374112	-62.089135539766	177.099077244661	-0.0275105312458754	-19.6464978038702	
9984000	0.0256266325091059	-19.2932469112516	-58.1465355901451	-170.493300044567	-59.3970887573309	-172.651552476428	0.0939067854197322	-19.222462619759	
10233500	-0.175422259647984	-18.1533228453313	-52.3482860982912	157.664325128255	-52.6056863597744	157.911330484812	-0.060828611791417	-18.8105183582763	
10483000	-0.420385994682194	-17.5029841814002	-48.0288014692307	103.404058023834	-48.0298412004896	105.136307683006	-0.447602823720753	-19.1229317118397	
10732500	-0.571466670606647	-19.0637746017184	-45.9523690565343	40.1188701402096	-45.8179505354522	39.8645858352947	-0.846440415229278	-19.9120473348152	
10982000	-0.554509494355901	-21.3238036476994	-46.8949842279248	-37.4823981873414	-46.680511320541	-35.8827538840828	-0.853549426364134	-20.3851032734823	
11231500	-0.300118958879854	-22.6663235484105	-62.6795968679084	-107.055868089641	-62.6491407568501	-107.921269526866	-0.539992728072133	-20.8161826631878	
11481000	-0.049894890996177	-22.7615067806029	-60.0331128111938	-65.1094039502354	-59.963867382034	-70.5969305684915	-0.130616436582089	-20.5171641391773	
11730500	-0.0467609363443533	-21.9851874662096	-60.5489337246792	-83.7999342466699	-61.8181487374563	-74.6960494844315	0.0145253841882056	-19.9188146673147	
11980000	-0.32336779345766	-20.8214409520324	-53.3207207241222	-121.007751825124	-53.7580761595012	-119.551397019821	-0.0972498263444263	-19.5425978164169	
12229500	-0.584459095966299	-20.6353735271485	-53.8455928480081	-168.275357260681	-53.8444231851074	-167.928350889709	-0.368190080394655	-20.3488556621561	
12479000	-0.682155494123906	-22.4146194366206	-54.7743694781365	145.350932618604	-55.4088325377056	146.830415850351	-0.552317305716905	-22.2965884391627	
12728500	-0.543835816612439	-24.7740550821866	-54.8730601600773	119.935188661527	-54.6079673765103	121.500565368636	-0.456165175828723	-24.4498223845852	
12978000	-0.258474161449923	-26.1607613536938	-54.0328051077428	91.8602451724575	-54.1899582333969	94.2065531215363	-0.1866378134246	-25.6414163327282	
13227500	-0.106208316389954	-26.1531886585279	-51.750107164324	59.5905947876001	-51.5223182195293	59.8669490809555	0.0252746512922793	-25.6090800188966	
13477000	-0.288751381567618	-24.7621094574187	-48.4404225382338	14.1833798499805	-48.5464820745227	14.486012350915	-0.0158649817385475	-25.0897460026205	
13726500	-0.517717964229194	-22.8301035406581	-47.7848173571451	-40.1287316921902	-47.6936125259512	-40.0274840184503	-0.333774241068496	-25.01759513759	
13976000	-0.662824958457582	-23.5213632762872	-47.8901252188782	-86.1357978031434	-48.4219446481809	-87.952926792315	-0.769463544456335	-26.0401055711025	
14225500	-0.694835691982628	-25.9749619633608	-48.6631850878092	-129.036614146434	-47.9816262361159	-130.008258142277	-1.06595574562096	-27.2217228086323	
14475000	-0.514549055828074	-28.2719981643896	-48.5983950172819	-172.175529098486	-48.6504701624147	-169.150501097006	-0.951864246963808	-27.2375971949421	
14724500	-0.261485881268595	-29.1314987806301	-48.5139752653189	146.321145529778	-48.4225305098996	146.833368968241	-0.505106994055072	-26.5588863419601	
14974000	-0.204802253549286	-28.2952451922694	-48.3427864631732	99.9128707790064	-48.2363390348028	99.8279310895364	-0.157161636749263	-25.6689086831508	
15223500	-0.360556366493273	-26.2088634231542	-49.0424146505264	48.0216730602775	-48.8433702332301	46.5264928430394	-0.120477902818462	-24.9451585630189	
15473000	-0.535525090262555	-25.3036793017972	-51.2733725434874	-4.08133246396898	-51.2946895609772	-6.9515591542373	-0.333914166646063	-25.1712703362309	
15722500	-0.693907743970238	-26.7624758976473	-57.2052110693022	-33.6897793548371	-55.4989270358472	-35.1234040593866	-0.594916062965071	-26.6842278082154	
15972000	-0.664940215580464	-29.4194561847013	-54.200265138323	-63.7315122312586	-54.2943269647822	-61.8177875861904	-0.601621276759137	-28.9467339777793	
16221500	-0.423951655955336	-31.4980912719544	-53.5118977634398	-107.151472246644	-53.4537947827187	-107.78958662621	-0.372000785975134	-30.762961087348	
16471000	-0.194079934539745	-32.1359468184796	-50.9535749230108	-147.128885223158	-50.6176359314095	-146.956665757943	-0.0927926617313909	-31.2122944817309	
16720500	-0.261354655128785	-31.1475420073626	-47.3589908118273	162.407128235277	-47.3154104591499	162.064819066774	-0.000685737371345901	-30.7175736441918	
16970000	-0.490978581869653	-28.8792612804915	-45.6411091035058	101.482390125203	-45.6543698143491	100.615827375114	-0.195906399673391	-30.3023196206634	
17219500	-0.655599632121928	-28.7406922312282	-45.5886096939627	44.7255087799207	-45.6188274526035	47.9972279123393	-0.580304987938334	-30.955656699904	
17469000	-0.809028747221507	-31.1177260137036	-44.940922100422	-2.7614248644105	-45.4232589097106	-0.697596284560757	-0.935385902269212	-32.7782070030665	
17718500	-0.83479393904252	-33.8402370822872	-46.7663313025298	-61.0708044724631	-46.5642399547467	-56.4740026518501	-1.06280607684686	-34.4716273027137	
17968000	-0.509408525297766	-34.6129318319631	-46.5895899423152	-51.013174853569	-46.3639607820242	-51.3677550145601	-0.884782314429021	-34.1957587909178	
18217500	-0.3236216393766	-34.7564822430823	-42.4248776402261	-106.299897298575	-42.2713672986492	-105.526991848336	-0.532798746856782	-32.5528276715842	
18467000	-0.439307907252154	-32.7230644390622	-41.0383887693637	-164.179190131501	-41.0386615416838	-162.786343861015	-0.337519810890828	-30.8598205692319	
18716500	-0.569819861469909	-30.6851916203937	-41.8986234667753	141.583472456399	-41.9609830617178	143.017752682933	-0.420798994684001	-30.1203387592769	
18966000	-0.724927517318987	-31.3949207257037	-43.1626127644717	99.9789091426934	-43.3073475215176	100.533993476041	-0.647453368932561	-30.9175815955712	
19215500	-0.807957230018324	-34.0473984955257	-43.5390681490008	63.3522346923328	-43.9917448729079	65.9827250442028	-0.75933903285933	-33.1484936011449	
19465000	-0.685603184592418	-36.6699812856997	-43.356242237725	29.7644569502835	-43.2003034625107	32.5596805469688	-0.613239902819502	-35.4561009118484	
19714500	-0.456298113245877	-37.5977477917848	-42.0199074266909	-10.8188544376616	-41.9396305746177	-6.29023007811026	-0.302571964931995	-36.5668701315008	
19964000	-0.320806252364186	-36.3665077071128	-41.3366951829386	-54.6366064512417	-40.896602431452	-51.169553139656	-0.0794410297526676	-36.2668063785846	
20213500	-0.36338215373865	-34.6500881145908	-41.3604194672777	-97.7547692743911	-40.9606833672958	-94.8789063737212	-0.113643183088158	-35.5734740280049	
20463000	-0.624167131965849	-34.2139667799263	-41.4007316624863	-135.152963329993	-40.9985839472841	-132.988170494744	-0.410602638380293	-35.6602404037612	
20712500	-0.944656286805111	-35.5927779683566	-40.8648050456584	-170.876976388322	-40.5341264106965	-167.59335614738	-0.78244449559415	-37.1511240284239	
20962000	-1.06426021375809	-37.9347110176238	-40.0737052992046	149.319276792994	-39.6486464706979	152.388068196254	-0.98228539389399	-39.5117619351404	
21211500	-0.858320972462658	-39.5184786419708	-39.621940394143	105.935603873534	-39.061261716429	108.451908432213	-0.912340391710796	-41.1173468084448	
21461000	-0.501379401454474	-39.5903029672333	-39.780085803683	61.0663187139827	-39.0228379347855	62.636789410199	-0.728670110053174	-40.7133714318127	
21710500	-0.32274833757403	-38.5603100262147	-40.37475775591	17.4547925436942	-39.7511634597704	17.4590304029179	-0.612132256391481	-38.4929945232762	
21960000	-0.461694523796199	-37.394723262787	-41.5284196895309	-24.6195273675027	-40.9591005326796	-25.5799244851399	-0.642210883483778	-36.1574146473382	
22209500	-0.802446451156359	-37.1257751557873	-43.2114132883288	-63.6561746881169	-42.645344099654	-66.0408141164331	-0.802910917972784	-35.5125232434755	
22459000	-1.05871501594695	-38.3711138497736	-44.9761250596566	-98.9194177124436	-44.2996882879466	-101.921191641196	-0.943300955940828	-36.9683861329999	
22708500	-1.00417517087285	-40.3421269610545	-47.0195152705464	-130.743123229581	-46.395800367659	-133.930185928835	-0.869368210892742	-39.4965325245451	
22958000	-0.659284052899241	-41.5850500556838	-49.254730883294	-150.795288408781	-48.3125346632863	-154.167886856756	-0.557199690383064	-41.3766384515513	
23207500	-0.295995730408231	-41.6670123157403	-46.8275759257284	-169.401953957551	-46.2568645240381	-171.579021603595	-0.230138941731729	-41.807102148291	
23457000	-0.246017292703639	-40.5516134775833	-46.007669343242	142.387017308149	-44.9327290878609	140.245535649556	-0.125040508942572	-41.1181303274776	
23706500	-0.464164254125694	-39.6730118020486	-46.9739076834694	107.104703774282	-46.5888421105403	99.703141352522	-0.314942034741084	-40.7311585157706	
23956000	-0.834440884091357	-40.239000087244	-47.8174278290167	76.6816710741903	-47.0821923105279	67.8633161479587	-0.68183232377532	-41.6166186505954	
24205500	-1.07764086900495	-42.217766356404	-47.6354952618162	43.6217356307796	-47.2610863407483	36.2192420353363	-0.967306124073433	-43.8780253425426	
24455000	-0.975423500707889	-44.3546694439209	-47.0228327448603	10.9806905313192	-46.8597644104387	2.33372899651581	-0.998734973186806	-46.3029137672787	
24704500	-0.624564124971888	-45.2426883707074	-46.3702587000241	-24.698501210995	-46.4132799396952	-27.9600455254514	-0.832053097306133	-46.9139942566763	
24954000	-0.340442129060945	-44.6296965884421	-45.3417365009671	-64.1239317404742	-46.028782131551	-67.8275280578387	-0.69408808265089	-45.5038625921509	
25203500	-0.349979561011688	-43.4151561361218	-45.5907582008745	-107.951057779694	-46.0426394397689	-108.815108972367	-0.69215470511905	-42.9746128301545	
25453000	-0.63994571686307	-42.7456223428002	-45.4103703679597	-145.831494958736	-46.2111332185678	-148.500108507289	-0.848784057106904	-41.281577767575	
25702500	-1.00966210134032	-43.5162619331246	-46.6383368643208	177.682300434356	-46.5893104465313	175.806780162878	-1.05953471746094	-41.6367911692193	
25952000	-1.13991251617182	-45.4791767062812	-47.0982923506709	139.740018649196	-47.4569916322242	138.850157275048	-1.09032716297289	-43.7312949939517	
26201500	-0.907051845340781	-47.2563465858114	-48.2685802376099	102.190859383789	-48.3777939739255	104.375831865432	-0.84944705200711	-46.0271445157581	
26451000	-0.518473025260401	-47.6659393498926	-48.8990317963483	71.3204574411996	-48.7662789264731	72.6671930041239	-0.461029830632302	-47.0289770852858	
26700500	-0.282030288151054	-46.7843783982561	-49.5351507607965	41.3317827554994	-50.0296240925742	43.2365145004207	-0.21483524406547	-46.6694915010055	
26950000	-0.385695012012246	-45.611208539183	-49.622846880483	8.25184967888917	-49.4356916017453	10.5632490730858	-0.276055766930063	-45.9109502683472	
27199500	-0.730301656120614	-45.3636950331964	-49.4758314440953	-26.014577967043	-49.0145916802399	-23.9562914273367	-0.598405278361745	-46.0402722183035	
27449000	-1.0678554361635	-46.6638584648553	-48.0904781531067	-63.2599523252693	-48.334129360681	-65.0799737315572	-0.968272730443466	-47.7194671813866	
27698500	-1.1033408197727	-48.9940987115784	-48.9676890633948	-105.135795287157	-47.8720895985145	-110.044297922309	-1.1165833429968	-50.1968695197417	
27948000	-0.798319827583359	-50.7326135328354	-49.3070221846183	-155.556605963396	-49.4341091499408	-156.537981243096	-0.952915198842579	-52.0681666892991	
28197500	-0.436642741282563	-50.8411125548336	-51.0151339128685	166.908687102265	-50.5809254018495	162.446512418364	-0.734297438450272	-52.0278538340029	
28447000	-0.296535019695323	-49.7723081370633	-49.9512283560822	128.430407433595	-50.0616970591494	127.599680817364	-0.665785887585929	-50.2076875820612	
28696500	-0.488416940754931	-48.801382716909	-49.8966865893296	90.1021481129965	-49.8184441016955	86.6726011615093	-0.824316864580031	-48.0908924447638	
28946000	-0.876893352132368	-48.9938703605793	-50.148124424564	45.2970952538007	-49.3092720578348	42.4149750532055	-1.08874495666035	-47.398932169265	
29195500	-1.16861951323296	-50.7387144368398	-49.2740648387512	4.00407704242844	-49.5022474573362	0.969912950540554	-1.26355537001133	-48.7290399097636	
29445000	-1.12059835544575	-52.9663034825598	-49.6752928081482	-34.5538087672476	-48.6852023672425	-39.5587794082336	-1.14800855958108	-51.1139449257904	
29694500	-0.785375934919154	-53.950625161591	-48.8007821699321	-76.9892366715359	-48.3705539684018	-83.2529979057496	-0.787790638151759	-52.7120132539509	
29944000	-0.441064849577263	-53.4225136223699	-49.0390307566645	-121.322746640963	-48.6231441900494	-123.494922137509	-0.429697822433731	-52.7179133702851	
30193500	-0.393425838104976	-52.0584162291032	-50.2495370192262	-160.847076827668	-49.6029821126302	-163.731955788981	-0.337805792486383	-51.8038665440423	
30443000	-0.651376095770453	-51.1200112305229	-50.419875098921	171.038489616821	-50.2961184640295	164.337953947518	-0.571698430415624	-51.140332599757	
30692500	-1.02488477120257	-51.7383893276285	-50.5942093513884	134.235014818073	-50.2282758464372	129.262794997487	-0.947052356786172	-51.9683459702017	
30942000	-1.21120797055285	-53.9300885391371	-50.0457362871621	100.087764496791	-49.803215553103	90.4793179450708	-1.21303474677017	-54.2328933456869	
31191500	-1.04318080697693	-56.2879973285277	-50.5517095557493	64.6732050809861	-49.9012103252221	57.0681859107578	-1.18291919081115	-56.6078771843415	
31441000	-0.684812187546582	-57.2135630985165	-49.51343553672	29.9264703229837	-49.6946556544776	22.6236041633684	-0.93482606508679	-57.3523413996479	
31690500	-0.450094792737762	-56.5271142074767	-48.6293337448517	-6.74665290698039	-49.2019608264621	-13.6649041363117	-0.721532247463591	-56.0964605322582	
31940000	-0.545868766701102	-55.2268887626261	-47.7617784369759	-45.6425307224885	-49.3029966671972	-52.0642270435178	-0.746903505293812	-53.9828276011369	
32189500	-0.924383177589841	-54.7192749362147	-46.9403785970592	-88.2105745922975	-48.7337999098699	-89.6339130456512	-0.979900115991559	-52.6468282521063	
32439000	-1.33650896147776	-55.8490086082875	-46.1382993702929	-125.620170048764	-47.6698472964985	-127.670758528219	-1.25986781194841	-53.2419338742326	
32688500	-1.47425194834882	-58.1053505589321	-46.0845542498794	-169.390806358044	-46.9409187714221	-169.138447251491	-1.32994338042687	-55.5595702419769	
32938000	-1.23760720879063	-59.7130393514074	-45.2801869486212	150.239386491482	-45.6717450503763	152.039258186229	-1.09127692041636	-57.8458975536832	
33187500	-0.834453125175756	-59.4244820819671	-44.3091185218265	106.215923994535	-44.6206039986206	111.724475136591	-0.70780877463831	-58.6139303921544	
33437000	-0.582296561370654	-57.8605497208282	-43.8714815616193	61.7919583577111	-43.8912354175111	62.7599777391455	-0.480256240724079	-57.8222807308745	
