!Keysight Technologies N9923A: A.12.45
!Date: Saturday, 02 August 2025 19:21:47
!Timezone: (UTC+08:00) Kuala Lumpur, Singapore
!Model: N9923A
!Serial: MY61181427
!GPS Latitude: 
!GPS Longitude: 
!GPS TimeStamp: 0001-01-01 00:00:00Z
!GPS Seconds Since Last Read: 0
!CHECKSUM:0836614919
!Correction: S11(ON U)S21(ON U)S12(ON U)S22(ON U)
!S2P File: Measurements:S11,S21,S12,S22:
# Hz S DB R 50
2000000	-0.0585923603778989	-2.69188507073285	-77.6601421621361	126.731730394787	-78.9646403236853	179.823398407737	-0.0847223992056539	-2.59284387663723	
2249500	-0.327605066713688	-3.36692145562948	-68.5042716862068	-90.7000484729427	-71.9692511767192	-123.18371650383	-0.335360846423354	-3.18013867715286	
2499000	-0.447487870805977	-4.87328063004221	-60.9940044035685	-125.148256497697	-63.3309476137044	-118.715055678777	-0.441988437638935	-4.59183792976144	
2748500	-0.333655030471856	-6.36103107187894	-47.7873959962653	-173.288727535479	-47.2658447612274	-173.017564241342	-0.359901344288519	-6.02300422425765	
2998000	-0.0404932816734252	-6.74182787783563	-47.608092206191	80.5857105149998	-47.3096918832171	81.025277302945	-0.0569346296089685	-6.20688615141247	
3247500	0.118713655200225	-6.26004192670295	-45.4203240896019	5.39528518671863	-45.6362871018972	4.49966881380487	0.082358706978627	-5.80204891400112	
3497000	0.101202401242933	-5.55122986241048	-52.786971186612	-62.8010515571003	-51.9907356576975	-64.4693485316341	0.0733934791371114	-5.18210595044412	
3746500	-0.143187526628934	-5.66788854143056	-56.1815556670667	-77.7376051428023	-56.0311968644462	-75.5132213734169	-0.16020077833707	-5.37758062322275	
3996000	-0.405432307471709	-6.91138394378844	-51.4205053070712	-81.6163073677892	-52.3648159047794	-86.1939266766193	-0.472701109067807	-6.55025837034236	
4245500	-0.49721019098352	-8.69559457588032	-53.7993091344715	-157.31066299365	-54.4243156564567	-159.201758825902	-0.443014738893777	-8.10168532121561	
4495000	-0.258267521353925	-9.79887615616045	-63.690109696948	-137.045889262338	-60.7817642377358	-131.747484660567	-0.236108181837999	-9.60260124814446	
4744500	0.0263538873459128	-10.1902240882231	-52.9358072350432	-125.463852352892	-52.5677352480143	-130.583358004369	0.0243382817375791	-10.0546808712629	
4994000	0.0781038019488922	-9.53848879405483	-41.6511672559576	174.005207389777	-41.445572744716	171.026316445037	0.0811637108027145	-9.59086623194055	
5243500	0.0222211259561235	-8.72466785962806	-43.8737772999417	91.5834309071178	-43.9663793210376	92.1402499899475	-0.00749336933614719	-8.90997536160538	
5493000	-0.259035262590115	-9.2692139653734	-43.8447675539788	63.7610619120375	-44.0421578393949	63.8688482151724	-0.284231068993333	-9.41242955514529	
5742500	-0.517266405137046	-10.8578385126205	-39.3804889582958	21.8213281186142	-39.232486665097	21.0035741175999	-0.567104752361658	-10.806149359286	
5992000	-0.463953170297658	-12.1599740061726	-39.8979544024665	-59.5301650509676	-39.8582637130275	-61.4923534200495	-0.482058633574009	-11.4749603338099	
6241500	-0.142331138733286	-13.3505501515725	-42.9992315035364	-96.6685045726002	-42.9310806348996	-96.2266709983972	-0.160083483534523	-12.6325688644823	
6491000	0.0573225365597398	-13.3126602936171	-42.0584904495077	-126.598024142145	-41.9112819847911	-127.508668101225	0.0688026375542969	-12.6898527812161	
6740500	0.0167047952461923	-12.1776756866136	-39.6036252439595	175.88308744212	-39.5192369579035	175.311923277269	0.0772248986690183	-11.9285183256555	
6990000	-0.102822566292352	-11.2061851371805	-42.4623661751917	114.588345503908	-42.3943490765323	112.687248452772	-0.0825917170675634	-11.4489870249999	
7239500	-0.357832162982498	-12.0758530818727	-44.9930594949125	76.7593149299877	-44.8778505692293	75.7320303561437	-0.377878144499211	-12.4485424971394	
7489000	-0.503644231251668	-14.0073078982503	-50.8807721890457	15.1932156703109	-51.0953864649473	12.9302922467322	-0.6308789278759	-13.3310100449873	
7738500	-0.40040413688502	-16.0665899613472	-46.3538686144339	54.6320783023575	-46.080616905014	52.4179751270093	-0.387170760793436	-15.5990994352631	
7988000	-0.184605172270321	-16.7989459966876	-39.9385433841152	-1.83572319713337	-39.6924705036967	-4.18259518177261	-0.257638639102424	-16.7610322722928	
8237500	0.0168541882350237	-15.9162801773453	-39.7133368268777	-88.5162840407559	-39.8497561402113	-90.6980449978124	-0.0849860313099104	-15.0645629538031	
8487000	0.00302424803163681	-14.9429593029711	-44.4587502110535	-146.424952925809	-44.5728976167445	-147.659527389254	-0.00221419274422257	-14.2205357222806	
8736500	-0.223294788216109	-14.7689803211318	-48.3273999533599	-178.402966224316	-48.1972517974692	-179.711664494309	-0.193755887060881	-14.293179416422	
8986000	-0.497752959787843	-15.9165080695764	-50.2341214931422	156.562211713854	-50.2448304761187	153.583994638886	-0.43805624136989	-15.5328450094045	
9235500	-0.567509495550292	-17.88395912093	-50.8440261264634	128.06260061225	-51.2970104180359	123.326366027383	-0.496474333793014	-17.5136310398276	
9485000	-0.373688669569766	-19.5260675163804	-50.6656104396018	93.911729471556	-51.4261977322148	96.2407082364732	-0.308461486801128	-19.1655046522886	
9734500	-0.0970652757511973	-19.8811804619453	-49.6487597901216	60.9580277843891	-49.5636354994363	61.0871682159651	-0.0339668190323699	-19.6568045670233	
9984000	0.000355554138829633	-19.0700937962622	-47.9060769541692	18.7883873291996	-47.868188963696	17.1799705980788	0.0794174281715397	-19.2079720635369	
10233500	-0.14187066772837	-17.7494406580277	-46.3997601393254	-41.3139531963057	-46.4055315923372	-43.8216800735445	-0.0854471200087021	-18.6614501573661	
10483000	-0.374192409884053	-17.5437207032341	-47.0031823462954	-105.608796836173	-46.9824887824399	-108.091258077278	-0.469732452302293	-18.8321314710828	
10732500	-0.56386994327586	-19.1649980664017	-49.678097431435	-171.479563773958	-49.6675473511348	-174.51704785667	-0.85240661609946	-19.4318495083812	
10982000	-0.557889869255222	-21.4982868145135	-56.3677210852622	158.307365271395	-58.1506801220718	159.211113309087	-0.793801308746113	-19.9393066950946	
11231500	-0.330897515246714	-22.78120903815	-49.4363769470594	120.022964696999	-49.4114275072997	122.758574269565	-0.434299943250613	-20.8888642386197	
11481000	-0.0856294139158557	-22.7898501698801	-53.1302479593558	69.6371538634441	-52.9357802613912	68.790693559416	-0.0676172727953716	-20.9748488096991	
11730500	-0.0752437031819715	-21.7437115947586	-47.1829554457886	69.8053637324001	-47.3338676122403	68.8167568143035	0.0128274750474672	-20.5693401319692	
11980000	-0.319409462639837	-20.5841263920751	-47.2605977374581	-28.462660896745	-47.235015696964	-30.4117014412043	-0.109633797140604	-19.9636735892213	
12229500	-0.559407980277933	-20.6830668672518	-50.0435024036598	-82.5004240472368	-50.0395142558554	-84.7279091054031	-0.377724647563212	-20.7933499559546	
12479000	-0.694694006290406	-22.7214396469287	-52.1771249415797	-120.667651454375	-51.746144974368	-124.085041788017	-0.564869560273702	-22.7811662429215	
12728500	-0.572845956404927	-25.1372340786001	-51.9881624395661	-153.210678751658	-52.7647153406847	-154.645991715342	-0.471203436667358	-24.9881092713703	
12978000	-0.31784195204541	-26.4025005413477	-51.2200254342255	174.574019760457	-51.8665382837065	169.187356660696	-0.215991151910996	-26.1879143676342	
13227500	-0.188763170841359	-25.9035127950565	-48.8280907176019	129.951730725581	-48.5076741623195	129.346188814358	-0.0339369708337406	-26.112286439772	
13477000	-0.2597796826884	-23.8600525435709	-46.3921226494163	76.70557139356	-46.2766910108525	73.3429352103088	-0.127920115826083	-25.4436747195491	
13726500	-0.391888707481302	-22.666152981866	-45.7032763655369	19.1328284395683	-45.5524480524997	15.9034527019661	-0.521888718035991	-24.8640025793171	
13976000	-0.597823740717194	-23.7858325583304	-45.8122385531829	-34.9297974940985	-45.865453575997	-37.8869399291153	-0.95070983075662	-24.5486554462554	
14225500	-0.675318104474191	-26.3174691035826	-46.2268635899401	-82.590943807755	-46.229084787086	-84.0090800324096	-1.00466517220918	-25.0224947776758	
14475000	-0.532793769105834	-28.6456533202532	-46.7687171849723	-128.999399324887	-46.9744980852701	-128.532284728263	-0.695412097680397	-26.1876804334707	
14724500	-0.333177435463847	-29.3634286254129	-47.0310195069538	-175.57163471252	-47.0887075590509	-174.683442495988	-0.279132926970642	-26.7643404937023	
14974000	-0.272636978661154	-27.8364511410039	-47.9068233044592	135.832925067683	-48.150606158454	133.438723186778	-0.0153155009403116	-26.3952384828165	
15223500	-0.295786627189401	-25.7918157417934	-53.393718864184	77.2225060200209	-53.6104496924899	78.9355258301996	-0.0454879674633922	-25.9259298088311	
15473000	-0.476182276631247	-25.6948810451395	-56.8329910108082	-133.02581460575	-55.9574390641402	-134.262452901287	-0.339019534563663	-26.4675492069039	
15722500	-0.719738526953082	-27.1840073693654	-43.1755437061084	94.6921595305298	-43.0324524555996	92.6990871962462	-0.65674668785664	-27.1068861627866	
15972000	-0.717946579745533	-29.8891346001962	-45.7236959191129	36.395193312679	-46.0481183862859	37.5647464266564	-0.619804976244354	-29.6247957491898	
16221500	-0.523857323270189	-31.9424405448946	-46.0129940990363	2.92028860551645	-45.8438587697939	3.26510423960514	-0.402538921480937	-31.5780238619529	
16471000	-0.359087063776069	-32.0845168913009	-44.6642135679566	-34.775233871919	-44.4530930327801	-35.1003608305247	-0.151649227472152	-32.0652496680571	
16720500	-0.348741015985309	-29.9031169110883	-43.2109446158377	-81.7657365292611	-43.0702643739406	-83.8540139805807	-0.104506396809713	-31.5083624573171	
16970000	-0.369947983326328	-28.077330791569	-43.3286772125847	-130.93141996317	-43.1091039283817	-132.177795487236	-0.381576293305652	-30.8511678361318	
17219500	-0.562911990001074	-28.713150332167	-43.2351153468011	-174.162306537615	-42.9527032172259	-174.840514792449	-0.854683406891809	-30.6274287716024	
17469000	-0.759663028558624	-31.1225024160597	-42.1547384937951	142.810609894987	-42.1685161431446	139.914752900227	-1.15681080747524	-30.8886917291853	
17718500	-0.752286670039269	-33.7725741083027	-40.1887069255205	78.2677490037767	-40.0468099792707	76.4463691402267	-0.959734545425113	-32.0333290696979	
17968000	-0.513414005206203	-35.0583444183446	-46.4702879885327	-3.56309895399162	-46.6441644588277	-9.79093451204805	-0.697673741936816	-33.0757144781486	
18217500	-0.364499809613073	-34.2372271550121	-52.0118304936504	-8.53013216597612	-51.8166907375879	-11.0155526129492	-0.309374214461831	-32.1816706689504	
18467000	-0.294091489211468	-32.0106821641173	-51.9125690486291	-37.4055869457344	-52.257862598623	-36.8245447627096	-0.150110245571009	-31.2142981492913	
18716500	-0.403436291941232	-31.2278331522263	-53.420806390555	-68.9552449576608	-53.3216426344512	-69.4081395632818	-0.296848840394474	-30.8644090325443	
18966000	-0.666598081102854	-32.4960902577674	-54.9969115956384	-89.137629608494	-54.4941212194133	-91.43482590591	-0.576189932102999	-31.8604115304486	
19215500	-0.846833345317272	-35.269297748857	-55.3610808267997	-106.037165936197	-55.2779645632403	-109.222046204537	-0.728109882010508	-34.1929377935272	
19465000	-0.815996791278397	-37.830422427522	-55.2093794665867	-118.479894422187	-54.5904624929366	-117.388694385123	-0.610541548827449	-36.5736977792295	
19714500	-0.675595687227537	-38.1040805719943	-52.4794003586669	-138.613792812152	-51.9037403528455	-143.106368777581	-0.330733351312349	-37.7616305675907	
19964000	-0.488929504811239	-35.8932035547193	-49.8242313149501	-172.817533620222	-49.7769334458415	-175.508077326331	-0.159938640832391	-37.5017878088991	
20213500	-0.417666400449272	-34.0327155876367	-48.4437828838848	154.827269009675	-48.6945178838894	151.16702033117	-0.276944275969192	-36.6867210183781	
20463000	-0.634377730901029	-33.8480523729594	-47.0300985759112	120.978996299589	-46.6231906628403	118.972747228839	-0.657407112048675	-36.2811821834092	
20712500	-0.960196785067996	-35.372827242472	-44.7237333107894	80.5091311913317	-44.6875303690878	77.7184347453638	-1.07037024889228	-36.9149492047203	
20962000	-1.0890700627737	-37.6565521928108	-43.1756035420408	34.9939904040652	-43.1281774519606	30.4409767807804	-1.22614549242767	-38.2832236881712	
21211500	-0.866832795636802	-39.1237595156105	-42.9202636454407	-18.6717942944044	-43.0506380354078	-22.565772574893	-1.01630324026457	-39.0505273113441	
21461000	-0.484234426300008	-39.1470404537211	-44.0733270686609	-68.8189982300265	-44.060507926308	-71.6613848329231	-0.613989042065168	-38.5650907155056	
21710500	-0.276545672575269	-38.0943493459767	-45.6081598013824	-114.538882325571	-45.4100405108659	-116.260328575195	-0.328386722324939	-37.2934558515751	
21960000	-0.384877694738836	-36.9923353730212	-47.32940903339	-155.664077061508	-47.151830549849	-156.727503798261	-0.341502335598411	-36.2394820701879	
22209500	-0.704955677756661	-36.9792413616489	-49.1206909503109	167.229590921609	-48.8691120637348	164.37024082874	-0.582925984137032	-36.4072625023097	
22459000	-0.975554517788701	-38.548665732643	-51.1565463532252	131.044602315836	-50.7020489706774	126.984698048951	-0.81457485006711	-38.197815309135	
22708500	-0.95228920924956	-40.800141862332	-52.6788379327747	98.4104342260023	-52.9200715044624	96.0790713657548	-0.810917216937218	-40.8509963662977	
22958000	-0.647652746554432	-42.2444368217549	-55.1101766467062	69.7424176283755	-55.1618183559836	68.0488356394603	-0.558000009126471	-42.7505359600136	
23207500	-0.368359175245489	-42.3252824020697	-53.9767445707435	81.2354067374041	-53.8471548432318	82.8289483027822	-0.286100797185735	-43.0849661065135	
23457000	-0.327103732804412	-40.6755072974588	-49.4188319679704	29.8497928012465	-49.1086232367687	30.6639402282597	-0.233745958705478	-42.3384520119558	
23706500	-0.530584634834224	-39.700113723466	-49.5897406554175	-15.7433933114277	-49.5198821991235	-16.7789916451576	-0.497400992085169	-41.7404324638484	
23956000	-0.900993415792149	-40.1513509360904	-49.2754971795759	-56.2588736803818	-49.516918740711	-58.4044174929612	-0.925965870973424	-42.1863897789305	
24205500	-1.12417846778868	-41.9936966980064	-49.331226295187	-92.2784599757612	-49.5553860036945	-94.8308607875823	-1.23839571608822	-43.728728895611	
24455000	-0.984571893178299	-44.1170025156903	-50.5822902099138	-126.903275109502	-50.2084424358031	-128.903969093325	-1.21433501132578	-45.2858156670653	
24704500	-0.607684666803026	-45.0864328642932	-51.2793154534496	-158.349876911286	-50.7241580531066	-160.20961008023	-0.906759232723894	-45.2614549745907	
24954000	-0.312271351943739	-44.523731052107	-50.8200199311339	169.230335469859	-50.5007972296403	169.436907942787	-0.582519391956818	-43.939539322366	
25203500	-0.316200326063918	-43.3117843220023	-50.105772014433	132.973823556666	-50.2091418513528	134.666572942327	-0.467798107815308	-42.238591366039	
25453000	-0.606432156854457	-42.6642948564481	-51.2872728666658	99.3350944074801	-50.9606832022439	99.907825876712	-0.626584256939231	-41.4412533614787	
25702500	-0.977206723091119	-43.4803445497891	-51.3483027054727	63.3785158744902	-51.1939914434305	60.7920189557839	-0.893443541361779	-42.322632202513	
25952000	-1.10887976531796	-45.5990202089521	-53.0003480302483	29.3012892586262	-52.3070135761209	30.0158314712735	-0.994159525354095	-44.6688476733976	
26201500	-0.890327287143018	-47.5953568678274	-53.3194504713241	-0.118767352509259	-53.1639295437049	4.8394470668765	-0.808754866194748	-47.0380641309241	
26451000	-0.540754579639564	-48.1871156485994	-53.2613137796692	-29.9571232221061	-52.915759714704	-31.2966718671366	-0.469996485757594	-48.0023509747656	
26700500	-0.353909592609317	-47.2179906777186	-53.0329039093699	-66.4411999784791	-53.3077326913938	-72.4350996542041	-0.269964243077332	-47.5611972066364	
26950000	-0.488787045813681	-45.7485162996121	-52.8796112063053	-112.545561942125	-52.8123109709392	-111.200208212227	-0.374938932634932	-46.6881457530799	
27199500	-0.84092975629163	-45.1160448655621	-54.4907358534902	-152.006047773978	-53.9201876893404	-144.133570209246	-0.737031188165265	-46.6131846585626	
27449000	-1.14041425465064	-46.1748799940123	-54.3182901877269	172.68011137763	-55.0690795702534	179.783470161761	-1.13256648047727	-48.0297804143805	
27698500	-1.12791767137873	-48.5412624520444	-53.803853779574	139.837206387019	-53.7950585797273	138.420798770132	-1.27598958975672	-50.2355541395782	
27948000	-0.794892285047969	-50.4427617028129	-54.0384443521997	94.9622137798929	-53.4944295302505	90.1554274290514	-1.08213536865749	-51.7398297112848	
28197500	-0.422721879473321	-50.6657058004703	-54.8420171646003	46.5175631919055	-55.5815424661989	48.3755949160709	-0.808659865254256	-51.3193694230254	
28447000	-0.282654594534014	-49.5878764294257	-57.5841943952215	27.5484249176624	-57.7979522156104	18.1803711489399	-0.636619810122207	-49.3334814984399	
28696500	-0.473956359737962	-48.5242265927728	-59.0400752639256	6.0002746891566	-59.222931900711	-8.14977757085988	-0.707027646907118	-47.529747037645	
28946000	-0.841252305012104	-48.6392957810277	-59.5020865252849	-22.9865584296884	-57.934903779431	-30.8607448022395	-0.94417826557452	-47.3261275959602	
29195500	-1.10270032660173	-50.3934508195725	-58.5173124483059	-56.0743998195551	-59.0674082991169	-53.4554961621858	-1.13501201970522	-49.0255099888396	
29445000	-1.02981234382729	-52.9116679873386	-57.7962168834663	-81.9883084777011	-58.2238883578385	-75.5407088529442	-1.05072107398593	-51.6239967734596	
29694500	-0.697353621291368	-54.2770255060821	-57.3228674888456	-123.282388978539	-57.49176014264	-110.347490179769	-0.728333843761577	-53.3289386530347	
29944000	-0.406436167414062	-53.969347020549	-58.407028334857	-163.240552664936	-58.3827956554674	-161.983298086008	-0.407008274538564	-53.3141881256005	
30193500	-0.403966357244714	-52.6371082223025	-60.647298859117	165.834995490951	-59.9989476181297	169.065917237262	-0.346063143729318	-52.3859413528189	
30443000	-0.700632387158697	-51.665380458474	-61.6327232610951	130.008185998642	-62.2525114261103	156.742618435014	-0.612216680359289	-51.7306507647066	
30692500	-1.10198312063063	-52.2143973092557	-60.8461283828219	104.208566242008	-64.4612075413826	117.590627200942	-1.02533832843908	-52.4966880955292	
30942000	-1.31016695299228	-54.3346390765507	-63.5628897221846	80.6065154101727	-65.6117346424955	77.4371455940829	-1.3125134699885	-54.6648337316644	
31191500	-1.16010321609071	-56.6011954777563	-64.8899123355516	70.3959448286496	-68.6481361499712	43.5235658999522	-1.28254716204774	-56.8580456971487	
31441000	-0.81771070773445	-57.2725665548614	-67.2761589553761	35.0839328634063	-64.250606606401	9.37305719933724	-1.01319383356467	-57.3828916315316	
31690500	-0.592781384923558	-56.1721030048021	-70.7168561592964	-7.3574789791841	-71.4956300831313	-24.2130408552775	-0.759231672879613	-55.9877954525984	
31940000	-0.65947192958034	-54.3737370168295	-71.4595101798462	-53.1850571085537	-70.9613092362517	-77.7915879926742	-0.740394384459948	-53.8785390291624	
32189500	-0.965986118074519	-53.4943295952642	-66.4804352813772	-140.953842647436	-67.5935620240613	-137.642810672418	-0.947927818607113	-52.7127980890224	
32439000	-1.28643005641255	-54.6121004956637	-63.9699121516494	-177.18223274971	-65.2619693528953	-150.580864272239	-1.22031695742131	-53.471959067419	
32688500	-1.34729872669136	-57.2483998153126	-59.640494525842	134.339371475802	-59.9018164723395	138.158103612065	-1.29442379664926	-55.9039791170685	
32938000	-1.06654426353008	-59.426541074601	-56.9918319048819	92.2902889001819	-56.8860048304506	93.6186672746358	-1.06797466685464	-58.2083274444157	
33187500	-0.682732422471099	-59.7611474887256	-52.7243611203986	50.718631347156	-53.1904823498967	53.2453416338104	-0.699822318698217	-58.8982459130164	
33437000	-0.510563859591986	-58.5031217152812	-50.7580076391246	-1.27180626593615	-51.1000019341384	-0.507540867691702	-0.476660548677115	-58.0331832185073	
