!Keysight Technologies N9923A: A.12.45
!Date: Saturday, 02 August 2025 19:30:25
!Timezone: (UTC+08:00) Kuala Lumpur, Singapore
!Model: N9923A
!Serial: MY61181427
!GPS Latitude: 
!GPS Longitude: 
!GPS TimeStamp: 0001-01-01 00:00:00Z
!GPS Seconds Since Last Read: 0
!CHECKSUM:1410720757
!Correction: S11(ON U)S21(ON U)S12(ON U)S22(ON U)
!S2P File: Measurements:S11,S21,S12,S22:
# Hz S DB R 50
2000000	-0.055479567905195	-2.47369438575327	-78.9811761357599	38.5096352334265	-77.0056032209456	134.143088618443	-0.079291767916787	-2.18875825830583	
2249500	-0.335030605101209	-3.13795456068973	-69.7976205864737	-154.09573219916	-68.6888426212502	-134.419175085384	-0.349708814568264	-2.82768113901203	
2499000	-0.467981373241635	-4.71179930889594	-62.7228634364766	-142.298914044051	-64.4894541643015	-126.498920003295	-0.477270314775159	-4.44123262430298	
2748500	-0.340218952869515	-6.25550393933187	-48.8816596272233	128.934385687395	-48.4213229168052	139.654292335791	-0.393064244218932	-5.74841446370419	
2998000	-0.0739548434252198	-6.75382811096493	-47.4108477198617	26.2274425609175	-46.3956842235383	24.9783453632782	-0.0799793592539748	-6.27957319703402	
3247500	0.156572616575687	-6.20585532341537	-54.1966421032255	-55.1292492653964	-53.8201297888233	-57.1534432148351	0.132664418919908	-5.91123335324945	
3497000	0.117431216980826	-5.70773955502848	-58.0440384867782	-80.8170999255472	-58.1943859842895	-71.6301953580541	0.08374870273259	-5.4756906297814	
3746500	-0.149704424300858	-5.84528964980597	-56.1858377699302	-100.22973425257	-55.9393369404067	-94.3765383850634	-0.182940265206075	-5.72281643389833	
3996000	-0.437721953910135	-7.14794837870278	-62.065574892846	-151.029341922604	-64.1260799468126	-143.479783134774	-0.436962239723218	-6.63126227703699	
4245500	-0.514566287946628	-8.69779319906474	-61.1722130029834	-176.680937322172	-61.9930600264435	179.411519537751	-0.465419136081367	-8.54070111434597	
4495000	-0.254945472756523	-10.063990856126	-64.6448913530603	-150.255326915361	-63.8749704223238	-134.488181891463	-0.245914751985517	-9.91256791097364	
4744500	0.0307296409987525	-10.3745079691178	-53.2516148606971	-150.243270916241	-52.7936803782074	-147.836704624717	0.0322442633771529	-10.1407578562426	
4994000	0.121584648675632	-9.24937014076976	-43.9016493551679	128.803037110815	-44.0376987270886	126.247807245202	0.131140724659961	-9.30770145704411	
5243500	0.0374382940425236	-8.67760255355797	-45.1859113081613	69.5832775630635	-45.5081587948167	70.8975240469789	-1.75311148695267E-07	-8.73342026216439	
5493000	-0.272945130810138	-9.06359973196162	-42.5874292561461	24.2090775045775	-42.8117206334788	27.1707197896452	-0.360537991234793	-8.98636386418882	
5742500	-0.504261277766686	-10.3749049487668	-41.6682991114266	-43.7262211176698	-41.3754188973795	-40.2681316771765	-0.607839075288798	-9.51165091620345	
5992000	-0.450930428160579	-12.3406806308893	-43.3353280858725	-88.9656640563776	-42.9702109360213	-87.4524995154363	-0.473654260908046	-11.2565465092406	
6241500	-0.224864209558501	-13.5579029303235	-41.8289466869644	-130.802665397908	-41.6278780751526	-130.538346070242	-0.168176837874091	-12.622472166777	
6491000	-0.00312848602404513	-12.6009845716262	-41.6401276024395	158.642958723218	-41.5088099140856	159.791272029828	0.052869033283212	-12.4230309568565	
6740500	0.135765317154862	-11.7722084085591	-45.9352050630249	113.653792479276	-45.8537519204897	114.319026438328	0.131244111305177	-11.7964361722154	
6990000	-0.0486371690689244	-11.6223379855862	-47.9344688338249	89.8579950042987	-48.0390271444222	90.4052734664936	-0.0596077693703608	-11.5906948833682	
7239500	-0.364902699716059	-12.6319372939847	-46.7957631945477	62.0405046141571	-46.975301566447	64.0813726895115	-0.374974661834522	-12.535385064336	
7489000	-0.54162011119013	-14.6464582063695	-51.6638659038834	43.4713775165056	-51.6859811274592	46.3995112349981	-0.517214492288984	-14.1294268352962	
7738500	-0.51113037307957	-16.6681548304084	-42.4573042680212	18.4314156367446	-42.5220756378901	20.6094615764376	-0.415009494594413	-16.2180099848026	
7988000	-0.225201227977084	-16.2238915458063	-39.2863527732906	-53.142833371411	-39.2938737912151	-51.3663025322449	-0.175138188570549	-16.7854728920208	
8237500	0.099801389010846	-15.7366518092815	-40.2981775507243	-109.365460564401	-40.1265756973165	-106.330730876178	-0.00569530354324654	-16.1382330327691	
8487000	0.0784695076530411	-15.0774003420806	-41.1054897998373	-159.312070310477	-40.7418595369402	-154.785105827667	-0.0857116625892617	-14.6257469519747	
8736500	-0.19335351670743	-14.9173314876587	-42.6722469880845	157.874160783708	-42.1313768672894	160.624280563101	-0.287423453727967	-13.7357915516083	
8986000	-0.500023323388994	-16.0201186614574	-43.781248751818	122.327337161183	-43.2081027318266	123.999585869427	-0.506053047004466	-14.7119012494351	
9235500	-0.598323880784667	-18.0326096209602	-43.6661081232378	89.5624732123586	-43.2677957953259	89.5397375520658	-0.550270257980315	-16.8029611884965	
9485000	-0.429805494229791	-19.5903691311287	-42.6438352904017	51.3451710501145	-42.3736807711859	53.0885908466395	-0.345118408495297	-18.6798697053565	
9734500	-0.161703490465436	-19.4701743480361	-41.5117354027025	5.73584323040706	-41.3105012355458	5.64780323209953	-0.0552619015785176	-19.2261086567504	
9984000	0.0405681219526837	-18.2976150834762	-41.887558708684	-44.2127352004811	-41.8243029047942	-42.2308819242756	0.0937216498521189	-18.6128855946259	
10233500	-0.0215080260516083	-17.6402465372518	-42.8991062691156	-84.64796433949	-42.7904059346137	-82.9437424351874	-0.0169601690588063	-18.0509521147637	
10483000	-0.3202119447436	-18.1964199893147	-42.6933044662595	-117.904027038344	-42.6736040324223	-117.515558814961	-0.340851828191568	-18.4522709045081	
10732500	-0.618942228723098	-20.0839114150443	-41.6845979958762	-154.345876679088	-41.5487911331809	-153.024114114966	-0.667331687543784	-20.0292859412361	
10982000	-0.697557875081468	-22.0043697002551	-39.0861612906058	164.731732824035	-39.4524477322256	165.200257943396	-0.732700335900593	-21.4284159357629	
11231500	-0.417245380681432	-22.751401092351	-37.9059126402054	103.845858598049	-37.9161029957518	106.857083636571	-0.432890676373425	-22.1271134030518	
11481000	-0.0958632995130913	-22.4306754568375	-38.3785335374393	53.9171165941927	-38.3981942854799	55.4358868545041	-0.0998174855224768	-21.8656815536378	
11730500	-0.014028948249995	-21.2146089207158	-40.3701813096296	7.82516078000967	-40.7723186854762	8.79829717726021	0.00349198924186853	-20.9750648748921	
11980000	-0.181485812516601	-20.4831266264425	-39.3424977151587	-36.0290370106793	-39.4562881086304	-35.14331563765	-0.191059228428568	-19.8111875181559	
12229500	-0.489365253960192	-21.1796325632705	-40.3909688833406	-78.88069164875	-40.6744984286093	-77.4130393195426	-0.452395128760079	-20.2810270325698	
12479000	-0.717116156648817	-23.3265895259475	-40.5689350356884	-115.825345342972	-40.9061579361375	-113.828247748566	-0.638725420159969	-22.2607110738292	
12728500	-0.664224576941706	-25.4532312501952	-39.9378327669759	-155.286352797438	-40.1156438778357	-153.572892659311	-0.555081138795392	-24.5901423415005	
12978000	-0.405650582652412	-25.9492328036629	-38.7710698359883	157.294708527341	-39.017694281932	159.453896007124	-0.28883766047039	-25.701907454524	
13227500	-0.117710224125737	-24.971343065822	-38.3145072685694	107.085834248617	-38.6191625860752	109.554675603707	-0.0628328542660077	-25.3541933876749	
13477000	-0.0750633790280221	-23.9310137712822	-38.1535382644152	58.6950197748181	-38.5282730613014	62.2930949708509	-0.0968032695306594	-24.4474157036096	
13726500	-0.337036815754101	-23.6110295896156	-37.7688567077289	8.21580660352668	-38.1815059109396	12.6518043747647	-0.413941741757772	-23.7849140470079	
13976000	-0.66782336240492	-24.5735163394834	-37.9752932946672	-43.4316695172613	-38.0617134014771	-39.4110114808577	-0.742561982573937	-24.0451861578183	
14225500	-0.784494442683404	-26.7533250816726	-38.4572071172421	-90.8432797366891	-38.5702134283712	-88.0549062565778	-0.796265115396963	-25.6702897861079	
14475000	-0.639078639519673	-28.6972679009279	-38.5583050966624	-136.969127992022	-38.6503099407408	-133.976576289272	-0.573391577807517	-27.4874992227678	
14724500	-0.371604751970967	-28.8266910409484	-38.4367134594794	175.067953173787	-38.6652447473521	176.934287847463	-0.23056803457844	-28.0264485034834	
14974000	-0.159065628066187	-27.3693685439453	-38.8502402346854	124.817791323251	-39.2855032617363	126.949660731184	-0.0035256663616675	-27.3006666968219	
15223500	-0.179463595351152	-26.1614311195045	-39.9168947024092	78.381422074039	-40.4403855964701	80.5492726482138	-0.0622385421316548	-26.5487484663193	
15473000	-0.455040178592586	-26.2979897204187	-40.4217211867261	34.1457586716032	-41.0453663809149	37.1003176993603	-0.390079533193823	-26.8187170878132	
15722500	-0.761072617758501	-27.9800240306864	-40.2729350424372	-16.5136586808518	-40.8430802648294	-10.9946183944782	-0.786937971306159	-28.4077910264705	
15972000	-0.837188496114186	-30.466183314667	-40.9499581389723	-81.1116434509192	-41.1981402247272	-72.0311182635139	-0.977447199226761	-30.1465973638714	
16221500	-0.682062719747207	-31.7465788527861	-46.3364187577199	-162.091398775969	-45.2643244548254	-152.850934587047	-0.730139854603292	-30.3665870425802	
16471000	-0.337459938591043	-30.8550337181799	-61.3557021432878	2.80651515950986	-62.532899287786	35.9134911468636	-0.240395390350064	-30.1652732762126	
16720500	-0.127169343917362	-29.7781231462284	-46.3858595764516	-106.947857414296	-47.0519975512074	-100.407729198336	-0.046191072476947	-29.7793801582315	
16970000	-0.316049147982358	-29.0878391729257	-41.6084844159809	174.964741455244	-41.9366871025343	178.156784984455	-0.244778445883775	-29.0598444818167	
17219500	-0.626528557130892	-29.208465012696	-43.7275069534254	89.863897759313	-44.1421920319091	91.3486956489842	-0.515372520808566	-29.0974859990921	
17469000	-0.861512949693205	-31.4554419199614	-51.6881829218023	26.8712819602817	-51.2149485375947	25.7451320261233	-0.727791400701241	-31.3730437119362	
17718500	-0.875431533103321	-33.6886727319696	-56.2979147177938	117.293857204656	-58.5510207047221	131.233141407577	-0.75104744221172	-34.0301368698942	
17968000	-0.56363166191484	-34.1781465099753	-44.7913495180786	56.1592493974264	-45.6095377019256	64.6359697812866	-0.562193322540728	-35.0784450194945	
18217500	-0.209670612078955	-33.5792113399067	-41.9907836090239	-5.02413488275647	-42.3885422751659	4.29018171323107	-0.334972258143817	-34.1114821796867	
18467000	-0.142498115546889	-32.5458063579912	-41.2026250001702	-58.0472493076585	-41.171464740014	-50.0597138048241	-0.268421770265009	-32.2741668067569	
18716500	-0.395245502165643	-32.106024371149	-40.9472651429879	-105.890137449665	-40.8150098382055	-99.0005009207093	-0.441283010936783	-31.2392293222736	
18966000	-0.792429820685806	-33.0081575995642	-40.4135296993152	-150.156952249667	-40.2526138672826	-145.072259249126	-0.744803292768551	-31.9211313267648	
19215500	-1.00839558998036	-34.9592647776527	-40.14384381152	164.490961117127	-40.0511464573913	168.08527761683	-0.918214548299874	-34.0667941176092	
19465000	-0.850685416676244	-36.7353102377861	-40.1641976999293	117.405430218614	-40.1715272101753	122.100357060593	-0.787050720826838	-36.2191777403305	
19714500	-0.48208928262406	-37.3144693298892	-40.3159603189951	72.1957887194863	-40.1739855477408	75.5667885407034	-0.446726111272272	-37.0830325947703	
19964000	-0.251747600633706	-36.5476726000863	-40.5664078720496	27.1544056676791	-40.4244551745282	30.6226015384596	-0.205626057582355	-36.4394729927891	
20213500	-0.336563311019528	-35.2429097659356	-40.7239045756155	-18.887388253025	-40.7041889160067	-14.4789624766609	-0.234592783232289	-35.2425970496646	
20463000	-0.666079225907447	-34.6835638593875	-40.9465314854897	-65.57408183308	-41.0143824649901	-61.3175599084172	-0.513139629424871	-34.7780709391255	
20712500	-1.00078136792769	-35.819817787342	-41.0761696010608	-111.317590882271	-41.1680323591476	-106.203154563233	-0.835812418538549	-35.9204123926438	
20962000	-1.0881722105907	-38.1267378591637	-41.4867503324528	-156.332148930792	-41.5195569590954	-150.235037850949	-0.949629779301577	-38.2583770986761	
21211500	-0.863301445626289	-39.8284493833936	-41.5744847705037	158.14745683535	-41.7920063191532	164.604190938651	-0.773184464851373	-40.1070704088023	
21461000	-0.510495245427534	-39.7498448786566	-41.7207064588243	114.467849399977	-41.568136577312	120.411120136607	-0.482850535225941	-40.2014712901157	
21710500	-0.318934390211618	-38.416549418608	-41.81473407723	68.4879521486572	-41.9001427543284	75.3040743978302	-0.328120878001934	-38.8256621952461	
21960000	-0.443170747054276	-37.1141495678559	-42.4060016367688	24.2903512373513	-42.0779907027649	31.6584906938537	-0.450324330819695	-37.2197918145225	
22209500	-0.78220065883218	-36.9976631220509	-43.0517173729956	-18.5234175279033	-42.7388082610928	-12.5509770589421	-0.756060520095294	-36.7546115685953	
22459000	-1.05678070967231	-38.58403246777	-43.8541875082231	-62.0829348534686	-43.7806129009819	-55.9526163243228	-0.998490599669988	-38.1479619691141	
22708500	-1.03064229655513	-40.9705685260716	-45.0992513212701	-104.017765036901	-45.0020560944673	-99.4769017814696	-0.960437512883652	-40.642602610356	
22958000	-0.740628564511475	-42.3281078838461	-47.4026389591474	-140.86281308815	-47.0140683535295	-139.15457312543	-0.642663875537634	-42.4708540752454	
23207500	-0.390276396647801	-41.7308389854289	-46.9340123307879	-161.03417696604	-46.6932515972077	-157.84474895535	-0.313315406905962	-42.7145925512301	
23457000	-0.280775769801655	-40.4128660016087	-45.5545427361479	149.07428510254	-45.4860767623841	154.602629009863	-0.219974198473631	-41.629193617698	
23706500	-0.491952899250809	-39.4134706056112	-45.6784661079819	101.841234689293	-45.5987464174269	107.360757869476	-0.432980291225512	-40.7407551439462	
23956000	-0.843441445652384	-39.9483214718482	-46.5282014863593	54.7727890032919	-46.4594147070899	59.2836088284177	-0.814210245318687	-41.1503558172226	
24205500	-1.05952861976606	-42.1338827736174	-46.3152369205742	8.63015426648608	-46.6811787253561	16.3872657214198	-1.08982665862338	-42.9632310762383	
24455000	-0.949375568290907	-44.5213811759205	-46.717050865874	-39.0604269127544	-46.4174850810176	-31.1033725870761	-1.0452193760422	-45.060369383824	
24704500	-0.607822901080237	-45.3997137090351	-47.1278231125734	-88.1782647619864	-46.4026020367662	-78.7708652844278	-0.733381191927444	-45.532354644008	
24954000	-0.327026804090057	-44.5257590387397	-47.0052860493306	-137.444925736991	-47.0008779208624	-130.217777371279	-0.450696648046052	-44.5462666751633	
25203500	-0.32052673353893	-42.9827697601952	-47.9236287438751	176.964614478717	-48.0496688240962	-177.373726909912	-0.400555688198365	-42.8682530285359	
25453000	-0.582607806229339	-42.2327127645393	-49.1835476678757	134.361221576791	-48.825604950043	136.545681749041	-0.62534414750144	-41.9824473823348	
25702500	-0.928536569584485	-43.3097189840839	-50.9927066370068	91.4364001435765	-50.3894396473111	100.742145916889	-0.940165555132612	-42.8420655170906	
25952000	-1.06428519605744	-45.7935918184779	-51.5923422296223	52.8216676891814	-51.1515289346698	64.0614676690281	-1.0662003672027	-45.2804002200208	
26201500	-0.873272474904972	-47.9050273597762	-52.6180441030729	27.4921540897366	-52.2585678422464	27.2289108758058	-0.8753014119542	-47.7113546609357	
26451000	-0.524522978548422	-48.1857372773745	-53.6329031022857	-12.4237039903519	-53.392396248281	-8.42874520140915	-0.512729838550756	-48.589743886621	
26700500	-0.294375997071595	-46.9440167971453	-55.3396902857206	-51.0574939516636	-53.777486867809	-44.3491371952337	-0.291907246528011	-47.8647216105554	
26950000	-0.366836473965823	-45.5343614586602	-54.6196788181433	-84.3358836019808	-55.1222297655443	-86.7241885637994	-0.391715706243413	-46.6122069190352	
27199500	-0.674060993910805	-45.4672347267869	-53.9737314660371	-132.171314893554	-56.4965683798806	-122.633359872071	-0.752292909301034	-46.1820157812802	
27449000	-0.996396027046683	-47.2945497494025	-54.8494089971288	-179.357104700586	-57.2790054913237	-170.686629322196	-1.14430356862896	-47.3769233292316	
27698500	-1.0467116513872	-50.084082830341	-55.577250013242	115.855974032551	-54.9679403638967	141.309087299754	-1.26930883768873	-49.4872105093365	
27948000	-0.780599141027175	-51.8336016553745	-55.0117273049813	73.3215688986095	-56.3284064266589	93.2988673878347	-1.01901112797861	-50.9442516205995	
28197500	-0.452771203596701	-51.5773427749452	-54.4987198809504	29.0347615391555	-54.0697524330278	41.0148707570034	-0.64406643159507	-50.6890333235578	
28447000	-0.332133315737737	-49.9690092038093	-55.3597609274456	-17.0255647160999	-54.2396784787449	-5.95386001272246	-0.431119057372627	-49.2502738451679	
28696500	-0.519986856993285	-48.6402227570712	-55.4158086652588	-61.5657853026999	-55.6849082399761	-57.1429849596354	-0.537911018275802	-47.947324152503	
28946000	-0.888938962027474	-48.8679128871412	-55.3157630976864	-107.836951442457	-55.1969374845392	-96.033733877663	-0.856097078288097	-48.1298415470002	
29195500	-1.16864423636699	-50.9738666256036	-57.2085638201929	-141.956688109902	-55.8938218218506	-134.623144525418	-1.12346521511704	-50.156121875546	
29445000	-1.1221677562179	-53.6225827818218	-55.3151226998073	-178.336513277715	-57.427891184568	-177.085172791647	-1.08837314225177	-52.9765793998331	
29694500	-0.813230254353284	-54.7044735007552	-58.1800204833261	148.365111204517	-57.0526993819396	153.908746618221	-0.787045450958823	-54.6487733393939	
29944000	-0.505303359035318	-53.8024586645404	-58.058381739224	111.036579032732	-58.3756518451078	114.586366862801	-0.486282298187367	-54.3925722834546	
30193500	-0.449898421544625	-52.0586304346068	-58.4112608933313	74.2149288352055	-59.0289204952355	91.5418960544669	-0.456513948494024	-52.9170042508878	
30443000	-0.689369270224075	-51.0600437835671	-61.3013326405858	44.7281593495134	-61.6809863793528	40.5883974099878	-0.743089830678118	-51.5629584136205	
30692500	-1.0562780362994	-51.9820724943942	-61.1725683097833	5.49898677509497	-63.1768608956382	8.92440679934058	-1.15702970927271	-51.6572113447572	
30942000	-1.25038105271219	-54.5245196764264	-63.5789793687775	-15.1524296922713	-61.207396362132	-17.8756865701417	-1.39967852266681	-53.3575649123781	
31191500	-1.08966975834786	-56.9478949958745	-63.5476529408102	-48.8855264154969	-63.7448478039393	-66.7035069993003	-1.27172012443116	-55.4332610341425	
31441000	-0.729059461578839	-57.4742700373342	-63.6956307983581	-91.7939634340575	-64.0649787714534	-95.9611415483907	-0.879891559447176	-56.1991402654669	
31690500	-0.478985466972877	-56.2027946267454	-63.7014493236561	-155.432316756494	-63.2408319866986	-162.27589901698	-0.535595720827098	-55.3352444175534	
31940000	-0.537762242075994	-54.4982496072094	-60.7598892352931	156.228127557347	-62.1117268069486	167.876634117087	-0.503795570585547	-53.8676068499086	
32189500	-0.883993560941627	-53.9525730784136	-62.2284800858306	121.081367126364	-61.0903567797394	126.334294479563	-0.769927400416304	-53.2819098626821	
32439000	-1.27568302366023	-55.4826543132909	-62.9489927762729	79.4184175485373	-63.432862359933	85.5460170775224	-1.13524079995637	-54.4957647771994	
32688500	-1.4081022063842	-58.3455380733762	-58.023385672248	36.0341571929829	-60.2262745462323	44.4919192958479	-1.28849474506132	-57.2325153599566	
32938000	-1.16716703059374	-60.3774363632565	-57.9067012964889	9.41464152148695	-60.2306991748658	20.5517737438232	-1.10173061648617	-59.6489651933836	
33187500	-0.791097541998776	-60.2384230522502	-57.3786843944652	-27.6011345397864	-59.2831488720921	-16.0448495642737	-0.752647898242556	-60.200893836525	
33437000	-0.59328846471655	-58.4527175236994	-57.8620198427199	-58.4736286895128	-59.3962832862735	-47.5815063780107	-0.554655059944671	-58.9277985731904	
