!Keysight Technologies N9923A: A.12.45
!Date: Saturday, 02 August 2025 19:10:23
!Timezone: (UTC+08:00) Kuala Lumpur, Singapore
!Model: N9923A
!Serial: MY61181427
!GPS Latitude: 
!GPS Longitude: 
!GPS TimeStamp: 0001-01-01 00:00:00Z
!GPS Seconds Since Last Read: 0
!CHECKSUM:1432320889
!Correction: S11(ON U)S21(ON U)S12(ON U)S22(ON U)
!S2P File: Measurements:S11,S21,S12,S22:
# Hz S DB R 50
2000000	-0.0672166717109445	-2.91831916320163	-81.0658084952437	-104.222386266354	-85.2361202401699	-77.1894965822421	-0.0959583778165012	-2.92081118697269	
2249500	-0.315161059178292	-3.61663197724392	-75.0594632439298	-102.924573757246	-72.6105662175141	-94.72475180535	-0.330932381793345	-3.58377505763568	
2499000	-0.435453416647873	-5.05141449280864	-52.8795209692533	168.190004872304	-53.2351283969186	168.14067717768	-0.461984243451222	-4.87900603068288	
2748500	-0.297719202654857	-6.47202429577811	-75.1682263758661	-100.020619556473	-79.7290840279375	101.943571917801	-0.296320361424232	-6.2017852942516	
2998000	-0.0422253545866195	-7.03333400504661	-68.4951946104058	-90.2399541965715	-65.8564513098774	-124.32457602882	-0.0516936003783182	-6.66119880742429	
3247500	0.0904545658385875	-6.8306905133089	-55.2601853981798	-146.653063070663	-55.1526244619482	-145.822490594767	0.102603102635665	-6.28525580817868	
3497000	0.0691466182456595	-5.67016902322916	-53.6427991043447	105.497846942073	-53.8565693434109	106.453599046444	0.062770770173957	-5.72079125862089	
3746500	-0.143797912671026	-5.86003543551356	-55.8569514091277	83.2220186760712	-56.718893354374	70.3088540960501	-0.16589897789158	-5.7760177474075	
3996000	-0.377464270562937	-6.99154593578584	-53.7566513848324	64.7362246139739	-54.4518918714409	58.7981941063895	-0.416262924215328	-6.902121243731	
4245500	-0.444993553761918	-8.68346255546348	-48.1572492471831	15.9460463814408	-47.6946550220749	12.7260863012486	-0.495968616288057	-8.47955017807231	
4495000	-0.279493045772199	-9.53818730565686	-49.5537102024865	-57.2319746342323	-49.2817703929379	-56.4110811928345	-0.402940101974711	-8.85831291457708	
4744500	0.0227638672481711	-9.73654979605047	-51.5140015431073	-79.0999098355151	-51.5026599043347	-81.9545260141532	-0.0402183111963302	-8.75220158071782	
4994000	0.145502054981858	-9.28855522667815	-51.1090339342224	-99.7315313611719	-51.0065413369338	-102.721465545513	0.104983126714908	-8.42160862522541	
5243500	0.00818271883118578	-8.94164205924097	-48.2084776090081	-121.771252608708	-47.776879496789	-121.806018786391	-0.00578847867032371	-8.15925319701498	
5493000	-0.339485587353673	-9.10623874357612	-43.1092951477025	-176.176589271582	-42.945875572492	-178.293999943414	-0.278539384649359	-8.51352748091664	
5742500	-0.461810175800679	-10.0159464690952	-47.0458934856395	115.273174661363	-47.2408162502572	114.83286230325	-0.442194783804996	-9.75817259762438	
5992000	-0.397665464164989	-11.9202817158796	-50.6347397331789	95.1283985279084	-50.8373234199796	90.0682928566627	-0.394033480274924	-11.5160985637709	
6241500	-0.16309852268064	-13.1003282807643	-51.3942901826626	86.8365496662201	-51.423569213655	84.9700145495118	-0.15012716093628	-12.6342358272646	
6491000	0.0764264522477777	-13.227551119131	-50.0046307968658	73.4594571085383	-50.039351167517	73.7552278242999	0.065753802950993	-12.6666165759458	
6740500	0.0744563283214461	-12.968705623497	-46.1049858974478	55.3761260055695	-46.0725312106724	55.2322690615057	0.105364043670405	-12.2073444877185	
6990000	-0.34034203895184	-12.3121350792191	-40.0848645677635	3.49348741707324	-40.1161975937475	1.83721516680793	-0.0891783284955411	-11.9943897486841	
7239500	-0.437066009219784	-11.5451470345886	-42.8904475165108	-66.6360763472916	-43.0225255969274	-66.7248629712374	-0.343396376681685	-12.6442881461282	
7489000	-0.499922297413156	-13.6906023953418	-45.3836703034213	-100.414792602531	-45.53973843755	-99.2199495689176	-0.478129784818138	-14.3781465594602	
7738500	-0.368142711253904	-15.5444324727165	-48.1963491819517	-100.705618061028	-48.013611071176	-100.184306359563	-0.366711328555892	-16.0890975309803	
7988000	-0.0971398248077943	-16.4558079248583	-45.533449754929	-116.544381481036	-45.6399662885924	-116.143600482463	-0.133860018235027	-17.0066768132043	
8237500	0.0798416680101993	-16.2833502821817	-41.4199301039845	-139.828020547695	-41.5675470175141	-140.249313681015	-0.0262885446594171	-16.9952010158671	
8487000	-0.00969616218679981	-15.5688402624241	-36.3395680954166	171.524897403808	-36.3807404634995	171.050833563936	-0.27531486356864	-15.926867345961	
8736500	-0.233496755502379	-15.0877793763352	-35.8302477883905	102.838025206903	-35.8246780795457	102.143345683194	-0.4596140920099	-13.8673913857005	
8986000	-0.4813592185755	-16.1819597213669	-37.7358084864837	55.1016249183353	-37.691770361286	55.4675026784139	-0.585202786727168	-14.6795128177096	
9235500	-0.577708023188593	-17.9896388487652	-38.5263491566178	16.743100999527	-38.4400377962473	16.7505557757911	-0.619661905017863	-16.3523630251481	
9485000	-0.415023796233869	-19.2705128757719	-39.1255387069969	-22.504271721107	-39.2038411680611	-23.5510976719107	-0.411513184964568	-17.6240471779104	
9734500	-0.140945300646061	-19.4398038561596	-40.0052396578163	-61.1241346206596	-40.0539054458741	-62.3463696071157	-0.0950861592859071	-17.9393145385102	
9984000	-0.0188630020060228	-18.8060530137533	-40.4209009045043	-96.1177834606797	-40.4139687531589	-97.4772418313531	0.0766644744440346	-17.5291049588282	
10233500	-0.182794169896281	-17.9116212396402	-40.1518987524162	-135.242121413437	-40.2446204428357	-136.622621455822	-0.00729141962744249	-17.0978923914384	
10483000	-0.460235605053434	-17.3233776872228	-40.9920665175696	179.928838248412	-41.2525473074375	177.912569599708	-0.270657014848304	-17.3425561804873	
10732500	-0.590490096797481	-18.3902940953082	-43.5231762075514	139.67653166382	-43.7606601992578	140.894131903431	-0.479666935267994	-18.708041023109	
10982000	-0.518670250564999	-20.4829961211741	-45.9791415901125	118.628345367945	-45.8316304447838	117.224693448397	-0.468773504344786	-20.6877943458422	
11231500	-0.252727761770708	-21.9895485846076	-45.535071543366	97.5773214881055	-45.9452731612885	99.4175836190515	-0.248435506033679	-22.0961833804878	
11481000	0.0154932456682399	-22.2693726451688	-44.348338861757	76.8746625681445	-44.2943189719923	74.4809953014251	-0.0181252103301998	-22.3882245682245	
11730500	0.0738630208535951	-21.8489896279897	-45.5307263826361	51.8068194938199	-45.6528861254816	51.8797691369845	0.0443435629993553	-21.7324958690093	
11980000	-0.151878552633641	-21.901832868364	-40.0344613698905	32.7327303131168	-40.2161642359852	32.3670805641229	-0.174075104473065	-21.8477508411701	
12229500	-0.619355497465124	-22.6743226525047	-34.7714135705837	-15.7610096947117	-34.779057409741	-16.3009676086803	-0.606723989817379	-22.4883676636197	
12479000	-0.875473515603668	-23.2348841479184	-32.2530912648841	-84.8426183006403	-32.2939214009741	-86.0588937184334	-0.855691667175663	-23.3603226516772	
12728500	-0.74673471744956	-24.7739852340425	-31.9116184470786	-148.3008037165	-31.8626437031708	-150.33053067389	-0.827654570161761	-24.8872448425526	
12978000	-0.444936027168686	-25.0037091005135	-32.5116967529097	145.886056303926	-32.6566658365508	143.997061351526	-0.580227026360331	-24.3215587039849	
13227500	-0.122438778627577	-24.6511506948348	-34.5905962419238	87.7858738692172	-34.715031920425	86.3023192203572	-0.177443790652048	-23.4756618840291	
13477000	-0.180492900368692	-24.0489167664655	-35.9556948391659	30.2688924440919	-36.002964580288	29.2426821356983	-0.0819828730895893	-22.8229948582178	
13726500	-0.403740854115006	-22.5119330198053	-41.7784724702779	-45.6211200268285	-41.7128438006151	-46.6321667055539	-0.19286006934259	-22.6749729535222	
13976000	-0.527415672215972	-23.7316925281217	-55.3342399342444	29.5079033464377	-54.0683507456381	28.1825085144819	-0.456561037115265	-24.4281792245679	
14225500	-0.635189755281555	-26.2849983201809	-40.6399794820048	-8.02967719054442	-40.7690696622975	-11.63192460781	-0.692424621109853	-26.4356353658343	
14475000	-0.489635769755886	-28.0858618944507	-38.3008390841034	-71.369839719535	-38.3963568346708	-74.9805214964367	-0.534015733840223	-27.4855996551295	
14724500	-0.198645662360031	-28.8943978771181	-38.188169864956	-117.289582896467	-38.2547506224968	-119.093396152416	-0.224189921352924	-28.4692389368988	
14974000	-0.0790625313780437	-28.6377202123682	-36.6816943093043	-161.823072717674	-36.8233479596767	-163.889552050721	-0.192883643626051	-28.5532799076055	
15223500	-0.258373927538261	-27.9654430115063	-36.0616789057165	132.994484865005	-36.3264054381782	130.69682021984	-0.534701792106748	-26.1140061719447	
15473000	-0.721442292735541	-27.8503950846554	-42.1217555962749	68.4594227650732	-42.1484763102951	67.3988029991136	-0.537094898954056	-24.2427349008435	
15722500	-1.11627417766797	-27.2809906399678	-52.1240136175721	88.3530595778131	-52.0216640575298	89.2379741976173	-0.607135803655961	-25.9735669809597	
15972000	-0.94560408232631	-28.0525734843035	-43.7537900507433	92.13681981595	-43.8688243411893	91.8973981799915	-0.59947671909728	-28.674877606674	
16221500	-0.553157627942533	-29.8073793716809	-39.3057705317506	54.7843324598713	-39.135859560802	52.8494479203473	-0.430866674999971	-30.7619076427208	
16471000	-0.247971686037584	-30.334810026213	-35.9260300014388	2.66606470827059	-35.9217227696621	-0.157265919427677	-0.272461083097146	-30.8543897965702	
16720500	-0.107705372142346	-29.3237363628709	-36.1062912206252	-54.9929715230916	-36.2434730847847	-56.8836407819979	-0.124563887216155	-29.4359698714709	
16970000	-0.194922596240314	-28.8662308306832	-37.3124480699673	-95.9949698433574	-37.5087336893013	-97.7194638059984	-0.187735777514265	-28.9509413599321	
17219500	-0.486474672633137	-29.8146239192998	-37.3524305054564	-129.066173727611	-37.3106303773108	-130.771483021646	-0.469390103796634	-29.7647757697313	
17469000	-0.790545788907181	-32.0438958914506	-35.6124662794524	-170.506214110595	-35.7903046262695	-172.359885360667	-0.737135544104172	-31.7011671859159	
17718500	-0.841412397075403	-33.4748122605292	-36.3879409480629	127.919333388132	-36.545733089225	125.547622045541	-0.712983696138197	-33.7788049648885	
17968000	-0.487447487464406	-34.5207516080361	-42.6624025900425	98.7523351551565	-42.9732147344796	98.4128186127194	-0.581759045346112	-35.916836754297	
18217500	-0.28091652417226	-34.7372408450698	-38.2002312497518	105.678942687129	-38.1149865806282	103.333212091831	-0.697298139981241	-34.2585558501971	
18467000	-0.386116720045296	-33.7392108999381	-34.5308073076947	50.4560365947287	-34.6379928692344	49.0191217005708	-0.424378338955436	-30.8156953614347	
18716500	-0.764405841444653	-32.2243537401608	-33.909334556396	-1.89634845441926	-33.9414410202372	-3.50498062213227	-0.403877458174173	-30.5087101198304	
18966000	-1.04580012928439	-31.2434848745639	-34.2979401049915	-49.9163538557692	-34.36287021735	-51.1217691624237	-0.624668128635028	-31.6473475148456	
19215500	-1.00885581082067	-32.5521129073695	-35.0915701823412	-91.1492373239997	-35.0075693390401	-92.8497208945944	-0.763727832717417	-34.0881196227184	
19465000	-0.747929588013279	-34.7721967888158	-35.1463146302783	-127.659208512462	-35.2516858002757	-129.69421042404	-0.709183981270135	-36.5259746564515	
19714500	-0.399234830886051	-35.9006540831582	-34.684913833667	-167.116967492148	-34.6472207546917	-169.459938966464	-0.549613524732063	-37.3049050022939	
19964000	-0.177744300512644	-35.5236510139096	-34.2380398039431	149.090215549187	-34.3447042974055	146.359261369596	-0.402240500820697	-35.8555163693193	
20213500	-0.21696354441029	-34.6907828840978	-34.420581454417	106.464354891553	-34.6742003973258	103.921748848175	-0.336785156093129	-34.2337429516669	
20463000	-0.495081281587116	-34.7317232657553	-34.5456686179531	67.0970533437106	-34.7893029368656	65.2868245468101	-0.499390430165098	-34.1741785375014	
20712500	-0.823563253014277	-36.1826495292792	-34.0818485329387	27.3517034414044	-34.3408099716453	25.4750537828408	-0.804415759040476	-35.7999428043279	
20962000	-0.946151475703959	-38.4151647352421	-33.3885143967423	-16.6149487891314	-33.5498869594957	-17.8025584987059	-1.02470883088083	-37.9563418891917	
21211500	-0.757537237381784	-40.0401004892093	-33.1918754413151	-65.0026466226408	-33.3294637839633	-66.5448406136364	-0.929691740044487	-38.7494219930504	
21461000	-0.46610028514321	-40.4490281300354	-33.8570527591111	-113.238330221665	-33.9576187272277	-115.214339996253	-0.565382616648513	-38.2169125853071	
21710500	-0.413324111679988	-39.5424775104503	-34.8789161116578	-159.107811421294	-34.9261260904386	-160.390966608724	-0.293479026730499	-37.1523249007975	
21960000	-0.641754285999616	-37.7984365844229	-36.1248902452302	156.914246849819	-36.2452546162462	155.353053364574	-0.30265004664611	-36.283329786261	
22209500	-0.939700349728515	-36.7651490972346	-38.0025226915994	116.669955674805	-38.1186403453426	113.458351970461	-0.521573748549757	-36.5916318210471	
22459000	-1.11015973126143	-37.7738398888062	-39.9805876561385	79.0342198097021	-40.0371929698853	76.0829757366296	-0.739303826436927	-38.4734750945858	
22708500	-1.02880047749533	-39.8800645056391	-41.9301572336521	43.7613853792446	-42.1988468221437	42.5368072825946	-0.748681857984139	-41.0758916868718	
22958000	-0.709867866056082	-41.246438524956	-44.7933853480912	7.24910623716518	-45.1790248869801	4.60634163186295	-0.526790043062459	-42.9089517320412	
23207500	-0.355039956271972	-41.4097492602788	-50.1035800086609	5.13691606894858	-50.1618597106713	4.01383735259402	-0.266677007415894	-43.3450452691421	
23457000	-0.304739270685233	-40.600337024121	-45.8228049558041	-8.8455654000517	-46.350325905086	-11.309183379654	-0.248823035684854	-42.9308064396506	
23706500	-0.510038738188444	-39.8405309912127	-46.3170961092896	-46.0475771832606	-46.5468948396245	-47.9145425814045	-0.556397464763797	-42.4840975467571	
23956000	-0.853310608740062	-40.5754386646663	-46.9742261884394	-76.3890665660605	-47.3202141110589	-78.5051210104769	-1.05368214928501	-42.8383780201585	
24205500	-1.11690028372637	-42.6795698045684	-47.3880585456043	-105.677959266472	-48.3979984127754	-103.840590649864	-1.45682251170078	-43.7364632282915	
24455000	-1.10269696583727	-44.6450298495611	-49.1396656080251	-129.321090924143	-49.7821011141519	-130.676241547192	-1.48023004995726	-44.1111703617081	
24704500	-0.833269107495542	-44.9372481817504	-50.8026520664998	-153.995284314318	-50.937878731756	-151.463098143845	-1.0875644358698	-43.1277018092415	
24954000	-0.533699640585679	-43.6210833150838	-51.0470228664057	-166.357557918084	-50.7571183349861	-165.148479942397	-0.622469644630734	-41.812434971964	
25203500	-0.456015722377991	-42.0751664118148	-49.5426875396636	173.150847186296	-49.4774536346904	173.578307715527	-0.418788935988971	-40.6567169889773	
25453000	-0.643393093417553	-41.4104307109905	-48.8808467972671	142.420241682799	-48.904516672795	143.290417635551	-0.528837994587107	-40.3237060041748	
25702500	-0.9238838206329	-42.2625621775856	-49.7333726219294	113.327012025662	-49.6819281841797	109.734775643988	-0.766071602238351	-41.4448724366949	
25952000	-1.00513486471444	-44.3272976552402	-50.0548668477916	82.1329290071057	-50.5925696218568	84.0632607309867	-0.849915480293066	-43.8669994021262	
26201500	-0.761700497909856	-46.2965802367404	-50.8988576673133	56.8881077156067	-51.5053761470007	58.2504427810369	-0.674279935593688	-46.3011459209428	
26451000	-0.381411175748118	-47.0427524924019	-52.0615347349868	34.7934553229059	-52.0309234723855	30.8589226245812	-0.357192396319763	-47.4659394122505	
26700500	-0.146179515448993	-46.5844729053399	-52.7600846111319	19.8763650274225	-52.2062980949233	19.1687380464342	-0.1591062791909	-47.3039628441404	
26950000	-0.225090489187552	-45.9068535380149	-52.1083634342977	2.85923850415869	-52.1233434170976	1.74130108592535	-0.249836859331405	-46.7778861953212	
27199500	-0.552930126680873	-46.2882376126926	-50.9200874343477	-17.531015818436	-50.8215527347946	-16.0701416191341	-0.593668163798386	-47.0670529757559	
27449000	-0.927109479772962	-48.2255891976292	-48.4353168935049	-38.9817729198532	-48.719420577578	-39.0679417903901	-0.993092586856104	-48.8047452085568	
27698500	-1.10750487372579	-50.8743345850357	-45.4127552869579	-69.3546691760158	-45.2173917092532	-70.6094056947945	-1.21502441196032	-51.1339788971172	
27948000	-1.0150503417091	-52.0892883845245	-42.3025305218582	-114.577088551859	-42.3698359695876	-115.552857430407	-1.12419436064703	-52.3735574982045	
28197500	-0.762284537073983	-50.9508296414206	-41.6069776709251	-164.766729365984	-41.9450571979184	-166.085047742714	-0.937517957430231	-52.1458128696517	
28447000	-0.555964099497884	-48.814157048144	-41.7387035369318	149.507314104462	-41.9754609283498	147.558023010561	-0.936943197802325	-49.6321550738272	
28696500	-0.609912529986551	-47.567690401425	-42.1068948742786	105.800579163109	-42.172533746425	104.253556374086	-1.00085499174264	-46.6486660018383	
28946000	-0.883142847558494	-48.0015691424777	-43.2204467601563	63.4056502629501	-42.9821833334439	63.8265194099078	-1.10605521705341	-45.8248376679741	
29195500	-1.1299738892064	-50.0795742439066	-43.8562246230676	26.0753347675517	-43.7123502895871	23.7812319344025	-1.19211422336766	-47.3368972856717	
29445000	-1.10458112497765	-52.4902013040305	-44.3779569928426	-9.68246608235431	-44.46974995213	-10.5227246907138	-1.04160880014007	-49.9553953569097	
29694500	-0.810238070149768	-53.562174760512	-44.8723927788309	-47.2736816303613	-44.682539223663	-50.2531468823063	-0.686869147653722	-51.8647762485641	
29944000	-0.478573847277659	-53.0701999379342	-45.9016155675524	-89.0722281669932	-45.8851730124622	-88.7498943254734	-0.339950117447858	-52.219695798967	
30193500	-0.423313797482889	-51.9334184553445	-47.1252867255182	-122.117661030009	-46.9420865360757	-123.469919369096	-0.250114176509854	-51.6611135819977	
30443000	-0.677759196056884	-51.2339228220174	-46.9873054936053	-152.253351137205	-47.3578386336374	-156.053866832567	-0.466091661923961	-51.3803175806686	
30692500	-1.07379065571797	-51.8951391522186	-47.4985826503683	174.831889763108	-47.7606635154412	172.702603030315	-0.84156247098002	-52.4744551156197	
30942000	-1.3135166699611	-53.6804240345156	-47.4685774033658	138.61128326534	-47.3128456575461	136.449641195712	-1.12394186870997	-54.8895223248084	
31191500	-1.182432074354	-55.3328161523086	-47.2511990945828	101.009056113122	-47.0968784521209	97.347844023126	-1.16330021453564	-57.3339234314652	
31441000	-0.799029530460435	-55.6919195126101	-46.8895558068815	60.2250405350573	-47.0248377637668	60.1336807194672	-1.02584559398389	-58.0116490357108	
31690500	-0.487279915150321	-54.8250845480582	-46.2908784649891	23.5450391818343	-46.3377027625067	24.096799713721	-0.916183090826009	-56.3031977280623	
31940000	-0.469835658933132	-53.6980521365434	-45.1136371099313	-14.2431195335743	-45.4500608388973	-14.6349996465497	-0.956738390194118	-53.4533879305624	
32189500	-0.72641273291308	-53.6352006579855	-44.4982290095706	-59.7214219224799	-44.4548208562441	-60.2420180131062	-1.11523777894034	-51.5886406542373	
32439000	-1.05529566683461	-55.4150472470309	-43.8895033130201	-106.306789945661	-43.9606400841338	-106.048211185721	-1.30826302278325	-51.9218963475071	
32688500	-1.20955261300143	-58.2915328608603	-43.997423824069	-149.779655787177	-44.2712149379047	-150.590719139299	-1.32214362723169	-54.0621786345416	
32938000	-1.05800005966849	-60.2949073997926	-44.2688625434579	169.591468263101	-44.5935926681738	167.784099945666	-1.04934246379959	-56.3480153649172	
33187500	-0.765632347001365	-60.2397803776928	-44.8619900616896	131.044673341746	-45.0910239129977	128.168881107542	-0.645756129504368	-57.3425654465758	
33437000	-0.612897008217929	-58.7525204108848	-45.6190512855219	92.5455892141714	-46.03775357954	89.758759889031	-0.39042122262641	-56.9834036064801	
