!Keysight Technologies N9923A: A.12.45
!Date: Saturday, 02 August 2025 19:57:11
!Timezone: (UTC+08:00) Kuala Lumpur, Singapore
!Model: N9923A
!Serial: MY61181427
!GPS Latitude: 
!GPS Longitude: 
!GPS TimeStamp: 0001-01-01 00:00:00Z
!GPS Seconds Since Last Read: 0
!CHECKSUM:0672669809
!Correction: S11(ON U)S21(ON U)S12(ON U)S22(ON U)
!S2P File: Measurements:S11,S21,S12,S22:
# Hz S DB R 50
2000000	-0.0643227693137048	-2.18429516084693	-72.3367389804063	33.3104563832954	-81.4464845957476	-163.210994932854	-0.0773180827673922	-1.70503197690335	
2249500	-0.380272418235908	-2.84105080855855	-78.0785141889496	-105.975333061013	-82.0952787119606	-136.174123347214	-0.380343835563529	-2.35146647735595	
2499000	-0.525033291021243	-4.58963988490927	-68.6278251166197	162.354228586687	-66.6542034568466	145.865071452068	-0.559564542100469	-4.1238864030051	
2748500	-0.372805837580448	-6.36711122050063	-61.9632737883954	73.5590877659072	-61.9114440601367	75.5544723211018	-0.383484673536609	-5.45959135614241	
2998000	-0.0979319343619952	-6.83166374003119	-56.9673613309028	1.36863931869989	-56.7001617810481	4.57513907479791	-0.0549164192051832	-6.39040987502985	
3247500	0.165214661297974	-6.2509803912123	-65.025676539563	-67.0078873572338	-63.7678586526618	-71.0526560390662	0.147865871954207	-6.16223082328999	
3497000	0.1176762404295	-5.66705950443161	-67.1979970688689	-82.0812284590325	-65.8497196925294	-81.7990971069974	0.0945221047260423	-5.58994120203495	
3746500	-0.181154482314428	-5.7372175801333	-64.0855955343315	-98.3865914610475	-63.334907775827	-89.7800299676614	-0.181332667488513	-5.56979624472577	
3996000	-0.495115251281939	-7.09104195054967	-61.204209205012	-120.176933203891	-59.9153937149104	-118.328399980083	-0.462092674496337	-6.6718212830981	
4245500	-0.582747817583528	-9.03211744314914	-56.7900209961584	-156.21287005604	-54.3515167951426	-163.983927729585	-0.502523374403208	-8.47933476061734	
4495000	-0.289613336417719	-10.0560411142633	-58.4357970877711	115.076076687866	-59.2046615833162	109.220046222437	-0.270524181160318	-9.78950528262014	
4744500	0.0519858272851572	-10.2988482551877	-63.005795026591	94.0593372235712	-62.0352572145872	84.8808337023342	0.000764312273111507	-9.93286057560004	
4994000	0.175986295510189	-9.53790736574866	-56.1219939759395	123.074715959957	-58.8971857251612	123.515892541733	0.0397963341067434	-8.66498480764345	
5243500	-0.034826941323911	-8.37398880827529	-47.6761567055637	27.9480819381086	-48.4892736490949	34.2169335450541	-0.0285746340101046	-7.23384222449486	
5493000	-0.298575727118	-8.33958213278496	-52.0934735787349	-50.0985736215173	-52.3357864789623	-48.9434370696064	-0.297660623417653	-7.50532094682014	
5742500	-0.530275237057218	-10.088764560768	-55.8717322141924	-80.6730375566191	-55.4944380784776	-80.514615826643	-0.518079952695913	-9.230276081966	
5992000	-0.489003709502774	-12.321971430105	-55.877880881085	-101.893660994861	-56.1135187994536	-100.878765959202	-0.465834043739208	-11.4752278602359	
6241500	-0.226989268441447	-13.7450060037344	-52.4925892000693	-135.408568108271	-52.6669881663356	-133.478706284512	-0.193659734480396	-12.8551679425357	
6491000	-0.0332186508966827	-12.9791080887431	-48.0549073898172	161.601102836758	-48.4988707188703	165.674063055685	0.101745919341513	-12.8920114952655	
6740500	0.124651502208839	-11.6721233301503	-50.5398905378862	102.149591596937	-50.7608041965087	101.842302030811	0.149421806777909	-12.1779029648894	
6990000	-0.0688202292963172	-11.4400612600883	-51.8310311217832	76.0212392103573	-51.9331602121354	72.2696747323965	-0.0870310311783407	-11.7925057738029	
7239500	-0.412095978704134	-12.4767674327239	-50.2871341954927	42.3936010590983	-50.0910127521161	40.8303714440472	-0.48018238361431	-12.5216816826789	
7489000	-0.605994319956603	-14.6896866155742	-46.5758508504447	-6.53376657446423	-46.4334686587023	-9.11595576222638	-0.759689235997497	-13.7000339409328	
7738500	-0.508721343283312	-16.7287850699157	-45.2349135764078	-70.5957736609173	-45.5798004280612	-73.9714243428903	-0.553695049202681	-14.5449340764099	
7988000	-0.228975690835143	-16.8375596245418	-46.5891086074721	-139.787057630587	-46.6208899138107	-140.620815037119	-0.146510438170799	-15.1728760859343	
8237500	0.081119974221832	-15.6471620158184	-50.6797167186476	166.573460572874	-50.7942198352509	165.141826944399	0.12791021313117	-14.7014597401231	
8487000	0.087023287899263	-14.6323278418551	-54.7417340309819	132.495561538156	-54.4753053184408	132.724310226167	0.116153242781764	-13.8834674427406	
8736500	-0.200813498177413	-14.4178690870953	-56.8410337456883	107.668960213939	-56.2440228058578	109.250145798269	-0.160798042828868	-13.7765396405809	
8986000	-0.548159634143893	-15.6342229865588	-57.0113529674667	74.9375989734264	-57.3403647452866	80.9003884870021	-0.490959810079921	-15.15261057551	
9235500	-0.654653634370569	-17.8617079876162	-55.6499358095903	49.7696787196882	-56.4313600220255	43.3943108865279	-0.61639606293991	-17.5463819315685	
9485000	-0.446255701716229	-19.6134697934951	-54.1766565508146	7.80322791404571	-53.8123454400512	-4.04555237683111	-0.477140067738033	-19.3924695064288	
9734500	-0.127771535471897	-19.8082351529328	-52.882063129881	-52.2965336575715	-55.0122560992175	-66.6023649365268	-0.171251375783605	-19.2591538145815	
9984000	0.0344921898189105	-18.6905068926031	-54.5438515923227	-123.518969959151	-57.6056215468497	-118.897127729208	0.0474644582462408	-18.3696425048401	
10233500	-0.0691251794035949	-17.5857279521748	-58.0453724111538	178.742902283229	-59.9846505395364	-149.423772517686	-0.100989106876529	-17.6234431298171	
10483000	-0.377579884099693	-17.8500842199323	-62.9222127359114	155.335821519806	-59.476984713999	171.030011875512	-0.508145482321766	-17.0836675088344	
10732500	-0.662631557507174	-19.8086117845615	-65.9180342940037	106.849337820035	-60.4774039460407	112.284143341349	-0.727652298065109	-17.656493723498	
10982000	-0.693702086043551	-22.0546990640098	-70.3613354026924	71.7764502754198	-64.3262891412756	37.8402073983694	-0.634402747242878	-19.668820924145	
11231500	-0.387563997294769	-23.2977016438063	-68.694807340859	90.5288848080115	-67.7696534195844	99.2278400412522	-0.304489834076581	-21.241062271506	
11481000	-0.111853822881289	-22.8184894163015	-63.3359675548474	51.8768931965657	-64.6898107901533	48.6852319380609	0.0252346137386642	-21.4316878853898	
11730500	-0.0434295193180376	-21.0144271487026	-62.6013299786105	10.5224940074399	-63.5703366465694	9.6397972532998	0.114688928289305	-20.7688176506272	
11980000	-0.193638643919277	-19.8014567863311	-65.5755446638991	-21.3001615988343	-64.0615168670627	-30.7225267273361	-0.122788343171382	-20.3614597220805	
12229500	-0.512518125094177	-20.5572344753108	-64.2171303371695	-37.3569075321621	-64.664430318749	-56.1964511159891	-0.553555831035226	-21.1444020472638	
12479000	-0.731518053051688	-22.9932197340617	-61.8824194874058	-73.4034486591771	-64.0752992604001	-80.0535355283025	-0.927078596594871	-22.8521715731939	
12728500	-0.659509664152704	-25.6373028301409	-65.0995027822981	-97.9339114560635	-68.1699320305805	-92.1180416450723	-0.890759739533004	-23.8570154771389	
12978000	-0.404272752489731	-26.6262937634067	-67.4232655373084	-114.574159403276	-68.738145381102	-151.40980878317	-0.454287777611892	-23.9185876472864	
13227500	-0.176546700883773	-25.3221972929611	-70.940086736044	-142.489015016173	-73.4897938656833	-97.356207330382	-0.0511022196710228	-23.3413282319599	
13477000	-0.109976736665132	-23.5482950382038	-69.8219762125157	-132.287430934834	-67.4533055395254	-129.866650947704	0.0359416663307889	-22.4468835181167	
13726500	-0.322353634816168	-23.1224268713858	-66.0682756570552	-143.180244111499	-66.2613790447013	-150.575158142884	-0.19583891288489	-22.1814777089553	
13976000	-0.662321058718855	-24.531496301196	-64.3860830120193	173.003312090805	-62.1672164499948	177.49056844134	-0.535819454242402	-23.4084477873399	
14225500	-0.823828965991587	-27.2224388287243	-59.5384195666836	135.97098571211	-61.4584558111423	137.639421841164	-0.697214598739988	-25.8897070961857	
14475000	-0.718993994589777	-29.1611568354904	-56.5212428796621	70.4473933828597	-57.3898509480528	69.990166462291	-0.580132005315095	-28.1764830879982	
14724500	-0.391572209105808	-28.5267491234976	-53.2356712462631	-37.9784422648683	-52.6677493952409	-46.1445506297349	-0.362658367702188	-28.7181830268877	
14974000	-0.0523683929431697	-27.3093495343967	-48.5205375569453	-179.17938042838	-46.8782960608793	170.005690608025	-0.219324093467399	-26.8431914745772	
15223500	-0.211837594423101	-26.1809207095123	-46.1995429683987	54.9086601031219	-45.6360497143773	41.9917029170833	-0.235673268679883	-25.1019576725015	
15473000	-0.515250024958299	-25.5488980412233	-47.9676920882084	-45.6217889439598	-47.2571183537717	-48.7241853232306	-0.476984701104772	-24.6203699125431	
15722500	-0.798440008413778	-27.4139070449234	-49.5524105030888	-110.25779814065	-49.3358808377767	-113.868753015765	-0.736802040046963	-26.2158126056734	
15972000	-0.854857594426822	-30.3895551061269	-49.8957980413252	-164.598889682287	-49.245280652419	-170.701080767977	-0.786859834430216	-28.9766322505051	
16221500	-0.641233773540128	-32.277258541672	-48.4479386460061	139.620735163193	-47.9826064620682	133.917904621796	-0.582206486521966	-30.8997506030071	
16471000	-0.356162812597783	-31.7659953253877	-47.4990550107553	81.3670831729915	-47.2777377487172	72.86033631317	-0.305270225220775	-30.6494232190783	
16720500	-0.198909279283102	-29.8258634748533	-48.5029538941553	20.4416686515755	-49.4019887284575	12.4019058855511	-0.150730945485339	-28.9049050299123	
16970000	-0.309260514068031	-28.511900036508	-51.3087416947219	-29.1155190964873	-52.222840668325	-33.5574437486263	-0.245590091874374	-27.5534670248036	
17219500	-0.634467387608587	-29.0064235653429	-54.2319858875624	-64.4996735731045	-56.3317989971373	-68.0982208302964	-0.551401334511928	-27.7924987817791	
17469000	-0.901595941244321	-31.2915413116757	-56.900283870392	-93.415283979301	-57.7408377614723	-81.1142551538437	-0.810187217044642	-29.8199158091557	
17718500	-0.862577403437395	-33.9051382782632	-58.5053551878638	-112.755162742052	-58.2929892536505	-95.3146892280806	-0.786207087708179	-32.4606627385588	
17968000	-0.566503733776013	-34.9048365863982	-58.0890095459749	-123.734062723532	-56.9940293656351	-106.997522267845	-0.520836348466835	-33.9685837357648	
18217500	-0.259223725623305	-33.7927548651895	-56.5367583773284	-153.206528947001	-54.2357623382995	-144.602981590374	-0.273354849914039	-33.5183845328793	
18467000	-0.168875009949514	-32.0209356039769	-54.6268628124495	168.48666076368	-53.1277496954624	167.94375368318	-0.25795952957979	-31.7598699177737	
18716500	-0.395469803352848	-31.2518252983207	-54.4582155127804	131.167998309346	-53.1455598897467	122.992422831878	-0.479731692199863	-30.2954786823846	
18966000	-0.774729750596402	-32.3940877137275	-53.8253993226222	79.5712778932115	-53.1753539576904	81.5970594685684	-0.792426097834928	-30.5208090829686	
19215500	-1.00415253600027	-35.0867725225608	-53.9024840636278	39.9613460737731	-52.9139864389176	35.4977922333968	-0.927715610238534	-32.5828540601073	
19465000	-0.898565743837543	-37.478176495592	-53.6525712234239	-4.49800210271174	-52.6331697838658	-9.6704103561093	-0.747954436866419	-34.9472821527247	
19714500	-0.562700975751613	-37.8703024889668	-53.2957093919447	-53.2139702383713	-52.6735663235964	-53.0033339378512	-0.372507307821896	-36.0425698878219	
19964000	-0.291511877946938	-36.4831211548953	-53.0543367680966	-96.5551325879759	-51.4544904220783	-97.5368029937922	-0.117662659577511	-35.5607637806401	
20213500	-0.314144192797792	-34.8913380347888	-52.3125107175498	-137.385870855149	-51.3294349817004	-142.895733098984	-0.181857939705824	-34.5154912911329	
20463000	-0.632846837206575	-34.4782684695055	-51.8279253954984	178.576516626922	-50.6857250209714	177.638774261595	-0.552691266776545	-34.066776858111	
20712500	-1.01277747142612	-35.9551347100189	-51.53240072623	141.699179205531	-50.5556291218083	137.656747353538	-0.978176276740484	-34.9852907339752	
20962000	-1.13830373811168	-38.554614817358	-51.1713628879898	99.8211659701744	-50.3307680681636	93.3241029682463	-1.12666437602399	-36.9031936803647	
21211500	-0.919848245876734	-40.211893161804	-50.9999551502838	59.3694669867025	-50.1181374455102	54.792955520365	-0.874522155953797	-38.3566273745096	
21461000	-0.541492539238754	-39.6989138220569	-50.0443489170839	23.5414326595406	-49.7939640209183	16.9444999770095	-0.44680481933244	-38.3022213643348	
21710500	-0.300531279227219	-37.8969751843093	-50.4320810804258	-16.0802614954782	-49.7012200360142	-23.921298726693	-0.18111367767761	-37.0660258871722	
21960000	-0.391375564649063	-36.4606420537172	-50.210547904567	-58.1773129199473	-50.0909581483481	-63.5448889356938	-0.25148428880604	-35.8421391294069	
22209500	-0.753664827687574	-36.6687314386242	-49.7300862847853	-98.1762743776018	-49.9188001125255	-100.08979805528	-0.589435517220995	-35.882090862554	
22459000	-1.09894054800709	-38.8118436017786	-49.8158085138017	-138.820287580986	-49.3448435335665	-144.724107469655	-0.917202319981815	-37.7630283662928	
22708500	-1.13055496863278	-41.4410552722095	-49.4457739658996	172.878204989825	-48.3149875932381	165.798287368041	-0.964043932815347	-40.5870759216422	
22958000	-0.790833597152172	-42.552021366319	-49.4904314580561	112.461567908275	-49.0636492546422	106.408129532934	-0.69799517541425	-42.3685353813735	
23207500	-0.366347966128234	-41.939314257072	-51.3240006545301	60.0696284147659	-50.7773928797191	48.2693708666322	-0.381940531589856	-42.2281583455595	
23457000	-0.242908181194124	-40.4717010403178	-54.8790982452867	9.98879456558553	-53.7349662330058	-0.116828088303237	-0.301552629440193	-40.6786372740039	
23706500	-0.484377387384332	-39.2922146332193	-57.2970002431484	-33.3143086868134	-56.0740402355615	-44.9511654926696	-0.528236199627726	-39.1015015486894	
23956000	-0.877630541255383	-39.7759843947182	-58.2052765500761	-55.550881430149	-56.8524695209875	-81.6549883312596	-0.891491938944349	-38.9270373438163	
24205500	-1.12184252390067	-42.1744349220054	-56.7970836108943	-90.2485106715102	-57.4696034781681	-104.856521262234	-1.10476911713561	-40.6398783951586	
24455000	-1.00416468183348	-44.7954364651997	-56.6531246159075	-121.134929941644	-57.6073653410956	-143.359833873282	-0.967252725310907	-43.1031134622903	
24704500	-0.628795952577914	-45.605367683253	-56.2265331161946	-154.213662848773	-57.4425803140275	-165.114769663467	-0.562171664773086	-44.1701078095071	
24954000	-0.312904116192388	-44.4056340026765	-55.9502277652973	163.197280762804	-56.9394847021156	162.991061269139	-0.244839775554768	-43.8376215506676	
25203500	-0.287446791751155	-42.5734397348328	-55.5853315747298	127.807173477918	-55.8527012465014	127.949207666261	-0.237069678674502	-42.6588472500761	
25453000	-0.570061446635544	-41.7961640614437	-55.5328386455739	100.673051080542	-56.6810210397255	93.0720937156835	-0.566439312051898	-41.9856313131311	
25702500	-0.968181485506729	-43.0850499107722	-54.976027175781	61.1981739802789	-55.1213357081567	49.9274525838889	-1.02780978640125	-42.8368829449637	
25952000	-1.13964957646235	-45.9973430321084	-54.3274611794511	16.3315297778289	-55.8120275473754	17.6833376813623	-1.27353257548379	-45.0398110124775	
26201500	-0.930902043555766	-48.3769031544593	-55.7721863414824	-26.673351978151	-54.9161548464616	-22.005953220679	-1.12312330768093	-47.0047763674817	
26451000	-0.535213835004389	-48.6125099924209	-56.5841595765105	-81.2323319459656	-57.2509555057303	-77.8082387362781	-0.71577507476496	-47.2592835120982	
26700500	-0.268996562584484	-47.1281874954244	-61.7550387975274	-137.917760547454	-59.9148430482742	-135.95592184503	-0.40137056075343	-46.0391508233366	
26950000	-0.341244789461331	-45.4512463825676	-73.5924126919444	105.516676386896	-61.9510171622249	161.615030309589	-0.413896878950403	-44.6335316884354	
27199500	-0.686494106616339	-45.203697276421	-66.8012787647953	-105.300515701566	-82.9260235261086	-92.1996518915169	-0.755480717621604	-44.2953124924447	
27449000	-1.04572477967246	-47.0576563549035	-69.9942092653553	176.572041553153	-75.1923955447362	-39.728532102225	-1.16570630699717	-45.4441793936688	
27698500	-1.10845848058421	-50.0822307813928	-65.1894022653485	85.1450463892987	-66.9782627292969	166.927594990107	-1.23428813542979	-47.5688195940781	
27948000	-0.81623694786059	-51.9771033651214	-64.7348297407825	21.9381043980611	-69.5306731215525	57.6805840120331	-0.91337342756339	-49.4554086029484	
28197500	-0.452504905580655	-51.6157546897484	-65.2125966719572	-25.3898327247398	-68.2066595785129	-25.6822468409184	-0.511507571104345	-49.6953036616129	
28447000	-0.306823822502425	-49.771654290547	-66.1251348540143	-68.0924918221978	-63.9449874676266	-62.6294300139595	-0.349063571368532	-48.5464279366773	
28696500	-0.499742207306517	-48.265291871994	-63.9216532008472	-120.147415887453	-62.9592800612925	-129.281521099648	-0.563080628973659	-47.2156982687305	
28946000	-0.905458159253289	-48.5291224500403	-61.8339467324974	-159.7111638658	-63.0514448580683	-157.406486749715	-0.999284716402585	-47.0713324805901	
29195500	-1.22003007046823	-50.9468063327877	-63.5063460760101	154.201076902321	-63.8589792621655	163.618308546334	-1.34441830198847	-48.7549162285493	
29445000	-1.17316321933069	-53.9827429354929	-68.6732584847881	119.048339196228	-70.5131201335516	136.65791725207	-1.30286491666776	-51.2581018462296	
29694500	-0.825854771755375	-55.2324176388914	-65.5082773340518	73.95734018937	-67.732568124392	46.6995013371495	-0.914139355148018	-52.6971441990765	
29944000	-0.488744981109583	-54.1930751338504	-68.8435167576702	37.4089275227262	-69.4935155997946	-16.2882988243012	-0.497451748858894	-52.2083986588546	
30193500	-0.429281818729448	-52.1150189518642	-71.8851401367576	-53.0764726697393	-67.4209534811396	-81.4345894500504	-0.373128480077056	-50.6483030696592	
30443000	-0.685060163038785	-50.8280145734032	-63.3562341340292	-140.069743868908	-64.0937805241066	-132.298319690483	-0.614742056046195	-49.4513616792678	
30692500	-1.08518964697936	-51.6756984758656	-62.6969003976872	-167.930741528215	-62.2818307005484	-178.960876401483	-1.04300138352432	-49.9357111914754	
30942000	-1.30375198150262	-54.4460871401208	-60.9615266639211	151.092990862978	-60.3352912463392	140.775557561225	-1.34211598936826	-52.1918506455678	
31191500	-1.13123607380692	-57.0812795910665	-56.4097543510897	102.424779262874	-56.9385943068974	99.2875402659513	-1.26692786161772	-54.7437744030934	
31441000	-0.73755013479569	-57.6065351932229	-55.9835521660846	61.1754063580246	-54.4012997676693	54.9724128035919	-0.910504538529053	-55.5672302963919	
31690500	-0.460982954036313	-56.1020903767463	-53.8824403017833	18.7804832487197	-54.8407538549471	8.38932789798563	-0.589279039252261	-54.3425395653899	
31940000	-0.516959375660063	-54.1310628936536	-54.177795917567	-36.5852984357194	-53.738493903036	-38.8425431285099	-0.56329078212975	-52.3136944482239	
32189500	-0.886940617111175	-53.5350859952167	-54.7363555001772	-79.9853895887778	-54.2015911999747	-90.5300163675886	-0.833745613792948	-51.2411511556904	
32439000	-1.31654324100719	-55.3120408584711	-55.6556106895777	-126.428892168164	-53.841000444622	-128.942169497101	-1.20300243481888	-52.3105026266882	
32688500	-1.45975797256486	-58.6136579184766	-56.3402981035331	-175.517591205919	-56.769501659801	-172.60231085665	-1.3643568485427	-55.300154970792	
32938000	-1.1907685815975	-60.9657865155572	-57.5462639717787	145.966795728201	-58.7979652298121	139.327621017569	-1.16836390039004	-58.0386772320295	
33187500	-0.775020868436144	-60.7509638291527	-58.8870168063352	91.9828714437873	-58.187495519536	102.083180787688	-0.794193424343139	-58.5873311878379	
33437000	-0.551448388649867	-58.6609061435174	-59.3597985578181	47.4314537804654	-58.1088753778393	66.7954172692467	-0.533415533486994	-57.1085973980903	
