!Keysight Technologies N9923A: A.12.45
!Date: Saturday, 02 August 2025 18:44:43
!Timezone: (UTC+08:00) Kuala Lumpur, Singapore
!Model: N9923A
!Serial: MY61181427
!GPS Latitude: 
!GPS Longitude: 
!GPS TimeStamp: 0001-01-01 00:00:00Z
!GPS Seconds Since Last Read: 0
!CHECKSUM:1742711769
!Correction: S11(ON U)S21(ON U)S12(ON U)S22(ON U)
!S2P File: Measurements:S11,S21,S12,S22:
# Hz S DB R 50
2000000	-0.058137305297594	-3.02352227926359	-62.6332741758549	-103.793227562903	-62.471617894693	-97.6593426807063	-0.0814179454535787	-2.96314476938989	
2249500	-0.25988639054046	-3.65333605437477	-72.205423179716	-95.1880657100361	-70.2540024556095	-83.6445263309694	-0.267701402254765	-3.6281836611445	
2499000	-0.348945671911103	-4.91616421851329	-71.5945239045813	-84.0183628496799	-69.4421596151926	-70.3638845251727	-0.347513007873621	-4.85866275176231	
2748500	-0.24648077051942	-6.15323784579768	-71.7178019274669	-97.0995163827538	-71.0473703539535	-100.755938708025	-0.243863036247362	-6.03250293123971	
2998000	-0.0400584826110643	-6.69398315265428	-68.61740453953	-117.303863370578	-61.2113345861013	-112.390831567338	-0.0494405099581254	-6.56862446462657	
3247500	0.0946552840858558	-6.55334898497104	-65.1869647158222	-104.000728008963	-63.3926920444229	-113.858168281245	0.0706157372065667	-6.40201654307138	
3497000	0.0431099413206133	-6.33429888570756	-55.2889125422289	-125.101230641051	-54.8214386339208	-124.473662059782	0.0347440675167857	-6.13043248237466	
3746500	-0.160368720420301	-6.03244923768923	-53.71714246732	135.295027943196	-53.3855075295434	139.292581262922	-0.148349962169383	-6.22435232168759	
3996000	-0.318815113169977	-7.07222017185739	-59.1829707189779	132.443718997076	-61.2399184865343	136.811311756371	-0.322402604906816	-7.15717512843561	
4245500	-0.348125533906171	-8.53605954440795	-66.0575002487076	91.6605262915985	-66.372521727702	81.9366533574722	-0.342139538952653	-8.42692795600145	
4495000	-0.202520101160258	-9.72290643848591	-67.8278521320989	156.441541890654	-65.5213850937402	148.936608828136	-0.193118972714595	-9.49189154611215	
4744500	-0.0405931124623718	-9.90432227248489	-53.3116878102153	146.725895396438	-54.1967882154388	146.286488120599	-0.00244049368739608	-9.75161660934616	
4994000	0.0922669621102179	-9.41423754714443	-52.7760863207404	93.3965022560617	-52.9635718621385	90.1480633980951	0.0861465614868332	-9.44699716486782	
5243500	0.00228371405246926	-9.23967034253871	-52.7058890308755	77.3228472718331	-52.4834701527307	73.3762450499313	-0.0104324626135334	-9.23316606432895	
5493000	-0.215486939371846	-9.77532118384686	-49.4449269209518	66.693293478474	-49.3963448167239	67.5349014568792	-0.213068853128534	-9.61985382664387	
5742500	-0.420425562122725	-11.3947031154095	-42.5762987774449	50.9224670388518	-42.5102955640928	51.3029892586081	-0.372489361090124	-10.9151879551275	
5992000	-0.590830357886741	-11.5692224051123	-39.5324031114444	-65.6500196174628	-39.5615501836737	-66.335062734447	-0.377628622823689	-11.4029361561438	
6241500	-0.154600740600519	-12.2276377339071	-43.6939039261639	-88.0094391545767	-43.5858161357876	-89.5531775598347	-0.157429022406337	-12.7219654609109	
6491000	0.0560231465681925	-12.5821201973377	-45.4920938811755	-100.228061823524	-45.6684567609687	-100.248951655071	0.033601101543803	-12.9106832043685	
6740500	0.0943710024841047	-12.3642901976528	-44.683305639105	-108.770252095546	-44.7025385508106	-110.152885140984	0.0569775048509207	-12.685837924154	
6990000	-0.0656023057233666	-12.4402807876601	-41.5729251317433	-120.127501808735	-41.5361306354916	-120.521861289829	-0.106405469811152	-12.7956005013577	
7239500	-0.362910294579465	-13.4720319039526	-34.7222256126958	-150.26524449578	-34.5894903946345	-150.644720104338	-0.447161567260869	-13.8251317277372	
7489000	-0.462960711099955	-14.0690864375751	-38.3440557137998	110.446346374216	-38.3681333714496	110.255487002987	-0.459240989299289	-13.5274316860061	
7738500	-0.512152326526704	-14.8271481526835	-33.351030877337	124.241839668636	-33.3382674758075	124.117679647057	-0.453602033385687	-15.4713961146096	
7988000	-0.132108787589146	-15.5474802151611	-34.2304955967118	72.8184361653342	-34.2630164701477	72.5734232239588	-0.241501703960348	-16.3453015083954	
8237500	0.013069991607451	-15.7000034678371	-32.8717245232988	33.6594995106164	-32.8541929266936	33.1474943973452	-0.294691501541014	-16.0624044163548	
8487000	-0.0466433729033082	-14.9459349498066	-33.508091840441	-24.1051750406882	-33.3876003192989	-24.1161165621699	-0.303276097171579	-13.2784302502952	
8736500	-0.200158549698123	-14.7207391653471	-36.8084520993374	-63.9604864305597	-36.7410351141834	-64.6048755677575	-0.237199085974392	-13.1263010342591	
8986000	-0.385546022411108	-15.6021515226572	-39.3734617879095	-90.3350035907877	-39.2934586494467	-90.6678305477651	-0.350945794860194	-14.50613593617	
9235500	-0.431066416541594	-17.1464766202111	-40.8492711608124	-111.538639131197	-40.7316727291102	-112.07382428566	-0.389228852839505	-16.3621007103586	
9485000	-0.291373247984318	-18.4766319695065	-41.2399302994852	-133.59977812662	-41.1420452604309	-134.39018207036	-0.266800034740453	-17.8928122646272	
9734500	-0.0843638193327805	-18.8628940388897	-40.6817988491316	-159.810434822349	-40.6173548905321	-160.688542475455	-0.0827898249726022	-18.4668674966476	
9984000	0.0225288000706894	-18.3740898158628	-40.3621475784158	165.530673714004	-40.3205185779651	165.045043709387	-0.00288599062652612	-18.0929125999999	
10233500	-0.0417954325225101	-17.8635374924802	-41.3690996853073	127.796544434527	-41.4974155710633	125.494574416452	-0.0679213584916206	-17.7145572410342	
10483000	-0.240728945237185	-18.2425441841118	-43.4889725898796	92.6052573371241	-43.6928269419264	90.7127269170778	-0.275304770266442	-18.4904993872943	
10732500	-0.420271325741618	-19.6960166841542	-50.350796193476	42.4829799618709	-51.1782689354968	42.236174676742	-0.713701478894105	-20.853002761857	
10982000	-0.471442152674984	-21.766940205012	-39.5352591894093	110.736725397807	-39.7007046922283	110.711255367779	-0.723885127794104	-17.7869621811972	
11231500	-0.436568337351748	-22.9077017915229	-35.696738088338	28.5692077604621	-35.7225128745222	27.2908452801454	-0.369186383013586	-20.6480081356879	
11481000	-0.416521396628175	-22.5997866208008	-46.938935710887	2.51983853833118	-46.6013037606593	3.30727412770779	-0.141871880486102	-19.6136108825036	
11730500	-0.262548181336588	-19.4274870840904	-39.5223350352665	-44.124435516027	-39.4610289548192	-44.5529090481197	-0.00200053118610325	-19.7530144590595	
11980000	-0.187449317553423	-19.2591751834918	-44.5102889037975	-93.7875700339349	-44.7974906541597	-96.074595964021	-0.11703677167666	-19.3829129549275	
12229500	-0.351247176814442	-20.1502864012949	-50.6663389224257	-112.408863673357	-49.8082322062828	-109.918544405802	-0.293341850492381	-19.9996088404135	
12479000	-0.455093902333279	-21.9438443372854	-49.2539259730331	-99.3372103966045	-49.0791324605127	-96.9183275361926	-0.404558166527012	-21.5857710860425	
12728500	-0.371873457683506	-23.939351695326	-46.2754399273977	-108.328451234871	-46.1819221249127	-108.326687775323	-0.334573233393167	-23.355305877837	
12978000	-0.177905985859399	-25.1664909632948	-42.5869396287627	-130.235996909767	-42.6977125154265	-131.350938655756	-0.134803018671323	-24.4866707817447	
13227500	-0.0816240113444344	-25.1877050594563	-38.0203195485627	-165.098397570998	-38.0262585006963	-165.90471751057	-0.00223695677994267	-24.7596609753072	
13477000	-0.111136264654951	-23.8877038280239	-35.6598557383863	138.239155732712	-35.8237603868613	137.126819773045	-0.0597563199922709	-24.077114188685	
13726500	-0.201306968089023	-23.8538977717761	-36.8802473141011	93.7412923283119	-36.9699687817143	92.8507619621204	-0.202352521139287	-23.8902893649957	
13976000	-0.4230613549243	-25.3014849199288	-37.0648932233228	64.6995224666905	-36.9834390630345	64.2234945258219	-0.415636810953527	-25.0604786881384	
14225500	-0.598754401473576	-27.5679718357994	-34.8935010156631	33.909312745856	-34.9683268664421	33.7460925484541	-0.572182474246982	-27.1797500543227	
14475000	-0.686494338079721	-28.9189179795398	-31.2602623382726	-17.6332332456647	-31.2315837305486	-18.3623169440337	-0.731397137253779	-28.5894299500967	
14724500	-0.514262696890911	-28.4995534491116	-31.9214709673194	-101.840151024719	-32.0850270976722	-102.650827071863	-0.522350289780396	-26.3077329891175	
14974000	-0.473271566571053	-26.6385414550112	-40.1498725824868	-173.471601840985	-40.3681951282933	-173.596691756669	-0.0788902140212314	-25.928040282246	
15223500	-0.337563126211214	-24.8549951380517	-57.6119501893061	172.506071601263	-58.3172104798903	-179.272616780433	-0.0363502202604104	-26.3671152783015	
15473000	-0.392433784916807	-25.0567667414059	-48.6600475626509	-95.4422596510024	-48.7450005538495	-96.6014862873781	-0.24817546890413	-27.4172087278233	
15722500	-0.520168938466724	-26.5993975670587	-41.9473466818114	-120.759233309059	-41.9220574087965	-121.966704389426	-0.560488127426349	-29.6339879036207	
15972000	-0.530440960368891	-28.7367092051603	-36.1878342583994	-171.776212061781	-36.239166962328	-171.580357872505	-1.03261948564219	-31.2619241622421	
16221500	-0.347611901067169	-30.1243718744382	-35.5238245131592	121.973715338688	-35.560557090075	121.861462374704	-0.812794869095078	-28.8073682950584	
16471000	-0.102500764053084	-30.685874310115	-36.5161953543867	80.9409145256973	-36.5953417652256	80.7570748320446	-0.308453311669841	-29.1174437592786	
16720500	-0.0421476059587992	-30.7252842780528	-35.2838986783228	47.4919604777778	-35.2927960240705	47.5114246478982	-0.154318527337246	-29.3664029436652	
16970000	-0.340203298744524	-30.7188725292134	-31.7448266764303	-0.0301310935445033	-31.7928114421318	-0.434857753951793	-0.35036482888878	-29.1289855378807	
17219500	-0.657586751120869	-29.5851507669471	-31.1983392653395	-69.9931606118062	-31.3212923243486	-70.460005111556	-0.504916535679592	-28.548466773062	
17469000	-0.703090922829572	-31.1041529414917	-33.2553122584454	-116.576948729427	-33.3541494941856	-116.560574978786	-0.559141878649848	-30.6073295996778	
17718500	-0.71947674196997	-33.5599579508099	-32.4577068344251	-154.227921035896	-32.4718363224753	-154.006164012857	-0.616228273140304	-33.4178817602536	
17968000	-0.695202566363569	-34.1830481121747	-30.1302015739689	133.365662491807	-30.1683766355482	132.890854846073	-0.920228344839207	-32.9711778908607	
18217500	-0.564086336779162	-32.4236817201762	-39.2577626206717	70.6160232459242	-39.2389212904622	70.0358162232236	-0.188992877567374	-30.842617402792	
18467000	-0.258269809643007	-30.7828515669411	-43.5348324187376	63.4117500005306	-43.4914246301656	62.6079941185657	-0.00981507008112566	-31.3978922265714	
18716500	-0.277666834928266	-31.1225518208231	-45.2862058702136	52.7437948669432	-45.406897972735	51.8389999036719	-0.138077422009103	-31.8216234008437	
18966000	-0.471747358152404	-32.5234025236301	-46.2659614785601	39.1507483663199	-46.1831581596479	38.2862299327742	-0.363840719594329	-32.9514030722948	
19215500	-0.598235098935143	-34.8005598679596	-46.3588787213138	27.4294284455477	-46.1221770937393	26.9353772948292	-0.489630939707074	-34.945299768518	
19465000	-0.546913714460701	-36.9992898389006	-44.9252026761507	12.7558101151908	-45.1863581819124	12.742571965438	-0.430566571524744	-36.9851164716814	
19714500	-0.41336445719779	-38.0306424156888	-43.1809722196871	-9.16237140824865	-43.3553961537626	-10.6618662329878	-0.254486298993929	-38.2558298391351	
19964000	-0.333439598974879	-37.415132702955	-42.6570601358971	-39.8827197301996	-42.8802938587673	-40.7082289497238	-0.176943151091657	-38.6241457355663	
20213500	-0.396989445214119	-36.8667098887893	-43.547301632477	-57.7848200587355	-43.7249188423522	-57.6807668192172	-0.358645188492864	-38.7790543056072	
20463000	-0.74877804028765	-37.3100190066643	-41.0453449845936	-65.3572766438818	-40.9613145314025	-66.5761398000072	-0.885575860217682	-39.2314959363242	
20712500	-1.23407896009445	-38.2682226790917	-35.9560541308941	-97.2071345146259	-36.0302002503779	-98.1064730963687	-1.63258695577622	-38.7421897764855	
20962000	-1.55736872335504	-38.6629192079884	-32.9497770823382	-152.889078125661	-33.0565827925319	-154.246278649586	-1.84975871174856	-35.344122204503	
21211500	-1.42094513679576	-37.5440605402508	-33.4363630375323	147.543118326797	-33.5238309457909	146.276287516482	-1.14516410130412	-33.9141389075637	
21461000	-0.931703413449343	-36.2772008948559	-35.791758072131	99.905933524142	-35.8734026213655	97.7499490741929	-0.46049328616684	-34.9398490804587	
21710500	-0.59796296497342	-35.2448973739696	-38.24387028347	61.5885414902354	-38.4747806899444	58.454962801649	-0.120737441008086	-35.7537107038276	
21960000	-0.541928417797277	-34.326485686222	-40.6785178420809	27.0359016670995	-41.1114539894881	23.7050411642553	-0.115785653561167	-36.3658077741498	
22209500	-0.64017115500654	-34.3858025547797	-43.2654549265578	-2.06917624601097	-43.7102290863576	-4.76507386234132	-0.321600501524677	-37.6362688282913	
22459000	-0.727035843026127	-35.8956652776097	-44.9208678962473	-29.3264455930141	-45.6871076206788	-29.2864848107434	-0.552629921268824	-40.0248025436495	
22708500	-0.650578196140755	-38.0830183741902	-45.9701419225824	-50.4325642867729	-46.7004181156236	-49.8770272762841	-0.687019491888358	-43.1101214792846	
22958000	-0.403376322069691	-39.7184376138766	-46.7123939889744	-80.2117405021819	-47.4596112791689	-78.5209993227683	-0.82200968191365	-45.5009068215254	
23207500	-0.147221233042422	-40.2152559135715	-52.6086226721464	-128.38372741686	-52.6571611918725	-124.722586369908	-1.11526483102153	-44.4831399913359	
23457000	-0.0785620924632768	-39.8026790472122	-47.1619191346272	-62.6961364363881	-47.2942177801462	-64.9422460844151	-1.30516215810266	-40.0315799140055	
23706500	-0.218089834438249	-39.675239115649	-43.9433808503676	-114.003356817922	-44.4478319862812	-115.687580187692	-1.05773523948962	-35.8304299845826	
23956000	-0.480397950460918	-40.5985654142403	-43.414422894307	-145.081370940073	-43.7641844510312	-147.041284079715	-0.875198472431574	-36.1102289694415	
24205500	-0.676939997472563	-42.5435490594186	-41.7586686718578	-167.708012288111	-42.243471737776	-171.013980438194	-0.817021549622825	-38.4417603544448	
24455000	-0.667354186887958	-44.4862242023775	-39.0260614884388	164.634392561571	-39.9393388548872	161.194317642841	-0.669790252911395	-41.2197456985291	
24704500	-0.477049343504261	-45.1991530072474	-36.2775593941242	128.481056862307	-37.4014259931485	127.504784214949	-0.427317656506357	-43.0747234687563	
24954000	-0.275249938480871	-44.889268005676	-34.3149388076207	87.012995910206	-35.3101186652972	89.963901841404	-0.325323616190518	-44.0976878382591	
25203500	-0.333517232310017	-44.501039851249	-32.6211048388148	40.8605600742027	-33.2978080026825	43.9840667255948	-0.62434474724715	-43.7164820412501	
25453000	-0.676834787443954	-44.1674139325882	-32.7351361277444	-14.0363796046602	-33.5181658329232	-11.53738813175	-0.97585081590807	-40.6271699328208	
25702500	-1.03371604490284	-44.4213479135633	-35.6515641799318	-61.6221366944802	-36.4032422716246	-56.2066560486241	-0.928548163699437	-39.9018711717819	
25952000	-1.17153993527393	-45.450807299192	-38.8570496777914	-95.4212947482071	-39.3097711445694	-88.2280522831152	-0.83056905450654	-41.8023228172102	
26201500	-0.986069256328711	-46.3624060300859	-41.9289307809107	-122.710691780423	-42.1237588209525	-114.026678147485	-0.613017724349688	-43.9614283920721	
26451000	-0.634578433977819	-46.6656486245468	-45.2781225136489	-145.995773663863	-44.5884045867812	-136.11641825162	-0.310585659522204	-45.1296028536567	
26700500	-0.426693975336117	-46.4318757118102	-47.9347739896922	-159.349601652869	-47.2783248449284	-152.567080736976	-0.105311458699777	-45.2668014789309	
26950000	-0.566818093292761	-45.819799001866	-49.7770388129883	-172.321701222002	-48.6763544083983	-167.66626267711	-0.121537859096608	-45.064600127947	
27199500	-0.903143743785032	-45.1313249678864	-51.4129771055296	173.399202683234	-49.9367950540107	177.67746083574	-0.321925278075231	-45.4829872339794	
27449000	-1.10276353117095	-45.2000169608035	-52.9380217939993	172.824639781593	-52.6817668311926	166.72827072874	-0.532666932561136	-47.096058185426	
27698500	-1.01009591670828	-46.6477458984636	-54.5856708828397	178.340527254462	-54.1698915239549	165.656959390931	-0.58572110282257	-49.415046123911	
27948000	-0.69279615469687	-48.222982207978	-53.4004376648001	172.468898624611	-53.1157591164958	168.385433502342	-0.436302427390977	-51.4852978656204	
28197500	-0.356647347387299	-48.7797049729486	-51.1329485886378	172.181879313288	-51.2550263967318	171.193718793885	-0.253790474166264	-52.6183684160681	
28447000	-0.197747002868729	-48.4654076518105	-47.407303009946	166.289487023488	-48.0154041716955	164.808107445584	-0.264086342612192	-53.1184467513723	
28696500	-0.308672984097198	-48.2879205377364	-42.971750464831	150.231475323363	-43.7503782647012	148.725526505121	-0.671993983546028	-53.763083550926	
28946000	-0.579450641246269	-49.0549223281603	-37.846553105509	117.238187160437	-38.3481855041783	119.941997195401	-1.52205566052252	-53.6313396729537	
29195500	-0.807061110822577	-50.9521995725417	-34.4116205182986	67.3855418915471	-34.6103433113575	72.5416202393821	-1.88768362922651	-50.6762788940915	
29445000	-0.830321737927893	-53.2348832581297	-32.833583729925	16.7433664898187	-32.5447632497711	21.2078694187067	-1.62579434308102	-51.7991319613347	
29694500	-0.675947582846722	-54.3409605711684	-32.2515912294375	-39.4983640893286	-31.9472313272459	-35.6683479974266	-1.58346694296651	-51.2850920666038	
29944000	-0.487506207385014	-54.1922111415232	-33.8073737862043	-81.0340897783748	-33.3422529619202	-76.5337434823698	-1.12633831670041	-50.6793088608941	
30193500	-0.526989887587466	-53.4932430454425	-33.5270309359006	-133.652262564643	-32.9469730159436	-130.541033865803	-0.975142409035534	-46.5657361633121	
30443000	-0.866819401103188	-52.8286030869415	-35.6011628498014	178.931649724491	-34.7564305528594	-177.472270292605	-0.665212113747919	-46.1107521115078	
30692500	-1.26591880461062	-52.2097176830467	-37.2971214897413	138.244644152903	-36.4359714718969	139.571973168967	-0.710625298794439	-47.59929275292	
30942000	-1.32132419083999	-52.5218107619057	-39.6729285180819	98.020907854797	-38.5205056341563	98.5700382154542	-0.755933621241453	-50.0587174815576	
31191500	-1.02940455109085	-54.075910669893	-41.6026278467316	64.011410508716	-41.0697558499131	63.474843361351	-0.624264629093254	-52.6622850522345	
31441000	-0.655338703715658	-55.3053978780611	-43.2104923584955	36.6020040198676	-42.3249306953834	37.0538471700134	-0.361353948279364	-54.3139672641522	
31690500	-0.432391142183057	-55.5314875947193	-44.0842426550959	13.391799416978	-43.3533362514268	13.3807130679223	-0.151544579267973	-54.7116855157659	
31940000	-0.501860382738803	-55.3316185196003	-44.3132115572035	-8.67512678861677	-43.4378436135998	-11.0859945747219	-0.173704696864321	-54.6031056684957	
32189500	-0.819134235776132	-55.7974950294045	-43.7274945536074	-31.9237379587765	-42.8730194823557	-33.7247243060103	-0.413018455547334	-55.0133270565651	
32439000	-1.2099008281131	-57.408027490929	-42.907168097499	-58.0968584022858	-42.1874918472517	-61.6508159370752	-0.724499376804244	-56.522604819925	
32688500	-1.44747649431624	-59.6595585879505	-41.849679021411	-87.5693501072768	-41.0721532654146	-93.7678556997338	-0.923643807648395	-58.8837570122987	
32938000	-1.44765409382867	-61.0981703032873	-41.004136124289	-123.179259284269	-40.5046500578413	-127.642754771874	-0.950363994495513	-60.8523202789081	
33187500	-1.34953819233671	-60.5708024631257	-40.9432613336156	-165.884687133983	-40.6746756104132	-172.105144437984	-0.923387940341134	-60.9545378010508	
33437000	-1.33630847759831	-58.1887362677456	-43.4751410740959	144.723621496888	-43.6802824716542	138.841506604387	-0.904914488096231	-58.5427038108966	
