!Keysight Technologies N9923A: A.12.45
!Date: Saturday, 02 August 2025 18:41:37
!Timezone: (UTC+08:00) Kuala Lumpur, Singapore
!Model: N9923A
!Serial: MY61181427
!GPS Latitude: 
!GPS Longitude: 
!GPS TimeStamp: 0001-01-01 00:00:00Z
!GPS Seconds Since Last Read: 0
!CHECKSUM:1513487766
!Correction: S11(ON U)S21(ON U)S12(ON U)S22(ON U)
!S2P File: Measurements:S11,S21,S12,S22:
# Hz S DB R 50
2000000	-0.0575570870532506	-3.00081869595576	-60.1086215035214	-94.4764468776785	-61.5474246266984	-84.764129451471	-0.081627215515931	-2.93160904234489	
2249500	-0.250668551934527	-3.6446693786691	-69.2367988405443	-87.4926631171332	-68.1140176750045	-88.9542526742572	-0.269233249894358	-3.60313794446177	
2499000	-0.336164068386086	-4.88713087760874	-67.4984386700525	-98.1649842298327	-67.6620931465318	-101.978788981235	-0.347587796452619	-4.83446851613222	
2748500	-0.240893226343388	-6.08762976749411	-66.3707030002087	-91.8755732494905	-69.797588399866	-87.9938880074692	-0.246296242402582	-5.99496531772527	
2998000	-0.0395338974716608	-6.61281260742572	-66.8405007620328	-93.6551145409327	-65.8271329004869	-97.526839136072	-0.0545899904562925	-6.51134724453353	
3247500	0.0873555348854106	-6.50008597296425	-62.0530162691833	-102.56745892108	-62.5920941760473	-100.89163484464	0.0728892438771622	-6.36684939774	
3497000	0.0428995959120606	-6.31009387435534	-56.4469663798147	-125.776019992539	-55.4451590214038	-124.255133006575	0.0302207294445162	-6.09082335465726	
3746500	-0.159835659122049	-6.04530989356054	-52.8448896916404	139.302227848983	-52.4069810238934	145.583816512093	-0.150043893038438	-6.18809298541311	
3996000	-0.310502036821404	-7.05567895784114	-59.5130441627739	127.222502351671	-60.5405708599747	129.01532695533	-0.32792178200264	-7.12425043466285	
4245500	-0.33667339747983	-8.48550476152608	-65.7440392934767	93.8705732375901	-64.8758239508506	79.6701040657219	-0.344317925196055	-8.39437842082985	
4495000	-0.197177537314851	-9.64155292914558	-71.9664072458564	140.21082790151	-68.2281707924927	158.431309338766	-0.196894845201041	-9.45995984422992	
4744500	-0.0388675088351896	-9.85276652028583	-53.0130356018691	149.663567737509	-53.3897551522519	145.932656635126	-0.00949201845856967	-9.72726415121511	
4994000	0.0884832999607871	-9.38521995146904	-52.70476556191	93.9177846634347	-52.8505148163831	93.6111484947686	0.0825608867460647	-9.41906969499571	
5243500	0.00369134777101063	-9.23605564587311	-52.9790759804536	78.4686412020808	-52.2427688246906	80.2901276548589	-0.0126477782989796	-9.22141158671021	
5493000	-0.203295524250977	-9.76339259535414	-49.9475983536608	70.3871954418342	-50.1275339757898	70.1625741870726	-0.212152246744697	-9.61130247632878	
5742500	-0.385032659312246	-11.2997661023652	-43.8747246811786	59.0575334865725	-43.6524903355882	57.1492757269845	-0.368717087988215	-10.9016352070627	
5992000	-0.661239096292153	-12.3513767655173	-38.3073720906876	-12.6532445689805	-38.2075213050004	-12.7145704236674	-0.373642675773269	-11.6760476377584	
6241500	-0.176781069706587	-12.0160039976782	-42.3666212050389	-84.8465608346333	-42.469013881584	-84.782551074093	-0.128778089570487	-12.7266405179057	
6491000	0.0525908069963051	-12.4982790013139	-45.3355616819353	-97.4898309749349	-45.3998413959147	-98.5258309755364	0.0297937641073317	-12.8977826431376	
6740500	0.0923766141976745	-12.3362085462758	-45.0303769094526	-106.160443619704	-45.0195903382694	-105.98432304166	0.0572250475543371	-12.6534279388939	
6990000	-0.0591343648472057	-12.4468550339019	-42.5391833940985	-116.109104109154	-42.5236940365577	-116.321205199012	-0.0966849693179927	-12.7284141848254	
7239500	-0.326675081520666	-13.5438942602486	-36.4385087356612	-137.800606573501	-36.371961120262	-138.333635382968	-0.379368120815644	-13.7675697217133	
7489000	-0.466458653796568	-14.1321065631694	-38.2642606578534	119.815036160752	-38.2861034072071	119.157936352234	-0.46727858585056	-13.6263561488306	
7738500	-0.572006849653431	-14.9700846794165	-33.3007715764778	138.92347113842	-33.2955044094142	138.76718171798	-0.441535789714617	-15.6667124537571	
7988000	-0.138344665947549	-15.3151010615418	-34.519480737243	83.2573142537599	-34.4793299053134	82.6657386777484	-0.219785369527513	-16.4105249799534	
8237500	0.0321143382655208	-15.638249930089	-33.3012764739452	50.0719276077241	-33.2623398077359	49.9984415929446	-0.230112988048622	-16.6006022724884	
8487000	-0.0585388531474015	-15.1613380447301	-32.0878845680719	-7.29184182157918	-32.0013288517891	-7.700391297046	-0.41750152984742	-13.8566422202543	
8736500	-0.215973401162356	-14.7807784709182	-35.5988736073453	-57.8066407789204	-35.6121746134886	-58.0500803453703	-0.27510317532799	-13.0288024158544	
8986000	-0.387423864998678	-15.6215825038321	-38.9558646137634	-87.1617089191584	-38.7815618924863	-87.3470845522762	-0.357181803261923	-14.525364999861	
9235500	-0.423860799162083	-17.1450298162087	-40.9038616653462	-109.143277191884	-40.8160032913823	-109.539523276742	-0.38789594598748	-16.4182334583707	
9485000	-0.286109627261844	-18.4571629837863	-41.971621092555	-130.27938348034	-41.725365805386	-129.439680667126	-0.263629438638708	-17.964411619213	
9734500	-0.0828707156952983	-18.8655239572109	-41.8097677555839	-155.560731590301	-41.7410084125459	-156.166469068635	-0.0761834981831473	-18.5744156284672	
9984000	0.0178872395382672	-18.4201797571794	-41.8428339770564	169.356791425202	-41.8848229548834	168.920185040543	0.0126824606377826	-18.3128604249495	
10233500	-0.0430327757080347	-17.9191322000307	-44.8200188213534	129.534979437747	-44.9321818568807	128.93544477436	-0.0542947827027863	-18.191652846316	
10483000	-0.226115331279298	-18.3288931027117	-57.6225273580376	140.759708991293	-58.6518088999006	150.054575253236	-0.361019092905085	-19.5311824084019	
10732500	-0.418369304605781	-19.8328751736311	-37.7674428298246	150.761466529011	-37.6928350116046	150.509130371838	-0.990350326436604	-17.3411262067494	
10982000	-0.444311194587307	-21.5989519189009	-38.13304315988	92.5436154974783	-37.7769239902277	90.9229273476817	-0.513174821209608	-19.0157765560826	
11231500	-0.358223656088557	-23.03836662985	-35.8241674410906	49.2492306486946	-35.6027722793971	46.3006211733968	-0.337472893294515	-21.182476492063	
11481000	-0.329130024107496	-22.6352646277888	-35.9485508994507	-28.6102643296374	-36.4011681841176	-34.9531785684451	-0.324895189303915	-20.0638478605729	
11730500	-0.386256129916466	-19.9804849071026	-37.8151515209729	-41.7045672973856	-38.0168436438986	-41.3857894491031	-0.0375457170895923	-19.6926035827076	
11980000	-0.290151832742678	-19.0435929581473	-43.5760622960019	-165.679098565124	-43.4696371501215	-166.591399200488	-0.207020071756482	-18.8625986104334	
12229500	-0.329627550437793	-19.983480669126	-50.9692695958526	-72.8833333119725	-51.6135940859388	-74.9344220573684	-0.284784763593658	-19.7216532146929	
12479000	-0.434176248852873	-21.9160213419231	-48.5451420623005	-90.1926449290202	-48.0500738365164	-89.9286145691532	-0.414337262563653	-21.4024013638902	
12728500	-0.357596474742005	-23.9009370696031	-46.6605329000268	-107.926873695709	-46.4198841840957	-108.217770116232	-0.331812566792474	-23.1500652955404	
12978000	-0.170882037520957	-25.0999333017527	-43.7236599941479	-129.413113206564	-43.9673051415299	-127.65624770267	-0.132658770272559	-24.2739829265663	
13227500	-0.0667766463480956	-25.2250606456526	-39.6609041935925	-158.221857620877	-39.6365893746001	-158.649267663398	0.015734434711894	-24.5334177267708	
13477000	-0.142337731565781	-24.1140105331633	-36.3011661825461	149.519990170328	-36.2798275817136	148.944029579828	-0.0404404039831343	-24.0635930246603	
13726500	-0.226840750017348	-23.7934157419562	-37.1957549293205	99.1459527410952	-37.1213782435551	98.3558523221484	-0.191366944147408	-23.8230290033165	
13976000	-0.428372828285898	-25.1601887570456	-37.6870697267368	66.4440377103452	-37.8215593320326	66.2616068197967	-0.401570800474351	-24.9961797422598	
14225500	-0.578228751655207	-27.293783011742	-36.2084834993416	35.7336348597194	-36.1812200152343	34.5786938438823	-0.555099540498793	-27.1849056421319	
14475000	-0.621343160300932	-28.7534894074697	-32.7755660663993	-15.2358168497485	-32.7261404684798	-16.0453366050173	-0.761968409085394	-28.8813732916105	
14724500	-0.498935951934983	-28.6639677340057	-33.8547933661828	-103.083880141347	-33.9330921813877	-103.7513153029	-0.584712264727416	-25.7454506163239	
14974000	-0.478968527395284	-26.8457282798924	-42.9179106250196	-170.811269470042	-42.8264245031854	-170.277051614485	-0.0787415781907668	-25.5763846793807	
15223500	-0.375437078525731	-24.9106674057721	-63.0433608970864	-173.64434983995	-62.5608022090008	-174.337898276521	-0.0310226763611049	-26.0996068519911	
15473000	-0.412396332929645	-24.9330361176915	-50.4553472753257	-89.1250147415961	-50.4220879262183	-88.4503697823023	-0.229115384614279	-27.1597490636792	
15722500	-0.515831683834526	-26.3903142334093	-43.4543623523593	-118.121041239164	-43.4480448961645	-118.507160497046	-0.526643620278691	-29.4042271544153	
15972000	-0.504170257912298	-28.4761272681484	-37.4850383049552	-165.626636868162	-37.5035475307686	-165.739025886156	-0.976486826143895	-31.5385565168876	
16221500	-0.324318128679106	-29.9221057015092	-35.7886768089378	127.544572776732	-35.7280380315485	126.860333521218	-0.925239188609618	-28.8884765355649	
16471000	-0.0805529225805211	-30.5079484643336	-36.448657046538	82.7464627526034	-36.4504764470748	81.8885722807194	-0.376605991661611	-28.6584252112919	
16720500	-0.0269115175032563	-30.6527814345198	-34.8357316968195	46.0558368245383	-34.8878111343864	45.86585550442	-0.188682732419393	-28.858612274797	
16970000	-0.349226359766238	-30.5115232650644	-31.3876411591263	-6.79166438543622	-31.3658086533944	-7.06410021081702	-0.36096089447628	-28.4741503363408	
17219500	-0.580669076166284	-29.3132638398068	-32.1792916683278	-75.3502154003649	-32.1695663140521	-75.7766355776007	-0.455504906439327	-28.1907702123995	
17469000	-0.632060372847381	-31.0282879159692	-34.1865885731808	-114.844514664204	-34.195726449204	-115.392454319766	-0.534840299909152	-30.3377212724606	
17718500	-0.64283172315521	-33.4761485864131	-32.918350962398	-149.240906991524	-32.8581964010744	-149.545721772227	-0.595989622607203	-33.1698151424344	
17968000	-0.641908821554434	-34.1381430115981	-30.1287707446332	136.505945330874	-30.0757445044882	136.211932197396	-0.905374168932969	-32.866149391083	
18217500	-0.504737037064628	-32.4780059812894	-38.8856546522251	64.4309961088045	-38.9093186944537	63.7757734887184	-0.234670892895807	-30.635259757512	
18467000	-0.226993590477595	-30.9344182157593	-45.6934955057899	57.3024256366678	-45.5866954485872	56.2110755329974	-0.0380414483352378	-31.0192635859539	
18716500	-0.245346512683635	-31.1966011195418	-48.3414052934461	52.1828698743238	-48.3641033905052	52.9607152829716	-0.144451268091619	-31.3684461681707	
18966000	-0.430766648217305	-32.4983477968458	-49.3027051709361	46.977985663012	-49.5406402396182	45.3492571671126	-0.360818631881196	-32.4351605096035	
19215500	-0.540085025832028	-34.6510663672711	-49.4591817476795	36.9138007682075	-49.751471200646	37.6812439081017	-0.476966268296502	-34.3438440627198	
19465000	-0.470761747682255	-36.7644032605797	-48.2691964219668	24.4488185194673	-48.341529116343	26.1302421128799	-0.403982080834549	-36.3199376967363	
19714500	-0.311920432073584	-37.8950812501115	-46.7269445670035	7.26533102911833	-46.6897470174974	5.42998277049191	-0.20768288214598	-37.600101790703	
19964000	-0.23701737183993	-37.5540271732864	-45.9069830651523	-21.2103609410481	-45.9113600657347	-21.9816393984942	-0.0983313434192382	-38.0434148685803	
20213500	-0.291256011173479	-37.04441736379	-46.983613576111	-31.8270858555469	-46.824857855153	-32.8389168687327	-0.241423422984774	-38.5420446206763	
20463000	-0.579300340415787	-37.7020079125278	-41.3753724971232	-31.7931383535056	-41.3935138638133	-32.4115732510408	-0.859547216362398	-39.9998429136514	
20712500	-1.00047684126448	-39.3143918947967	-33.540003503452	-88.0260907942824	-33.4736445932841	-88.6602188948898	-2.08697931234515	-34.8911558407067	
20962000	-1.38006554617121	-41.0830156969896	-34.221841298574	-160.513347328109	-34.1543384439699	-161.064687168507	-0.95082526600438	-32.4065624921555	
21211500	-1.54156361436877	-40.266398793912	-36.0626226933303	154.097665139408	-36.0653894407104	152.852556097819	-0.467140708529144	-36.1238154069369	
21461000	-1.222504118646	-37.6229747378745	-37.2673182370239	115.121324862963	-37.3121972992598	113.615566972209	-0.165821166080334	-37.9625811221897	
21710500	-0.863399364843313	-35.5694371068404	-38.0901345941454	78.0327193860802	-38.1409484126837	77.6031409825612	-0.0280456644656509	-38.5617735782247	
21960000	-0.750609117786081	-34.1720184551649	-38.8909575727024	39.9440132770101	-38.9902511682227	39.2709162593297	-0.138132149873414	-38.8917470463106	
22209500	-0.788239616768916	-34.0442822362786	-40.0397628418967	3.32325925299072	-40.0084361160689	2.57619387705403	-0.429218767743298	-39.8140704193748	
22459000	-0.826114411723282	-35.5206191325118	-41.0815266561651	-28.7896830359937	-41.1038541399199	-30.6391035716401	-0.716868871944958	-41.6643907074509	
22708500	-0.721533258499814	-37.7344425871598	-42.0724770100218	-61.4425328110068	-41.9830912010447	-61.3592896689365	-0.858941738121271	-43.9759171081944	
22958000	-0.462581060716484	-39.4376440944814	-42.5301330757033	-95.0547327047047	-42.5697994931668	-94.4629769751885	-0.870629236990333	-45.494579732642	
23207500	-0.205083277775939	-40.0323484714198	-45.3378330965227	-142.488199259618	-45.3278649535031	-142.810413956999	-0.85678897356872	-45.2868117199341	
23457000	-0.132058919435611	-39.7067125836041	-51.2936249698146	-87.4743126597942	-51.3186658332404	-85.9487935167341	-1.07323465342317	-44.9867647906163	
23706500	-0.266227626189931	-39.6373919606321	-43.2955898322225	-121.689705816143	-43.2344546863115	-123.834578680388	-1.7537763673737	-41.7697848922428	
23956000	-0.521517964424887	-40.6193781684845	-41.60835021954	-159.92865234716	-41.5468421239132	-160.676384560497	-1.9934914096617	-37.1550873022871	
24205500	-0.71405651844435	-42.5705556818303	-40.8014949656423	171.335377468376	-40.9165498487647	170.549790892555	-1.71108496159968	-35.8666997596328	
24455000	-0.712930051045001	-44.4913355156155	-39.089520623269	144.493400513713	-39.0903413738167	144.567635732546	-1.22815020293963	-37.3288481623809	
24704500	-0.498168687907281	-45.2373083840676	-35.6230546587664	98.9570957832177	-35.6766078223862	98.3124068224757	-0.793411188435344	-39.1004484749241	
24954000	-0.364631222027396	-45.3321221568792	-38.4519860445752	39.1853363268615	-38.4675268885833	39.0110661142125	-0.450375989048937	-39.0253711532804	
25203500	-0.457389480462801	-44.5445453638843	-42.3884815801645	10.7573335686866	-42.2887004879746	10.2781527951863	-0.282939014956774	-38.8293445444353	
25453000	-0.754651695280418	-44.1647722192167	-45.2336642585956	-7.93197631955002	-45.0549929149213	-11.523927213058	-0.361675847454859	-39.0142180025198	
25702500	-1.12848530364922	-44.515207335153	-46.9920285454647	-24.0636572128277	-46.4994740581504	-27.0165808931218	-0.542707288193135	-40.1558932244804	
25952000	-1.29017671231452	-45.2528771120525	-48.0236345891762	-44.7588254335165	-48.7966167645847	-46.2197458440956	-0.609542486133188	-42.1628475348913	
26201500	-1.08490017390415	-45.8644652106502	-49.8100427706201	-60.0637134232062	-49.6936440287515	-61.1052509160739	-0.477193690480779	-44.1560002644987	
26451000	-0.715240707990785	-46.1704624201904	-52.4816411549467	-62.885828750427	-52.283402854312	-68.3409830661389	-0.218844088003797	-45.2221008262308	
26700500	-0.519280394915082	-45.948030933723	-52.189445026309	-68.2340106908114	-51.6676553067013	-62.2386184242943	-0.0403188096215855	-45.287315693765	
26950000	-0.659849346355297	-45.1025971228749	-50.6631705995983	-77.0870770992482	-50.8307979739801	-74.9221735290947	-0.0683369482754042	-45.0271210324141	
27199500	-0.944985712760744	-44.1545622442252	-49.1833037978344	-92.5293370624284	-49.6163118940176	-97.9553815168454	-0.269221029854213	-45.3819855914556	
27449000	-1.09425052096083	-44.2472651473213	-48.3758989043468	-108.209254335887	-48.859638530162	-109.744903448564	-0.487697876778173	-46.8601003881845	
27698500	-0.984921793094004	-45.7831876094372	-47.5379986675578	-127.472546992303	-47.521489127612	-126.220410758024	-0.555137874540048	-49.0102080810057	
27948000	-0.664196106830997	-47.3718734870515	-46.0756426823753	-150.101239181223	-45.99947452457	-149.945992272814	-0.423785968874368	-50.8147886322018	
28197500	-0.328559489366609	-48.0096792639059	-45.8056174851957	-179.633546309046	-45.6312724940017	-176.888484725246	-0.218682091027029	-51.4306502975242	
28447000	-0.169503228451851	-47.7554350565037	-45.3245728903132	161.040248551991	-45.8383496511836	162.423332390317	-0.122026270821902	-51.4661064959987	
28696500	-0.269867923577086	-47.6365755815235	-44.5955805038818	146.200360015353	-44.5437342455175	145.374468905666	-0.299902306504584	-51.7973792282071	
28946000	-0.533975044879217	-48.4332265224261	-41.9919237987861	128.786259452774	-41.9868118154438	126.781587077107	-0.686563662710477	-53.1949040865066	
29195500	-0.785763370016807	-50.2633954732032	-37.7814101984888	98.0672307882602	-37.774154834214	97.8644383808462	-1.15137185006017	-55.3305327802965	
29445000	-0.824682482449125	-52.1172398065874	-33.8764334249683	45.8599576534343	-33.9465287240298	44.3211663272951	-1.41714532557146	-57.0205622024805	
29694500	-0.645090069277479	-53.1313500269349	-32.9198144430238	-14.9903096636075	-32.9829516845437	-15.1066500361476	-1.65655409442138	-57.9444033256673	
29944000	-0.456801007566103	-52.8123554935806	-33.1761128000106	-69.1634691343528	-33.2693446348356	-69.4300021392085	-1.7362264031457	-54.7295943907245	
30193500	-0.450334399912926	-51.7622722221414	-33.3378861909074	-127.814789057747	-33.3805001182664	-128.063037655289	-1.88257976181749	-48.7596199744333	
30443000	-0.658690252234834	-50.7414612751272	-35.32253238588	175.898981482835	-35.2431414767963	176.264225294221	-1.46770271238868	-44.6537736629823	
30692500	-0.861935582067205	-50.6826997362401	-38.0125551568292	128.235854286866	-38.029642510626	128.419994287184	-1.2167484598166	-44.9190936586173	
30942000	-0.892114774962508	-52.1643539240503	-41.1951719122881	91.6793273050336	-40.9306996297415	90.6529564049403	-1.07134699700218	-47.3670944783241	
31191500	-0.707132444429372	-54.2131820156894	-43.8481231208036	61.950942083508	-43.5528723076537	62.1729096221424	-0.841819409573386	-50.1773035601003	
31441000	-0.416592162615206	-55.4117057236128	-45.2562572284195	41.5524154260631	-45.5125432871789	40.8271623814363	-0.507251222393348	-51.9999878186358	
31690500	-0.220714447975366	-55.5179870197958	-46.3161613086342	21.2110833430406	-46.2661312467043	20.5342954063711	-0.238490814872953	-52.5517245404337	
31940000	-0.267597000138939	-55.2712183432036	-47.069843752686	2.10416934253729	-46.8698139124988	0.910748344095009	-0.206704446063232	-52.5270196310173	
32189500	-0.529537803413415	-55.7126033675718	-46.9082957452944	-17.7048906161194	-46.800488013136	-19.0311859522503	-0.389031726053825	-52.965709241967	
32439000	-0.834623703102481	-57.4071968922044	-46.3518469426607	-39.2340302132378	-46.2709460067173	-39.3950154587165	-0.646666115954378	-54.4950902054571	
32688500	-0.989614105366193	-59.9027598075981	-45.8036273945565	-66.5867096190392	-46.2499749517833	-66.1806263627348	-0.790977484624862	-56.9401218927353	
32938000	-0.933769339545247	-61.8903134350998	-46.4739018938497	-99.6082469440946	-46.4582566030265	-100.177226080592	-0.770852818560433	-59.2470732783005	
33187500	-0.822657704118182	-62.3519415950089	-49.2125358618767	-145.193557003479	-49.3213738637965	-147.988988187192	-0.737415356705909	-59.9931666116263	
33437000	-0.874909737532686	-61.3508215426543	-62.144103698786	83.7202670885797	-61.8446896780029	62.3907638663397	-0.776260628127994	-57.8042410874365	
