!Keysight Technologies N9923A: A.12.45
!Date: Saturday, 02 August 2025 19:18:06
!Timezone: (UTC+08:00) Kuala Lumpur, Singapore
!Model: N9923A
!Serial: MY61181427
!GPS Latitude: 
!GPS Longitude: 
!GPS TimeStamp: 0001-01-01 00:00:00Z
!GPS Seconds Since Last Read: 0
!CHECKSUM:1881408844
!Correction: S11(ON U)S21(ON U)S12(ON U)S22(ON U)
!S2P File: Measurements:S11,S21,S12,S22:
# Hz S DB R 50
2000000	-0.0637634385552142	-2.77010137885382	-82.9264133739557	100.283182764176	-95.855206514094	-56.9981656286505	-0.0903602173438104	-2.72150608560833	
2249500	-0.324665832771762	-3.46640337251098	-71.9062954233955	-169.305938333087	-71.4639109090207	-97.8521655839653	-0.333869853461941	-3.33646597833308	
2499000	-0.444005938567114	-4.93670950404461	-64.9907936811697	-106.527631573535	-63.5988374761054	-103.124450048417	-0.437222796351337	-4.72671160541025	
2748500	-0.318763341721648	-6.43414133054816	-53.0412218237976	-130.900846878264	-52.0971808999895	-134.997059886466	-0.318762114468558	-6.16457078297643	
2998000	-0.0383832865828401	-6.71229718190855	-46.6111209023639	92.7314212244846	-46.3057749054211	93.2585288215271	-0.0645648581045695	-6.21914808898626	
3247500	0.128508317245808	-6.48111894649771	-46.4101043172826	40.9249653263784	-46.6832322072882	42.0558526830943	0.100228250334777	-5.97064497106411	
3497000	0.0866567970433089	-5.59426494616171	-50.6628404361241	-47.8343786792869	-50.1060005924538	-47.574462803123	0.0644491312230917	-5.21378349254225	
3746500	-0.141630392180769	-5.70083155785673	-58.4385711857655	-64.9414242714067	-57.2544483073551	-68.8063815015961	-0.162486445280016	-5.40962401414383	
3996000	-0.392730465241853	-6.86926812248877	-52.3754034692504	-45.2182023137528	-52.7812346445496	-45.4045160674601	-0.488372036167377	-6.59418067851366	
4245500	-0.461811560853171	-8.64418222893192	-52.9226792153676	-125.423914731072	-52.66811489096	-126.736879014772	-0.448810816904529	-7.8119543564126	
4495000	-0.256795817026729	-9.61475658082023	-60.0563664786689	-128.724959243247	-59.363319761277	-123.462166460783	-0.236263843473029	-9.33962209146243	
4744500	0.0322306110435304	-9.9787391482255	-50.9142708808878	-116.292656998652	-50.6937947226964	-115.349677819398	0.0185727037662229	-9.88591194661703	
4994000	0.0903055937480701	-9.37881373788492	-38.9526791596191	171.610648728804	-38.7875153123818	171.986353551234	0.00582431041112598	-9.46196748654635	
5243500	0.024364337205531	-8.84052576014707	-43.5057111055378	85.617208106778	-43.2672061150775	85.6467818955446	-0.0186878319510542	-8.54387309602475	
5493000	-0.296759125699672	-9.47450397390814	-42.5547869173732	42.6677529089939	-42.6407838448476	42.9396411507379	-0.288173321925129	-9.09243466158033	
5742500	-0.51455413091738	-10.2283330329136	-45.225823053975	-44.616544567653	-44.8798896548424	-44.7553469276734	-0.472132955879009	-10.2233115940602	
5992000	-0.418478569329693	-12.1541038603783	-52.763151155972	-80.2202992177515	-52.5528873899012	-79.358176802925	-0.401614542724466	-12.0330276118737	
6241500	-0.12077464797335	-13.3940851989099	-56.1717283862965	-97.8150543764526	-56.508341236195	-92.0259410358712	-0.170908031129441	-13.0773454931429	
6491000	0.0777798839581151	-13.4293563995173	-58.2107430867777	-113.437594185317	-57.1073137586101	-117.227167175905	0.0781550707685667	-13.0452765941781	
6740500	0.0187819557135829	-12.9246819010411	-56.4669114073979	-161.881348589388	-56.5559174618805	-158.121377622288	0.113589332191722	-12.4658555377966	
6990000	-0.188515288727706	-11.1304962201096	-68.9775867400551	63.6392042962981	-67.1924136036321	46.4516734350271	-0.0947998122834792	-12.2696056649576	
7239500	-0.355758773797023	-12.0177375026824	-57.1662590832897	-87.3690063736527	-56.2396805822251	-90.2901709752676	-0.444049531618187	-13.1480715272657	
7489000	-0.482990685947774	-13.998675499412	-50.8905356076362	-170.426205790965	-51.2318573945566	-166.743940695115	-0.751268561904411	-14.01673374111	
7738500	-0.368652470659852	-15.9021103936653	-50.8362051493545	165.266823188248	-50.4978733032764	169.221815515228	-0.672963789947235	-15.2994431763481	
7988000	-0.113042773636976	-16.7409726929302	-49.3147031772406	101.503825133199	-48.6588906954171	100.239633508306	-0.255647344432325	-14.7597686841506	
8237500	0.0270778225963991	-16.3092388420694	-49.314462664416	53.1874692354176	-48.6066164941277	53.2677839571837	0.0411303033104672	-14.5802907065993	
8487000	-0.0475162827516846	-15.0093742722825	-50.0252570447337	1.96010845527982	-49.853768666463	2.16250276835402	0.0527204928933204	-14.1089544282809	
8736500	-0.247713241099673	-14.5120822899187	-52.5980010590157	-42.5068117404586	-51.9647163847303	-39.4569177647527	-0.164392238299527	-14.1858375697713	
8986000	-0.487595975867841	-15.599195929165	-54.4243423373218	-66.1242846994501	-54.2006134629068	-64.2332678538192	-0.417381729041785	-15.4182741483965	
9235500	-0.539318933890442	-17.5756604211403	-55.2363733068743	-83.3753359851666	-55.0386743995025	-84.6867515072514	-0.482106497793008	-17.4105617003355	
9485000	-0.337100777716424	-19.2252170111991	-54.7878044018073	-98.3957516905529	-55.3653547100648	-104.569967895601	-0.300483279690275	-19.1099905921951	
9734500	-0.0557785967931446	-19.7057634400877	-53.2611854402445	-122.753765597591	-52.7233292081216	-120.596943558868	-0.0274565211864358	-19.6573683254468	
9984000	0.0508109452497212	-19.2501452403766	-49.6721063298751	-144.134860198397	-49.6704423937759	-142.370464203308	0.0962608560228252	-19.2878244385713	
10233500	-0.153288606416744	-18.4176138174471	-45.1824590646038	178.924507365845	-45.5924194428671	-179.790160895704	-0.0465023459927446	-18.9116593806725	
10483000	-0.451349858973593	-17.725994614546	-42.2196859240033	123.014002100608	-42.5520051980827	125.398862766453	-0.396778902175291	-19.296926197863	
10732500	-0.584919396879687	-19.1112446819272	-41.6292653290498	65.7983246892943	-42.006268857162	70.280318941029	-0.750190217783107	-20.6852396399059	
10982000	-0.558206531930699	-21.3687520274644	-42.6810821108292	5.9129479695425	-42.2648655763972	13.7129309389188	-0.89964896838555	-21.780405054681	
11231500	-0.302396825861064	-22.7051069102278	-47.0564708529052	-22.5558824881824	-46.7648247986852	-21.4192376552563	-0.692532727673247	-21.4990497058547	
11481000	-0.0525150071616885	-22.8139414578731	-46.9421728661864	-59.1788605307589	-46.419686809466	-55.7341768903875	-0.260831767645247	-20.3601996607248	
11730500	-0.051428286049521	-22.109912449745	-46.349110410402	-93.6553629172081	-45.7876578761941	-89.4637751917537	-0.0410083462722066	-19.5619365025715	
11980000	-0.339466309064365	-21.0153986388597	-45.8510968739827	-136.267402315245	-45.4859231560906	-134.645539424543	-0.132437954205636	-19.2542240897903	
12229500	-0.616454308237977	-20.6283739891541	-46.9374581542119	177.134517339225	-46.8075304502319	177.324460957002	-0.390310532009311	-20.0238391846775	
12479000	-0.692965762154397	-22.2485281773771	-49.4161265133349	140.595345731088	-48.9545371085067	143.202349197096	-0.565828096290549	-21.918613211211	
12728500	-0.53234755886613	-24.5004751081374	-50.0412660739957	114.511913577564	-49.9473715370297	114.307077221298	-0.460037985068398	-24.0439337442436	
12978000	-0.230930155048023	-25.8336654376883	-49.7558991391576	88.8386448502279	-50.0206149095024	89.0713796942374	-0.18507925505175	-25.2219499747088	
13227500	-0.0453015979705777	-25.9146943487671	-48.04497032927	61.3192071684262	-48.3409549698772	62.223259632363	0.0387104013842648	-25.1974157843945	
13477000	-0.212609922024579	-25.0670476623617	-45.3417622949215	20.612644583765	-45.5403018666612	22.3884513065342	0.0223962662133106	-24.6918565959443	
13726500	-0.553246967180802	-23.2788606121342	-43.907553637887	-31.3696674426357	-44.1560088945888	-28.6221591195734	-0.246937388792128	-24.7136409010265	
13976000	-0.695558813174815	-23.4897231573896	-44.6453965994016	-77.365670260655	-45.0808485125055	-74.088504118228	-0.602772314682617	-26.0076221941086	
14225500	-0.699942190248384	-25.8387730956617	-44.6055656788449	-114.927139902245	-45.3212618621975	-109.380541357212	-0.834424199417391	-28.2066567380299	
14475000	-0.498197627247313	-28.1064012533549	-44.1539942508381	-153.665821508664	-44.4142746596108	-146.456249987115	-0.86674590467768	-29.592716636861	
14724500	-0.22757402754776	-29.0396958989815	-43.1746423618298	161.517614378758	-43.0818530634041	170.434891016825	-0.710384998229507	-28.5756539375876	
14974000	-0.152152976853573	-28.533805122508	-42.4280891164412	113.716242943124	-42.0112669679703	120.230224710957	-0.433858444072589	-26.167010453603	
15223500	-0.377544133137999	-26.9016534125695	-42.4209693647613	59.4526048689209	-41.8578978061805	64.1063556684876	-0.317247473623685	-24.6495077253594	
15473000	-0.611455545877996	-25.5342087030144	-43.8567217397553	3.33255659578322	-43.4834306020811	7.07522406411785	-0.461828726752406	-24.6209390665586	
15722500	-0.742921049019801	-26.777134062294	-46.8956219428175	-38.6943237889366	-46.5400323696537	-35.3621401511012	-0.653148239153414	-26.0442414435437	
15972000	-0.674373584725962	-29.3109097211176	-47.8089759496279	-71.2667120347248	-47.4500860692929	-69.5575754314637	-0.646826846475027	-28.3309002213242	
16221500	-0.41190867877946	-31.4052568792716	-47.8073779434196	-104.342890604256	-47.5029244485929	-104.232525080999	-0.399867153648165	-30.0798748401106	
16471000	-0.166742861217531	-32.063513446597	-46.0622371514753	-141.709951439423	-45.9000488874029	-140.299715902777	-0.106924401684024	-30.5112082588524	
16720500	-0.222286666332769	-31.2644992704731	-43.2411088860937	175.056983844817	-43.3561815518867	176.534540229962	0.00901819251295254	-29.9874593501276	
16970000	-0.494236547670427	-29.1306947559974	-41.629394451146	120.773182395238	-41.7719426257739	121.111065522331	-0.152922091441942	-29.5409443510418	
17219500	-0.67244656221421	-28.7137998402102	-41.63046440413	69.5614218179072	-41.8445013323916	71.3708679680158	-0.480626583314816	-30.2167076985771	
17469000	-0.806650546499818	-30.9861775526984	-40.7748588619585	25.7678151977408	-41.3573437959485	27.7454301596508	-0.765390562433259	-32.2698626043225	
17718500	-0.826470367058621	-33.6421788321513	-39.8926745498783	-31.7818885498175	-40.2733525064874	-28.7992092861483	-0.811682446256444	-34.585312432857	
17968000	-0.49010928626728	-34.2230658909893	-46.8301760327424	-69.0845551752931	-47.0914209993364	-64.1453308006067	-0.690256241914879	-35.8981691505951	
18217500	-0.223388025835927	-34.600171476307	-42.2568867828913	-72.3094752899816	-42.581335926136	-65.4383417333721	-0.603680461197104	-34.5953052142468	
18467000	-0.352769912607485	-33.6241889889408	-38.5765752372455	-121.904448329929	-38.2958747128993	-114.372196040599	-0.547015812025936	-31.9427052104636	
18716500	-0.680947093300811	-31.557800814805	-37.2041955417847	-179.60985326159	-36.7494094283673	-173.585499132681	-0.627378645854507	-30.4028071655895	
18966000	-0.833878146501665	-31.2870417103737	-38.4826507153362	127.935036612721	-37.9946167096278	132.576916074146	-0.814095071373624	-30.6805817469495	
19215500	-0.841190787924317	-33.7100796459256	-39.9454821965312	87.2147124548635	-39.3699607788591	91.6543016751867	-0.865658720994869	-32.6697203768978	
19465000	-0.665260868631185	-36.4129731367605	-40.4791184837779	53.3908944923022	-39.6763452416175	55.3525129480828	-0.677850839899683	-34.9159816623449	
19714500	-0.40538323162598	-37.5874126866697	-39.7379067201246	17.1182862682979	-39.1680412153115	19.2168803497576	-0.340718694443876	-36.0004488003684	
19964000	-0.299535915229039	-36.6945484304484	-38.9564997826086	-24.7580835641964	-38.5484647891418	-22.646494230074	-0.10192608794917	-35.6322130499388	
20213500	-0.379538012615235	-34.8498404319062	-39.0175635857933	-67.8098017516735	-38.8451867397831	-66.9381098831395	-0.105865077617238	-34.8247088232952	
20463000	-0.610852631608847	-34.2606812921464	-39.4090670336771	-106.792833718006	-39.3940484063219	-105.200713843607	-0.354926160615663	-34.8583256814668	
20712500	-0.894337484761883	-35.723749408262	-39.3718688543493	-140.591568343128	-39.5383576792584	-139.597286818756	-0.672174042473395	-36.3815695932758	
20962000	-1.00333633528149	-38.3314460381215	-38.8827707500169	-175.704148461343	-39.0108435132689	-173.767420916475	-0.820201101063962	-38.9441301111954	
21211500	-0.847377926683662	-40.046614505372	-37.7334998765042	142.829741915691	-38.1255706980408	146.836406268501	-0.721266520635666	-40.9958933691011	
21461000	-0.535079587003666	-39.8861579137813	-37.1496347845609	99.7209409245666	-37.5641995145139	103.985350689051	-0.548137654830113	-41.3353770808428	
21710500	-0.361608258223788	-38.6451300574654	-37.0603011456707	53.1915328936863	-37.3708740723192	59.8316267678457	-0.54876190978521	-39.8772428264857	
21960000	-0.494993395368537	-37.4070292227126	-37.8368367105429	5.54435853639692	-37.7248771489411	13.5936177448388	-0.747070398884871	-37.382015392725	
22209500	-0.826745207862259	-37.1601178441029	-39.432594038729	-39.8459101385136	-39.2046807170139	-32.28155102463	-0.952271425480647	-35.8902280914561	
22459000	-1.08987536147115	-38.5139339984737	-41.7333805386033	-79.9337819710783	-41.3208966349556	-74.6926971627109	-1.03421524689519	-36.9086904630469	
22708500	-1.06297699207352	-40.4893794625272	-44.1956739223397	-113.830400878678	-43.6881629120056	-108.282026367288	-0.899822443496159	-39.4008490870579	
22958000	-0.725873100428484	-41.5119877428227	-46.3925777526192	-137.823179270833	-46.013097942988	-132.47269551839	-0.557955884891251	-41.384805591599	
23207500	-0.329127565936495	-41.5270409997763	-45.2514877916977	-156.569805795145	-44.991242584798	-154.729428102547	-0.215957550707677	-41.9338055420506	
23457000	-0.275260769149765	-40.4759148611919	-44.6909408499306	157.345733171928	-44.5611191091748	161.283801909286	-0.112702706817703	-41.4242697176607	
23706500	-0.465115718248402	-39.5363604270405	-46.0951746947344	121.867779113234	-46.1754621149406	123.363655459453	-0.316365832598428	-41.1447024694379	
23956000	-0.803276062281874	-40.2299731977864	-47.0129350066303	88.7395479360327	-46.9527566012339	93.3973607853418	-0.708205985105764	-42.0866961185841	
24205500	-1.04393204478074	-42.4024018462664	-46.6154800557342	56.0506276044311	-47.3586997781128	59.9000434817671	-1.04774906941393	-44.2369161859748	
24455000	-0.973454859998065	-44.52976914405	-46.4672547795738	17.0970795190344	-46.8138898689926	22.3795845136903	-1.1433370604969	-46.1272687192401	
24704500	-0.641906301503773	-45.2132636013634	-47.2226123090634	-26.0002287874373	-47.5686291135918	-19.2931517649412	-0.952503993988045	-45.7057176915248	
24954000	-0.339149576569784	-44.4244431595789	-48.9123473513366	-62.3900033672714	-48.7962861015825	-52.6373504850378	-0.639706030571295	-43.8492679242696	
25203500	-0.314037629344645	-43.2084838347775	-49.7453884232728	-90.7083034988015	-49.3365776108746	-83.9941001964443	-0.488685950464092	-42.0195851065471	
25453000	-0.578229199830815	-42.7710765689188	-48.7581669424566	-118.98556228443	-49.107221404321	-113.712649032225	-0.608643143710122	-41.3697289852311	
25702500	-0.946398227003217	-43.8699703188026	-48.8807462261247	-155.714847996948	-48.8137348540125	-149.301812589498	-0.85917756939138	-42.4632945304847	
25952000	-1.12482691290613	-46.0731163809684	-48.4273419933082	171.961935416799	-48.4797903455735	174.688823302	-0.956414331352858	-44.9916416066566	
26201500	-0.950382601975252	-47.7321969923267	-48.8006738997973	129.036706643368	-48.934779620912	138.081458404667	-0.783555027344777	-47.4953904446351	
26451000	-0.586960069594366	-47.9157749182101	-48.6214507793123	96.5834203765316	-49.4921957911422	100.29063983235	-0.474093925238402	-48.5912638930403	
26700500	-0.356828405807129	-46.8557824601173	-48.0339101156666	61.5791833662005	-48.950796797752	64.1783487789716	-0.30320458177186	-48.205257609364	
26950000	-0.453785518181572	-45.5648564833805	-48.4582937529539	19.9561753477505	-48.9532719274953	25.246842829782	-0.441712247301786	-47.318996841163	
27199500	-0.786753373929114	-45.2102353687441	-48.835352808221	-20.5885466527607	-49.7231011340171	-12.3866776125041	-0.839032654518455	-47.0654920885603	
27449000	-1.10278895452456	-46.3919587487111	-49.9111128124314	-62.4547391332991	-50.1189663182039	-54.8086299686912	-1.25572898704732	-48.0912626609409	
27698500	-1.11098649684783	-48.649980369521	-50.8113097140877	-96.4577142924065	-50.9594627083395	-88.1888557679443	-1.39843537371752	-49.797011166015	
27948000	-0.776836346546765	-50.412139556796	-50.2703182250009	-133.636501001416	-50.7327620333435	-126.595826344975	-1.18863141825681	-50.7827827890927	
28197500	-0.389739820143133	-50.6244397041321	-51.4647506541392	173.949214461127	-51.3019378913781	-174.847616325587	-0.826658946887449	-49.946126555769	
28447000	-0.233513038416056	-49.6820893015031	-52.7313982810529	133.698875440018	-52.3760874367557	138.014949803997	-0.551155888182703	-48.231275189595	
28696500	-0.418782107361871	-48.903714894942	-53.1687388736789	102.547282215414	-53.1104566040931	105.712446096618	-0.579193442632302	-47.0009538534168	
28946000	-0.809820871386011	-49.4017766106315	-54.1843590433687	64.1692203680862	-53.2481404419547	73.712584396523	-0.822790432471338	-47.2662672644105	
29195500	-1.13951569062164	-51.3630668015055	-53.546151102966	28.8687021112686	-52.9251657569258	32.8089276837746	-1.03353688976641	-49.2781575566548	
29445000	-1.14864330579488	-53.6041313490406	-52.2229179580561	-9.66820086669509	-52.3212159948769	-2.52915765351376	-0.987812760216755	-52.0778480925611	
29694500	-0.847817206378453	-54.357412733068	-50.956598105626	-42.2335080893108	-52.1518145301193	-41.7833887384756	-0.700236457737225	-53.9135267703649	
29944000	-0.517666918603395	-53.5676908371163	-51.2485950117327	-75.5527514978915	-51.5379175234612	-77.0080902976808	-0.424589205282889	-54.0868767030522	
30193500	-0.461938387016803	-52.0120927081276	-51.1597479782746	-115.417744910608	-51.2406589395582	-109.258212314477	-0.414494733499	-53.1728858265916	
30443000	-0.707884512611521	-50.9480723478011	-50.2783914745107	-143.857452925477	-50.9258645301991	-141.579751739204	-0.716847084054536	-52.4149541829205	
30692500	-1.07357434674766	-51.4599374351017	-48.9450297217778	-174.554749644993	-49.4684733219784	-173.680647048581	-1.15450160566992	-52.9311450195858	
30942000	-1.24831800238484	-53.5395810181677	-48.7384006051867	145.344285507465	-48.5628084549997	155.681984153025	-1.45298408023293	-54.7034071743536	
31191500	-1.05913147735862	-55.9016625236821	-48.3855209795214	110.562671684242	-48.1761088981575	119.361266008578	-1.40387374112254	-56.4491369029534	
31441000	-0.68023351984756	-56.9349618353653	-48.0187294601354	73.4761402092585	-47.819366460236	82.0699832148191	-1.08656859632125	-56.6445475459392	
31690500	-0.437093364511435	-56.3864139385497	-47.6108054652886	37.9972922907018	-47.0289637761041	46.9683099013889	-0.77066718821667	-55.1695805986815	
31940000	-0.535559732810628	-55.1829364831103	-47.3137079608845	0.685143423203005	-47.2571537742739	6.24549925261695	-0.703082552248446	-53.2568512092755	
32189500	-0.918027086984854	-54.6389525498592	-47.5709949138855	-39.1024685698525	-46.8412537378209	-34.6663678662522	-0.887933993059836	-52.3278225094392	
32439000	-1.31772137862252	-55.574502183756	-46.9539577243254	-80.3172604489646	-46.5316054249291	-77.4821148755353	-1.15980617447639	-53.2351629593236	
32688500	-1.42665261447837	-57.7030237708519	-47.2562072299623	-125.263017630436	-46.434088181638	-118.130917208124	-1.24687539840799	-55.724130554864	
32938000	-1.15354210909865	-59.3789695470621	-47.3283078773862	-168.55907140512	-46.6118136291648	-164.599827110338	-1.03635912332086	-58.1009026146766	
33187500	-0.738435861207614	-59.3874465599669	-47.8954030619912	139.057902134013	-47.8922447057875	146.597987128153	-0.683415421426399	-58.9123044645448	
33437000	-0.504851119007264	-58.148198125227	-49.7471225868932	91.1510424711034	-49.3017235090675	99.0114479771313	-0.474780064491403	-58.2166167223279	
