!Keysight Technologies N9923A: A.12.45
!Date: Saturday, 02 August 2025 19:14:40
!Timezone: (UTC+08:00) Kuala Lumpur, Singapore
!Model: N9923A
!Serial: MY61181427
!GPS Latitude: 
!GPS Longitude: 
!GPS TimeStamp: 0001-01-01 00:00:00Z
!GPS Seconds Since Last Read: 0
!CHECKSUM:0647566884
!Correction: S11(ON U)S21(ON U)S12(ON U)S22(ON U)
!S2P File: Measurements:S11,S21,S12,S22:
# Hz S DB R 50
2000000	-0.0637410315588133	-2.84658529947922	-81.165223250665	79.460220401236	-81.4962001374752	55.8541097764598	-0.0877258302813752	-2.82389445900941	
2249500	-0.321009901202121	-3.54765355080802	-72.0426495678481	-103.859191667384	-70.2517067024863	-77.7107033825024	-0.324218169459608	-3.44835418095346	
2499000	-0.434318340386604	-5.0015627512277	-64.2742801051255	-102.463487954135	-65.4806536686038	-100.584713457618	-0.424193329713022	-4.77866464467843	
2748500	-0.30769451292221	-6.49354005130547	-52.81853178612	-132.454180099905	-53.001591422092	-127.708380223221	-0.301913387372272	-6.19829493020238	
2998000	-0.0379310730848778	-6.83694784073483	-50.3821159727289	89.3915504695144	-50.0519855031176	89.6354214984452	-0.0538736799616543	-6.27565608411695	
3247500	0.12243829514635	-6.62665514346939	-51.1800479658857	48.3279617873153	-50.7062091849788	49.3374512557195	0.109254231242623	-6.02812763989479	
3497000	0.0761154077079504	-5.62666321244165	-55.884044856566	-46.8340368959628	-55.9813138263822	-46.1652771561943	0.0682849285203891	-5.4674879743077	
3746500	-0.140292957542729	-5.77194708088602	-68.4287049015947	-7.94684954699155	-63.4528926066424	11.6133091714093	-0.162196748002948	-5.60717697160645	
3996000	-0.385800291110572	-6.90157445782675	-53.4211217123004	7.42409910887383	-52.7630044790507	3.12856680724204	-0.450177472150785	-6.80977541892573	
4245500	-0.446211574320965	-8.57304720490748	-49.4504975979523	-100.336875865257	-49.0429878089864	-98.3241501888433	-0.473728094665266	-7.57280300270398	
4495000	-0.258082209309852	-9.55009501778895	-53.6642381162739	-110.878831638934	-53.0154191572996	-110.811683832926	-0.257286524623027	-9.5383034486128	
4744500	0.0302170758613914	-9.79510293942801	-56.7558246187005	136.255895679144	-56.8567659087218	137.130811880082	-0.0381285661021937	-8.86642344670413	
4994000	0.149759658865088	-9.39119283577999	-65.4054090214683	169.910043978808	-65.6912250229236	-169.895840062178	0.118468156335139	-8.65479944696004	
5243500	-0.0154109242312604	-9.08918656475859	-57.7816149311443	-157.563574581731	-58.7417624743066	-164.903755083811	0.00593156334943721	-8.39186706363322	
5493000	-0.335584181010618	-8.77617158390658	-52.8927516645152	133.940932040616	-52.4009875224676	132.209558706732	-0.244328464407653	-8.81714193632076	
5742500	-0.458881177994622	-10.1994775039929	-56.2535603419264	99.3142115445449	-56.1861520564488	89.6542952761093	-0.426868993315287	-10.2397411903783	
5992000	-0.402843261802067	-12.1463694510022	-57.0314120027937	82.6196162423505	-56.2617025122991	82.8808838465016	-0.385512931188124	-11.9696246094753	
6241500	-0.172608829323401	-13.3258172345014	-54.9762302463061	71.4148729225188	-54.7497373508245	69.5162697426112	-0.127326021821909	-13.0365833155895	
6491000	0.0696224012334279	-13.5249376736677	-50.9389855156369	61.3388938284816	-51.1897566424243	60.0350708243426	0.0709198101859196	-13.038184981722	
6740500	-0.0263649668188742	-13.1942824130342	-43.7913753901145	25.4281145694068	-43.7043273295753	24.5593957366951	0.0961994464855921	-12.5431108061676	
6990000	-0.193661553810782	-10.975800976081	-42.3671085390806	-59.6076304307682	-42.1609169907098	-61.4392010788892	-0.0934211232804925	-12.2122352055748	
7239500	-0.354542164250351	-12.0738312380491	-45.2872740312393	-97.7039653895761	-45.1842167388441	-97.7774347171744	-0.368484022694154	-13.0483095392447	
7489000	-0.482634407181301	-14.0856555868378	-44.6155713057128	-122.069322527444	-44.4508267036108	-121.666377768023	-0.555304258366755	-14.8822667980708	
7738500	-0.372609981044996	-15.925177799867	-42.024092183261	-154.737938689696	-41.9101659240724	-154.044628848331	-0.600076463841742	-16.420821179164	
7988000	-0.11519070679005	-16.6274808997869	-40.1577212601406	148.733872149501	-40.2012058704209	149.106218939885	-0.426051786102551	-15.3554424243851	
8237500	0.065083904307816	-16.2384056811919	-41.1065308853852	98.3615241274113	-41.1439378154926	98.6371082738256	-0.0563245025613656	-14.2954080353717	
8487000	-0.013164848725985	-15.4140059408886	-42.0452702762222	56.0882441359754	-42.1006485993318	56.1165694101145	0.00429093630354874	-13.7967559611276	
8736500	-0.277043299791437	-14.8777776986581	-43.3190857920938	13.6941237741918	-43.1770363952546	13.8406085897633	-0.193976266769215	-13.8283190167944	
8986000	-0.519283198686295	-15.630756731413	-44.8708466382229	-21.6179413958691	-44.8726310174418	-20.5384898032119	-0.423452796363088	-14.8998041971902	
9235500	-0.554458347297451	-17.4177226234987	-45.8978204825432	-50.3471396433197	-46.0427811087542	-49.607128821455	-0.477791201976873	-16.7458740243188	
9485000	-0.346244962454179	-19.0173231759392	-46.6736847852526	-75.4252053702297	-46.5452795651314	-74.5768491365436	-0.294280272189616	-18.3496713338764	
9734500	-0.0612130992401341	-19.4822096794027	-45.9190242129022	-96.4379412229078	-45.8197166962825	-96.7570466886186	-0.0233240233261908	-18.881284679024	
9984000	0.0429053522166973	-19.0572458802124	-43.8675860699731	-124.448247371214	-43.7707389499653	-124.648237080269	0.108587006831775	-18.5470852871626	
10233500	-0.164552909371765	-18.2055186231199	-41.0860307085745	-163.466121479086	-40.9761058453916	-163.807399303915	-0.0102439748039189	-18.1542408815356	
10483000	-0.43863575433224	-17.4962162047892	-40.5128082339716	144.506646168466	-40.4903358452377	144.469969726724	-0.296624926704182	-18.4415589728781	
10732500	-0.57134216436174	-18.8874644710199	-42.060997971248	105.987164672091	-42.0504792139481	106.243139211884	-0.521155489857529	-19.9715562218822	
10982000	-0.525699509687396	-21.1797673856017	-42.6755881940208	83.3234303204159	-42.4560338128326	80.1035901645756	-0.549809121450175	-22.1258683771364	
11231500	-0.275432019750879	-22.7489272207937	-40.2732613076719	56.3781713302529	-40.3119100857843	55.8778453910137	-0.418627330063278	-23.612322147142	
11481000	-0.0510253604480033	-23.0195755715775	-36.9689531096364	15.3043644063971	-36.9931824592328	14.5870533599118	-0.356385503660846	-23.2103165101816	
11730500	-0.0457505787975469	-22.2931979471753	-36.3093250813331	-31.2425782265741	-36.3805072344925	-31.613178606633	-0.361342221841781	-21.2258754611535	
11980000	-0.32264021515537	-21.540907871513	-34.7071045099616	-89.4087285359454	-34.7098295121437	-89.5363413763616	-0.390543611400681	-19.1122922711502	
12229500	-0.697154733593593	-21.3868505554012	-35.2191677906976	-144.630756513191	-35.2329415886823	-144.553329356076	-0.544577111657341	-19.6930509188575	
12479000	-0.809440366923173	-22.1920508958563	-37.126473849424	163.774399342385	-37.135562832539	163.231717369867	-0.673599657806636	-21.2992064357205	
12728500	-0.591012934243607	-24.0905612790392	-39.3130077567068	123.390294412506	-39.4415722258581	123.493737699845	-0.525530327875399	-23.1741897667303	
12978000	-0.251454780090312	-25.3718271576611	-40.4310216815235	91.8173235776802	-40.4291602264247	92.3437433287564	-0.222689750579389	-24.2665583495984	
13227500	-0.0401259991943408	-25.4163132370301	-40.073517379194	61.0259013279125	-40.0433434442152	61.0530015418168	0.0172777393776858	-24.217957628197	
13477000	-0.159161511266882	-24.5689389199061	-38.4542733145423	20.6584893120736	-38.4897063125014	20.8374292825628	0.0162836525626033	-23.6457147595247	
13726500	-0.447558567225851	-23.189458036004	-37.9391347201308	-29.9326529941389	-38.0398778727261	-30.0711397811515	-0.213136470582833	-23.4221471885764	
13976000	-0.623961069905862	-23.7054446656218	-39.1986384581165	-72.7728545023925	-39.2138166655799	-72.4310148914838	-0.481773858028298	-24.4852240491517	
14225500	-0.652687239950447	-26.0372685475578	-39.7489828296616	-103.725429607892	-39.5479614303885	-104.296598467754	-0.600331470370772	-26.6513809867954	
14475000	-0.481335544082744	-28.3535920924496	-38.2008061311629	-134.854194458978	-38.1395374705339	-135.55535694155	-0.509045416011917	-28.6937721425389	
14724500	-0.264722064504625	-29.2783989428718	-34.8961545651388	-179.140892788805	-34.8378892063287	-178.835087721628	-0.372792228453595	-29.215505367809	
14974000	-0.169176848715599	-28.1291612735257	-33.1147679337904	112.92861403272	-33.16338442893	112.062119915849	-0.216103112378071	-27.343179656346	
15223500	-0.257327792948048	-27.5292671350087	-35.8829452166951	46.2020897312251	-35.822373238829	45.6988575836779	-0.150338632629985	-26.9558961480056	
15473000	-0.813229964738496	-27.0554627074104	-45.575606115733	1.92476163532131	-45.6026267403672	1.60337693222258	-0.544564391704441	-28.0353790202567	
15722500	-0.935381420617226	-26.2467956707056	-38.0717123948405	22.142328641351	-38.1127691724229	21.9624138730438	-1.09861013239175	-28.1444244594212	
15972000	-0.777027057059717	-28.5844828907338	-36.6356971828314	-37.5545179232802	-36.5877546124017	-37.7725836494307	-1.05055548609985	-28.0758942820915	
16221500	-0.463705688270909	-30.5893698894975	-37.0909996235311	-81.3020817774488	-37.1791949935084	-80.8629534792106	-0.625968638722765	-29.081018099179	
16471000	-0.159651913846287	-31.2455929515859	-36.7642897755147	-116.924291577304	-36.726264312285	-116.599538498813	-0.229552988277238	-29.5626435471276	
16720500	-0.127860704864249	-30.7258522954684	-34.932355394392	-155.577232124845	-34.8358373898926	-155.499545146914	-0.0928487596485347	-29.2316045866828	
16970000	-0.385700109061089	-29.3520984793112	-33.2193799448827	150.643954562267	-33.1960652374249	150.811440969076	-0.2832454919605	-28.4025701634549	
17219500	-0.596865454965902	-29.4334261410025	-34.3766961930685	92.8634791631447	-34.365531523566	93.360780091622	-0.511157832601265	-28.2762093164231	
17469000	-0.866244182030923	-31.9106991979641	-36.4707264397777	45.8583956388283	-36.4938706229764	45.7969138375406	-0.650377751969658	-30.041333354295	
17718500	-0.945649341544756	-33.0516204182913	-40.9918641456798	1.5749588860052	-40.9808491212703	0.438848862985354	-0.56765858425355	-32.3880060762585	
17968000	-0.474532664209582	-33.7470863882636	-44.9081086657324	14.6102315682268	-44.842298641832	13.5617642041129	-0.299925387419488	-34.0956926271352	
18217500	-0.197465853412144	-34.3459512765852	-39.3726391969907	2.46664092251898	-39.4578290399092	2.95604027374643	-0.0951050214255473	-34.4348273248189	
18467000	-0.340735580358121	-33.3039481662077	-35.2773946242279	-39.8422140476713	-35.3176516513697	-40.03623112861	-0.143523015964355	-33.8358903905227	
18716500	-0.58943145837571	-31.4086617217783	-33.5594574484717	-92.1602294146474	-33.5870884874961	-91.8587455455619	-0.451986921276712	-33.5227646515404	
18966000	-0.803472455668015	-31.7749199547751	-33.0862928077828	-140.018459236381	-33.0461607327394	-139.528181138426	-0.939630022644462	-34.2623102861235	
19215500	-0.908655999438714	-33.8397263862522	-32.9689127411617	171.432976804615	-32.9686380586915	171.445160781908	-1.30954382400407	-34.7998922231514	
19465000	-0.729470159228645	-35.9086650915253	-34.0155676323475	123.475077822413	-33.937721458593	123.49641765384	-1.1060383563828	-34.7363009542409	
19714500	-0.393047172203393	-36.9296852679831	-35.1756657521292	81.7243853826606	-35.1652083175531	81.9726940832136	-0.602954917413049	-35.0763334846648	
19964000	-0.216136198772504	-36.6126590999632	-35.8782560823016	41.1007932936601	-35.8708677445412	41.2335218703766	-0.288134755515576	-34.7487524832468	
20213500	-0.348924294815977	-35.5519494287238	-36.719302829776	-3.9963331011261	-36.7195597817893	-3.78525597407195	-0.265738454597324	-33.757705611267	
20463000	-0.681027661785759	-35.0055480159717	-38.4724455815697	-48.6184394498539	-38.5254940893993	-47.5241970429828	-0.442663223607946	-33.394215857477	
20712500	-1.01345616631465	-36.1202811866496	-40.9539798090401	-86.0461954598361	-40.9606331169983	-85.1805894495205	-0.650673327794406	-34.7289701394973	
20962000	-1.13997970974984	-38.2194301837817	-42.8970099776693	-116.778314912175	-42.8685885864999	-114.941360672691	-0.697922003227507	-37.2320247842544	
21211500	-0.964255232134713	-39.3743035585833	-44.220934895251	-145.176059850119	-44.1726359313513	-143.589520127314	-0.50498136370291	-39.4211159926456	
21461000	-0.588149625262501	-38.8607714509634	-44.8355879090635	-170.969941660853	-44.7834974691454	-171.042406762964	-0.237338461011454	-40.2428595948515	
21710500	-0.329673318641338	-37.5666755431482	-44.6900075303777	159.535438951982	-44.6040538843533	160.853478708034	-0.145162225786906	-39.9095272134528	
21960000	-0.37335899989998	-36.5806183284883	-44.174905219702	130.241009113582	-44.2119426403067	129.558694396436	-0.374524678929085	-39.3429881106833	
22209500	-0.652955332198637	-36.8489242159821	-43.4022332176021	95.4683838865702	-43.1402444526901	95.7278815569318	-0.860428262663847	-39.2993756687972	
22459000	-0.915302728417805	-38.662411452307	-42.2818401004868	54.406339983856	-42.3389462445302	54.4064885403142	-1.30054133728685	-39.7014841285305	
22708500	-0.924228030640387	-40.968430303142	-42.2869572804789	9.15969765705281	-42.2101808468063	9.80325375481193	-1.32480394137294	-40.159932935652	
22958000	-0.647406277968283	-42.2240864363042	-43.7163823656841	-34.2982915365395	-43.7837697860665	-34.9174367244555	-0.915402243017072	-40.4614222716985	
23207500	-0.32722416198489	-42.2883778992239	-47.0745783946367	-58.4864694441438	-46.7648446267933	-58.1647086328694	-0.445683325287767	-40.3345530559595	
23457000	-0.307586150578178	-41.2395622882873	-44.6090693942081	-82.2953090492993	-44.6484281144811	-83.2211245188176	-0.236410542609684	-39.6228313407459	
23706500	-0.564949045962689	-40.4329003938176	-44.0147384444667	-123.736345545083	-43.9483905402612	-124.880116347094	-0.336719734957121	-39.2697604967577	
23956000	-0.99703063398971	-40.8391962355896	-43.7588727649681	-162.538750379725	-43.5777610266821	-161.968017728042	-0.613358010582362	-40.2146633888839	
24205500	-1.28252759569265	-42.1816325058813	-43.3883246584436	158.82093543449	-43.2952537097584	158.791393531443	-0.814776076110879	-42.521081035716	
24455000	-1.15151761649883	-43.4981113247553	-43.3199073743432	116.092689272551	-43.3487798250548	117.504630888896	-0.76964847748628	-45.1413874340401	
24704500	-0.711240628325205	-43.9869179756809	-43.3246756462133	75.9477640241802	-43.3642428189627	76.2178652360368	-0.548041984911094	-46.4116653889894	
24954000	-0.333257512189415	-43.4540292420539	-43.2174443774843	40.6948093973611	-43.3128957233262	40.1627809460875	-0.442598114337087	-46.1074852968898	
25203500	-0.268903500544716	-42.5423255605024	-42.1657399289417	2.53938190919413	-42.498390523961	3.10493939688452	-0.568614972759024	-44.3169450663009	
25453000	-0.509955640507452	-42.3000088321805	-41.2103827567758	-39.3074710244563	-41.3366212491823	-39.452914772262	-0.852305198631178	-42.6190414215891	
25702500	-0.847031426097978	-43.481542562973	-40.2050071953879	-86.3502330788174	-40.5860109795762	-84.685323982661	-1.09111618702945	-42.4411969675698	
25952000	-0.988418240072385	-45.8668874808247	-40.5000604643257	-131.776477659923	-40.5548519926565	-130.689301535454	-1.08744749689849	-44.2378078014456	
26201500	-0.814730472447111	-47.8951810746866	-41.3569818159063	-174.564895106449	-41.2214934501866	-173.15642456463	-0.8319045567526	-46.5789146619309	
26451000	-0.502224934658957	-48.4251710683357	-42.0886710725189	147.762656613869	-42.063263842011	147.785258028145	-0.475180874590998	-47.713246383883	
26700500	-0.34840879812565	-47.4939269788231	-42.310446195568	110.813344046626	-42.2646617712648	111.12261116214	-0.279403011248994	-47.5028577303276	
26950000	-0.513522912709512	-46.0153668210946	-42.7382722510054	73.012099876832	-42.5867432659269	73.3384809922806	-0.40365608457764	-46.8477317196075	
27199500	-0.875282537951455	-45.2015890931729	-43.2625046050163	34.0973264364698	-43.1087330098351	32.3180817376143	-0.804304599010415	-46.8022220620767	
27449000	-1.15818556688029	-46.0153267721604	-44.2662889168879	-6.21342563903705	-44.3830986751457	-6.79450013847732	-1.25184011374145	-47.8404125625866	
27698500	-1.11769129043989	-48.2054678198042	-45.4905509522133	-42.0259974416418	-45.6768955755583	-41.9836873844673	-1.42815539129302	-49.165654245846	
27948000	-0.766366771484766	-50.0997872101898	-47.8068645447517	-76.423998900641	-47.0066703356723	-76.4683367173982	-1.17617236142222	-49.6520604376754	
28197500	-0.385061186417897	-50.5067476398027	-48.2532392339195	-107.173013562714	-48.1786471938061	-110.227651718562	-0.725383372869754	-49.1302473634751	
28447000	-0.238620183006615	-49.7345089574993	-49.223648159063	-138.892698684957	-49.1266278548753	-139.06970286337	-0.447250271799578	-48.0591888593088	
28696500	-0.433718969150693	-49.1149766052344	-50.946395147906	-171.741940280512	-50.7227684928766	-168.32948195141	-0.500142566198437	-47.2607819603494	
28946000	-0.842265932440481	-49.6806811015151	-51.3474806623679	157.795979916985	-51.8712178857301	156.806950998737	-0.76397212375921	-47.7973863972052	
29195500	-1.19583898608545	-51.6624111131872	-50.8491842795431	122.7998229644	-51.9235148535211	124.292110596226	-1.00009034151304	-49.9198979877178	
29445000	-1.24136037545141	-53.7703552653028	-52.3127570211587	80.3328289865508	-52.6885330998579	80.1563337800864	-0.990865413920114	-52.6613141763163	
29694500	-0.969857501937696	-54.1788749112303	-54.8027971035979	43.4570784534074	-55.4333852072003	47.3330277465027	-0.754682137524039	-54.2930783737878	
29944000	-0.62402251359787	-52.920696352488	-52.0578748790766	28.6133391317426	-52.4256823471171	30.3306105164243	-0.490713682916789	-54.3412212794055	
30193500	-0.506700907584325	-51.0402326032016	-51.3339514178329	-32.2214064025277	-50.9943053663813	-28.7082883411511	-0.532672215888817	-53.3263573261066	
30443000	-0.670014966918732	-49.8691854185987	-51.2823452752084	-91.0633404716439	-51.0136634379788	-88.7127103142372	-0.86071653581905	-52.1490391560947	
30692500	-0.955455596609537	-50.4954386130215	-51.3654271318029	-147.659060223166	-52.4530462513346	-153.020999807179	-1.28767347788089	-51.9920548001773	
30942000	-1.0880402002301	-52.8985136385036	-54.0459412102155	159.918656735701	-53.2879764944886	159.326188336791	-1.51557554329494	-53.008261509509	
31191500	-0.909262003073919	-55.5985959447198	-54.6737074857311	103.218038033222	-53.9951092847249	106.88454291882	-1.34827985601611	-54.3993395235313	
31441000	-0.560306001203259	-56.9029255054112	-54.1255873786466	59.7402387733904	-54.4695595145486	61.7907009094831	-0.926447385743876	-54.9056056899235	
31690500	-0.338908645695734	-56.6476268862238	-53.4760003752976	17.2570229715859	-54.5052583693291	16.516181130939	-0.558471627923666	-54.2129641835897	
31940000	-0.452437598510476	-55.8043733862134	-53.3587797671341	-26.2392456079177	-53.7785842212463	-25.1876512507725	-0.494790480054129	-53.1280875801006	
32189500	-0.868081364231929	-55.7120444753048	-51.4317245608534	-71.4897533692574	-51.3479006604597	-65.7795136312649	-0.724702717989168	-52.8626542793766	
32439000	-1.35226838587596	-57.0029075079202	-48.7671051033867	-108.833447177638	-49.0477941073273	-109.261461583811	-1.06807673527628	-54.1987324789778	
32688500	-1.58352805933115	-58.9771331465107	-47.0766595204197	-151.392262531649	-47.1693461452389	-150.53978572257	-1.25858626191448	-56.7114931109108	
32938000	-1.41039589500235	-59.9627225314264	-46.0734003421658	159.648572876629	-45.670125898457	161.103992588962	-1.1473055834965	-58.6833446818978	
33187500	-1.0001567091646	-58.9898894948814	-44.9552173502277	113.230585707752	-45.0019139840223	114.593077843653	-0.842641788403959	-58.832508440627	
33437000	-0.689045240988779	-56.9869871061456	-44.9913518635229	68.099194533852	-44.7680633447044	69.2659690352456	-0.602410561277487	-57.5535455685615	
