!Keysight Technologies N9923A: A.12.45
!Date: Saturday, 02 August 2025 19:22:43
!Timezone: (UTC+08:00) Kuala Lumpur, Singapore
!Model: N9923A
!Serial: MY61181427
!GPS Latitude: 
!GPS Longitude: 
!GPS TimeStamp: 0001-01-01 00:00:00Z
!GPS Seconds Since Last Read: 0
!CHECKSUM:1350243294
!Correction: S11(ON U)S21(ON U)S12(ON U)S22(ON U)
!S2P File: Measurements:S11,S21,S12,S22:
# Hz S DB R 50
2000000	-0.0580892670374248	-2.66773486573553	-71.7612814439433	140.672246824106	-84.8507974679467	-54.0314817248167	-0.0863700812214822	-2.53927941347869	
2249500	-0.329105968981699	-3.33209450049319	-70.2199739119923	-109.245119733969	-70.4177963474971	-107.174477902889	-0.338478569049622	-3.14362866869951	
2499000	-0.453119087315704	-4.84179376429675	-61.5357187802693	-127.721657131827	-64.5561465309419	-127.412104623306	-0.452157800983415	-4.57415364857116	
2748500	-0.334877663624241	-6.32345087358241	-48.2548689701783	-175.823972908062	-48.4808674523341	-174.214769134509	-0.36463592753206	-6.00495755005015	
2998000	-0.0434786253368339	-6.74663489465823	-47.3639872579562	76.691870264212	-46.9880719836328	74.1750128875314	-0.0606007725078172	-6.21063972369601	
3247500	0.123357695178046	-6.1633568417986	-46.4754189263612	-10.5209216411125	-46.1929415100252	-12.9414011742515	0.0883017615735418	-5.71140004541307	
3497000	0.104772557314647	-5.54556000206846	-53.9947786810187	-65.3660663354073	-53.2979222992662	-68.854764293539	0.0771471492245321	-5.1719666790035	
3746500	-0.146747394029186	-5.67537571328215	-56.3952980286343	-77.2688778384623	-56.8885919955748	-79.6680822705543	-0.164586242545921	-5.38472476354129	
3996000	-0.412152106187861	-6.94821785979901	-53.3944556175301	-110.885064483359	-53.3225437090619	-119.033331393709	-0.453153827222293	-6.27664236644258	
4245500	-0.503200104617988	-8.68033966508915	-54.9102586773212	-156.463723935292	-55.6249940171269	-164.381614888195	-0.451751147230111	-8.20610010911644	
4495000	-0.260290773985044	-9.83156299350403	-62.4430375620427	-155.982775138012	-63.477246153246	-139.184429165021	-0.24239312568932	-9.67753467396143	
4744500	0.0293572000415169	-10.2175009335759	-55.5240676649481	-131.226585092597	-55.450452111842	-128.642845287671	0.0245309843147592	-10.0622260906153	
4994000	0.0884518544323644	-9.67311250622251	-44.4438225905233	-173.498174229869	-44.1624187506794	-178.142938356594	0.112045149764226	-9.61512310519327	
5243500	0.0124020346895165	-8.63711139939973	-44.7960083968878	99.1927234796748	-44.6743864216867	96.6507198396974	-0.00435551400576049	-8.94348991684646	
5493000	-0.256240422626869	-9.17684103000841	-45.4823957620151	67.5211993966104	-45.3884179532246	67.0273494501849	-0.283902742524494	-9.39331557911101	
5742500	-0.487004189546356	-10.7889986398455	-41.9428728140753	37.9551048896082	-41.7100389878848	35.6468336663521	-0.545027290642503	-10.9138256922011	
5992000	-0.48684336362588	-12.3404405075997	-37.9929190576747	-30.4108042707647	-38.1553387994885	-32.8005854765721	-0.585759878773894	-11.645405302634	
6241500	-0.203366294239883	-13.2607740112502	-40.3129089291214	-87.957263071474	-40.3888285444763	-88.6978791055355	-0.180536843884012	-12.4130017129819	
6491000	0.0430070774492566	-13.2324867154482	-39.8654659158306	-127.501016063808	-39.7870774191975	-128.994769102863	0.0492907953353619	-12.4741955281907	
6740500	0.0376112754094526	-11.901864343208	-39.1195855634151	168.467225972113	-39.2479915980387	167.634680132301	0.0651711555110456	-11.5684172361246	
6990000	-0.0818122310134307	-11.24303162245	-43.1000886551479	117.605688163933	-43.2796265024274	116.216334795116	-0.0807960801843168	-11.0983179551793	
7239500	-0.354338033020142	-12.1432038609972	-45.0018030190643	84.3519201701541	-45.2545245211617	83.7915603737778	-0.361738920204072	-12.0309978934985	
7489000	-0.505844414092426	-14.0681722960883	-53.3294082600492	60.8415799151734	-53.0800292167677	65.0715239105168	-0.51924718768959	-13.3428488216787	
7738500	-0.411827591701369	-16.1701233586101	-46.8570903182973	60.5423580122392	-46.6452443249054	58.5143665712018	-0.37233569448784	-15.4737079925248	
7988000	-0.209127670668393	-16.9068423150096	-42.1012731158831	22.2673812524355	-42.1446096980319	20.9386954067073	-0.118886092422413	-16.5021425063771	
8237500	-0.0100176817701604	-15.6645691712517	-40.2358709166475	-36.1939222137084	-39.9645956006932	-38.0245884179027	0.0373869364948855	-16.1960000115566	
8487000	0.0412378186117733	-14.8139564044176	-40.3586868591832	-84.5726266930173	-40.2652856937659	-86.716805236997	-0.0377073945057226	-15.4550396906136	
8736500	-0.195377318969941	-14.9278168161341	-40.0830865003848	-127.76699335699	-40.0051118856837	-129.855601509808	-0.34526549038953	-14.9956461946253	
8986000	-0.504860089006552	-16.1555101279398	-40.0452118909299	-174.27186410722	-39.8525733299561	-177.911919959614	-0.617642484212108	-15.3851932821161	
9235500	-0.596688587186594	-17.9790681259208	-40.4327356365934	140.34956286783	-40.5971393063709	136.456858665993	-0.616053457833057	-16.8789146998818	
9485000	-0.396421776475962	-19.4607958444842	-41.362314010493	99.4213736391774	-41.4628481517368	97.3595672230527	-0.366374111877615	-18.4611110823694	
9734500	-0.10913546068498	-19.7297714716993	-41.147549309691	63.1278870430838	-41.3062742790614	61.4307304984805	-0.0524829415812226	-18.9900591173207	
9984000	0.00719940786997631	-18.826523561332	-40.4393619817959	20.9644654075562	-40.4977730370405	18.4036824547695	0.0819498790307814	-18.4591592213811	
10233500	-0.102475592755697	-17.6075446035871	-40.2868408683901	-27.8942252375799	-40.4703644223302	-30.657465976373	-0.0395168382387596	-17.6864434547455	
10483000	-0.345321138626763	-17.627067201007	-41.4496615835207	-73.4502771701901	-41.5203810272961	-74.9504572976574	-0.315876913029085	-17.8658800853625	
10732500	-0.565783990923126	-19.3160559635139	-42.0650474440465	-111.265622450073	-42.4478789965435	-113.599384067696	-0.578805889642729	-19.4833995187212	
10982000	-0.577684429938113	-21.6051538895031	-42.3690796227587	-144.841288015295	-42.5148642079888	-146.643074243162	-0.663792238756022	-21.3864911408185	
11231500	-0.376828971627824	-22.8261056842348	-39.4116570087539	171.692074103851	-39.3298638046928	170.18437634698	-0.448243727597512	-22.1948923718417	
11481000	-0.102114086686369	-22.4965097199407	-40.0423171700585	114.076209532196	-40.0449722558234	111.709439869184	-0.131396058264716	-21.5812238135996	
11730500	-0.067084597189367	-21.4372845244583	-41.1972805939372	103.433996301354	-41.2357082867202	101.715384160905	0.00392879529089173	-21.2756736744905	
11980000	-0.235195984201556	-20.8579944110713	-37.4664823546641	40.2852251075147	-37.315614312535	37.6445588451502	-0.244777890422363	-20.5068331273468	
12229500	-0.592411456114333	-21.2326840501795	-37.5466616641198	-17.7084062923606	-37.5834541627619	-20.3097927062119	-0.531760017348572	-20.5934419536797	
12479000	-0.749697911089311	-22.8504813007278	-39.1069665987387	-66.816444377988	-39.0441679489009	-69.7476322035248	-0.662481587989864	-22.260221435797	
12728500	-0.61567153511863	-25.0310245296591	-40.06221945844	-105.387751428328	-40.1553436701538	-108.230298778674	-0.528165224724669	-24.421042789278	
12978000	-0.336451054086853	-26.1523962775668	-39.9465323053237	-143.13120515753	-39.8058996849587	-144.857144991645	-0.250321560695694	-25.6403844430332	
13227500	-0.155864121835254	-25.544457378985	-38.6879103683721	174.333789190503	-38.4821093271686	171.879068633283	-0.0498539973025801	-25.4165626306658	
13477000	-0.18259106877031	-23.9000376664534	-37.6989158206395	124.003098805058	-37.6197598518347	120.881620039527	-0.091863819066727	-24.4798322618641	
13726500	-0.381253258561106	-23.061954202754	-37.5415381849149	72.3532713364372	-37.4127618868351	68.3478770389621	-0.385518327290977	-24.0612847644556	
13976000	-0.650833759172567	-23.9634380613461	-37.4696085968628	20.072161535121	-37.4429462662785	15.9337277291089	-0.787611296988439	-24.5538727468512	
14225500	-0.735789722898006	-26.0689203908291	-38.0778051630379	-33.6807836714028	-38.2224519375175	-37.8812088548722	-0.922561650413907	-25.4966428595598	
14475000	-0.54552327409278	-28.2186508183987	-39.1963445962643	-82.6653849698208	-39.5098979166583	-86.1641771712406	-0.662284858584558	-26.6715528278994	
14724500	-0.289164640357429	-29.1181024316345	-39.9773320350046	-129.904581636477	-40.178217481749	-132.645760628564	-0.268125082422143	-27.2237811347772	
14974000	-0.238071785881589	-28.0756788106533	-40.6392283738756	177.149409585899	-40.8526269421149	175.350035402116	-0.0207217536648286	-26.7396884465443	
15223500	-0.318320651273081	-25.9605133267109	-43.4041428914413	122.546444379459	-43.7150395221511	120.609541225114	-0.0476494345214287	-26.1448262298105	
15473000	-0.49292459406256	-25.6447383440988	-48.717793034808	76.1554405877241	-48.6867966531674	75.1077982240301	-0.317245442519545	-26.5635576197675	
15722500	-0.716971962375277	-27.434819001821	-58.7743271728263	24.0295558072445	-60.911419174177	28.4284200870181	-0.630176949681512	-28.4143309515261	
15972000	-0.773484854936615	-30.143738249687	-49.0336183771258	174.892074680163	-49.4714808840214	171.20534827437	-0.792824859921806	-30.9250605087293	
16221500	-0.616298779505077	-31.5544931428206	-38.7261603545899	96.3276306713521	-38.5385188609563	92.9651342081395	-0.695770597015892	-31.4199541779803	
16471000	-0.303983270227845	-31.2884067232403	-36.3614421207697	19.449977922595	-36.3926976343864	16.5345846814846	-0.295356213648501	-31.080795175907	
16720500	-0.203663455485135	-30.0428098704328	-35.868542933469	-42.0374763320183	-35.9524307936263	-44.6137374569607	-0.171683390063642	-30.3064085081742	
16970000	-0.355817590533218	-28.8599019477252	-35.8408616989694	-102.261310727252	-35.9446676361886	-104.430717493193	-0.374111341710797	-29.5006504499192	
17219500	-0.64657786726762	-28.9003800964168	-37.290426157119	-165.414745676066	-37.5174248068198	-169.351468123713	-0.783800469456609	-29.0225695313193	
17469000	-0.797054373727086	-30.7909990516371	-42.1582008798801	135.045405644953	-42.6589704308734	134.616920273076	-0.91280571215849	-29.5757762825253	
17718500	-0.728133895616485	-33.5966684630899	-51.7039592699847	120.389883546305	-51.8968729712645	115.499200222438	-0.71614349074804	-31.8503400199145	
17968000	-0.535832135823853	-35.029761537205	-45.9090078713988	161.883396231315	-46.145086293035	160.460788241318	-0.379435793820613	-33.724133646886	
18217500	-0.324669983689483	-33.897908290609	-38.9587748015585	112.936767990314	-38.8097769911678	110.735665766824	-0.147456562271748	-34.0427741527735	
18467000	-0.224111853240868	-32.5179193195714	-36.1019174830514	57.147455353857	-35.9362138735776	54.1042600487368	-0.181556313952712	-33.1890664255997	
18716500	-0.478520927344443	-31.9887767549403	-34.372292621592	1.7284814352864	-34.3576259302893	-2.23230818929318	-0.493019982592139	-32.1914243733526	
18966000	-0.831986396021781	-32.4189733600952	-34.0452318698551	-54.344377787349	-34.2522470022171	-57.3815299440439	-0.806880688916539	-32.0877122139896	
19215500	-0.951201485737306	-34.5544519042011	-34.9171411138952	-101.025712179974	-35.2665300899468	-104.009559700703	-0.887921938393236	-34.0305452199638	
19465000	-0.818297008701859	-36.9588204789483	-35.2646069750283	-140.568971584893	-35.4742606555821	-143.767954863963	-0.738343425923695	-36.435920636837	
19714500	-0.575686648877511	-37.7247554414906	-34.7775575326909	178.089237989817	-34.9432908694618	176.020662452867	-0.455926984038066	-37.4838659173034	
19964000	-0.431378360194223	-36.2902241178044	-34.2583942834347	133.581142150243	-34.4227897004609	130.964047530603	-0.275083661770693	-36.7754938011879	
20213500	-0.447464541586281	-34.2128196938678	-34.4962504896369	87.5704887364247	-34.6245254770936	84.2401579783337	-0.32735401196524	-35.4759927679935	
20463000	-0.65646324142103	-33.5779005805703	-35.0996179958521	44.5271727591096	-35.2517897363418	40.7006248538508	-0.62259236756114	-34.8802453292681	
20712500	-0.931573793122621	-34.9232573949673	-35.4056311880755	3.87865276959582	-35.7867725298429	0.0834767016071657	-0.951700242432408	-35.6426106880436	
20962000	-0.997431266992225	-37.384158328897	-35.6308217800209	-37.4322983859625	-36.0535550329367	-40.6847980308587	-1.03300948723495	-37.3893093718283	
21211500	-0.763383209510391	-39.3945296587988	-35.8691732849393	-78.7515047591641	-36.3221242268509	-81.8653299887885	-0.779053521756388	-38.9587442164734	
21461000	-0.454146819548129	-39.8127771051546	-35.9091958772301	-120.242072994179	-36.2963634192867	-122.965485568263	-0.420069491751788	-39.3454996415214	
21710500	-0.354966971422077	-38.6049779333664	-35.6976937507613	-164.965743189217	-36.1451212340031	-166.873603977643	-0.24767007997299	-38.5346616097658	
21960000	-0.498050359786988	-36.7953070955077	-36.0355209607904	148.620405934884	-36.3788218501915	146.814093194525	-0.371193444530858	-37.4112933163155	
22209500	-0.750308620625063	-36.4077805220713	-36.9038611160872	104.69950008365	-37.3324995936341	101.733917078773	-0.687662773708454	-37.3068179489112	
22459000	-0.957602002068534	-38.2209392476147	-37.7910588428455	64.4282130498619	-38.1094665359846	61.7098156652372	-0.972134014328386	-38.8611919826019	
22708500	-0.936967319388768	-40.9288640158767	-38.0055670932337	23.2209574510873	-38.5515027297109	20.2187964888797	-1.01236495134983	-41.1648265246945	
22958000	-0.689016096105676	-42.5333337193206	-38.9242753705955	-20.8027051051956	-39.4880289123662	-23.2546875746602	-0.757117575458564	-42.3277681932866	
23207500	-0.448154863320722	-42.1634225250847	-39.6786820213991	-47.3267791718993	-40.1833232856487	-50.2236431557169	-0.369677031213435	-42.3595430030761	
23457000	-0.361200638397289	-40.2425632034957	-38.3717056162655	-95.1502945078124	-38.938320947258	-99.0802692221793	-0.278924832877005	-41.5104751715382	
23706500	-0.515825050641323	-39.0433237462046	-38.8519454372536	-143.38777876824	-39.5970969629728	-147.946966935191	-0.491893127560131	-40.794638724818	
23956000	-0.822509353463794	-39.562479450378	-39.8286761922696	170.719315083269	-40.8684412989991	167.441368868196	-0.88062823078842	-41.234422162619	
24205500	-1.0105102547666	-41.7568022173257	-41.0655334886935	126.436524558305	-42.1918010639155	123.110203535919	-1.15688702833563	-42.9088046170589	
24455000	-0.88964907725969	-44.2831396474554	-42.0427644506285	80.5609266352149	-43.5989378935011	76.94516461762	-1.1147365089194	-44.7454776565273	
24704500	-0.563479722396593	-45.3999153372094	-43.6421526251373	34.7486116695117	-45.1815861581155	30.6126645523441	-0.792738147817576	-44.9964832945558	
24954000	-0.308645142388	-44.7277271663893	-45.293695663733	-13.000180580263	-47.4943469609514	-16.4704241937427	-0.47169583843113	-43.9891459427383	
25203500	-0.325710627721708	-43.3325525794448	-47.3941983179189	-60.7095815979513	-49.9240260290294	-63.3524194395424	-0.389336438470216	-42.5158149910159	
25453000	-0.609650848715997	-42.6212658538038	-49.0804785577264	-106.947057837695	-52.0988416772704	-108.891170542062	-0.588148199599868	-41.7838516195742	
25702500	-0.98244185734343	-43.4953234055626	-51.0319674362313	-156.883400841966	-54.3146182865573	-152.038508616091	-0.889874952246488	-42.7305237782256	
25952000	-1.12953338312719	-45.6999238570419	-52.0362358758232	155.426824854899	-56.6092231067648	167.404073016589	-1.01860477420371	-45.0966159143475	
26201500	-0.926161549996697	-47.7021449932723	-53.7476669327765	105.526640415152	-59.0591644345168	113.925364756499	-0.851232620171659	-47.4606602887153	
26451000	-0.587977472188906	-48.141293303518	-55.8618482292976	56.5608353693551	-63.1952555608089	66.3960642733907	-0.52528321530264	-48.3593130189187	
26700500	-0.388838143271902	-46.922910545382	-57.4107535403078	13.3718547465884	-65.9128956280846	33.8753052730193	-0.336353809743669	-47.7768925301316	
26950000	-0.481188274773061	-45.2736603475612	-58.7104558002008	-32.0072456158936	-64.9944956589309	-1.90738319759508	-0.455566143501516	-46.6625118347485	
27199500	-0.775144784630976	-44.679548318126	-59.3042096487823	-68.6218320674978	-71.4213905138208	-59.1042077829426	-0.827814017957643	-46.2193630401872	
27449000	-1.041872431733	-45.9914045875314	-59.6356386138704	-134.894975657023	-69.2539060102983	-96.8559438987555	-1.20353040954608	-47.253565096214	
27698500	-1.03576657570162	-48.6113789572193	-59.4096369837754	178.357226489324	-64.9598851170313	-177.640749831878	-1.30282726082162	-49.1988839196891	
27948000	-0.722650760670126	-50.6123123065352	-58.3283832957646	120.256958688813	-64.9477533084419	118.673185280177	-1.05534078948206	-50.6547169353863	
28197500	-0.371350523493972	-50.8997839305537	-60.7112338577468	87.3406327608584	-72.2733022809861	119.552199666264	-0.687935951527998	-50.2655719978924	
28447000	-0.250216443026774	-49.8453280407764	-59.4749436274353	61.5572831624616	-62.2534904421438	70.7852662135907	-0.442030275700003	-48.8120094971981	
28696500	-0.460585514073327	-48.7566381119013	-57.1367076850141	20.3261012851513	-60.1337009783217	47.7263771504495	-0.515929492980177	-47.6602397180217	
28946000	-0.84630196139338	-48.8675396253296	-54.675430777132	-9.10098373013919	-57.9253577722314	15.4076262134237	-0.801246540101829	-47.9283980543046	
29195500	-1.11754068348532	-50.6380777718565	-54.3449998687156	-48.1500540931693	-55.8357060408382	-33.9635511278617	-1.05517145844492	-49.97216181302	
29445000	-1.0539186263799	-53.1483873352698	-53.3303973899084	-81.6037467798736	-55.2435907587121	-71.8920310838077	-1.03642966457332	-52.7239997508123	
29694500	-0.729188116703059	-54.5126719609911	-52.2314020871849	-122.700517691487	-53.6199488979186	-108.526753909644	-0.775038014265213	-54.3968126783069	
29944000	-0.437882987951705	-54.1081394273823	-55.1451028120944	-168.380002839846	-55.5507943000766	-149.270722016072	-0.494508919039684	-54.268081586472	
30193500	-0.430966152632642	-52.6567132268259	-55.7312119053753	166.451330304816	-55.8146767413867	175.226587976988	-0.499473130694227	-53.0308389266827	
30443000	-0.714828706889248	-51.5632595020466	-55.3334957579852	125.780461594898	-56.798767957348	151.541302096038	-0.805987573280417	-51.7921301591063	
30692500	-1.09495826774962	-52.0813799539529	-56.6692771366725	98.0038828507113	-55.8096737667075	118.272328157399	-1.22916550629604	-51.8279723853574	
30942000	-1.28458685132821	-54.245866504469	-57.9575235476421	58.1334304130088	-56.8036869670096	75.4419237139652	-1.46660494078011	-53.3114567372238	
31191500	-1.12452097540162	-56.5432942783426	-57.599467364558	28.3100836677343	-55.9931911176582	47.8899674770443	-1.32581098122708	-55.1319127363005	
31441000	-0.778399129295834	-57.2678791439387	-58.5280323124724	-4.87695283080458	-56.7332432016572	14.1791348703242	-0.916074071226878	-55.7821667493705	
31690500	-0.552060469643488	-56.2397355195914	-60.8044647826776	-43.171184312079	-56.8805056016425	-29.5786846985609	-0.554772824571359	-54.9629326161336	
31940000	-0.627659394605047	-54.5212643850383	-60.2790607479155	-85.5403835791562	-56.4950464019032	-72.827518015955	-0.503192943791739	-53.6397857007226	
32189500	-0.95126796825954	-53.7678190544264	-60.4663590338448	-127.922513514257	-58.0555913802754	-115.317371846743	-0.746494319685305	-53.1558356363552	
32439000	-1.29337785214126	-55.0186953637975	-61.0131672985951	-158.687238489623	-58.0977764219871	-154.982207903534	-1.09722634887923	-54.4128318518202	
32688500	-1.37697500811432	-57.7548653354156	-60.1394794040445	161.014441804137	-55.4258089810751	173.19101571955	-1.26637053439815	-57.0549246142061	
32938000	-1.12552679284288	-59.9542147117892	-59.7444875715414	119.567899150909	-56.8621758387584	123.061572829935	-1.12479056049653	-59.3529525432134	
33187500	-0.769457986742352	-60.1046055318351	-58.086110881862	77.3274022738713	-55.2625381152753	70.8479856761783	-0.831621482156507	-59.7368219315327	
33437000	-0.610229442245628	-58.4862572516208	-56.8475518347135	40.9801000886331	-54.3957579513634	26.839480139045	-0.641438134281257	-58.243779439254	
