!Keysight Technologies N9923A: A.12.45
!Date: Saturday, 02 August 2025 20:01:38
!Timezone: (UTC+08:00) Kuala Lumpur, Singapore
!Model: N9923A
!Serial: MY61181427
!GPS Latitude: 
!GPS Longitude: 
!GPS TimeStamp: 0001-01-01 00:00:00Z
!GPS Seconds Since Last Read: 0
!CHECKSUM:0346795477
!Correction: S11(ON U)S21(ON U)S12(ON U)S22(ON U)
!S2P File: Measurements:S11,S21,S12,S22:
# Hz S DB R 50
2000000	-0.0632942668286606	-2.14544112571859	-72.1684082414795	96.7317922225946	-70.2310486185214	90.7784697938796	-0.0760458347133125	-1.60449173481423	
2249500	-0.387484134001952	-2.79145235748852	-71.7123667004821	66.9790332172585	-82.1832223014859	-83.3292413088707	-0.392920269124138	-2.35054853381967	
2499000	-0.533903787486466	-4.57061976419576	-68.22654783649	5.32732642068309	-77.2614963413143	12.4401997428968	-0.581487782508524	-3.78789262912154	
2748500	-0.375404946231013	-6.36599150236447	-71.455155489979	24.9522043204146	-72.8003666330835	50.1563874272387	-0.370138609520724	-5.69321494883228	
2998000	-0.0970660835123874	-6.91534194514073	-63.6350224332778	-14.6035742549127	-63.7869662231515	-43.7735704422126	-0.0541721074642807	-6.63147121363057	
3247500	0.167078042975887	-6.25616701702366	-65.7638873038607	-94.4335905720039	-66.5408295628431	-78.4265268013849	0.155108150489017	-6.3946683226536	
3497000	0.11841424902243	-5.66212398179306	-66.8879455665045	-128.595781150188	-65.9363332043766	-81.5469334075781	0.0962708620496797	-5.70616121863767	
3746500	-0.185104256589914	-5.72743328879699	-63.3305800382727	-126.352791739845	-66.8881459180711	-110.931029303573	-0.179707007388922	-5.58384278062516	
3996000	-0.500575488426084	-7.10003722167122	-57.3960825841441	-135.210670246549	-58.8352476271776	-133.582455471039	-0.461144951679081	-6.6019695407314	
4245500	-0.576924526318675	-8.76657681865325	-52.2614117561444	133.841503253163	-53.1815808745933	134.750922158296	-0.516894222802388	-8.31927213361362	
4495000	-0.292358622374566	-10.2587149200708	-53.7278774836432	57.7285423248953	-55.1535246587034	66.8367516507448	-0.32871911397537	-9.64089541733949	
4744500	0.0273869712762909	-10.1303151653547	-62.3074187967621	-151.364165183924	-61.860150255505	-161.093830975822	-0.0685460116776362	-8.97342775859539	
4994000	0.192164061818783	-9.47891537302923	-62.3958224651793	87.8872331202662	-60.0813967344176	81.9511158574066	0.156889280082822	-8.0061968479098	
5243500	-0.0401373543410498	-8.5861089194741	-52.9580011266371	25.2140990993271	-51.6507863761962	22.2289920441149	0.0328259592367633	-7.5288665467482	
5493000	-0.307906595022799	-8.24837036784716	-55.0514917970039	-62.3365165237245	-54.1664893651423	-60.4939217983999	-0.282354044250844	-7.9911260664873	
5742500	-0.536618032005141	-10.0366473376835	-57.3958028986262	-89.8936245577961	-57.0526111597217	-82.1186570357747	-0.520888902354019	-9.80896285951953	
5992000	-0.491898187420814	-12.3129369557946	-56.0334430252423	-113.819738734593	-55.6328653926358	-109.22243069858	-0.471994136339582	-12.0548070285574	
6241500	-0.186802449954303	-13.7821773161045	-50.3117120266348	-145.658750620588	-50.8080507132787	-145.32279281045	-0.16525760770374	-13.3766559513262	
6491000	-0.0300882645004438	-13.0395948895493	-44.4804766759099	142.39465579796	-45.0546503740637	143.633584690057	0.0743395362462468	-13.2043740311781	
6740500	0.118855044013949	-11.7124473443305	-45.0069146829821	64.3027597555293	-45.9045032398357	71.9687338691648	0.0808741606339865	-12.2878637013955	
6990000	-0.0793584277019424	-11.4273246614456	-46.4565215233453	-2.5067052060029	-46.5929047375464	10.7507806550474	-0.242170689801967	-11.0353560795963	
7239500	-0.418649900716065	-12.4161790107323	-50.2458253708537	-55.6698702263322	-49.4777103320703	-42.5361501007249	-0.50293051780355	-10.6867765186809	
7489000	-0.607167393068105	-14.6598551332373	-52.4248480246629	-83.1832842930056	-51.3783794135006	-75.3189373826339	-0.592313477080623	-12.525135148236	
7738500	-0.509146051342308	-16.799488815145	-51.6873803637381	-113.048452576091	-50.5811354160748	-111.386088891825	-0.428900676659221	-14.6453817734137	
7988000	-0.238488995730847	-16.8789270227758	-51.0163294254671	-167.840802788227	-49.9675837271562	-165.045584362629	-0.0952425641833431	-15.6215965959488	
8237500	0.0798140347006548	-15.6391881041608	-53.1239194946911	145.01235032722	-52.4421154383206	147.699132040658	0.146753968050019	-15.3051602437565	
8487000	0.0888445227827296	-14.6209053741958	-55.1512989314428	114.223767849846	-55.1642334778835	113.27027583383	0.105512208280184	-14.5923091537776	
8736500	-0.202208439587188	-14.3966199303196	-55.6847083733155	82.4076768247494	-55.3535205581235	84.9694141248929	-0.206701230340844	-14.5259549754119	
8986000	-0.551861957375649	-15.6290017091121	-54.602130864495	49.4109256861705	-54.0306097525235	48.8719189632533	-0.59847921756773	-15.7918730444135	
9235500	-0.664775044310002	-17.8443704130342	-51.9183027946295	-9.91778499425881	-51.7973533889756	-0.636948996107249	-0.800034099387346	-17.4466946471168	
9485000	-0.450041801224008	-19.6007778059465	-53.0182673096574	-66.6549673417841	-52.3559048396432	-63.9932316359782	-0.564325107286288	-18.1157952377199	
9734500	-0.127117097455277	-19.8129124801734	-53.9840524001282	-120.611201458899	-53.2448229787357	-113.802873697018	-0.121975021545274	-18.1276615893223	
9984000	0.0358952572852945	-18.7009323747648	-53.7118163047197	-168.353547391473	-53.1523577484675	-166.209604348673	0.117274698964966	-17.4021263392831	
10233500	-0.0715840173272534	-17.5848807790592	-54.1710004576531	140.643416096836	-54.1069727817532	142.947713392802	0.0290276648908228	-16.6459225998501	
10483000	-0.383249545455513	-17.8424426874897	-53.6326214993283	97.94351811977	-54.7172262504414	97.9631484680554	-0.291640022311959	-16.8800080539976	
10732500	-0.6717447359071	-19.7891566331306	-51.9170744340641	32.9777510452126	-52.6759720824999	39.9890018319347	-0.589271246471537	-18.6219687918345	
10982000	-0.693055869834864	-22.0309042502464	-50.6220873593863	-54.8132196414229	-52.1903312547746	-49.0608757313995	-0.608019722398049	-20.9741246875911	
11231500	-0.387777179906517	-23.3349987616565	-53.9883192578355	-151.148062227048	-55.2353414026498	-147.893793445511	-0.361832370688369	-22.6996519074538	
11481000	-0.110949938992502	-22.8535024921078	-52.8115164339514	132.973243394156	-54.5969765134146	143.657071535759	-0.152287820117596	-22.6224986413226	
11730500	-0.0477598373344301	-21.0337437707406	-53.4389623171582	48.8133862292227	-53.5546748353335	58.7235989313349	-0.150978398690957	-20.7722341622253	
11980000	-0.201032372457395	-19.7788727447966	-55.7364438431118	-18.3615737939687	-54.9114033413102	-9.74544170210486	-0.293330684863563	-18.9208903916542	
12229500	-0.518956835272941	-20.5095405999385	-57.8682018689134	-59.9091692581174	-56.8110804381833	-58.9813798581842	-0.536027980122961	-19.0686171997617	
12479000	-0.751040182163235	-22.9427968430134	-58.5024825515357	-84.5520990448905	-58.0626162676997	-89.5032486199971	-0.70929844620451	-21.0290126740457	
12728500	-0.660358918877508	-25.6293179504961	-59.8302233430164	-119.178085594726	-59.0739820982548	-122.270757627865	-0.568954668524324	-23.4596092392278	
12978000	-0.399464819833821	-26.6560559532759	-58.7103211485172	-148.310162043828	-56.633514566691	-151.171730364599	-0.232849118784535	-24.7866416820914	
13227500	-0.178881197310882	-25.3760710234248	-57.3194878174797	163.935469439825	-57.7164300599492	164.983369435098	0.0225678193091474	-24.6534409464213	
13477000	-0.119209108271543	-23.5405210968564	-57.0951799402327	122.704407670196	-57.8108167237615	128.057376970764	-0.0248759732227473	-23.8324618012772	
13726500	-0.331715056710587	-23.066005067809	-58.5777133156675	79.584946380023	-58.5065855650754	84.7102267096466	-0.399302093658257	-23.2651486956806	
13976000	-0.667120316356101	-24.4874949466927	-58.2298399234585	38.9303698986003	-58.7308640523268	43.5554363623482	-0.835363223103407	-23.521827896995	
14225500	-0.824771334841019	-27.1833375339988	-57.0657286829139	-2.23115043175084	-56.7091523876464	10.3925968086642	-0.93744581842679	-24.8002383779816	
14475000	-0.699201719303714	-29.2355668794276	-54.7162583412303	-43.8328823362922	-54.6123695757792	-39.7326643668	-0.648059956646936	-26.4634957251934	
14724500	-0.406458410219452	-28.8420066801921	-52.6750051370847	-104.20574645427	-52.2618163555396	-98.9588980186934	-0.219372144893275	-27.1290507196539	
14974000	-0.10307220494353	-26.9841558123627	-51.6868622946015	-165.332932192426	-51.718016767317	-161.577336318423	0.0323121648555454	-26.5615813675596	
15223500	-0.131471650729834	-26.1758645956301	-51.9394756230498	119.206893761496	-51.8956399784115	124.527130212028	-0.0673510395478897	-25.7227782982262	
15473000	-0.543531190977442	-25.5883439896147	-71.790746559935	154.710006658205	-65.5231869810743	157.682817646258	-0.464506799815706	-25.6154445937638	
15722500	-0.80616758469407	-27.3660826961284	-56.4082339275508	102.381904771734	-56.1192938648155	105.58517992007	-0.865619896956009	-26.6356553237644	
15972000	-0.859191291450693	-30.4171953383474	-54.2780169046205	54.863965650031	-54.3365006269417	54.4087574827975	-0.901459389668762	-28.4939243678628	
16221500	-0.648154817278287	-32.3072938361083	-55.7450948523351	11.1571460318742	-55.0502112316715	9.48992715848154	-0.567916744487936	-30.1703915930713	
16471000	-0.362224583519898	-31.7436194522395	-57.682010135809	-31.145499596929	-56.6762235315019	-33.5207857497859	-0.186366200838544	-30.5123355374066	
16720500	-0.194781124535649	-29.7719373149206	-58.7876296003392	-56.4258778964824	-59.9594942981345	-67.111482286108	-0.0565409453163494	-29.6496515848111	
16970000	-0.306016944633594	-28.4962605859969	-60.2049762375227	-76.1824044426569	-61.1432371419289	-78.3348738666676	-0.284694060840406	-28.5352771790866	
17219500	-0.637571987696811	-29.0189015521829	-58.2412069378786	-91.1583629448745	-59.7736493931138	-79.2360031282677	-0.705322528652766	-28.2080209448554	
17469000	-0.908608268204564	-31.3013256539147	-58.275527038696	-116.167561999527	-57.6378035634812	-105.664521785736	-0.978254683692649	-29.3495024992372	
17718500	-0.870206427226525	-33.9231239604989	-56.0510220804608	-153.335361110531	-55.3200343554803	-144.835912046998	-0.88101937701394	-31.4000355592679	
17968000	-0.570349802098692	-34.9071093683415	-54.2470861040155	163.397776923305	-54.345023327449	172.653618208114	-0.503114898591123	-32.7818783257865	
18217500	-0.255123228354845	-33.7841630448063	-52.9833360088738	116.543200417643	-52.8700918005546	124.225805842005	-0.149569359412265	-32.6926857355049	
18467000	-0.165136367945176	-32.0028943376309	-52.0828740020819	69.6002108247133	-52.7721549088727	77.2022374635449	-0.0832110293133597	-31.7489549812596	
18716500	-0.388746149027706	-31.2307653209439	-51.4816538476831	19.9234958564861	-51.8060586120227	28.7725213160389	-0.350070412230671	-31.1554493337097	
18966000	-0.783153655126722	-32.3536687706542	-50.4997451423185	-30.3428545776726	-51.5059095274675	-17.6111874100002	-0.783878268770157	-31.8172084674639	
19215500	-1.01220757864052	-35.0667207829255	-49.3936618466845	-79.4419265416236	-49.5513601858758	-69.5872620875084	-1.04300265108084	-33.7401097565096	
19465000	-0.902657550650229	-37.4817542652	-48.3111034752788	-129.773442855868	-48.7974049366711	-114.643988165223	-0.933105999378038	-35.4863306791263	
19714500	-0.56445888180897	-37.8897186824774	-48.0627364665324	179.419084658878	-47.9387604277034	-167.576046722995	-0.552763546900181	-35.769276645536	
19964000	-0.290824705385375	-36.4986909524791	-48.0302560959281	133.389652217616	-47.8060130022986	141.402344483743	-0.231344572462168	-34.6587342890033	
20213500	-0.31431038011729	-34.8844458585559	-48.7460462021977	91.3884336032904	-48.9000936861242	99.2269101888718	-0.199788730826163	-33.2786049316983	
20463000	-0.635611031075565	-34.4741891149417	-49.1092494813703	52.3442446760655	-49.2880291599421	60.7414362003827	-0.474257157107944	-32.9307994238297	
20712500	-1.01838957238796	-35.9508217541255	-48.9544156302294	13.6467461068205	-49.1826171434284	24.3458992610918	-0.833396792337328	-34.3466560473806	
20962000	-1.14593246171199	-38.5566029611815	-48.728569076838	-26.4600931775214	-49.0449848870245	-13.9129973361851	-0.971681379399635	-37.0559696709607	
21211500	-0.92308939003408	-40.2037151326685	-48.1630550391769	-65.7842828126316	-48.3376300017659	-55.0962574530982	-0.785971337355031	-39.1997776866688	
21461000	-0.5339474442066	-39.7006892812504	-48.6449219114828	-114.340007072011	-48.0489630800752	-95.6551264939469	-0.466746302484358	-39.3689167412193	
21710500	-0.299349960624094	-37.9035810594242	-48.4453521492811	-163.646496219068	-47.6706057477063	-143.270897197136	-0.296613276534594	-37.8080250644653	
21960000	-0.395651504350078	-36.4419810575461	-48.4825156041247	150.401879543947	-47.8617388496763	168.597008423743	-0.407770249203336	-35.9768747784631	
22209500	-0.762089292726984	-36.6066252412375	-48.9594300462707	103.356900972467	-47.6204740901259	122.00773681871	-0.726104334787941	-35.4957414708431	
22459000	-1.10537263060967	-38.7603865061341	-48.1843211553306	56.4176502778386	-47.3703791063589	72.4771368701576	-1.00901925813613	-37.0872958518096	
22708500	-1.12488945141398	-41.4683167845298	-47.3365276514686	6.8971705595842	-46.5647111898855	20.134994046717	-1.00555156133493	-39.8499587442179	
22958000	-0.792623457381136	-42.6482466634675	-46.0140674699713	-49.6286938486189	-45.5523644431342	-33.9388203819273	-0.703602592786811	-41.6540942138341	
23207500	-0.376870461131994	-41.9213639109192	-45.8733962170073	-104.796489332697	-45.4926065180302	-88.8595126216817	-0.356095632691031	-41.5309416114617	
23457000	-0.23619736514237	-40.3722428090338	-45.9270714987969	-164.157899328017	-45.8947884366055	-147.739271344703	-0.24152862827398	-40.0878782139296	
23706500	-0.479395083176774	-39.2944796998049	-47.193963718834	139.944586704569	-47.1011413461619	156.462163924668	-0.454723941351336	-38.8487005246859	
23956000	-0.890508613206796	-39.791774945117	-49.6860997886286	77.8386315501073	-49.4173250251077	102.392727595368	-0.855564608740183	-39.1364866599297	
24205500	-1.13572490074991	-42.1450152296652	-53.9415771419711	17.0383981619422	-53.1311561368778	47.2476972429234	-1.14984273007085	-41.1117980390996	
24455000	-1.0067461689151	-44.7839647687666	-58.3341682773527	-49.6803295652115	-58.3461869794949	-9.49654489145753	-1.07509551023816	-43.4649312129145	
24704500	-0.624966907167952	-45.6413145505988	-61.9930285074224	-125.603067698923	-65.6904186214599	-79.7766904262343	-0.687191631666352	-44.1789746740063	
24954000	-0.312697852458816	-44.4250375291113	-62.083719589421	156.454374303885	-66.8292832612405	159.742486728033	-0.342630008037191	-43.3901634444399	
25203500	-0.287975854949798	-42.554526571443	-60.1025394011684	97.0868309088426	-64.8337344584271	91.6752318388723	-0.288056088533918	-41.8385772317394	
25453000	-0.573500433899515	-41.7295352584687	-60.6880933388751	44.7113940741827	-63.034150388699	35.4356771654365	-0.559659306745773	-40.9270398705447	
25702500	-0.973489612883597	-43.0447603594983	-60.753482116515	13.1947883067961	-62.6301921737918	8.66471217263192	-0.969470928881663	-41.7506311740447	
25952000	-1.14564062850369	-46.00855174639	-60.1636412885893	-36.7887118928522	-60.3253447816735	-49.7929526537113	-1.17503601410439	-44.188946616756	
26201500	-0.934163356468647	-48.4213825911277	-62.9601092482617	-83.3338413972659	-62.4219204091802	-98.198181628816	-1.01133675593252	-46.5542817698975	
26451000	-0.537135856900895	-48.6684289243111	-64.4228220831539	-145.871207963987	-62.1597725017491	-176.751992838193	-0.632855107741699	-47.2270444647153	
26700500	-0.271692118588312	-47.1333884002426	-67.5434751278061	173.354813593778	-63.8755904338998	140.677573432217	-0.372252309657187	-46.1671230385175	
26950000	-0.342794921945281	-45.4109010904986	-65.6736355991089	96.7741646449705	-62.24354557027	63.9931814163927	-0.425525481476221	-44.6214818057957	
27199500	-0.688045297258071	-45.1517883573809	-69.8287349962328	34.7119968207963	-65.7487191455219	29.3740759307438	-0.762736347718657	-44.0569453205687	
27449000	-1.05452982315328	-47.031225898587	-63.4565321848402	-9.7643193179819	-63.1104834463465	-22.0661470032572	-1.12971764219325	-45.3636673032194	
27698500	-1.11586078365988	-50.0794871848639	-62.6544308015621	-63.9180972307947	-60.4052296696174	-65.8255072705114	-1.22255054220904	-47.8380690882639	
27948000	-0.820427738712982	-52.0043161040878	-65.6854768505587	-132.915856091488	-62.9827156461648	-106.620771277475	-0.948990871578572	-49.6638463022346	
28197500	-0.451681946405098	-51.6395387990319	-66.7474520199974	-127.266234498705	-64.8395000640012	-129.427448516762	-0.56787303800179	-49.4815773353333	
28447000	-0.305248914096374	-49.7675112739823	-68.298995073107	-170.212061649748	-65.9455118757606	-151.333759533478	-0.364746075155934	-47.9147710765969	
28696500	-0.502261915001861	-48.2311160308541	-68.283688739776	174.348242542032	-63.5423394877664	-169.192063366847	-0.518902081016058	-46.4564951761427	
28946000	-0.909848702819305	-48.4838616759908	-64.6548790646245	168.010277933198	-65.9130242491165	143.374794540106	-0.906345176470588	-46.5347253604916	
29195500	-1.23010867158586	-50.9007971375485	-64.4083178724847	137.55597333475	-62.4129686249131	115.510611711856	-1.24361107558604	-48.6387409301937	
29445000	-1.18147161306725	-53.9603659897343	-68.3588035688968	95.6234643083935	-64.9810393608803	72.6515717286584	-1.24103104827705	-51.5852918426601	
29694500	-0.825634969553535	-55.2640036503352	-68.2954865298038	80.4258743330862	-61.9973534085273	27.974974866094	-0.915423061390871	-53.1929909821106	
29944000	-0.488065002559724	-54.2073209456833	-73.1298678504279	82.5257329865053	-65.3002416269551	-24.4930936147523	-0.560188521828579	-52.5727413036699	
30193500	-0.426428736074601	-52.1107489783408	-73.1344390717667	4.193432801782	-69.6583280782112	-84.6265091010085	-0.466463819738994	-50.6386542136042	
30443000	-0.686949574006344	-50.7920081056288	-68.7834650586631	106.447439181537	-66.4371901353178	-167.77092366829	-0.70857660073342	-49.0404867870034	
30692500	-1.09665827824899	-51.6537205961632	-65.5636567889513	66.4972635765232	-63.0617837439339	131.135428131604	-1.10310407371983	-49.202570603283	
30942000	-1.3114884441216	-54.4250710403353	-60.561898687651	35.4442790716976	-62.0605816497855	72.381846704672	-1.34409673263066	-51.3756098088858	
31191500	-1.13464004320961	-57.0859562536183	-60.2912948954927	-16.2637384556424	-60.2623308084153	18.3899856543165	-1.21218696710846	-54.033254186373	
31441000	-0.736900540605659	-57.6159826863079	-61.3863964374213	-66.8710004681886	-59.3799270057953	-30.2586009961333	-0.822605889022002	-55.1523519260329	
31690500	-0.458518055851597	-56.0945375657982	-60.7036765500934	-136.267638283524	-59.7434618759397	-82.634673941199	-0.503098044541046	-54.2585311541797	
31940000	-0.517368785855167	-54.0808383901904	-60.4492539215505	163.586422116348	-60.7790944424911	-153.480608791427	-0.522236772956627	-52.4783103124991	
32189500	-0.890353043490073	-53.4773852430526	-59.5071835558136	128.392125253967	-61.6965979893949	156.508411129861	-0.864903306673186	-51.4320878905807	
32439000	-1.32593817795046	-55.2719793124938	-62.0976442948914	63.8384564209807	-63.805201803898	97.8097358414781	-1.29566779425135	-52.2675369517289	
32688500	-1.46833333404509	-58.6313789497412	-59.5389843379599	2.34515616684562	-65.8891529828384	33.839757619643	-1.46990461680856	-54.8933220007318	
32938000	-1.19463364090758	-61.0027294202177	-57.4448685324727	-48.776042701478	-61.2931049100404	-36.2423222202099	-1.22488766310666	-57.3736839411473	
33187500	-0.774218071339816	-60.7889902607245	-57.5110193588481	-88.4393776028274	-63.2815562052789	-88.5067158228027	-0.77472297249151	-57.9655353376022	
33437000	-0.553087899563971	-58.6502634607454	-58.5017287042396	-140.899851636509	-62.0326581748738	-138.642758527077	-0.482628029184644	-56.7180862279983	
