!Keysight Technologies N9923A: A.12.45
!Date: Saturday, 02 August 2025 19:59:15
!Timezone: (UTC+08:00) Kuala Lumpur, Singapore
!Model: N9923A
!Serial: MY61181427
!GPS Latitude: 
!GPS Longitude: 
!GPS TimeStamp: 0001-01-01 00:00:00Z
!GPS Seconds Since Last Read: 0
!CHECKSUM:0439192270
!Correction: S11(ON U)S21(ON U)S12(ON U)S22(ON U)
!S2P File: Measurements:S11,S21,S12,S22:
# Hz S DB R 50
2000000	-0.0628380605279781	-2.16918755629891	-73.7683905360679	135.617070325647	-81.9435097645311	82.9271672501074	-0.0760145324209963	-1.65807248235766	
2249500	-0.383755184634237	-2.82267414205039	-76.4286184052863	83.1991556075404	-74.9420956673101	-131.490564414147	-0.38285683583837	-2.33366540503495	
2499000	-0.527999790656433	-4.56867812390415	-68.0663468932	92.7417761909353	-68.5748815488143	78.7263238608088	-0.578268059720246	-4.05249705128826	
2748500	-0.375233602054174	-6.38940530012379	-67.6034970819267	74.136549685654	-67.339894977723	38.9657334602315	-0.376630046808223	-5.52725547105805	
2998000	-0.10128020382782	-6.86200306299171	-60.2298550634828	-5.40758137682606	-57.3198983294753	0.86365177105438	-0.0538963513685945	-6.47794602895305	
3247500	0.164183954329515	-6.2551556579296	-65.0604915177529	-63.8395096541292	-63.5199385540346	-73.2588166045573	0.149549048017573	-6.23461393994026	
3497000	0.117327082359904	-5.65650906299368	-65.6180443307306	-86.8000390498324	-64.4656873565539	-73.9719718913639	0.0964641306009709	-5.63844293587549	
3746500	-0.182734566657932	-5.73339527622738	-65.8261369119172	-109.098307543424	-65.197932785724	-111.127052639174	-0.181691788349303	-5.57838377382609	
3996000	-0.502967605258641	-7.08978217404161	-60.2743452370397	-125.909371999898	-59.5587475448174	-136.500708029792	-0.462496846584182	-6.65067073086073	
4245500	-0.572687689065849	-9.03713070605181	-59.8083712858159	-179.141719106892	-57.5451827408837	135.979329067238	-0.505251589603563	-8.3941593534911	
4495000	-0.287816358127839	-10.0768830189162	-57.7273153564665	96.0003168188609	-62.9603048569772	112.227461405146	-0.279122238510602	-9.72683090435468	
4744500	0.054745801150685	-10.2930538340348	-60.6030422054763	57.8563637980691	-64.1602208753346	115.646052098056	-0.0414246756702692	-9.79059706736704	
4994000	0.182551514422325	-9.5489001283832	-60.1575518716454	97.2552005673828	-55.4614723990955	102.280161753729	0.0793532117764996	-8.01525217739271	
5243500	-0.0463280820749031	-8.4583012699476	-50.908270071838	24.1426741077992	-48.7142237550886	25.692754143585	0.010295137800369	-7.2913680733976	
5493000	-0.303275840811538	-8.28176397864338	-54.1887620980471	-59.7174928301628	-53.0102284575422	-51.6517091555239	-0.287389208856694	-7.66149233052845	
5742500	-0.533758545154568	-10.0483734745774	-57.0806571921261	-86.368084707407	-55.6268944203831	-81.1515517544587	-0.518942960724284	-9.43750870509272	
5992000	-0.488417114509554	-12.3101722034062	-55.8591533466855	-105.109611656073	-55.8224203530595	-103.19702741811	-0.468557851573904	-11.6999581036424	
6241500	-0.238447355850351	-13.7144626978026	-51.7573499132719	-134.665795355344	-51.6269691470638	-136.103688937782	-0.197849486107519	-13.0695763071517	
6491000	-0.0366315426645234	-13.0621785412064	-46.4976124694237	158.619447058979	-46.7574695107847	160.122720794989	0.0940357163412787	-13.0496405462433	
6740500	0.121267790807848	-11.6640204533591	-47.8506235445477	91.71614450753	-48.6284211596415	96.1047373119626	0.137411434019686	-12.2774369639914	
6990000	-0.0735721411076237	-11.4626403476069	-47.9379033744623	51.4084807584884	-48.8543057074528	58.1611167197861	-0.131611236055652	-11.8206309714157	
7239500	-0.419029828275186	-12.4552108041358	-46.8328401123977	-4.01256492844151	-47.2180292917335	12.7267020072406	-0.583375290662014	-12.0125281588909	
7489000	-0.605701880169083	-14.6453768505091	-48.1928798133552	-58.9947503281519	-46.7345200452762	-44.6535695393155	-0.72061804524842	-12.6158017367848	
7738500	-0.506316333718314	-16.7700542117991	-48.8719129815171	-101.378968217592	-47.3838399493381	-94.7666946065874	-0.479565240559858	-14.3220840491548	
7988000	-0.235250684937911	-16.8687848153976	-49.081378637723	-155.770114107806	-47.8036597881577	-151.923786316089	-0.113566634548406	-15.2046718257765	
8237500	0.079831739944551	-15.6365685701531	-52.6391788069633	151.390365200232	-51.2804539952489	158.847007267842	0.142144685688032	-14.8119010469775	
8487000	0.0889612474864471	-14.6240710181004	-55.724012613285	121.508333239346	-54.6735474092488	125.291601361033	0.120500239940313	-14.0468342932797	
8736500	-0.20102054550663	-14.4126904557663	-57.1649324826554	97.0137767179609	-55.8427493267752	100.829220079347	-0.166408130690488	-13.9913362471401	
8986000	-0.549918680823117	-15.6372900030009	-56.9815728936	74.7713588041123	-55.8665796969631	72.4634656640503	-0.505608389193486	-15.3960910516317	
9235500	-0.658348802254684	-17.8576845556764	-54.8866073525549	37.9295796590726	-54.3037734356131	41.9273497448126	-0.643266045543741	-17.8044998347739	
9485000	-0.450498516354667	-19.6138798264177	-52.1277813825876	-11.5116478082152	-51.8211122117534	0.543737068492128	-0.529696621974602	-19.5916501787178	
9734500	-0.128877041535305	-19.794964531869	-51.0443675915122	-78.3633142498514	-50.5271360426322	-66.1044064868137	-0.268657401886315	-18.9955317237437	
9984000	0.0339222190255177	-18.6997842023769	-51.5783502055484	-143.444302509038	-51.3945663375857	-135.347648779607	0.00257541466655873	-17.3630778606292	
10233500	-0.0709504858486358	-17.5877621653711	-53.4369437367375	158.331101124434	-53.3193486632747	162.583522063471	-0.0202669519926973	-16.3808957116808	
10483000	-0.381903175425794	-17.8543939330852	-54.8881293138003	104.993972903018	-54.5092288764967	111.852714211133	-0.303608439759295	-16.5539304354769	
10732500	-0.669668839127684	-19.7979219796742	-53.8569819988024	51.0211019542202	-54.0783176153218	41.0315103210978	-0.577198970826271	-18.2230661172031	
10982000	-0.689960651586957	-22.0076016270897	-52.9562681508513	-41.4053094782459	-52.1945227456673	-55.014715669556	-0.588119808159555	-20.5407618532018	
11231500	-0.387210707033818	-23.3282397801438	-55.1628219582244	-129.09479323499	-51.1967892494009	-150.873675944137	-0.356251105034325	-22.3156553629439	
11481000	-0.115172774852196	-22.8306196109712	-52.5893195579831	162.601131091735	-47.1750581903456	120.558287837821	-0.172295247738198	-21.8247273203149	
11730500	-0.0448088508017377	-21.0184515844517	-49.2249108256059	77.0165843540364	-48.2603504847637	31.6967070756936	0.0191067909928407	-20.0908963115187	
11980000	-0.19754367952397	-19.8001143274769	-51.0873500752191	0.0848921038095268	-51.5036308808443	-22.5143540602049	-0.118291864752246	-19.7325137231837	
12229500	-0.515270315185062	-20.5378833011348	-52.7413590439733	-47.2532843602218	-53.0773999837356	-63.2034549046876	-0.493486149894968	-20.6512545487113	
12479000	-0.746454997827778	-22.9714688908067	-52.7160070518154	-85.6483622620883	-53.1577575868018	-97.8315286423867	-0.813469785896238	-22.6495477146531	
12728500	-0.660410061373646	-25.6227163689393	-51.3607916992554	-141.737052688918	-52.8170329406165	-149.392482474783	-0.808145294018155	-24.1571464018535	
12978000	-0.398240003424378	-26.6290460449193	-52.8671942153924	151.637739317451	-53.7310992403049	155.496387621652	-0.439543061009491	-24.1926543014552	
13227500	-0.176060665602663	-25.3752134917263	-55.8919005231622	86.3156750820591	-57.0868100423586	94.0711672439288	-0.061047852829962	-23.3912203166616	
13477000	-0.11787765504888	-23.5553187060101	-61.0138660269598	25.2105845364598	-62.2715022781783	35.7624782262135	0.0186320960662511	-22.3801348982203	
13726500	-0.331077943150244	-23.0797591711293	-64.3118750974915	-44.2719137264445	-64.9542854059405	-25.908852486602	-0.217089896629483	-22.0783622459096	
13976000	-0.666266334716836	-24.4691446043044	-68.8007267620706	-108.379793866746	-69.651809531606	-105.387054736701	-0.566276199308307	-23.3320321913874	
14225500	-0.820209262104377	-27.1411041729123	-63.4493171240363	-174.968779483461	-67.2989549773731	179.239291053874	-0.732170299113301	-25.8444539690294	
14475000	-0.690560432006923	-29.2110463083531	-60.4266847831041	111.92084236429	-62.1753477959943	122.581804234429	-0.601910340026639	-28.0903358026636	
14724500	-0.405351028627026	-28.9192326625395	-57.2157515389821	34.5378800189309	-59.3452630513269	30.5063677189585	-0.337319781603356	-28.6308683578938	
14974000	-0.130514468532015	-27.006066381007	-55.2661762012246	-56.3531955864068	-55.4047968678103	-52.792902518811	-0.203660108521134	-27.2381272780277	
15223500	-0.126665244694031	-25.7736532672216	-54.0812391589613	-139.071742018443	-53.5779247487346	-134.773585515451	-0.281407022517378	-25.1483850814737	
15473000	-0.494213703785054	-26.1934130063451	-53.0964409450105	125.967443683886	-51.6407148815577	133.908437620976	-0.518133826262528	-24.3429336700575	
15722500	-0.849334002536978	-27.2435723537343	-59.2907142034969	-37.8881753847834	-59.1300057443865	-17.0358520863112	-0.772148253825112	-25.6459626449928	
15972000	-0.853085102975985	-30.2670110997537	-58.8562896541379	-166.571575041961	-64.4758706962424	-169.905003333526	-0.773816208461426	-28.1058809180036	
16221500	-0.636297929656019	-32.2630194716933	-55.8653022347985	130.147732618468	-58.0955613926673	116.655142416074	-0.485631492727651	-30.08637652293	
16471000	-0.355719584041186	-31.7752290266062	-54.0119298816579	79.7188374223275	-55.5815959460597	73.9233560344896	-0.138346355426994	-30.4678659392053	
16720500	-0.198859119516537	-29.8105793948318	-53.002851631098	36.762410390765	-55.4754835665812	31.0197586102464	-0.0173098940865249	-29.6683503470674	
16970000	-0.309944618794196	-28.5039078746424	-52.0660269463437	-1.71061056181435	-54.9019769912149	-10.2566448335649	-0.244903697323143	-28.7851259614479	
17219500	-0.639056652062927	-29.0096938449036	-51.7061596006082	-41.7260737243138	-53.5553861298701	-40.3464475660179	-0.684963659169814	-28.8482952177536	
17469000	-0.903013785782445	-31.2898192071074	-50.648487278873	-83.8218057212865	-53.0692612946538	-75.7800577206213	-1.02778586066371	-30.1549348124655	
17718500	-0.866737389327608	-33.9079270751799	-50.6626290929375	-118.896895466928	-51.5739120853093	-115.21492529183	-0.9860171498904	-31.8763281283042	
17968000	-0.566550405681336	-34.9019164121554	-50.0348150560503	-165.631028470797	-50.0398767766339	-158.156426887797	-0.60229643483075	-32.7583897455738	
18217500	-0.256698768118948	-33.7931324812035	-49.4146690059227	146.855956380798	-50.0775822638929	153.441758400423	-0.210562048883617	-32.2920025044711	
18467000	-0.167660039746498	-32.0153477556579	-50.0972381538474	102.750438800826	-50.455773930019	107.465079587883	-0.0898606928749626	-31.1321840284359	
18716500	-0.388116226037872	-31.2218419945148	-49.9686870790313	62.1600244980284	-50.9654974540231	64.3383617326016	-0.298670749446971	-30.4950521908871	
18966000	-0.779873504299613	-32.3631635088817	-49.7120409176359	20.4874655689109	-50.5824483647408	21.9167531558963	-0.681534024478471	-31.3120474685089	
19215500	-1.01191817452242	-35.0732889997867	-48.3996388520082	-25.888622062868	-50.0343573053331	-22.0852669512391	-0.914586094981182	-33.6316195548616	
19465000	-0.900259483644722	-37.4529271797134	-46.6195860108218	-73.8780700758646	-48.3474219700229	-65.9864570533626	-0.832856087875795	-35.9222456399044	
19714500	-0.558216351393377	-37.8690034875227	-45.8551258204178	-126.740781360166	-47.7182072796401	-119.304152544666	-0.540770886789498	-36.5958565837387	
19964000	-0.291679844507797	-36.5121963581305	-45.4850524048652	179.022570379579	-46.8004666665253	-168.186416312957	-0.315583607097024	-35.3611627198251	
20213500	-0.318914093681995	-34.8862570592726	-46.1778159864598	131.226451225357	-47.1889656581712	143.402321196029	-0.320420804435085	-33.5078957685859	
20463000	-0.637534364303575	-34.4584871119617	-46.9487260243807	88.5406837437062	-47.7100362391417	101.134625014781	-0.562798706598178	-32.7433307170391	
20712500	-1.01502034370358	-35.9339959169444	-46.3921463711922	47.5419756191159	-47.8865818268639	59.4840874373738	-0.863429208577669	-33.9723144608277	
20962000	-1.14093703281025	-38.5350437171054	-46.141082927482	3.6881810678191	-47.3762947945156	17.1738615817086	-0.946679258739884	-36.6501313138638	
21211500	-0.916959370176219	-40.1977171555599	-45.6248449936791	-46.8622204337992	-47.3272571482215	-25.8501412445837	-0.716883230941501	-38.9013191268209	
21461000	-0.53290639179569	-39.7401785398455	-46.2819243294337	-108.634547269686	-47.1849734827057	-72.6881038653981	-0.392564439256219	-39.3419365545115	
21710500	-0.307725145746163	-37.9319860734077	-48.2763039464487	-173.867159477397	-47.5377623011139	-122.551641851979	-0.261596572652269	-37.9953128678016	
21960000	-0.4008773208389	-36.4151958137228	-51.6969351510083	120.24565610966	-48.2248331985469	-176.194353689275	-0.425726028087303	-36.0688772237347	
22209500	-0.755377872804035	-36.5728792727173	-54.3940514918881	61.7299062852187	-49.3538962424288	130.9130271728	-0.749797979051404	-35.3351255117309	
22459000	-1.08964926027123	-38.7558761740754	-56.0947780794563	2.89648076038662	-49.8135877394988	77.160856962173	-1.01338031987027	-36.9216666556301	
22708500	-1.11760451635102	-41.5266573953004	-56.5490679199888	-55.5315080954492	-49.915147843986	20.2172455895482	-0.995398297974502	-39.8471600026382	
22958000	-0.803406188476868	-42.6864022275356	-57.7218091338647	-114.187393339201	-49.7734301808449	-38.8014046063336	-0.694925949874817	-41.899171402971	
23207500	-0.388221291246758	-41.8455918029895	-57.8405379503516	-175.574955021203	-49.7062552358513	-100.736906023778	-0.365204006453074	-41.9423315808594	
23457000	-0.229169842311271	-40.3260088633454	-57.795362648491	114.428917576232	-50.4855973245098	-168.293939714738	-0.275039131974713	-40.4858363045068	
23706500	-0.470450265307904	-39.3499080221646	-58.0981031430285	32.4996003509254	-52.0442393056784	126.860339895588	-0.505453673277818	-39.0377878780377	
23956000	-0.888870511713393	-39.8196998417194	-56.2805803856744	-38.906896615329	-54.4865950091279	53.2145699880391	-0.899422006103319	-38.9801888677394	
24205500	-1.13279339408262	-42.1652321400414	-56.2624826408449	-95.8897502111824	-56.6568518249561	-29.4475400062531	-1.15562669125439	-40.5871766624539	
24455000	-1.00562165807518	-44.7760501197299	-58.0295875506175	-143.942085127193	-58.2205325500347	-96.1969001477892	-1.0318399835033	-42.8815086613834	
24704500	-0.627252659990717	-45.6189366469066	-56.6092664728935	-178.714494520375	-57.0219244775346	-149.17636116795	-0.626132643690362	-43.8341431316747	
24954000	-0.313907278646771	-44.4106826922134	-54.6031223458384	140.967902880907	-54.7982024819839	159.928396346865	-0.294882023032705	-43.4204622255414	
25203500	-0.289818405348109	-42.5361593545147	-54.8050399856521	100.827988110421	-55.1452500406018	117.896892823197	-0.278743626558986	-42.1198072453117	
25453000	-0.570602308241307	-41.7418678875831	-55.1487251279905	56.8365224028951	-54.2622667279757	77.4757092585072	-0.592244840163269	-41.3003469477164	
25702500	-0.973271734690573	-43.0540901949867	-54.1478342495508	13.1658962159796	-54.1664722408334	38.361079364032	-1.02595425220315	-42.0646023935095	
25952000	-1.14406198520455	-46.0016033749044	-54.2838540647722	-21.3527460332594	-53.061061478591	-6.11070209423091	-1.23826654511147	-44.3194201032024	
26201500	-0.930626094369588	-48.3979877304463	-55.2068718851747	-68.459180156983	-53.4428533480193	-50.7806846925594	-1.0535288951983	-46.4779421595752	
26451000	-0.538371581714224	-48.6474123390873	-56.2652318798238	-114.407913321171	-54.9668591127268	-92.5946930264917	-0.641718277431323	-47.026210550091	
26700500	-0.271691831397313	-47.1315086828329	-57.4216467051917	-163.785760441316	-55.6422974604162	-155.920822563063	-0.351594668915772	-45.9443849681787	
26950000	-0.341986201483318	-45.4307237850306	-59.0980862890277	147.14389593905	-57.5999786432045	156.546035069831	-0.391663606382935	-44.4460658510201	
27199500	-0.685265610905722	-45.1746587171938	-60.0073475899322	81.5605266548217	-57.2210484341284	102.403404227925	-0.720304508557651	-43.9385569286851	
27449000	-1.05165640898467	-47.053885812583	-59.129829956172	37.127268028693	-58.2552965231138	55.783230902991	-1.0893386170054	-45.2745885789722	
27698500	-1.11450021887216	-50.0628741788729	-57.4946138338688	-11.6635099155031	-58.3987731478964	8.46617432097866	-1.19561784906399	-47.8002424449277	
27948000	-0.818740198137258	-51.9630947859685	-56.5772620003297	-69.4326305870477	-56.8124502391889	-48.2771843188278	-0.93551142201794	-49.7359377314157	
28197500	-0.45121789774744	-51.6097096712694	-57.7752459870207	-119.1856838887	-58.1102970088325	-98.8942818016598	-0.57393631886385	-49.7569853852628	
28447000	-0.304654930832741	-49.7629063987468	-59.3176777189263	-173.290152320417	-58.552503911316	-142.425705616169	-0.410241437569715	-48.245615718679	
28696500	-0.502740698594429	-48.2616890625771	-61.9425360448081	146.854097906995	-58.4345323068964	179.856496499599	-0.582946039634491	-46.6558105241781	
28946000	-0.90940942320389	-48.4970375108724	-66.4509934723541	104.57206044997	-61.3109700394272	139.558316355854	-0.961603427131413	-46.4943744875293	
29195500	-1.22866112788995	-50.9099292391448	-77.320206799924	54.2142817337265	-63.2925682800056	123.071826598425	-1.2657797892428	-48.3911337269099	
29445000	-1.17510295140565	-53.9399031881111	-69.9025056266844	1.03095003542134	-67.8348137586747	103.5960713737	-1.21989997760997	-51.1938264989775	
29694500	-0.826280948440083	-55.2328525255772	-91.6308624896284	-29.1596584123479	-66.918850898714	28.8447974783982	-0.860819239598462	-52.8374395859564	
29944000	-0.489523576917184	-54.2015425888901	-78.7984157443282	-145.512845332318	-68.0440886426455	8.1953307122912	-0.490096856627339	-52.4263583982445	
30193500	-0.428781916258234	-52.1054968315918	-68.3828172100615	166.841446634086	-69.9220471691704	-95.9543427865599	-0.409545636840253	-50.7276959714095	
30443000	-0.688128364734743	-50.8157361518457	-63.0491920932753	142.824253123933	-70.2622706755983	-142.666668616684	-0.684429304495004	-49.2987430778075	
30692500	-1.09146866709974	-51.6721079027712	-61.163150140141	105.118229985927	-64.410615019621	163.995691493277	-1.12038029142262	-49.50219561785	
30942000	-1.30846867204776	-54.4422594801673	-60.0857576209323	74.0141159420652	-63.4680770778539	134.127450462083	-1.39348730279909	-51.568572978577	
31191500	-1.13012444768204	-57.0714604771963	-58.7289894485244	30.8334770699912	-58.84470602786	65.3077054826851	-1.27022005239462	-54.061051894958	
31441000	-0.73493559317275	-57.5903355072313	-55.934650342941	-10.9689196269735	-57.246585453637	24.8676747735607	-0.861321911219519	-55.0640428658371	
31690500	-0.458495274221268	-56.0854530282302	-56.6283750980725	-50.678301808424	-57.218846827683	-19.9995897179964	-0.511707132156181	-54.1170960509937	
31940000	-0.518587902464518	-54.0896609746419	-55.7226974193246	-103.425217217286	-57.9826687855189	-74.8316159786371	-0.499066725177445	-52.360512479065	
32189500	-0.889098168297572	-53.4970323087674	-57.1370495158103	-146.467279189846	-57.9104485641704	-116.172741504185	-0.809957895953885	-51.3861206294172	
32439000	-1.32613249676782	-55.3024568947833	-57.1999743186792	163.10422739195	-58.8241254532598	-166.073712613214	-1.22865731088973	-52.3500577595752	
32688500	-1.46567409843175	-58.6105179343349	-58.9235439551207	116.684195381072	-60.9152694516077	149.737533738893	-1.41600375579931	-55.0786593468855	
32938000	-1.19218218117946	-60.9798557854418	-56.8972729175325	56.0185768399478	-61.2410206334648	85.4495451088643	-1.20448459092698	-57.607526487526	
33187500	-0.774030880364747	-60.7760498255576	-57.5230356960941	12.1719955803949	-59.3910866989662	40.0254674496635	-0.792081540917059	-58.1572200437267	
33437000	-0.555093984112929	-58.6687988141721	-56.5088264678236	-40.8739836350026	-61.7201247176547	-25.7855462301628	-0.529944629674602	-56.8274222239263	
