!Keysight Technologies N9923A: A.12.45
!Date: Saturday, 02 August 2025 18:37:53
!Timezone: (UTC+08:00) Kuala Lumpur, Singapore
!Model: N9923A
!Serial: MY61181427
!GPS Latitude: 
!GPS Longitude: 
!GPS TimeStamp: 0001-01-01 00:00:00Z
!GPS Seconds Since Last Read: 0
!CHECKSUM:0039627938
!Correction: S11(ON U)S21(ON U)S12(ON U)S22(ON U)
!S2P File: Measurements:S11,S21,S12,S22:
# Hz S DB R 50
2000000	-0.0571419004246423	-3.01918159519826	-58.7879803265143	-93.0439002914381	-58.5035080545245	-94.9434374918576	-0.0768253648687811	-2.8785690642411	
2249500	-0.239781278928936	-3.6194395930577	-68.0836960706694	-89.9531695459789	-69.013165163169	-90.1519116977327	-0.25414221548739	-3.5504204905518	
2499000	-0.320768626166934	-4.82230417357537	-69.185676053454	-95.4276332446878	-68.0153884698658	-91.5021718910982	-0.327860109340319	-4.72010649839822	
2748500	-0.228347550510758	-5.97993089201886	-68.0645990605724	-82.9312548667282	-67.1975832170363	-98.4252836006909	-0.234042894898599	-5.85273046115157	
2998000	-0.0364478306729791	-6.50903275485741	-68.1956491227241	-96.4067313534494	-65.8830836175031	-122.299529064655	-0.051197068706465	-6.36704566884169	
3247500	0.0893519369703482	-6.42068438556171	-62.8629734681159	-102.919311869385	-63.0326849360471	-102.97713864271	0.0668090412673211	-6.24610670393385	
3497000	0.045531945188687	-6.24285896785707	-57.0613375992723	-117.766858078083	-57.0907769709345	-118.367067648287	0.0304548811808774	-6.00085542049794	
3746500	-0.161742616549116	-6.050353249225	-52.2937191023005	155.578576445642	-52.1450527293768	154.470743101624	-0.144528397576567	-6.11926390066803	
3996000	-0.295577413778636	-6.99024649482192	-59.8006154796115	135.279188190579	-59.8433376819763	138.507351003667	-0.310187191743312	-7.02969903865432	
4245500	-0.322591710476494	-8.35740541489919	-64.4734942204936	95.5297313054498	-64.7806215075972	91.2555286185527	-0.328057703230159	-8.22818234853185	
4495000	-0.186251992511774	-9.473158860567	-68.3758185299864	154.896055532975	-68.8596444998773	154.719645697639	-0.188329845547464	-9.2848168852083	
4744500	-0.030834265099775	-9.78124697655725	-54.8303655408394	162.099562036724	-54.74915227473	161.321013948054	-0.00846353337403208	-9.56887416310714	
4994000	0.0816983814066865	-9.26641895432609	-53.907923234959	99.0655832395434	-53.7906631932	99.1144454822412	0.0767134829643137	-9.30217410716394	
5243500	0.00281082243162428	-9.13913190792016	-54.7447517118776	84.439607371645	-54.6762777098949	83.7662354691077	-0.0156432861660801	-9.14408140124259	
5493000	-0.193113567748077	-9.63256747588191	-52.7379866561897	75.8666388774503	-52.8421652130739	75.7499510837993	-0.207748735411057	-9.39732333305703	
5742500	-0.348432493336115	-10.9744417074482	-48.5169786966765	68.3758248869639	-48.5086040572664	68.1054558544184	-0.339155089302187	-10.5842169933677	
5992000	-0.461690727515427	-13.0317867341184	-38.9438486598127	40.4876693495494	-38.8664775573183	39.9399124027038	-0.33076521127011	-12.081030774586	
6241500	-0.201989158717975	-11.591558520866	-40.5525419990875	-72.8286398426196	-40.5855044889081	-73.3736220539868	-0.161289126108887	-12.5172615614485	
6491000	0.0423270488152756	-12.2426767312875	-46.135250423026	-91.9340429679995	-46.0885019646377	-92.1335708689826	0.0277673696724277	-12.7216196530586	
6740500	0.0838483451474656	-12.1396673054828	-47.3662952034891	-100.272899972759	-47.3547053409661	-100.605089702218	0.0591755310474659	-12.4771228814521	
6990000	-0.0532747045732491	-12.2359475000143	-46.3543496178586	-107.90420937024	-46.3037326850117	-108.283355432991	-0.075586397318617	-12.4587003938528	
7239500	-0.271802866919466	-13.1744848345308	-42.4773499557581	-120.485456804368	-42.4792433139637	-120.634004261507	-0.288124837860603	-13.2618334661027	
7489000	-0.457157298661311	-14.2554107872615	-39.7132686856067	151.071340036854	-39.5652501510103	150.573725250005	-0.459084263155291	-13.851835420699	
7738500	-0.488016589867951	-16.2356796795358	-38.874905107295	-166.525845778352	-38.858229340572	-166.224018252432	-0.325027165303423	-15.737362849127	
7988000	-0.258353983723719	-14.8191528914022	-35.9349195927059	119.26521755328	-35.8787565355632	119.010821922542	-0.163246579831922	-16.1862282476917	
8237500	0.0270226853721343	-15.0602596458866	-37.1609082547449	87.3726502513645	-37.1148998347886	87.2466934259217	-0.0348429366660478	-16.3656537024145	
8487000	0.015068298154324	-15.222209226813	-34.3503592866467	54.0680253158573	-34.3118280256607	53.9635598065668	-0.214578038186602	-16.2351490847753	
8736500	-0.252830735786369	-15.0885346593569	-33.9071444362625	-19.0606716895484	-33.9369895948915	-19.3960956809285	-0.417670411613286	-13.9461890134515	
8986000	-0.400110982801865	-15.5853147049219	-39.5165753892684	-72.0929853506227	-39.5457087184335	-72.4055945493493	-0.354277341788788	-14.9231404496842	
9235500	-0.424034751880784	-17.0984988617293	-45.2190107757592	-96.8009406617647	-45.2234611627359	-97.5954394409601	-0.364774562749877	-16.9006139941764	
9485000	-0.295743774274143	-18.4309872425656	-50.7432175236892	-112.650832674393	-51.0376615545302	-113.211399832404	-0.233818033728843	-18.4274275276221	
9734500	-0.124519239720943	-18.7552026623989	-58.0850354849805	-56.0808855830582	-57.3765052308815	-46.1479889415205	-0.0415714488411167	-19.1487995692514	
9984000	0.00809562065117842	-18.0449326143541	-45.7596217603006	-60.9548726449128	-45.0032432911037	-60.9691779438438	0.0252034347087901	-19.1838277181928	
10233500	-0.0113556637198657	-17.8688630655273	-42.4462666338118	-97.6807513318285	-41.9634185717826	-98.5333961768414	-0.0983673054537615	-19.1108316424358	
10483000	-0.204902112890008	-18.508489435701	-39.2616546617508	-127.608448089002	-38.8059877787872	-128.271819082639	-0.403860041871969	-19.6665131205955	
10732500	-0.418143611173125	-19.916777622363	-35.9090984191836	-179.481061177813	-35.2008471513893	-178.276646870226	-0.773526262058778	-19.7118186420735	
10982000	-0.432210910942471	-21.4242188555751	-38.5497403446071	136.64061300817	-37.0986596862364	124.554389615473	-0.56517053328501	-20.0196458026741	
11231500	-0.290006627936108	-22.6488550339357	-37.9007902031008	96.499043735231	-39.2146871401274	92.2169365470668	-0.313678307039565	-21.8181969486599	
11481000	-0.217421590642547	-23.5138304679478	-41.9170057603804	103.737048357265	-42.5102200471368	112.172393604752	-0.284348791260932	-23.2607460743738	
11730500	-0.471046520353767	-21.6219901723868	-30.4659587763912	43.4743771839549	-30.3693148457489	42.330382782326	-0.32606103514857	-20.8632611842085	
11980000	-0.427443315535027	-18.831927618729	-34.9764979794509	-31.918640177606	-34.4970338546806	-32.3828818947141	-0.589630449158825	-20.42229940779	
12229500	-0.391659175373808	-19.6586519062977	-39.9201070767722	-64.4682751525798	-40.0477804600803	-67.9859112243118	-0.665494869936613	-18.5091189954749	
12479000	-0.455050819501359	-21.5976370883427	-42.7172842189013	-84.0568062767375	-42.9255668924334	-85.3533534799027	-0.492027561904946	-20.1387667035037	
12728500	-0.369776925259298	-23.5458918625291	-44.3107805488807	-102.256625585885	-44.4183224897532	-103.037853493588	-0.346559507745154	-22.4651182773955	
12978000	-0.175945204669688	-24.7224557264084	-44.6390292269503	-120.659019788991	-44.8275853365059	-120.812606289752	-0.136678551738424	-23.946536032616	
13227500	-0.049536666538069	-24.9640385544151	-43.7091382291768	-144.606677208784	-43.767158586853	-144.778863977031	0.0176216365378295	-24.4664134471362	
13477000	-0.162227324838951	-24.3245528591076	-42.0944884856904	166.280864366679	-42.3183657239394	165.000877383693	-0.00690355645996854	-24.5077736731373	
13726500	-0.259110053528062	-23.4356104914609	-49.2456730124868	79.1278650397351	-50.246777594874	77.8128016741608	-0.208656433616501	-25.2161754718072	
13976000	-0.400753983597588	-24.752503746278	-49.9149635965759	-98.7902472319421	-49.7269871948145	-104.832788104206	-0.640116937300203	-27.1193776167062	
14225500	-0.506895301284361	-26.8527437723069	-40.3414474760794	-172.070195036564	-40.2359787457047	-173.704021735071	-1.26409606354385	-27.322223246308	
14475000	-0.479450549909298	-28.6085210799714	-38.3283243633386	122.458142778258	-38.1365488274286	121.489026459829	-0.982651376354004	-24.6051167735323	
14724500	-0.414826150269024	-29.2846751387928	-38.0229881148688	78.385092562483	-37.859637828865	76.7797103153131	-0.472158559096093	-25.1740882186814	
14974000	-0.509710478220159	-28.0722561902585	-36.6426314098269	29.3761908098792	-36.4858850448083	27.8611650736735	-0.285865902279446	-25.3435550017256	
15223500	-0.561427282780456	-25.6052164524388	-44.7836510857231	-57.2737192195074	-44.6085901996465	-58.4953986561476	-0.346725001763672	-23.9520567956931	
15473000	-0.574733892053217	-24.3481638588059	-41.3291035742771	-20.8725392359234	-41.3812790182702	-22.7088295394702	-0.349790979370305	-24.1359393719415	
15722500	-0.554143320584237	-25.5863772224459	-41.4507370147882	-60.0919136330525	-41.4318597596876	-60.5968544088972	-0.459498272555137	-25.504323470287	
15972000	-0.479690240301325	-27.8065091312625	-41.3844309019282	-86.6346621127203	-41.3352298628096	-87.7266974921363	-0.45656895423966	-27.4583473342133	
16221500	-0.290016284579229	-29.6267147173798	-40.0104955933373	-114.385869020221	-39.9010410998043	-114.886458243968	-0.306972214674142	-29.1160703188198	
16471000	-0.117052727459913	-30.3902775513633	-37.302016303642	-150.796417245332	-37.1992559863437	-151.774264892019	-0.156328931208702	-29.7990222464817	
16720500	-0.107245729148237	-29.8206624468082	-35.3599566287967	156.616924057958	-35.2807588046373	155.720478718973	-0.15016266519184	-29.1210233569929	
16970000	-0.188628012890545	-29.2601045469852	-35.841719524926	105.314330077943	-35.7504442628532	104.360646270174	-0.210473089742393	-28.2859249805139	
17219500	-0.408743351470503	-30.1814828404103	-36.0760511510831	63.3579278417932	-35.9797917406391	62.6901763429132	-0.375963688649584	-28.7099313154054	
17469000	-0.725710625251323	-31.8751939640117	-34.9483192198148	12.3848432840954	-34.8078542935075	11.8310721484424	-0.549572777371856	-29.9762415965435	
17718500	-0.729416426055045	-32.111057862214	-37.8296933607011	-59.7424545003707	-37.6679391325742	-60.1510535555853	-0.4676241881856	-31.1168225820904	
17968000	-0.455354736771209	-33.6338907871019	-49.2039450734395	-93.6995290533143	-48.7560464216181	-94.5722313265529	-0.207620586002699	-32.5455898702296	
18217500	-0.496642197944695	-33.0791233632135	-44.2064895257625	-32.8455913046704	-44.1482808874535	-33.7204634281386	-0.0129812176600874	-33.1690619780342	
18467000	-0.30469592716704	-30.5688985220892	-39.9862835253808	-82.6363216906032	-39.8138504805728	-83.3146546802215	0.00509241743290766	-33.167908668039	
18716500	-0.260095415645176	-30.5690890608235	-39.1916152360313	-117.071376428521	-38.9746058460812	-117.449597498252	-0.172383867793025	-33.6123088123587	
18966000	-0.410576216001113	-31.8128707927021	-37.5191210569473	-144.993809798063	-37.3306373642944	-145.803245068402	-0.499133742215315	-35.1040827575753	
19215500	-0.514068959471315	-33.7745989489864	-34.8576458446512	179.458174172142	-34.6739893049961	178.380148435552	-0.903397249505595	-37.0135952321501	
19465000	-0.423828081742371	-35.4509603775189	-33.6135131260361	131.135230190735	-33.3980248322649	130.015770155142	-1.05434664203457	-36.2839776006046	
19714500	-0.186482619357048	-36.3912476564552	-34.2273563433736	91.8311028973916	-34.0801093827246	90.601595500724	-0.634568693205026	-35.8460255463143	
19964000	-0.0315563931217429	-36.5340899209659	-34.1576750651333	61.0832757754746	-34.0183467375034	60.4520506214338	-0.376213682579369	-36.4011842579786	
20213500	-0.107546541762735	-36.495704269509	-32.9639158596576	29.1407213308642	-32.7096684173632	29.0267915139528	-0.562206379934359	-37.070259322452	
20463000	-0.396497990587511	-36.8621330949694	-30.8653319366456	-13.1009565414062	-30.5846269058436	-13.7239627408087	-1.2380737368711	-36.5119349070317	
20712500	-0.662190973569035	-38.0814013753663	-31.4504420947137	-73.0404831173087	-30.9831342033277	-73.9945049882107	-1.591409424728	-31.898795147211	
20962000	-0.857276930767723	-40.4751766929809	-36.4947013462366	-114.371399323989	-36.1173584834102	-117.281543770706	-1.02936497472976	-31.9827714281367	
21211500	-0.897969371229769	-41.0446604572002	-35.5825591352203	-92.6050571503526	-35.6486511154159	-95.7733359738723	-0.633897216146753	-35.0422599960922	
21461000	-0.790860954389761	-41.8975098206446	-31.3368719780747	-153.680541639103	-31.2637789296894	-154.724001665722	-0.426352643743997	-35.9276145062274	
21710500	-1.00055534293615	-39.4720751202578	-31.9994496792956	154.106379168811	-31.6883611285729	152.533489788316	-0.244264040737994	-35.6799459666453	
21960000	-1.03872649502637	-36.0291977402533	-33.6335199466946	110.180733604345	-33.4087916815549	107.509904655701	-0.264560840422681	-35.4408186719241	
22209500	-1.01700738110052	-34.709360747463	-35.300667522824	71.7915846350674	-35.2001248083438	68.2171247207582	-0.474279857208287	-35.7940035958845	
22459000	-0.980428646769982	-35.6752929053166	-37.1832648628004	33.3497015259808	-37.2930472563346	30.2842433047519	-0.656618049668258	-36.7917093432399	
22708500	-0.827583264333153	-37.5526693475245	-39.5586091936224	-1.62203764532736	-39.8060994344978	-3.12878553539275	-0.641916043295112	-38.3273486344971	
22958000	-0.531020767082448	-39.0255838418328	-42.3691430447877	-31.9334154998425	-42.506858398883	-33.4397906783511	-0.432974646401418	-39.4824278194559	
23207500	-0.232404098615593	-39.548502827194	-46.4884559828791	-55.9155746702968	-46.5239135337199	-56.9632214416294	-0.172768049338532	-39.777228370322	
23457000	-0.137101763280199	-39.3284977784383	-47.7007678273412	-50.9260982719982	-47.8277226563322	-52.0181022874761	-0.0537777566704249	-39.5406846762445	
23706500	-0.242044870914204	-39.2322228221023	-46.8743033921125	-71.7365439695174	-46.8037853929357	-72.4526579645813	-0.155014568222046	-39.4313583726192	
23956000	-0.453407459929128	-40.142889421224	-46.7413006834072	-91.325198106543	-46.7768277724863	-92.2765982868654	-0.358241822695859	-40.1434003834444	
24205500	-0.593643487485257	-42.0251141236153	-46.5157845136511	-110.624706475136	-46.4642864331763	-110.195375588245	-0.495676347245646	-41.7664902289808	
24455000	-0.543809052169773	-44.0404581361827	-45.6496632386889	-133.749772295522	-45.6202856383886	-133.343929397291	-0.449585184048766	-43.6860343585766	
24704500	-0.349374775606731	-45.1420619501461	-44.7338121101393	-162.534351044372	-44.7514948355008	-161.272897996881	-0.257482427916499	-44.8496891509608	
24954000	-0.185520426619988	-45.0978324679687	-44.5054770074929	163.342208497414	-44.6143845532137	164.431387507949	-0.12468663637357	-45.2981358288345	
25203500	-0.212520849697151	-44.7235670133537	-45.4889547586396	128.30330600817	-45.5282365765267	129.224857687506	-0.220455006523124	-45.3955451744143	
25453000	-0.442820751675204	-44.9585879932292	-48.1122382956453	83.8768554727976	-47.9805408727245	88.4914219667987	-0.686572755949366	-45.2239988852163	
25702500	-0.775174091962038	-46.2988780547791	-49.595816657151	-33.2487225820995	-49.6557850329868	-31.1090598466709	-1.31091555306677	-42.9119415237049	
25952000	-1.01512929828161	-48.2047569489391	-45.2072114042833	155.980852468966	-45.0801946873432	153.092806950816	-0.682501048640354	-43.147797447169	
26201500	-1.0610922104245	-49.0961234247648	-43.531206022942	101.184998198491	-43.3365865820358	98.2350328182931	-0.479853924477199	-45.9505148566755	
26451000	-0.830590854216202	-48.3000029170983	-43.4830682353964	57.2953374294095	-43.4353449652126	54.7278356092059	-0.234187496470095	-47.2653257884612	
26700500	-0.569529137632373	-47.6531126032972	-44.8534015847079	25.723531523406	-44.7765884056441	23.2870393980233	-0.0871010102806578	-47.4718907283109	
26950000	-0.663672768867331	-47.6610796732821	-45.300081308809	2.42861717944833	-45.4057179132237	0.533949699311343	-0.141001067450396	-47.3087190335155	
27199500	-1.08940550217995	-48.2070028991819	-45.1987685920568	-23.667777213066	-45.2791509007826	-25.3390115160182	-0.359033677958311	-47.7473003805881	
27449000	-1.63790276579237	-48.5503994893369	-45.0476108587977	-52.677878064499	-44.8652689371556	-54.8963397075361	-0.583898235994102	-49.2378179236703	
27698500	-1.8233874259308	-47.5211867507062	-45.4155206294489	-86.5712915407585	-45.4414707427227	-87.3172709464035	-0.654021723714205	-51.3171437103917	
27948000	-1.36679755705894	-46.4558148468841	-46.9035139359034	-117.476253569148	-46.8270157791256	-119.612115963897	-0.532623276241449	-53.0978697211457	
28197500	-0.777058172332564	-46.2760535102661	-48.4120914662805	-144.162379834591	-48.5236067531565	-148.869408624506	-0.380076762403671	-53.855596501292	
28447000	-0.446808158366135	-46.2497588763486	-49.9530920540679	-172.988144532733	-50.8875590816502	-175.293075170333	-0.372803393777508	-53.7672776056413	
28696500	-0.459911319273018	-46.6813602687264	-53.7624776550316	172.225436597085	-55.4308965714583	-177.409177199451	-0.603637410618387	-53.6411085138673	
28946000	-0.733851808507991	-48.0323697209344	-49.6263295828806	-161.876444370856	-48.7678063048423	-158.228893508114	-0.953430610886094	-54.4620334491692	
29195500	-1.01851129849273	-49.9062613096535	-43.9858576244389	151.378057975804	-43.7346186630367	151.349983802212	-1.29759826079241	-56.4146273720495	
29445000	-1.09276991909089	-51.9023668750446	-41.2616987021167	99.0309956196902	-41.0950026224254	99.3253813526547	-1.50413498393304	-58.9097254856893	
29694500	-0.976071879833628	-52.7791362743185	-40.9245202597176	46.6778220715517	-40.7346186712639	46.9449296079972	-1.71825801194582	-59.5820038031233	
29944000	-0.831565723592931	-52.2273347796821	-39.7831404831602	20.6578731436275	-39.6093697632282	21.0952092543969	-1.75346458788952	-58.6497802857236	
30193500	-0.89346973349186	-50.6591588922165	-36.9878587770195	-32.8137558329662	-36.6936447354414	-32.7000796799771	-2.24549287555776	-55.2185792344626	
30443000	-1.08410968965305	-48.5421762498728	-36.4241446833379	-89.6069797074641	-36.1760489270563	-89.6773607479326	-2.54791238371201	-50.0986228204593	
30692500	-1.15297584928018	-47.6449325697944	-37.7248171491455	-142.751787503489	-37.4149588481816	-143.01325927033	-2.63101679578137	-46.6490431788579	
30942000	-1.05849509202683	-49.0451361602023	-40.1661290368207	173.442998246509	-39.905282406848	172.913491012014	-2.4034057937728	-45.5126427669913	
31191500	-0.809560105346732	-51.2679844533872	-42.9434425774604	137.917127867085	-42.5852921043099	136.660935506363	-1.88629542423116	-46.2501490750488	
31441000	-0.481422470623622	-52.692074162143	-45.5451554096111	109.576229039439	-45.246025418792	109.096954823121	-1.2573496028441	-47.31563785273	
31690500	-0.251828305864634	-53.0030165736631	-47.7584420046145	86.590387440317	-47.5137618652234	85.5195038823511	-0.748237547363029	-47.7959596314495	
31940000	-0.261696760373534	-52.8669724259884	-49.8195944917733	65.6621988846508	-49.5399106868479	64.4890364691176	-0.529805818319895	-47.9824606995036	
32189500	-0.479334178500894	-53.3158271102832	-52.653029794536	43.295020821078	-52.0409765953036	41.0060605884943	-0.572814398487851	-48.7082045902528	
32439000	-0.742271952513159	-54.9047795518673	-56.5816145638791	17.932181667616	-55.8426840311407	12.1770884124666	-0.726369366913749	-50.5479751593833	
32688500	-0.864637682659779	-57.2802680416711	-70.8213013324662	-14.9702753582555	-68.1517375991627	-28.2091171136944	-0.799732388112005	-53.4167138995355	
32938000	-0.780065786065221	-59.2694428918208	-55.8276827057719	148.649077916076	-56.0807562993481	157.251691382435	-0.721308900732042	-56.3209673231908	
33187500	-0.623363097947995	-59.9398079586486	-46.1533453717011	110.322764088035	-46.303954675562	114.646556589348	-0.647983881177113	-58.3191979019491	
33437000	-0.611866525652168	-59.4026972386102	-40.1602286824644	64.1727418072015	-39.9085552428143	67.2294719536779	-0.902460704545495	-58.3752828332529	
