!Keysight Technologies N9923A: A.12.45
!Date: Saturday, 02 August 2025 19:25:19
!Timezone: (UTC+08:00) Kuala Lumpur, Singapore
!Model: N9923A
!Serial: MY61181427
!GPS Latitude: 
!GPS Longitude: 
!GPS TimeStamp: 0001-01-01 00:00:00Z
!GPS Seconds Since Last Read: 0
!CHECKSUM:2080962050
!Correction: S11(ON U)S21(ON U)S12(ON U)S22(ON U)
!S2P File: Measurements:S11,S21,S12,S22:
# Hz S DB R 50
2000000	-0.0530176196636552	-2.61330646898175	-84.3515380704018	20.8332211149559	-74.1564051317926	110.007102733846	-0.0808863985313594	-2.41560341608151	
2249500	-0.328547156209316	-3.27388023188264	-73.4681177854633	-105.904195201974	-77.4884004960028	-111.73507903309	-0.338636022359663	-3.00828365081646	
2499000	-0.454167327964706	-4.80287450778267	-64.6661936379944	-133.148320287733	-66.456202726423	-131.243650100433	-0.455865289646288	-4.46999220603405	
2748500	-0.335488124163724	-6.27984915436598	-48.4636716870543	168.116786886523	-48.4226582378124	165.741106138021	-0.372325304262393	-5.87446599412319	
2998000	-0.050069453932045	-6.77720940373233	-46.9358257294879	59.9912517227346	-46.7082433682501	62.2857996417012	-0.0654035016456267	-6.21083596951419	
3247500	0.140439106343019	-6.1072738632655	-49.5342820643662	-36.7956477316358	-49.4987927573454	-37.7420610504167	0.113568369718438	-5.69846059884865	
3497000	0.109790589901171	-5.58590713978514	-55.572318836624	-69.5562288603316	-55.335349390696	-71.4971573367018	0.0815193541898223	-5.25219534379346	
3746500	-0.148937691168084	-5.71949579380811	-56.5803940402834	-83.9733735146532	-56.3784273003044	-83.4259618591634	-0.168461494234807	-5.48065699446746	
3996000	-0.421013502318137	-7.03110214632612	-55.8808569844848	-135.465798154248	-55.3118970508357	-137.696400830733	-0.442681637107339	-6.3833269616654	
4245500	-0.514870760071584	-8.71001733403775	-56.4381598873315	-177.231688266284	-55.9861145633996	175.466123998921	-0.451802350269808	-8.34095684600845	
4495000	-0.255035508620299	-9.95171438149263	-66.6626213667636	-177.193826610347	-65.2720859602743	177.895631843858	-0.240688377415148	-9.78123670923684	
4744500	0.0317202005533973	-10.328090741175	-57.6732832085718	-136.041509446672	-57.1960820806709	-134.394693243018	0.0317080283140966	-10.1047661787029	
4994000	0.0926464492962132	-9.64944217026063	-45.100774215533	174.04699255969	-45.0869912566172	171.876706507671	0.120904781435733	-9.5513686192003	
5243500	0.0223602541792869	-8.68074170730907	-44.9663052144363	91.4506629851652	-45.2396233635453	89.6591815532817	-0.000563099834321672	-8.89332755333194	
5493000	-0.258384472221062	-9.16627676771811	-44.7486275354758	56.5528269329904	-44.7822862863166	56.1335173983935	-0.300941175489595	-9.30171688259582	
5742500	-0.504466721970975	-10.6512557063147	-40.6099932225057	8.33745226537544	-40.5335302641858	8.17636544921305	-0.609962891705608	-10.5031873789449	
5992000	-0.455861280001581	-12.2432759272529	-40.6660847455641	-61.9380073205512	-40.6469916708169	-61.166731916367	-0.517095963053489	-11.1984931337528	
6241500	-0.201248691429262	-13.3732938884464	-41.8619376959699	-102.556428706434	-41.6841083035932	-104.137784222805	-0.168410322242693	-12.3650681343462	
6491000	7.63058405526434E-05	-13.1165855056058	-39.8740399298024	-153.619435004232	-39.907162973839	-154.433380994401	0.0431268359012411	-12.3606814865456	
6740500	0.08391470215937	-11.6284611710797	-42.1306525622792	139.455143974448	-42.1861250369848	139.69314733138	0.101401592007095	-11.4462861986981	
6990000	-0.0600290303798018	-11.3611458463768	-45.7612040976342	103.647638382562	-45.9242116835965	103.030508138553	-0.0642037940331965	-11.2056589806817	
7239500	-0.356041565935583	-12.3425232922689	-46.2558332512732	74.5413935035708	-46.2039829088616	74.8517395047837	-0.361471740292047	-12.1577664735559	
7489000	-0.512368207010617	-14.3301753137538	-52.6705834736826	62.3206533752025	-52.5009205691257	62.2693986390901	-0.50100464592502	-13.7183247578715	
7738500	-0.437250646020323	-16.4790895948385	-45.5179518381931	46.1786108281791	-45.3326378529098	46.4426110424744	-0.380397426236994	-15.8116503167394	
7988000	-0.253287892687785	-16.8138791585803	-40.4623128784687	-5.07638237120784	-40.6490162232282	-4.52979235092927	-0.140780419466962	-16.735793750929	
8237500	0.036425059652762	-15.6228247284772	-39.9445894703247	-66.7884950136851	-39.9034495031199	-66.8375219866728	0.0240885296356533	-16.2658230859035	
8487000	0.0613112164049806	-15.0180759231284	-40.2524598618146	-114.521686255703	-40.2723927221809	-113.566514978694	-0.0699312958991533	-15.3212662573689	
8736500	-0.201859675136999	-15.0263209985638	-40.3575865486622	-161.84987973805	-40.3018894023418	-161.341509880819	-0.351878439074717	-14.4439623111165	
8986000	-0.506846013534479	-16.0980925195236	-41.4403343005918	155.142480477137	-41.2420391887011	154.306985528201	-0.563719225895489	-14.9275444814184	
9235500	-0.58879120520594	-17.9874747799947	-42.1332936512362	115.280363534865	-42.0865397031593	114.149613287208	-0.567683455618768	-16.7209530262355	
9485000	-0.395510670521348	-19.5332060308876	-42.1609595465568	79.8970374962715	-42.2604403601967	78.495182515755	-0.342113958322993	-18.4181218515171	
9734500	-0.128084543663797	-19.713903169142	-41.436760769378	40.4594684365809	-41.3766360678671	39.9658309573429	-0.0468101487048032	-18.94987406457	
9984000	0.00166315772881905	-18.5389079286307	-40.772500375069	-6.41759606168783	-40.7980587299786	-7.50555709801685	0.0830846217609215	-18.3410580277386	
10233500	-0.0685868938344869	-17.4415279633763	-41.2968541129455	-54.3752689443746	-41.4846331171222	-55.2215429649711	-0.0245524763003444	-17.6211995639527	
10483000	-0.328629245131532	-17.7710300001065	-42.0139756483749	-93.7697130229702	-42.1208003902456	-94.0620190301217	-0.316569415299556	-17.9635698845525	
10732500	-0.583851861632695	-19.6031229290296	-41.5696269027385	-130.258270498072	-41.8804069136944	-131.31357191918	-0.600203133170676	-19.6330020715984	
10982000	-0.624613294586765	-21.9032305591433	-40.7977317385468	-172.107409606552	-41.071006789867	-169.947680176898	-0.686029119754132	-21.3774758466657	
11231500	-0.429650482337423	-22.8902382819015	-38.6609665448169	142.762701642064	-38.4774663753547	143.608175843008	-0.429049809169231	-22.1897036676243	
11481000	-0.122229934395948	-22.4028765810402	-38.5795527234212	90.5939715577193	-38.4766551719739	89.9150980659425	-0.106456169563987	-21.8829728884329	
11730500	-0.051090009412673	-21.3974912396918	-40.3101995330046	48.5923677616789	-40.291117740147	47.2574668807359	0.00467647896359364	-21.2204793159915	
11980000	-0.240016489187613	-20.6886510540647	-37.6813858786149	1.12652050433556	-37.7849709162128	-0.791579199359226	-0.22517408604833	-20.3331631992283	
12229500	-0.547984424894618	-21.0068225541223	-38.5182865685646	-51.4408788594964	-38.730665004584	-52.7724191459675	-0.484991215030836	-20.5184008200373	
12479000	-0.715372945321134	-22.8891827696333	-39.6916606207647	-92.8637435853987	-39.8680294533324	-94.7239981755295	-0.63901780052199	-22.3412016403934	
12728500	-0.613544626126265	-25.119262331968	-39.7331736302544	-131.596992945595	-39.8264110539065	-131.925913723075	-0.537891061428496	-24.5253025923347	
12978000	-0.348812751103147	-25.9574766712023	-38.8706506116775	-173.317146378581	-39.0741906899662	-173.870042639055	-0.28768785249813	-25.6080228352766	
13227500	-0.115962648647715	-25.1170597655436	-37.8082530615781	138.086642273428	-38.0067609739707	137.592165069032	-0.0937649775678757	-25.145119877827	
13477000	-0.0909027545314104	-23.8353162617628	-37.5458994001516	87.8596464387833	-37.6436212129422	87.0184519253306	-0.123367709729064	-24.0611371831233	
13726500	-0.334449953336833	-23.4205492366042	-37.4114564272366	35.4570173905515	-37.5342008761874	34.612706107032	-0.418446605640299	-23.4212469388112	
13976000	-0.651947672199173	-24.2775263657228	-37.7238627107912	-17.9561164317359	-37.9180587366477	-19.2274026892496	-0.744642285359638	-23.6753216272132	
14225500	-0.742689228493421	-26.4173587741788	-38.9553922813571	-66.6500303205134	-39.1251318340409	-68.4414659154766	-0.789584704723148	-25.2360822515563	
14475000	-0.568228555615998	-28.5712261860077	-39.6837339077588	-109.290008094424	-39.9045061781935	-110.488001035127	-0.552480226018418	-27.115475816687	
14724500	-0.326065013397592	-29.278040569345	-39.6511683403775	-151.822268343919	-39.8327149932233	-153.770624967403	-0.209308072520614	-27.882388231383	
14974000	-0.240965365777309	-27.9502997178214	-39.4883775587496	158.597671618726	-39.6772697307878	157.349282784034	-0.00176631640046184	-27.378431174806	
15223500	-0.290398469996974	-26.0269632722554	-40.4743782385948	108.206680289009	-40.7898300731233	107.321036260873	-0.061443547116505	-26.6827354713557	
15473000	-0.492501131349718	-25.8209635023401	-42.2359448193228	64.0743486756447	-42.5533143578184	62.4161037037849	-0.36071694867801	-26.9608252354417	
15722500	-0.729825383350843	-27.5264747564893	-43.4123807294779	21.3066948574904	-43.7998454245973	20.2775457786573	-0.709194573088429	-28.6091555280675	
15972000	-0.771372226080194	-30.1044052206751	-44.6367216721534	-25.3189847581685	-44.9028300065862	-26.8531374343871	-0.881779402742721	-30.7123118532134	
16221500	-0.584328203976821	-31.7689142252526	-48.4775230827289	-86.5621100071322	-48.5416605440599	-88.2768473306675	-0.781343128372364	-31.2665214276376	
16471000	-0.330122799518648	-31.2090434926763	-59.4905039387853	27.8587289532728	-60.3468162858522	26.4292097448279	-0.402974651914171	-29.9508443371593	
16720500	-0.135246580353794	-29.7142286546951	-44.7986261670838	-54.6152212185777	-44.7929336900383	-54.6736328159267	-0.12671374506978	-28.9629362602365	
16970000	-0.282507662632244	-29.1381671827758	-40.8574674269399	-136.61090937941	-40.7950389087696	-136.734060978477	-0.279220588450393	-28.4552687357423	
17219500	-0.613148072257172	-29.1839478877357	-43.8426893041959	134.095286181182	-44.1794889786813	134.854147446594	-0.556619092378996	-28.2579542550191	
17469000	-0.802421073139107	-31.342922416384	-51.4528589354761	77.8958166165034	-51.9440675443254	76.2576693111491	-0.70914588447862	-30.2972799072702	
17718500	-0.786366621712461	-34.0456619758843	-71.3210101629806	58.1906719952986	-73.3265025133474	40.1658117903728	-0.646526991857503	-32.9898541092453	
17968000	-0.59867493314355	-35.1132467516749	-51.9344422967896	149.09838072	-52.3688330599716	151.675362165881	-0.386976861333958	-34.7236152541801	
18217500	-0.349950877862477	-33.8184860403276	-44.9709846512476	93.1634813884576	-45.2474484778469	94.7985147015178	-0.183813243386371	-34.7754718115206	
18467000	-0.227306113955194	-32.3000608031722	-41.7098940435083	37.4870740433656	-41.6495751846409	37.747784530224	-0.243522592600015	-33.6888831959196	
18716500	-0.423924743707977	-31.8706610818079	-39.6240840883548	-17.3255304562862	-39.5998045346785	-17.0304215666489	-0.562284666606965	-32.399959171786	
18966000	-0.786602768485383	-32.8789279640803	-38.3799950480659	-69.3637122247287	-38.2887850867309	-70.1865491782795	-0.891355382268161	-32.1070829735312	
19215500	-0.991482771815481	-35.1008424092113	-37.7564526909054	-118.789093867684	-37.7527150707046	-118.927412966429	-0.979582911040559	-33.6734738901032	
19465000	-0.886676059790177	-36.9681694076116	-37.5131480292021	-165.768435134944	-37.6076305392907	-167.267786836085	-0.800292259291918	-35.7304045133005	
19714500	-0.555544170742606	-37.1851549111407	-37.3577369982609	146.321687650972	-37.5198401700057	145.119551888731	-0.462770906743231	-36.5635198612178	
19964000	-0.285635437121122	-36.1296404636461	-37.4577425256432	101.623297793092	-37.5543999964715	100.11201976392	-0.214821834990382	-35.9207292411663	
20213500	-0.320203469582508	-34.9454383139371	-37.6697877411124	58.8338781948998	-37.8194200038268	56.4586210870836	-0.242275751579522	-34.8432175128217	
20463000	-0.646462837903825	-34.6739238003181	-37.6051901357949	15.0046290474347	-37.8564403189665	13.109663749806	-0.530375336796111	-34.441500070612	
20712500	-1.01825112161295	-35.7893142104531	-37.5157383900937	-28.5202583708642	-38.0140524426855	-31.499812621487	-0.852813271379243	-35.44133789558	
20962000	-1.11614025713925	-37.9160413169496	-37.6445251394138	-74.5500580173244	-38.061025726059	-76.4192257803759	-0.933415456536862	-37.6028874982204	
21211500	-0.883172277041694	-39.633181086483	-37.8081947179833	-117.215907562516	-38.2745547650532	-119.389416751144	-0.711949149255935	-39.5574312468575	
21461000	-0.558355963357377	-39.6740693767577	-37.8624946546294	-161.374123275705	-38.2996712394498	-162.670365922	-0.396502728344932	-40.0474776260092	
21710500	-0.396584567382308	-38.136722543136	-37.943299881264	154.321364424477	-38.3527996156028	153.46216769057	-0.251730943967486	-39.1452199610233	
21960000	-0.482028387059198	-36.5426967158767	-38.1408000539649	110.18863145857	-38.7491635761463	109.269780163148	-0.399319575570929	-37.9699338529166	
22209500	-0.7527415750038	-36.443911609456	-38.62801864948	68.3871663685782	-39.28643471185	66.6239155013177	-0.757721942613426	-37.7649807063486	
22459000	-0.995865889247162	-38.2466462168233	-38.9533040896691	25.9836714352671	-39.6256534820237	24.4837190866015	-1.08071965383543	-38.9800347390507	
22708500	-0.967647114003416	-40.7780617762906	-39.5069142764741	-16.7752960288794	-39.9244940662994	-16.940801552175	-1.1059151974178	-40.7738052323362	
22958000	-0.669990287553414	-42.302935673545	-40.7717631748767	-56.239394024368	-41.4255806222425	-56.0737304155525	-0.781898685406639	-41.7338903388435	
23207500	-0.360641999527652	-41.8822750704683	-40.0957659944755	-82.2500895604698	-40.6153538254641	-82.7030844301516	-0.393348733481917	-41.7287240155469	
23457000	-0.249801757256009	-40.5490504686242	-39.5906987728726	-127.791171658357	-40.2802996911386	-129.134276075327	-0.25987704428797	-40.6288498776388	
23706500	-0.466354190055809	-39.6094063238907	-39.9527374629584	-170.473409431359	-40.6830837512298	-170.916580404067	-0.430203150827969	-39.8219139957369	
23956000	-0.824526157052524	-40.0902136169205	-40.3474733635551	147.838417181326	-41.3952519929046	149.760038553112	-0.771402765624816	-40.3484049207108	
24205500	-1.0402144368797	-42.2584943680599	-40.7674838018253	108.559277874356	-41.9103224832131	110.788026134102	-1.00239385130129	-42.3738906341301	
24455000	-0.935451060234028	-44.7892884069079	-41.2557515986332	69.4686720563871	-42.3347680442524	73.0264233355936	-0.93449760481806	-44.7806346731535	
24704500	-0.625982441674098	-45.8887400934624	-41.1029356498073	30.5800071803268	-42.1278138193426	35.4055120568537	-0.629062753976069	-45.7575933493468	
24954000	-0.403465203113579	-45.0612415016456	-40.9266745808987	-11.8988639849005	-41.8303591031499	-7.53485785344792	-0.401191520623699	-45.2393579593857	
25203500	-0.439021190754674	-43.266940070426	-40.9222747325903	-56.5864486420265	-41.9170632702223	-52.649972675382	-0.429314500811338	-43.7051178712238	
25453000	-0.699559794572588	-42.1454117849404	-41.3457128507164	-100.85208301433	-42.5409053405343	-96.1666793407641	-0.699941141590913	-42.6069856927257	
25702500	-1.01638309658954	-42.9560755343754	-42.1997024498643	-147.224094004351	-43.2848265181369	-141.669164732589	-1.04487620069971	-43.0619687801138	
25952000	-1.12414850278234	-45.3666618182804	-43.0752491700318	169.129251413058	-44.5428592865897	177.52669523723	-1.16355154466696	-44.9028035117695	
26201500	-0.900459443666515	-47.5689885538037	-44.5966289322581	130.150325510557	-45.3386908311815	141.728590425288	-0.946543112638763	-46.8082944985832	
26451000	-0.548963796593928	-48.0752387568876	-44.9477547249053	93.3650304500167	-45.9991484507431	102.924029331525	-0.546388281563248	-47.4583860705093	
26700500	-0.329443284346251	-46.926531132551	-45.6853235258405	56.1128172459084	-46.4667882977678	68.1225073258211	-0.286383315939938	-46.7788957443008	
26950000	-0.413288878417318	-45.4177769834379	-46.2586711492806	15.4624801404938	-46.7743295961907	29.8316776622794	-0.34090419446534	-45.7601305663772	
27199500	-0.717786111123554	-45.0804619615803	-47.1958520646333	-21.2172679668387	-47.4498805403017	-8.15508735061313	-0.669158760320768	-45.6777274193954	
27449000	-1.02491877753186	-46.6879510823092	-47.7547265978139	-57.2561874128263	-48.4503544985641	-42.3138603157406	-1.04008449682984	-47.2483852775133	
27698500	-1.06408291820399	-49.4565818789983	-48.5648391950825	-90.5748015631321	-48.5626842823469	-76.1097281002932	-1.18240835774523	-49.7477408827725	
27948000	-0.801066799074224	-51.4573611663037	-49.0898669892151	-129.785574917557	-48.3538696289126	-113.099631028745	-0.996183653550874	-51.4609472393093	
28197500	-0.498327482196195	-51.487207128576	-49.1832216665417	-172.961748989585	-48.3722368570612	-153.716953229935	-0.687994220199322	-51.1932312444544	
28447000	-0.40961565078137	-49.9577228314225	-49.3536812268889	144.272797856582	-48.7816375334454	161.214415552471	-0.514254724055259	-49.5316973671792	
28696500	-0.617185389358398	-48.3424040412836	-50.915019360426	96.6943667501325	-49.5971961363572	117.878558237043	-0.615189196256019	-47.9624162080311	
28946000	-0.96401950516608	-48.0914487835909	-52.8452280474189	55.3928632948673	-50.8180361960754	73.51031756398	-0.896093357454131	-47.9181460468721	
29195500	-1.1950294194776	-49.8670529925111	-53.967963266186	18.2528973596524	-51.156419690231	34.2101807732212	-1.12792852996616	-49.7368198069916	
29445000	-1.08958054617227	-52.507640900436	-55.3262160323878	-23.6702139774909	-52.8042130968077	-4.95057534263111	-1.07592020381028	-52.3901340333188	
29694500	-0.735870026415321	-53.9934034982607	-55.4098583161303	-56.6983046735953	-52.5666575096926	-41.168716285964	-0.773884503288089	-54.0099806182059	
29944000	-0.418246072589251	-53.5733028799903	-55.2650739241002	-86.7703099963115	-52.537401793184	-75.1694475602193	-0.479751446852093	-53.8369582457062	
30193500	-0.380761504588663	-52.1199652515423	-55.2741042357008	-135.138563032378	-51.1964262386151	-115.93601269403	-0.455207415781082	-52.4670767371977	
30443000	-0.633392402150107	-51.0979859194718	-53.4726078841467	-161.771737565384	-51.1723015097284	-158.975676269146	-0.739344191235689	-51.2805596386456	
30692500	-1.00823454031655	-51.7870195174755	-52.8132911631927	147.834165887406	-51.3174090855261	157.589471012936	-1.15358570963885	-51.4658168541786	
30942000	-1.21030934017523	-54.1614853113033	-53.7612987239679	107.54151721228	-52.1437146551116	112.995644954564	-1.39696694094586	-53.1480529808959	
31191500	-1.0663972975931	-56.6359137852045	-53.4512404406291	66.896723168832	-52.0495564871327	71.1178723482968	-1.27053334822594	-55.2384884178719	
31441000	-0.733408337337027	-57.3964873022348	-54.428062358367	30.8647030987926	-51.8383819386654	30.0158560299596	-0.881660748567247	-56.0457905519808	
31690500	-0.514229532783464	-56.34329926524	-54.6770841592933	-18.7416403229003	-52.0770344846452	-17.6398208043168	-0.542803115445043	-55.2962528171075	
31940000	-0.601476707416808	-54.6256470413989	-54.3880686934524	-61.5642088753926	-53.042312073359	-65.9083895585259	-0.512747709823336	-53.9531285600967	
32189500	-0.938009321611853	-53.8766846691336	-54.7025209469809	-109.467026121783	-52.8844343842911	-112.963157069244	-0.773408984144752	-53.4086750654665	
32439000	-1.30018781072736	-55.1519382930651	-53.9964124105013	-154.166924002065	-52.8175630896486	-159.242949013306	-1.13685134592105	-54.5530347566285	
32688500	-1.38935815795696	-57.8888049467608	-54.591258280005	149.112628946946	-52.1301936568454	149.518579893869	-1.30580845073101	-57.1065399005173	
32938000	-1.12983262548762	-60.0525976829933	-53.1818692187705	104.359772622578	-51.5103509334613	102.345487533709	-1.15032438978977	-59.2817147911715	
33187500	-0.75509567927556	-60.1461251077305	-51.6566214423395	58.0704940629622	-50.7330272056319	56.8123151083221	-0.825426847798114	-59.5512481105075	
33437000	-0.567588376600753	-58.5079616946837	-50.8144376932915	10.7132091296403	-50.4848968787621	10.2690925951145	-0.61712734310534	-58.0088119641094	
