!Keysight Technologies N9923A: A.12.45
!Date: Saturday, 02 August 2025 19:01:46
!Timezone: (UTC+08:00) Kuala Lumpur, Singapore
!Model: N9923A
!Serial: MY61181427
!GPS Latitude: 
!GPS Longitude: 
!GPS TimeStamp: 0001-01-01 00:00:00Z
!GPS Seconds Since Last Read: 0
!CHECKSUM:0983631155
!Correction: S11(ON U)S21(ON U)S12(ON U)S22(ON U)
!S2P File: Measurements:S11,S21,S12,S22:
# Hz S DB R 50
2000000	-0.0651680641853179	-2.99682416833648	-69.4545636396695	-86.2538006622607	-69.1319879912789	-74.4760346169021	-0.0943527536406687	-3.00402899458464	
2249500	-0.295650946793131	-3.69848518300901	-69.7743051085903	-64.4083526501291	-72.3109378731928	-153.964352498451	-0.314080530698936	-3.7065871495003	
2499000	-0.398128845209227	-5.11353798236685	-72.2771447935121	-99.8924794921524	-72.3418532820629	-104.559035434057	-0.404620101513759	-5.04817176702303	
2748500	-0.282073212364905	-6.47287726565332	-72.4678640651663	-98.4031716874029	-82.0411060523692	174.715089250496	-0.284203362908065	-6.33043194433333	
2998000	-0.0427292860574788	-7.00987336287998	-64.7374887067068	-87.9710871082071	-66.1315953410014	-79.0750049515718	-0.0574055010278494	-6.83207607341668	
3247500	0.109815884790323	-6.80510423366532	-59.5538873979244	-108.671647732816	-59.1870015010365	-117.111895550168	0.086927976247063	-6.54960798977961	
3497000	-0.0189215030196495	-6.1867162844883	-48.173243070334	-179.773278112531	-48.206788380046	179.816456940283	0.0373840124229897	-6.10680711713868	
3746500	-0.149480559879111	-6.01719083580863	-55.6575708200093	105.246668311971	-55.2962371313963	106.496342140825	-0.162559007755202	-6.12359047304974	
3996000	-0.354680560980202	-7.14692946341753	-57.7087036433903	106.136757980599	-58.198363393797	103.158806913677	-0.373335855335655	-7.12392145001594	
4245500	-0.401854566377647	-8.79566561271513	-60.2305509554064	71.5933286935303	-60.6165365700494	76.6135373260364	-0.39629161497034	-8.53616277750356	
4495000	-0.26126421763501	-10.0760451194477	-58.1259123275206	112.507885619105	-58.2344948282676	110.9376375513	-0.226135047615475	-9.72258952281021	
4744500	-0.0147350939125591	-9.85814943713824	-49.1962420728338	78.3297129247403	-48.8405078527849	76.6276868740248	-0.00933540771930283	-10.0047000831487	
4994000	0.105493948935093	-9.52103503510193	-44.6438879827271	45.624319838657	-44.5230237698723	45.3833413767677	0.0572636812147317	-9.75692667554074	
5243500	-0.053917158219554	-9.03341449115647	-37.5298875153457	-7.45365312863183	-37.6012875375894	-7.76291457942685	-0.202253189572914	-9.06425823929692	
5493000	-0.254441054949618	-9.0475678588992	-38.1820761151764	-81.3700015508621	-38.159562097299	-81.965794654426	-0.318843897060318	-8.41398456780873	
5742500	-0.427270419847914	-10.5270512528988	-38.6381749639341	-115.665337208502	-38.6731926953836	-115.563545070944	-0.4691447144122	-10.1506942443417	
5992000	-0.447965777248973	-12.0350607940321	-36.0429994821302	-169.521719216352	-36.0187738449084	-170.281405520155	-0.582542471141201	-11.5444347881016	
6241500	-0.184253802812081	-12.6176684338981	-40.2670253161913	125.856787386338	-40.1236857913979	125.192612059615	-0.274577217674527	-11.3327874266706	
6491000	0.0722036314216145	-12.6833108796786	-44.4382589330104	101.231509860533	-44.5381116656668	102.084325235161	0.0247369873996599	-11.5392038537231	
6740500	0.11945232657024	-12.2277381340068	-46.2886924469385	87.5160294789797	-46.3748712456953	86.5753929426809	0.0890101178257263	-11.1858429000158	
6990000	-0.0587867132192178	-12.1113725479453	-46.2879891847508	75.2951129466704	-46.2883082365104	75.2060165297434	-0.0630499653900835	-11.0716295107823	
7239500	-0.348140173531115	-13.0427603585907	-43.937489478009	58.1888572223006	-43.9378288829205	58.3135239283685	-0.305722875423613	-11.8646141776078	
7489000	-0.610415643586675	-14.5421051608522	-39.8993615511927	9.35216472826334	-39.7868773381948	8.77158667584468	-0.48319361038662	-13.4617476311922	
7738500	-0.526526946224646	-14.8137272249066	-41.8228498569938	-34.706627028123	-41.5321563325405	-34.5209566551543	-0.346685416558457	-14.7924755810929	
7988000	-0.147026521875631	-15.4313336922005	-44.6187712042535	-68.7366430119982	-44.7253209906813	-68.2338473247804	-0.0957824134725024	-15.6049044259151	
8237500	0.0713289504030198	-15.3849014192947	-45.8809944776314	-85.6083527805048	-46.1535554783062	-85.8615655410151	0.0761185282550251	-15.6433986441718	
8487000	0.0462532576824219	-14.9899928441544	-44.5513120396416	-108.218585876069	-44.333376431201	-108.923239531935	-0.0158356529618266	-15.7151317929013	
8736500	-0.189065218470417	-15.0148647867854	-45.8204733790644	174.045455892239	-46.0509156735867	173.300461787485	-0.512011455257308	-13.4907636713392	
8986000	-0.458578519868654	-16.0652869128228	-53.0826950783478	-135.525265337772	-52.469848038306	-138.695279253005	-0.414672142511908	-14.625183043653	
9235500	-0.562310979002992	-17.6733066183026	-47.1294264247532	-156.728535838811	-47.083770995032	-156.196556487591	-0.446529850750396	-16.7680048924918	
9485000	-0.407065571752209	-18.725626138383	-44.7176662379153	167.306566590405	-44.7008133205647	168.028514364575	-0.292452865791177	-18.3871788215312	
9734500	-0.105918790409246	-18.9096512816164	-44.3982211669703	132.71149992786	-44.3302485225063	132.339921916748	-0.0480779846255894	-18.8941600156081	
9984000	0.0635449437036177	-18.5916953970078	-44.2719485677483	107.426400334377	-44.2141760831698	107.632427360014	0.078544170411419	-18.5808591199465	
10233500	-0.0308124083959927	-18.4416306163056	-42.7380777975745	85.0137414915162	-42.8372088889208	84.7587211161223	-0.013742873871466	-18.2667895427607	
10483000	-0.340961299353683	-19.3644719227488	-39.3646612292971	59.9595231616743	-39.3835478420664	59.1421800839852	-0.276517477784008	-18.7728381379798	
10732500	-0.883730095287553	-20.8857111721279	-33.4402915402473	4.25566260317157	-33.3969800992864	3.32989740378355	-0.580956832188671	-20.1592744390621	
10982000	-0.798114086032793	-19.797935866013	-35.957189712456	-78.329585340272	-35.9239913666633	-78.9735981801678	-0.531663194299197	-21.2622316659441	
11231500	-0.355950787374237	-21.1907547515696	-38.8096600513271	-122.87872448908	-38.7279464636558	-123.933349316606	-0.319080412996789	-22.716990956657	
11481000	-0.100897747050863	-21.4729514768108	-42.6874938648454	-171.531692637314	-42.3446452123564	-171.347343650751	-0.0969685054035897	-22.959829322503	
11730500	0.0343429949360005	-20.887784717569	-43.1018486647022	-161.009328931859	-43.1529730985747	-162.216750691904	-0.147800661193854	-22.80381791313	
11980000	-0.116668734290222	-20.5233034463665	-45.6261615193541	90.2083349065787	-45.4211972801555	88.6964008703298	-0.261959632844309	-22.2639863993658	
12229500	-0.351786770888288	-21.5096800574394	-55.2145481103645	-109.719834323537	-54.8621445722088	-109.07179251073	-0.848089808864514	-23.597343285833	
12479000	-0.547769618058208	-23.6003286021226	-42.1676508319907	167.065384802868	-42.4039520708564	165.879169998142	-1.33505117796078	-21.9298848001243	
12728500	-0.525254226326665	-25.7680149856667	-38.7076596241343	106.104583489522	-38.8812024291774	104.872390987725	-0.879279034861944	-21.3374944731305	
12978000	-0.401071358279952	-26.6494901006524	-36.5681848268609	54.3933784206687	-36.6968336326112	53.4882779743414	-0.384837532620624	-22.7166773527337	
13227500	-0.281835195740948	-25.3506001786812	-35.3774347936803	-2.44023315484757	-35.4652887217192	-3.26937306064113	-0.12216569935038	-22.9970741205007	
13477000	-0.197704244836131	-24.0123689244193	-36.0718636844742	-54.0383597145471	-36.1755418681223	-54.7094518412259	-0.0737323943098104	-22.3301574929364	
13726500	-0.407218659276965	-24.1419575274853	-36.5574232320508	-95.2420467730147	-36.6081054076319	-95.8071246384917	-0.224557687599297	-22.2178886594678	
13976000	-0.85059097318454	-25.0143034479256	-36.1074771519797	-139.099893115056	-36.2218193780057	-139.966463432129	-0.465845873027219	-23.2621408465791	
14225500	-1.012740356969	-24.8645409379007	-36.9343877586524	168.158529099438	-36.9867396771093	167.108571495046	-0.567704166426206	-25.00623283844	
14475000	-0.625357784506077	-25.6991666698164	-39.7705639483983	124.624658171985	-39.8449334030239	124.447503608474	-0.416127544426294	-26.6047599524615	
14724500	-0.203753668196667	-26.5951487160359	-41.5740223851277	97.2273458375518	-41.67327398191	95.8724854026956	-0.146261132958674	-27.3974937894982	
14974000	0.0277936793060789	-26.559486116922	-41.2866654564875	66.0017031128241	-41.3674801820322	66.343273818865	-0.0202245079163135	-27.3519656939886	
15223500	-0.0276013193237686	-26.1078794295733	-42.0275236432713	-12.6925270191197	-42.2916298836486	-14.6823661914093	-0.211514947414586	-25.647250789133	
15473000	-0.239810038460345	-26.4834663914399	-60.8616626448865	-0.412264997809117	-61.5678002821396	8.25160516096306	-0.258291109827774	-25.8705933602398	
15722500	-0.477532759497497	-28.1838892394144	-50.8980399481304	46.660731298202	-50.6241658613232	46.4136999337799	-0.480608713633313	-27.595193154462	
15972000	-0.528639339059557	-30.6421043618019	-44.6906350303206	27.8243325987262	-44.6118596319502	27.3333358721951	-0.546648277638545	-29.9563180087666	
16221500	-0.411485939731789	-32.5751245856453	-38.4531600626046	-5.1989934401458	-38.3156347579533	-6.44617646436534	-0.454580484489282	-31.7222529889548	
16471000	-0.282017883207472	-32.561434948146	-33.633637494079	-64.3271001807973	-33.6049275293199	-65.4576574608518	-0.311618132279855	-31.2760085176792	
16720500	-0.235403812748605	-31.9275404168739	-32.3611784220686	-122.557254597494	-32.3516986550057	-123.455349230899	-0.140080932367953	-30.3552483427571	
16970000	-0.63713677802673	-31.2321152654778	-30.9923358765233	-174.834188809788	-30.9582815679627	-175.579677874237	-0.293000314951206	-30.0341228900177	
17219500	-1.03916132521118	-28.914318825316	-30.5503686928412	123.930113179039	-30.4558258639593	123.512218811563	-0.577128792032404	-30.2338617075857	
17469000	-0.949604112478771	-29.6830781293382	-32.1053280787048	68.9250762284638	-31.9784343676066	68.3804396643684	-0.756014418196767	-32.2278167462869	
17718500	-0.878415757894994	-32.4616233893561	-33.7618129598554	16.1073816464242	-33.6316167518418	15.3985738112054	-0.821178033023857	-35.0273332075551	
17968000	-0.677645340013566	-32.3915688725828	-39.962561278955	-18.2197808183441	-39.7392706822997	-19.9447923154791	-0.987285328074342	-36.8035224771847	
18217500	-0.239681468591499	-31.9779612720915	-37.2276025910127	-33.2695643737849	-37.3692962111252	-35.9565642916227	-1.07807051120616	-31.974362736632	
18467000	-0.102310189974203	-31.6177839093309	-37.7933341671488	-77.3112505005806	-37.9503314695412	-78.6410369840595	-0.509262482095586	-28.8637583380614	
18716500	-0.252898645481373	-31.761055251865	-39.0384675867132	-106.953315952071	-39.0435066506061	-108.527741228577	-0.387653315317147	-29.0406127019345	
18966000	-0.542345873809103	-33.1268295312089	-39.0624892646823	-130.811495323561	-39.092511210377	-131.403643811264	-0.549288242857005	-30.5575987068979	
19215500	-0.731166452667339	-35.6167262038171	-37.4912499818139	-155.979496500512	-37.5147977084926	-155.622082056722	-0.667886875256026	-33.06086261359	
19465000	-0.743208969849419	-37.8861446370713	-34.7377839951059	173.500815309406	-34.7767038233364	172.910798715755	-0.613569675993636	-35.3856363266083	
19714500	-0.627205442580235	-38.0679834201724	-31.9440469229449	127.474654502504	-32.0168413326223	126.65496999912	-0.411340332469917	-36.0245387247291	
19964000	-0.428279320068841	-36.8661726069646	-31.4622929608609	75.5915275245708	-31.5337376320816	74.9843863543078	-0.148554601944816	-35.3920060059606	
20213500	-0.533700952058902	-36.1368997607233	-32.0492778833462	32.1895765169288	-32.0901247248396	32.2330543320366	-0.116827718851632	-35.1061272097673	
20463000	-0.968514015134298	-35.4210909781781	-32.5008464711257	-7.70225536949473	-32.5028141116033	-7.73662365213062	-0.368546690659573	-35.5995230211941	
20712500	-1.32253655581649	-34.8340651472152	-33.2325436892082	-47.5116806578815	-33.2627872715731	-47.4328411210094	-0.714632285336245	-37.3825950651776	
20962000	-1.23649460020454	-35.4552975480071	-34.3880590395393	-81.739813033386	-34.3699466499798	-81.6358235127141	-1.02012836652588	-39.9934891422184	
21211500	-0.854998479798025	-36.9443865122893	-34.920423904017	-111.792996398339	-34.9400433049443	-112.177436152799	-1.22349639936003	-40.4603566766819	
21461000	-0.465191966610849	-37.5290632100425	-35.2656827430471	-146.18389761578	-35.3873667335388	-146.668837589115	-0.953537257203246	-37.6316893126601	
21710500	-0.268663706745976	-36.7978778889786	-36.299226678522	-179.339892972536	-36.3401955488167	-179.668716913602	-0.500529855692607	-35.6650049758265	
21960000	-0.312949306742609	-35.8649890466355	-37.4209491678216	150.487302944753	-37.5000889518967	151.013986555416	-0.373905318960775	-34.9422138841723	
22209500	-0.516047162084657	-36.0796916969353	-38.7565882577147	125.238708567013	-38.7860160459107	125.160997638127	-0.516740829476149	-35.4164823866701	
22459000	-0.690092103833981	-37.9117969428815	-39.7209448932716	103.593025954382	-39.6276767758404	103.011253326216	-0.679671583976173	-37.2570074834544	
22708500	-0.655807528513791	-40.5416386019515	-39.963827012418	84.9919094196444	-39.9830097195622	83.8562894408437	-0.654595362179271	-39.8497571981852	
22958000	-0.427857427272683	-42.573055368486	-39.8878043880776	67.6577822472024	-39.6786278687769	67.6027538006579	-0.42779879721884	-41.9476145538559	
23207500	-0.259281226409631	-43.1395013977438	-37.3623187619619	64.1707798682761	-37.2250254174705	62.8403243280607	-0.253502573234015	-43.0077870033231	
23457000	-0.301119605764028	-42.4701684383591	-31.2136785481282	17.6766557046705	-31.1215960537627	17.2607514852616	-0.351891735939737	-42.2681453890837	
23706500	-0.681829981597642	-40.9912017152784	-29.0236263267471	-45.0732541436542	-29.0008480594879	-46.5082433449104	-0.717976463741038	-40.3047783704549	
23956000	-0.900621089335488	-40.694144864102	-30.5016257181261	-107.123286265762	-30.5660015216992	-108.280023703696	-0.844012046333886	-39.21972246554	
24205500	-1.09247060830144	-42.6760010034701	-33.0812353479202	-156.652610630047	-33.0727615915388	-157.318666828714	-0.887916218145602	-40.8770404100797	
24455000	-1.04034213006824	-44.3892031128359	-35.7448650088906	158.742746929006	-35.5889082318207	158.181649824539	-0.739502592587847	-43.0846590899475	
24704500	-0.734556290017959	-44.9865677042092	-38.3682632369128	117.927987912106	-38.367544712454	117.371811590057	-0.408116764740119	-44.348863945729	
24954000	-0.483057302643465	-44.4223835828543	-40.8667187343544	76.9227847663665	-40.8016679480139	77.0106191510965	-0.161099863599379	-44.6923772818425	
25203500	-0.491132364813495	-43.2215020380197	-43.5213744568463	35.5234639262378	-43.1498300656294	36.566010501675	-0.165243257024473	-44.3605079639786	
25453000	-0.722839883140227	-42.4474269279888	-45.5137995496097	-6.17026550661925	-45.3984005154302	-5.78604410310986	-0.427692150549413	-44.481631261854	
25702500	-0.985845288430538	-43.0637682212367	-47.185961182278	-49.4174336935307	-46.3733245964502	-49.9651902946183	-0.787151794940612	-45.8443901777341	
25952000	-1.0495712271207	-45.2010805139855	-48.1257736623975	-95.2167459988563	-47.4518009012576	-95.658238451431	-1.01952205537023	-48.2701892050224	
26201500	-0.874021620562566	-47.4266715934258	-48.2070669063379	-147.262822959254	-47.9983492825974	-147.710667518072	-1.04567580139204	-50.4631126936016	
26451000	-0.652625624147628	-48.2192646920584	-47.5678900819437	158.024935036037	-47.4960084632821	159.054119072166	-0.981833536419066	-50.8945537983889	
26700500	-0.581418432203692	-46.9615556940329	-46.9691425588163	98.7629392820452	-46.8433916888276	100.916196060014	-1.04119020269774	-49.0030927211652	
26950000	-0.667308255207121	-44.7733169774926	-47.5198657335836	42.4585025352869	-47.1358617198847	43.4767295126097	-1.20299445478381	-45.5998038520861	
27199500	-0.811253846649557	-43.8447234460329	-47.997686839872	-12.3110322001624	-48.0730221090272	-9.64444450478362	-1.32591172944662	-43.1132590812448	
27449000	-0.942632258737442	-45.2028421407509	-48.3588743643237	-54.3401270657033	-48.4827818856561	-56.7403945289741	-1.35093561611356	-43.3002543241522	
27698500	-0.897923519721939	-47.8734194743438	-47.952229348516	-97.7804861112495	-47.7790884396954	-93.8263191523811	-1.21119486438434	-45.4157743427751	
27948000	-0.639816852409082	-50.0674725305162	-46.7155108298746	-134.974834040389	-46.8407252310315	-138.312946322239	-0.910931282206453	-47.5152275122532	
28197500	-0.368124850845132	-50.7179074044956	-46.1974592523311	178.684103302706	-46.4063426111392	174.354068703864	-0.564382566669431	-47.6310013510443	
28447000	-0.32062944173051	-50.0922549832615	-47.6818396326941	146.478482353791	-47.8985552309047	147.459379581909	-0.258666196843002	-47.0296538903374	
28696500	-0.584752775181303	-49.2306252083676	-46.5328506894371	132.682535321595	-46.494166456521	133.625777335741	-0.292921405299272	-46.943306408871	
28946000	-0.985654253397072	-48.9078707694775	-43.6412749104122	106.035944163763	-43.8887477132066	107.223073977526	-0.559199291229916	-47.9730223387371	
29195500	-1.21527108063056	-49.844339054178	-40.6479041907925	75.0950683282813	-40.6132653305094	75.1327245022186	-0.840834416652942	-50.3603788645857	
29445000	-1.11410022541969	-51.7360119900888	-37.7801993786166	35.0871283492558	-37.5678315394444	34.9419076128122	-0.986247794575901	-53.2628324141328	
29694500	-0.82015419133009	-52.8473388754034	-35.6629725237928	-14.9532460906565	-35.4807098498556	-14.9755048139955	-0.972457873435604	-54.0892613526964	
29944000	-0.529605960028166	-52.1708602552401	-36.0216461382584	-66.7528607141558	-35.956898852635	-68.1267998792708	-0.874436475693396	-52.4366244102479	
30193500	-0.422465227476417	-50.705701330484	-38.1753924822535	-110.763371468843	-38.1826395892242	-110.802787862627	-0.559253647902139	-49.4462794250575	
30443000	-0.549782382028188	-49.9088107766828	-40.4959591643836	-139.026799650757	-40.4580838892869	-141.055878177659	-0.524319094306368	-49.0752237207128	
30692500	-0.77939198615867	-50.7843884776025	-42.0315109805096	-162.533149522361	-42.185618757717	-161.446628077798	-0.729044936778339	-50.2704474080744	
30942000	-0.897683230004589	-53.1974035146647	-42.8729661423417	-179.836088089149	-43.0138234580728	177.766940796536	-0.869577012271693	-52.7580622458731	
31191500	-0.756454172614427	-55.8163022799984	-42.9645811579319	160.573718012979	-43.1355976217579	160.938046357816	-0.78306457063626	-55.5033703685823	
31441000	-0.475393938815501	-57.2078100419374	-42.0748193975747	143.238105532174	-41.9865221388667	141.363388928792	-0.537799056552576	-57.1244091302749	
31690500	-0.319732675965613	-57.1963178878986	-40.1609030065427	119.352264197858	-40.2904191472737	118.691280121677	-0.375554771041116	-57.2630516695451	
31940000	-0.477205505970288	-56.6357428236738	-38.3039625250974	90.0425823557529	-38.2639225553176	89.804759702872	-0.513225608365775	-56.6464985129128	
32189500	-0.908107278515855	-56.6760991116681	-36.0913631784297	54.0600768919979	-36.2667855808683	54.1444135322851	-0.919011113443072	-56.3056394859259	
32439000	-1.40645013892432	-57.852296871987	-34.371342734544	8.93858876283796	-34.3255827532712	8.78598684888213	-1.40513407239676	-56.7879113101539	
32688500	-1.67083360359448	-59.241694627956	-33.649720665949	-43.7215738756715	-33.6033216911054	-44.4861242863569	-1.62470605704376	-57.6591188257901	
32938000	-1.47060916502698	-59.7095726830238	-34.5812875378957	-100.176443705041	-34.6297330385884	-101.070025310158	-1.36008955817846	-58.6519074490458	
33187500	-1.07097408730371	-59.1961464241264	-36.8742843019749	-155.451868024715	-36.9222092450271	-156.711766795759	-0.969060286392211	-59.5490271180619	
33437000	-0.872253319227382	-57.6237282507555	-39.6240535057418	148.729152726113	-39.6329556617079	146.819339587605	-0.869323026044745	-59.3312661575133	
