!Keysight Technologies N9923A: A.12.45
!Date: Saturday, 02 August 2025 18:36:50
!Timezone: (UTC+08:00) Kuala Lumpur, Singapore
!Model: N9923A
!Serial: MY61181427
!GPS Latitude: 
!GPS Longitude: 
!GPS TimeStamp: 0001-01-01 00:00:00Z
!GPS Seconds Since Last Read: 0
!CHECKSUM:1893497627
!Correction: S11(ON U)S21(ON U)S12(ON U)S22(ON U)
!S2P File: Measurements:S11,S21,S12,S22:
# Hz S DB R 50
2000000	-0.0562889188191638	-2.98364821997366	-58.2719868275815	-88.1264885670233	-58.0219257459286	-87.7649515492781	-0.0731503266175411	-2.87339603749483	
2249500	-0.236978166749838	-3.60541937136674	-67.3588709566115	-92.9553415922396	-66.6331554594277	-85.0630207016687	-0.242844841355852	-3.52609828272985	
2499000	-0.316743658659583	-4.80111032021964	-67.3698696189426	-91.2300579749087	-68.0940525446273	-82.8808072134736	-0.313575815704717	-4.6645435103204	
2748500	-0.224929041679865	-5.95441208844502	-67.7715092242996	-98.1425751161789	-68.4250400646525	-95.5537607895462	-0.22349833864084	-5.76811406991626	
2998000	-0.0349569000935515	-6.4782179705936	-67.3228077631115	-96.9026236542497	-65.3601779999767	-93.3279556244354	-0.0485696786234224	-6.28341851577169	
3247500	0.0851954476305367	-6.38460253975492	-63.5968978662539	-102.969604780525	-63.2562832712964	-103.500200383593	0.065631905181544	-6.18915721995277	
3497000	0.0459055438788522	-6.21739939304911	-57.2201398665251	-118.011774123367	-57.3369481971461	-117.346426156567	0.0298270539704588	-5.96890547782449	
3746500	-0.162514726445072	-6.06158947537974	-52.3897186092785	160.96838533118	-52.3096052431153	160.844810053301	-0.139448373040655	-6.10273249254184	
3996000	-0.293271483556702	-6.96679620554413	-60.4765502290103	140.82696059873	-59.7310890365276	136.727914893446	-0.297617774431296	-6.98389437471092	
4245500	-0.317817220532091	-8.32088768285274	-63.7440667421317	96.3176389208307	-63.6714833452568	92.4385807210649	-0.315076249048785	-8.14381730727534	
4495000	-0.181845757675262	-9.42511110724785	-67.3250144254429	157.086564984981	-69.4143949710126	164.883401284667	-0.179759781643706	-9.17812202800723	
4744500	-0.0281503723130579	-9.74020453190426	-54.690041070044	166.708723947313	-54.8910910506961	167.960511830252	-0.00621636010208195	-9.47518326792121	
4994000	0.0816395456565329	-9.2256762207271	-53.3451153558222	101.538388235799	-53.7222414317165	100.554597907886	0.0740891784228351	-9.22583403987323	
5243500	0.0054277900851091	-9.10177296537317	-54.5223653153893	85.5204027477721	-54.6674505913759	84.8452614587934	-0.014345164019482	-9.08430445024729	
5493000	-0.186631293635761	-9.58219565122802	-52.7763355471564	77.5140774327432	-52.9727045496994	77.1071156230467	-0.222315401712301	-9.36271419012901	
5742500	-0.338555269086953	-10.8876492539372	-49.3916905279606	64.3556225256222	-49.9732255851981	66.7516793708056	-0.328933403747483	-10.4420461030628	
5992000	-0.405622772562217	-12.8487864154828	-41.2243142044039	47.5397398251512	-41.0881234323626	47.7666472893297	-0.308229040075063	-11.886413580013	
6241500	-0.218899952989281	-11.4479266587043	-39.8691625688074	-66.6542810727515	-39.8945062820474	-67.1829205513669	-0.151395176831971	-12.3797730697544	
6491000	0.0437167854790352	-12.1494759313701	-46.150422767366	-90.5857403876442	-46.1778758344089	-90.7436970623673	0.0274668058821058	-12.5835411547104	
6740500	0.0871785926329906	-12.0698815107436	-47.7489995352596	-99.343535203119	-47.7868100109912	-99.6017970462769	0.0576678792639375	-12.3601337259482	
6990000	-0.0478183255526613	-12.1738807099599	-46.8127152288055	-106.869050167942	-46.8597963074313	-107.01952604148	-0.0716105049311655	-12.3662746003814	
7239500	-0.269770799214729	-13.0931686158291	-42.0307665818064	-130.19767554555	-42.4345802711005	-129.177258089447	-0.298184758784606	-13.1870005321557	
7489000	-0.44008682062658	-14.3914846035614	-40.9184623765177	173.706643803095	-40.4298483905402	174.460318609928	-0.434219922867818	-14.0007099317411	
7738500	-0.445177507371199	-16.0712837747837	-40.9175503056689	-175.597831641321	-40.880972315475	-172.72631733947	-0.322316141896436	-15.4267921918611	
7988000	-0.281007974468565	-15.0855278434177	-38.8778634544065	120.398988739039	-38.6186230498876	125.115493626657	-0.136062520249598	-15.8991920276872	
8237500	0.00190700882172568	-14.9211065062091	-41.3653918442905	94.4111440431349	-40.5449389170977	96.4983345897855	0.00752282860645148	-16.006782740797	
8487000	0.0225222443134952	-14.8798398321043	-39.691794589806	77.6238848459007	-38.9534922731972	76.4021583368934	-0.0656575059187936	-16.0275534442706	
8736500	-0.180391458699863	-15.3682768799164	-34.3646873044732	33.2618537318	-34.0028305517328	31.4929721605475	-0.466675162638732	-15.8754307094938	
8986000	-0.404047215413344	-15.6369773385354	-37.8976698985406	-57.0687611294337	-37.3880452908659	-57.9438017301445	-0.413215206277164	-14.5470835520144	
9235500	-0.417080300677756	-17.1126829485566	-45.400287607047	-87.3549667226449	-44.8682141049833	-88.9185188773888	-0.361508175586834	-16.6871059622144	
9485000	-0.289569928650927	-18.4321404115358	-51.337276542257	-98.0050379374091	-50.6772109241027	-101.026015104143	-0.229893425989807	-18.1959149104892	
9734500	-0.115577150703504	-18.7693868230308	-56.2165242969016	-76.0987098356951	-56.4448099408908	-82.683701499859	-0.0386904296409515	-18.8219360644146	
9984000	-0.000339353343336323	-18.1453077378009	-51.0259600624722	-59.4228311755059	-51.0474197390932	-58.7817294806276	0.0510878352284287	-18.7695236555081	
10233500	-0.0235442361243505	-17.8174728505467	-47.7769666668577	-82.455029873993	-47.7380430994184	-82.3258387192641	-0.0345545363554876	-18.6655854709098	
10483000	-0.198417226208871	-18.3448151685635	-46.0153095448789	-100.048011224108	-45.7068342089565	-100.407616097174	-0.241403869539541	-19.1791946802593	
10732500	-0.357453814960097	-19.781996580974	-42.9513468669426	-115.097857783966	-42.5431710380607	-115.491996341524	-0.435442821570635	-20.6281539033374	
10982000	-0.379023206645628	-21.7536090814593	-37.2664177746108	-141.83973554073	-36.6878612524135	-143.646044285516	-0.582348231785406	-22.5072953973462	
11231500	-0.312331851036182	-22.7378928408674	-35.0662273908943	134.993663121086	-34.0009691643334	137.024362327077	-0.493129175606261	-21.5376941720722	
11481000	-0.174430211716304	-23.4853423354152	-40.3322599426999	149.886233694319	-39.8473127927399	122.555563532894	-0.227463152269689	-22.8113973585981	
11730500	-0.44532499838896	-21.7752969455078	-29.6665621772076	86.4685702636103	-30.3300804596878	84.3457453081565	-0.330632288416552	-21.6195284923073	
11980000	-0.510300758736754	-19.4887067114132	-33.0567734558104	12.0239170358449	-34.7317844344734	7.76565657207841	-0.521888679448435	-22.0850058685084	
12229500	-0.446542102742588	-19.6880970410863	-36.1882525439879	-27.0709221976418	-35.6549952953418	-27.020432955509	-0.991090445910096	-19.2310309382527	
12479000	-0.480185377243301	-21.579139843497	-40.4679544338987	-64.6128013795983	-40.5275817621966	-68.5209483984352	-0.605127978456387	-19.5490434234258	
12728500	-0.384369342233123	-23.5258674675674	-43.8962585452484	-86.1701025667884	-44.1678729277098	-91.0415091325474	-0.374644284649158	-21.9995728600996	
12978000	-0.188247709527253	-24.7313182105796	-47.2538394313398	-100.968233647674	-47.7193574299438	-100.451116848936	-0.163321490323568	-23.7759704297661	
13227500	-0.077521870734542	-24.9809855821836	-46.2115354354468	-81.4806785224257	-46.0377446887095	-82.7636551173394	-0.0577171766793915	-24.3011825628934	
13477000	-0.157051618265288	-24.2940944936056	-40.9326032035458	-145.315495853252	-40.7885121901721	-145.701361516782	-0.0624040911427376	-23.8742654118914	
13726500	-0.280511379606686	-23.5143507944082	-47.793336284216	147.223466877952	-46.861182080934	146.849549719762	-0.211147014902253	-24.1074541551428	
13976000	-0.419982173946198	-24.7086330989167	-59.5921643232587	-164.951999733114	-59.0520090543262	158.56522421578	-0.439898104071555	-25.3968234526636	
14225500	-0.508962010829636	-26.7190770818647	-51.3819749789507	-143.615744387408	-53.785562001063	-149.925823214056	-0.589542528882052	-27.3003160118971	
14475000	-0.460452795453091	-28.5751378410454	-46.0277027608636	-163.226977126342	-47.6152325537222	-160.610173325021	-0.618279629366428	-29.1584324036891	
14724500	-0.396798431618138	-29.4507764748792	-41.345658454894	164.139249651303	-42.0976883399007	170.097265863226	-0.708789939738454	-30.0274362530027	
14974000	-0.536025635149425	-28.6449154132415	-38.5130293144528	121.201849020042	-38.366045278727	125.200105545712	-1.00358420904324	-27.3361658331484	
15223500	-0.694857409324546	-25.0644281663023	-35.741277755672	87.6465631245672	-35.7813046522741	89.2859662887348	-0.741730727897614	-23.3511309337073	
15473000	-0.600263490932835	-24.052180399521	-33.2736502110339	11.917118518907	-33.2089783423336	12.0521496685767	-0.779984881170549	-22.8410731899731	
15722500	-0.553266053932848	-25.3011658022327	-36.9230399982668	-37.5071666430918	-36.9304311272598	-37.5713573357001	-0.706686419280323	-23.5569506445849	
15972000	-0.470012100097032	-27.6175803205708	-39.2165022797869	-67.0779993729397	-39.2643788174252	-67.5986366444418	-0.59018311799904	-25.5267023226349	
16221500	-0.282164482252652	-29.4863482365289	-39.7907826713519	-92.8650706136515	-39.738824219098	-93.0848944030848	-0.37023702468705	-27.255477080533	
16471000	-0.102503257972327	-30.3166218048186	-38.6307221238345	-122.70500513955	-38.552495904352	-123.230240402228	-0.144728686736819	-28.087468693701	
16720500	-0.116281098647106	-29.985121412127	-36.7006473385797	-167.163542564704	-36.6289627690969	-167.367930089266	-0.0884986834437977	-28.063807186975	
16970000	-0.228629940186983	-29.122846137331	-37.0654043695311	137.921871907963	-36.9964546752039	137.216049801042	-0.204155334828375	-27.4460323051076	
17219500	-0.400329172275638	-29.8583397425259	-38.8763527181886	92.1133153015368	-38.8246160989698	91.6546585386806	-0.354090914577748	-27.6279228792651	
17469000	-0.644452651322746	-31.8930555333928	-40.0198068846827	47.07712918096	-39.9560254251003	47.2418291983292	-0.46876337114599	-28.9130111749733	
17718500	-0.786289849149885	-32.6164075115382	-46.4138533621484	-13.4676006362825	-45.5867209908286	-12.7640818973624	-0.405386077566002	-30.4154672309027	
17968000	-0.492466381735008	-33.6187349094207	-47.1345263779909	44.0304350201655	-47.7822159952298	44.0623502038986	-0.191201665062041	-31.7092134355263	
18217500	-0.554600967719661	-33.190413665555	-40.4711610046156	-4.17435497793074	-40.516326193718	-3.97363977976756	-0.00933728106063884	-32.0904695549967	
18467000	-0.37429641501659	-30.1983338506355	-40.4398324961643	-63.4762349536589	-40.3364012077286	-63.5184115446977	0.0302482864489978	-31.8276659276575	
18716500	-0.27385737228469	-30.1652894077692	-42.3546442599756	-101.088102332194	-42.1952292541585	-100.569958572281	-0.0981444815850754	-31.9362601107265	
18966000	-0.399030096784583	-31.5149760427283	-43.0163214936036	-126.625309569402	-42.9342513511893	-126.418292202756	-0.312158078335513	-32.93009867193	
19215500	-0.48662890460672	-33.6175908225451	-42.4578936043773	-152.293979641953	-42.3119572408077	-151.311742004716	-0.447389053040584	-34.8057459120853	
19465000	-0.41806922155875	-35.5789479925042	-40.7818314194978	176.025591879188	-40.5920850226733	178.428100815997	-0.437800267764863	-36.7139820561207	
19714500	-0.246220303519203	-36.439961969986	-38.8853538943533	134.025222920448	-38.4341998605918	136.460360992818	-0.33402558608632	-37.7868463122013	
19964000	-0.0929864112692514	-36.2084097988642	-38.6579907234814	81.718345327033	-38.0570117456031	84.5218245322056	-0.313263678488581	-38.1765380874844	
20213500	-0.130983940466777	-36.054292655138	-40.267502275305	28.2270021769279	-39.3373318159475	30.4315736290098	-0.774681045128354	-37.7851509940431	
20463000	-0.37619723799141	-36.6230342100683	-46.8680809475988	-32.5157176784001	-45.0316632718312	-27.540364720892	-1.16690706072967	-33.5824353736701	
20712500	-0.699926549304976	-38.2404259710384	-50.1549754138236	58.9162584789367	-53.1014810269768	44.7800708164797	-0.985005621114119	-32.1575978949777	
20962000	-0.955778599730565	-40.2960582073877	-42.3302293646629	11.4999267243721	-42.7942905306191	11.8592692935671	-0.725611150381915	-34.0808281900509	
21211500	-1.08721823829448	-40.9264096211608	-38.8165897507718	-30.9909619797645	-38.9196166467477	-31.196705672685	-0.474882164954258	-36.4125620663329	
21461000	-0.950340267229786	-39.302590209502	-35.8877406962978	-78.1755517489311	-36.0494618228522	-79.1208297962616	-0.250647680532407	-37.795644198056	
21710500	-0.805813975224203	-37.6040765786371	-33.8799489797263	-133.906432891818	-34.203432148039	-132.350347227803	-0.21908596044937	-38.1363111837439	
21960000	-0.875655824895727	-35.3360716707621	-33.6014694568851	168.77413052353	-33.5074071824199	171.373038873723	-0.418808297637336	-37.6329180104424	
22209500	-0.855059598398766	-34.0358185170135	-34.4883380621353	111.208424386116	-34.2502458360426	112.521256090963	-0.748944680844595	-37.1177144527142	
22459000	-0.802359890466717	-35.3622842292189	-37.3293963484061	56.5015983712797	-37.0801328879538	56.4463307296335	-0.889258702770038	-36.7825301154694	
22708500	-0.680629522857091	-37.4653974321459	-41.037844148032	14.1079876743108	-40.985543213564	14.1831990509118	-0.744115957403594	-38.0059172130552	
22958000	-0.419413734404831	-39.0050647117505	-44.4027074361285	-20.6616898122849	-44.3365334121674	-19.1494484530088	-0.481957807103667	-39.3146068837322	
23207500	-0.146249161019742	-39.510756383938	-48.441163552832	-58.0322404556834	-48.2903752774573	-55.7894294208892	-0.224522299012723	-39.7419382264819	
23457000	-0.0551271161444581	-39.2854993001879	-57.1314318217848	-51.8786658191825	-56.4246464535443	-50.8766353799166	-0.091073148996129	-39.3739270299397	
23706500	-0.16402379676144	-39.2045241985263	-53.651243127014	-53.9186266158097	-53.3165315583336	-56.4566637540536	-0.160619605333024	-39.4466368207523	
23956000	-0.374530832925464	-40.0830430013281	-52.8735685733538	-77.6554204063597	-52.6998802002184	-79.5145216747802	-0.348276386386104	-40.335236757985	
24205500	-0.513429762793208	-41.8984860173934	-52.5376930192091	-102.043620352501	-52.7318660199417	-104.68928829976	-0.473778857304925	-42.1194465291989	
24455000	-0.460776156935953	-43.8231120958349	-51.9350723462906	-136.510005526672	-52.4199534680511	-137.406664787464	-0.424997479368779	-44.2643039569186	
24704500	-0.259533479798076	-44.8789873104221	-51.6955951790067	174.195533924743	-52.0716981940709	174.100956879606	-0.249802823467869	-45.7863508659194	
24954000	-0.0860796236068772	-44.8676867567188	-50.1711126331559	110.877316826269	-50.6383192858997	110.646812700411	-0.17655083392823	-46.9064740661747	
25203500	-0.100335359297403	-44.5356362952787	-46.0085796468081	40.7794414035	-46.2576788368081	38.8958945686299	-0.523013215609858	-48.1087471553621	
25453000	-0.314801423172163	-44.7372573676576	-40.6775479837104	-44.7875745641785	-40.8601032033757	-47.5524261387328	-1.58010920270432	-44.2949152576056	
25702500	-0.592527633966932	-46.0430125655949	-40.5575489181271	-121.706401733378	-40.8355881023199	-122.745465650128	-1.20692143444786	-39.8905000534896	
25952000	-0.787753698650891	-48.1869367358735	-42.3459447761811	-171.082050610457	-42.061007786959	-172.123922256849	-0.868547122562056	-41.9815439564819	
26201500	-0.826798746648529	-49.5692268686786	-43.0576741935312	150.108138382732	-42.5471715530648	146.999048743564	-0.60387495893343	-44.3627322495576	
26451000	-0.67584322406052	-49.0357195047	-43.4029180260027	109.392030203126	-43.758871942189	102.714556910725	-0.30398611017446	-45.7456559777469	
26700500	-0.446771540071432	-48.1389923407785	-45.7493295396124	72.3514562454599	-46.2926804633264	69.6011638127	-0.120654058564708	-46.1140720346986	
26950000	-0.508468330162503	-48.0704624777985	-47.8173281762903	47.8053827056599	-48.1267542788926	46.8428302387262	-0.148262359745842	-46.124842935517	
27199500	-0.871184846347264	-48.7950867915418	-49.4999724162369	24.4989300553006	-49.325287292284	23.8315473695695	-0.341786459831988	-46.708594234781	
27449000	-1.35890692899078	-49.8269411218473	-50.3135684776394	-0.295647741611803	-49.6782167232142	-3.16351041023177	-0.550733770838076	-48.366874679793	
27698500	-1.62552215405931	-49.7805738331461	-50.8883135381684	-29.6988884710416	-50.0552435317367	-44.7917837673331	-0.629814896890502	-50.5920094194383	
27948000	-1.35468328920503	-48.6124192939214	-54.3067428290849	-72.2443805835677	-54.1456927814794	-99.5102852665114	-0.527048253315596	-52.4207435576474	
28197500	-0.839071251183682	-47.6595789567594	-64.6495104346595	-116.467502233895	-59.5543149644768	172.089406408236	-0.387981890293874	-53.2432498073074	
28447000	-0.496462460217035	-47.1203949307812	-61.706331047882	55.3974774921981	-53.7091654743919	84.5097311455244	-0.391701479296587	-53.3487145496547	
28696500	-0.474676220867073	-47.3275139663621	-50.9089851411924	21.6538429853796	-46.7114155879226	32.3476203242971	-0.68351883384473	-53.5600152875307	
28946000	-0.68098897784895	-48.6952338604243	-42.9065074497175	-25.8329789932932	-40.6201567933676	-21.7025013878654	-1.19172838435729	-53.9163605979537	
29195500	-0.943165011588464	-51.0290032834442	-38.7929525154769	-91.5999058231594	-37.3862647786763	-86.5822707724845	-1.49687797405391	-54.2329958860984	
29445000	-1.04487506808852	-53.2906832316084	-37.5204309508501	-145.974222030017	-36.2119812068766	-140.800178028984	-1.48332370931011	-57.0251343531839	
29694500	-0.974788408346624	-54.2888692903205	-35.7967194766451	161.424498199508	-34.6089412393244	165.573525085824	-1.79468429358083	-59.2151197607554	
29944000	-0.903502950447503	-53.6884105507497	-34.5143672228186	104.67167632477	-33.436933487475	106.759609199183	-2.42952230598594	-56.8306576718789	
30193500	-1.02555583652581	-51.7671999822511	-33.914307768513	43.1007451476836	-33.1535816937912	42.9439564935601	-2.64851399404684	-46.6701578042076	
30443000	-1.20490073780967	-49.0009879783302	-35.6225215193077	-21.3161247237978	-35.2526592662467	-21.7686930338901	-1.83191055088855	-41.0846949259987	
30692500	-1.18583626190434	-48.1048693147784	-39.3134649902267	-72.5000969221059	-39.2524574316632	-72.8908399671428	-1.30093273512445	-41.9211865563578	
30942000	-1.07591421780265	-49.8532960225452	-43.2360340188825	-106.532972116191	-43.3361018201697	-107.193431863414	-1.05394896981264	-45.0919128558604	
31191500	-0.846411827573016	-52.1729880070179	-46.6064286747606	-131.193717603383	-46.5965598836704	-129.611388617291	-0.792141601968003	-48.3703662080518	
31441000	-0.53760398533253	-53.5621167928455	-48.7637452647871	-148.235929181093	-48.8734357998545	-147.269619461293	-0.471166818833975	-50.6431297649134	
31690500	-0.322477724139759	-53.8122003398667	-50.0623553439525	-162.463775460954	-49.880031196713	-159.533821461313	-0.224520314095211	-51.6015002873352	
31940000	-0.339976619722741	-53.6253001939685	-50.3474268853696	-174.094448207975	-50.3538296646534	-170.409175965055	-0.209132289455489	-51.9313919929977	
32189500	-0.556377851906285	-54.0438846096305	-50.1108680420643	174.41478426414	-49.8788144175764	178.947381101295	-0.398406778401923	-52.6416912128433	
32439000	-0.811744663932558	-55.6185507213657	-49.0565067578408	164.576715518794	-48.8817396079543	167.565618797438	-0.658108968699734	-54.3358345374569	
32688500	-0.918138515451541	-57.9930730174926	-47.5285132904395	146.830179795259	-46.9604786754755	153.622635530071	-0.823564356929051	-56.9326061661641	
32938000	-0.814830417988543	-60.0198142030709	-45.3650862588432	131.675910443304	-44.3727921665922	135.317628600813	-0.858015415125488	-59.483825271144	
33187500	-0.641820518601486	-60.8068004916978	-42.2519859351893	108.120414968931	-40.9408158875129	110.211389987807	-0.967482679603067	-60.7128555826619	
33437000	-0.61459603483201	-60.4938521941448	-38.8814623550943	70.6253223262087	-37.7742625102742	69.8570435610818	-1.29697837345804	-58.2044966846602	
