!Keysight Technologies N9923A: A.12.45
!Date: Saturday, 02 August 2025 20:07:20
!Timezone: (UTC+08:00) Kuala Lumpur, Singapore
!Model: N9923A
!Serial: MY61181427
!GPS Latitude: 
!GPS Longitude: 
!GPS TimeStamp: 0001-01-01 00:00:00Z
!GPS Seconds Since Last Read: 0
!CHECKSUM:0288788332
!Correction: S11(ON U)S21(ON U)S12(ON U)S22(ON U)
!S2P File: Measurements:S11,S21,S12,S22:
# Hz S DB R 50
2000000	-0.0637439281249314	-2.15942435558902	-61.1774512321878	81.2551334354377	-61.814913009048	76.6130137083431	-0.0782045469224951	-1.55830837570431	
2249500	-0.392517050538302	-2.83146555111172	-57.2029035427089	24.514005371745	-58.1503245860984	27.7335284331587	-0.440278384211708	-2.39744019567952	
2499000	-0.537013001247072	-4.56562779523708	-63.700278380318	-51.7348786888504	-61.9850117752353	-52.6327072137645	-0.540524448581536	-4.03276425035042	
2748500	-0.37506911517633	-6.35515062116954	-69.4334057584052	-98.9106700404063	-72.0672973571254	-83.124066075027	-0.369820033563777	-6.06922040249397	
2998000	-0.08490954208889	-6.98524404983126	-71.1968592402561	-110.361811542658	-69.6542732945995	-103.051123919111	-0.0497164478057439	-6.90295132343159	
3247500	0.167035492898159	-6.23658710596063	-71.5201907997218	-127.069063692952	-71.7581166898892	-128.704782958086	0.158954216897946	-6.44013550941323	
3497000	0.120657436024576	-5.63657839337555	-69.9594208862727	-89.7184596496367	-69.4624392824141	-120.726603109947	0.113249245455951	-5.59422009925648	
3746500	-0.182186385551074	-5.70292966493993	-60.7988284445328	-125.059499704274	-61.0491202918773	-126.109142570892	-0.173511953387706	-5.32302658028581	
3996000	-0.516381604563932	-7.05911786869386	-50.2733335396505	179.087073055505	-50.7512251452257	176.555079188676	-0.516637967948006	-6.25579964631133	
4245500	-0.579328579962808	-8.77486979521814	-48.209081191646	50.3070521068357	-48.4458580360909	54.0600097955975	-0.571658552940769	-7.46322878748257	
4495000	-0.289973622450158	-10.1250995419906	-56.8889343772233	-34.2546896897436	-56.4096049330649	-33.0467561184339	-0.289609543967775	-8.71896829405673	
4744500	0.0567597737483579	-10.3232793651163	-64.1984001478406	-85.1459579516723	-69.6024712420212	-53.9168265668386	0.045748812573507	-9.11559278421603	
4994000	0.177296445459187	-9.57610786837691	-77.2071667855308	-129.121102580987	-74.1527578891281	-108.682093188001	0.189222370286009	-8.62135950149196	
5243500	-0.0404578551976185	-8.26039764998537	-63.1861792929719	-12.9908043208537	-62.5706750811308	-15.7945111774005	0.0392572957954574	-8.16704075953599	
5493000	-0.297801997101132	-8.34459589948499	-60.9447540858733	-78.214413379843	-60.2449091993816	-90.3850980091804	-0.289812726910976	-8.62457401433314	
5742500	-0.537005138687301	-10.1095907962077	-57.0191302254043	-107.447137925873	-56.4154318019554	-114.853617164698	-0.549836058362392	-10.333197475123	
5992000	-0.497370187430952	-12.3553423101078	-51.117111902906	-166.055604478151	-51.6248409660033	-166.000719153411	-0.570510112507099	-12.2689656160503	
6241500	-0.234875726716118	-13.6761138851865	-47.3137914043905	111.76546453969	-47.065248707053	117.988755719642	-0.291857906141668	-12.4485263450567	
6491000	-0.0221929662626926	-13.1378785375814	-46.5002261654446	28.4493128264875	-46.0265880376805	29.6326113087424	0.0707600068190024	-11.892961980985	
6740500	0.121493230531341	-11.6008385520264	-51.1345434179193	-46.2196615661852	-51.5378562862741	-43.9068327801691	0.165877816820204	-10.9685293559021	
6990000	-0.0683606026456174	-11.3797638349796	-55.5935351587643	-76.6824395683696	-56.3452519308168	-76.0023108716284	-0.0412458587824219	-10.5466848306811	
7239500	-0.414769559611491	-12.429672560268	-57.6271571534876	-97.4059340481948	-58.2683937521117	-96.5935743906612	-0.380978859273028	-11.4242752862586	
7489000	-0.606392072845079	-14.6812045925477	-56.439228426238	-120.819747940928	-56.378423252978	-120.085254009013	-0.567493062833291	-13.6165781799896	
7738500	-0.51171403204848	-16.8128099044157	-51.9383971210555	-159.24842077922	-52.096659357179	-154.655038508995	-0.468165520102581	-15.872587083735	
7988000	-0.234127386621161	-16.8210317438717	-48.1979281403434	125.089596947296	-48.2811597283344	132.767959074313	-0.227656790368501	-16.6045994665153	
8237500	0.0895285062670794	-15.6482103709035	-50.8691305844155	42.8388041957404	-50.5508646093315	53.6701263957852	-0.0238376609717036	-15.0720569780994	
8487000	0.0942268770623895	-14.6278664374529	-57.0118417034	-16.0945741831749	-56.4319860977852	-5.24281201411716	0.0478662035089848	-13.5328806952631	
8736500	-0.198970412927882	-14.4264990285891	-61.4602668765781	-57.5639332055753	-61.8681485754776	-45.2465314976673	-0.172958214392928	-13.2168201019133	
8986000	-0.553686392088352	-15.6538394952967	-66.2464816233546	-87.0056412102892	-63.6135196585299	-75.8563258804808	-0.472935126767994	-14.4408382132578	
9235500	-0.660613881815446	-17.8865187457096	-68.0083998117676	-127.855168600591	-64.7987569903424	-107.80044860296	-0.570645809068717	-16.7919108760006	
9485000	-0.447034025507882	-19.6509936551587	-72.3719941625317	-137.18993371129	-67.6588827658479	-130.04175568834	-0.378267998362236	-18.8938486338662	
9734500	-0.121587537717843	-19.8329050760115	-69.6036902651295	-137.081301218513	-66.0586841953639	-159.233708191337	-0.11155796201544	-19.5396565360181	
9984000	0.0421060529214405	-18.6793070909541	-63.8310644206278	167.248678668281	-61.4032797330828	146.205199264075	-0.0396159730089698	-18.295968670383	
10233500	-0.0609437620403026	-17.538482390181	-64.5066965032069	127.913687177764	-65.4940936220129	84.986371690976	-0.109725090751732	-16.4619781748851	
10483000	-0.377736704921061	-17.8179825110622	-65.3475986357888	102.244287882325	-70.6132086618487	70.1463780790098	-0.342757086924869	-16.3870134567311	
10732500	-0.666613283619832	-19.7994454556546	-61.8669705296345	95.3126023197152	-66.4576656472285	120.074855647999	-0.584732416278747	-18.0581480117548	
10982000	-0.700459396718387	-22.0645149386302	-56.0161088296987	48.1982948540043	-56.5792943172947	64.8487872956772	-0.581777343555488	-20.4853281897619	
11231500	-0.388192997263829	-23.327505490061	-53.1642764043685	-1.87430515657356	-53.8579537121641	17.8044003812238	-0.338061605754195	-22.1442218145768	
11481000	-0.102038023181219	-22.862907327755	-52.0899749960805	-62.1140235493156	-52.4275798290333	-40.7826207055038	-0.108722010886777	-21.9226543623341	
11730500	-0.036952420455748	-21.0793085924938	-51.4905185838953	-120.19239237493	-50.5935007691565	-101.037000016662	-0.0314620661577744	-20.1738434583981	
11980000	-0.195488058733977	-19.8429840239667	-53.9138703646152	-173.634731383562	-52.20390534493	-162.764206450254	-0.158317118453087	-19.0972300255539	
12229500	-0.517455422104008	-20.566725617982	-55.6980428448717	147.635679256043	-54.3286256895518	156.22768883957	-0.465008319530277	-19.7426277419825	
12479000	-0.736916827531757	-23.0091855681097	-55.2901719489891	114.442897073255	-54.2394317517607	117.180317402107	-0.700083274441877	-21.9446481924799	
12728500	-0.659922722186653	-25.6424036359686	-54.0276297668938	60.4862496495393	-53.0980450689805	72.5731013902718	-0.628946824465054	-24.3297845949929	
12978000	-0.39239466266796	-26.6326842498166	-50.9130761198179	-1.65970496532729	-51.5296774807902	7.56354077732898	-0.368154878672939	-25.2513082925685	
13227500	-0.165934767570146	-25.3497282338678	-50.67123661236	-75.5776867649142	-51.0655289864766	-64.3274333215485	-0.131665796788878	-24.1733574021673	
13477000	-0.108743275732697	-23.5527665031238	-51.7765878470314	-146.987139547104	-52.5095995561937	-135.721972368791	-0.0769564298817551	-22.4617222501388	
13726500	-0.327562568020393	-23.090934949699	-53.9635933968762	158.12862811822	-55.2186581898364	164.439575312466	-0.281145853017016	-21.7667049105657	
13976000	-0.670164345586156	-24.5062429769777	-55.8355712894388	109.638920585138	-57.1214074009428	112.953736505171	-0.595729291089314	-22.8440350826407	
14225500	-0.824646158762425	-27.194155050303	-56.4551833306017	56.8952456038135	-56.4570343386529	61.1020212066733	-0.734260779992238	-25.2809452008918	
14475000	-0.692020444965585	-29.2280779940328	-55.4018123416094	-4.72065220963726	-56.2684923293679	1.9770284494022	-0.570817834006216	-27.509590824656	
14724500	-0.387955034625294	-28.8804402465721	-52.0831558101546	-86.0054639696239	-54.264264461899	-74.5209168989939	-0.26578720971223	-28.1335394473559	
14974000	-0.101651505575474	-27.1064553885497	-48.7606858446981	-171.824066384187	-50.6534401302682	-159.0072438868	-0.103525862892223	-26.999740975347	
15223500	-0.140704342685664	-26.0143109289333	-45.0811710447368	110.453227309629	-46.6921600969051	125.873480584031	-0.189582539617498	-25.2876054457232	
15473000	-0.528232553931326	-25.8175433096389	-43.5560069125884	22.4395936380439	-43.8184394859427	38.8967593491778	-0.490105765291888	-24.874749391776	
15722500	-0.813126507565584	-27.4110043376044	-46.4255138931578	-49.4240483046521	-45.5390717994501	-36.4420026873027	-0.811872551050373	-25.980746382435	
15972000	-0.855196718410298	-30.4294330487969	-48.9882542287757	-95.91418253745	-48.3119991191477	-89.8519073396084	-0.817371456425817	-28.306507543495	
16221500	-0.637511594824367	-32.3461231647002	-50.7578906488612	-143.029197746752	-49.5962786207403	-138.327119078998	-0.516430545854005	-30.1947034233075	
16471000	-0.352231572374643	-31.7826530338368	-51.6356179966188	165.067232801505	-50.8647713240171	173.810582761952	-0.162636101269876	-30.4371151520518	
16720500	-0.185156975695472	-29.783002320721	-54.3429135607204	111.312045940903	-52.6066022843734	120.946426506213	-0.0342250994336484	-29.4262365732484	
16970000	-0.299517573658783	-28.4940751860667	-56.8976834812818	57.35192192691	-55.8597665428368	68.7033817003756	-0.250380330821758	-28.2822417212611	
17219500	-0.634814999311262	-29.0266339246256	-61.0228076080412	5.23583501981224	-59.2371793230121	15.8871447004955	-0.664966040281908	-28.1267054722543	
17469000	-0.908051880438118	-31.3563056211727	-63.2151939599601	-46.1660122227883	-62.0886927695734	-17.7318947541502	-0.965469265703845	-29.4650767803833	
17718500	-0.866155509757212	-33.9977964832514	-70.4201895437153	-74.108658389494	-62.9107933919073	-42.15700211202	-0.896386785439842	-31.5276436582674	
17968000	-0.561941532357252	-34.9749764508499	-66.552300617324	-58.348667937395	-63.7426137522221	-67.6220914156194	-0.520701298792782	-32.8395058737229	
18217500	-0.247175151501178	-33.8246580123366	-62.7941251472984	-112.205695712624	-60.4702282790182	-108.455449888217	-0.158653016632061	-32.6404104905671	
18467000	-0.156904209083826	-32.030420863798	-58.1427362261048	-150.841440920287	-58.9050337463936	-149.360210657777	-0.0753982248136311	-31.5776465718084	
18716500	-0.386410195063743	-31.2281813057452	-57.0754496987988	177.379129474422	-56.0841799654253	169.460229705638	-0.328241884466972	-30.8922519328855	
18966000	-0.778840012592057	-32.4024961445948	-54.3385547609384	129.883105984903	-54.3955678542152	132.903062219306	-0.741409048537768	-31.4990883654399	
19215500	-1.01236771576553	-35.1643499659033	-52.0325917292062	87.7129892257249	-52.5568234497312	86.5081424223309	-0.991866769114317	-33.447016401297	
19465000	-0.898934080042118	-37.5718894631862	-51.9638238964176	36.1462764879512	-51.504576046224	36.7127624918833	-0.88586579028145	-35.3196850103889	
19714500	-0.555094821206913	-37.9495593516583	-51.7744543721499	-9.98232880668704	-51.8175128191481	-9.67902774610121	-0.521631323687275	-35.7309869722167	
19964000	-0.280157463886615	-36.5130155110893	-52.4509231370599	-57.2170886202183	-52.5133454791277	-56.5290408802225	-0.215742944889816	-34.6759097574722	
20213500	-0.305017551927978	-34.8617229938988	-53.7820990873638	-108.306674569128	-53.8185632096014	-102.320726823716	-0.198926596486382	-33.3244578999333	
20463000	-0.630226506030836	-34.4496660706981	-55.3572148038344	-145.722607331711	-54.6254352445034	-149.591457418852	-0.479736589512574	-32.9470608238419	
20712500	-1.01560782311716	-35.9668001425809	-57.2806448108753	170.077118093842	-56.2191026323357	173.586168563154	-0.842557771251719	-34.2946665763615	
20962000	-1.14381373129327	-38.649506936014	-59.2379120847312	130.964907967478	-58.1291509905575	134.6594410847	-0.972152955460235	-36.8903656936936	
21211500	-0.917313935751324	-40.3408355418802	-59.8703733778837	93.8094513368367	-59.5956795588167	98.0436023791352	-0.765969597605776	-38.9193738391516	
21461000	-0.53254324416494	-39.8155086026383	-60.3787526860456	54.1893845650931	-58.731934168984	51.0110781283137	-0.423237322650882	-39.059096647324	
21710500	-0.291034823242191	-37.9580048551689	-57.5105517994471	16.8905893954349	-58.027161287826	18.2808462316063	-0.237993268353927	-37.5856172969013	
21960000	-0.384940416840612	-36.4776865581946	-56.1911045137342	-30.714025343867	-55.7386934041517	-29.512321645342	-0.358015491369785	-35.8828923890195	
22209500	-0.748769517082734	-36.6296025549299	-54.1943146773671	-81.9231055088618	-53.5919426666761	-75.5640306985917	-0.700817213354467	-35.4884352070913	
22459000	-1.09406782550937	-38.8185632395763	-52.5834709612665	-125.311736084688	-52.6076123902705	-121.921434494931	-1.00423549310281	-37.1018375677635	
22708500	-1.11683352117453	-41.5892044884578	-51.4472051527651	-168.362007409021	-51.4292138239136	-167.036253406611	-1.00224174322446	-39.8336150190224	
22958000	-0.797054827489395	-42.779276434498	-50.3787313820337	140.554496829239	-50.4904368443611	142.065193084579	-0.686436918841589	-41.6476919980046	
23207500	-0.383543561957492	-41.9179586501891	-50.4459408537342	88.8554010526966	-50.880188417558	91.6483153843092	-0.325995164975276	-41.5613435176354	
23457000	-0.219463749430945	-40.2786017018287	-51.6655940966642	42.4887838236064	-52.0808973349048	46.4132342427748	-0.218557019445206	-40.1482063957141	
23706500	-0.443250693013306	-39.3426750757875	-53.9556908896213	-2.86423993350803	-54.1894165371645	5.78970162828999	-0.455390501903889	-38.808215180494	
23956000	-0.885426816023818	-40.0062928532807	-55.9015528808044	-40.1851448720143	-55.6791882203702	-35.3733076125544	-0.871489695433009	-38.8311906121574	
24205500	-1.15287668655029	-42.2262963563214	-56.4093161901896	-75.7962160138524	-56.970016742334	-63.5385403061089	-1.14577439504031	-40.6136327959386	
24455000	-1.01105369987034	-44.7719375702716	-59.2737889072091	-115.075249464088	-58.5570522852482	-108.089873590755	-1.04105799677595	-43.0249626085183	
24704500	-0.613932450725483	-45.678427523324	-60.3834227092821	-150.935421152486	-58.5981518084667	-140.39466455475	-0.632190010950217	-43.9485741249627	
24954000	-0.295117823892367	-44.522374272659	-59.8180962025006	164.479371970608	-58.9986807522858	-177.558063597278	-0.290292281157261	-43.4134130472823	
25203500	-0.277458087828385	-42.6674504574289	-58.9628007028118	111.948822616134	-58.9119156163549	129.511622512489	-0.255161195071178	-41.9982013914599	
25453000	-0.564864967506173	-41.8604385888453	-57.7865885309089	74.7565113811294	-58.9183986018838	84.6930721398679	-0.549946402368628	-41.1199903539244	
25702500	-0.971973688090991	-43.1518945185294	-58.2457569799015	28.3498344171027	-57.5663860918569	37.4048796254967	-0.976202821947068	-41.8341533472402	
25952000	-1.1439986837183	-46.1026322512172	-54.9125809186477	-19.6685701637178	-54.4877741313564	2.45073496215774	-1.1898036791552	-44.1008284819431	
26201500	-0.927362773614971	-48.4700449981548	-54.444631082015	-58.6567147933575	-53.9641073550407	-57.9573631769535	-1.0157878523312	-46.3084006948631	
26451000	-0.524436992374541	-48.6737458909829	-53.6018821248973	-108.707082495947	-52.8875113701008	-101.004306910655	-0.615162762729249	-46.8833290284875	
26700500	-0.256528106149766	-47.1486916901506	-53.3943168333116	-162.448544262473	-53.1915161985216	-148.308746179225	-0.332448915509464	-45.796971418506	
26950000	-0.32906089359565	-45.4489717372036	-53.6870187052165	153.264321634613	-53.8382335199459	159.820877592629	-0.379775522990613	-44.2989546760018	
27199500	-0.682029315138906	-45.2225373702506	-54.8758553097808	108.045110698185	-54.9408638619837	117.794309302773	-0.715801628112653	-43.783722351038	
27449000	-1.05126073292759	-47.13146240564	-55.2900887459379	66.8456863356935	-55.0292805976854	76.8429491283183	-1.08684651027216	-45.1775720461803	
27698500	-1.11669600400351	-50.2114839071959	-56.9295567393267	21.1111429507627	-56.8603295086071	35.860243135463	-1.18751740962371	-47.786767284946	
27948000	-0.814526592243693	-52.1345863528196	-57.351403067483	-32.6218009392426	-58.1327753089022	-20.7357620778593	-0.91482459073377	-49.751995845475	
28197500	-0.439261831005011	-51.7149953418377	-61.0637523156831	-86.7380404598734	-59.4212014314775	-64.1333959490944	-0.539114947355689	-49.7691837051972	
28447000	-0.291439780315414	-49.8140100633166	-64.8883901528616	-142.815064369294	-63.1198120249687	-95.7942670207987	-0.367022627459733	-48.2173482916775	
28696500	-0.489664686077717	-48.2669808129148	-65.6298826035738	159.535233157528	-64.3166610312921	-152.121984779728	-0.540325896046133	-46.5503321264782	
28946000	-0.90342410267358	-48.5453652209976	-68.2879469400408	122.575083453593	-65.9338392075219	156.872543168562	-0.926851720512543	-46.3116766069285	
29195500	-1.22844234647586	-51.016262950812	-67.3211069049163	81.9445711011728	-64.0022398624331	131.201626556938	-1.24279723811986	-48.1435573216157	
29445000	-1.17828786202889	-54.1137217691562	-65.6609260914358	54.4908701699798	-62.5395261091983	81.6618574753417	-1.20715664297462	-50.9317186928201	
29694500	-0.822490789005842	-55.3662170920089	-63.4721655432713	22.0651703260353	-59.4634932870792	37.7005981720071	-0.850016481733543	-52.5964578653046	
29944000	-0.472936385214617	-54.2907418652276	-62.2150695618512	-11.4990833119799	-58.8857244059269	-9.76783978974638	-0.478610454542442	-52.202716558156	
30193500	-0.409950154000528	-52.1489700256789	-60.0527743121707	-61.1691002429678	-57.7939634975646	-53.9131436404661	-0.398156162784454	-50.5546235429141	
30443000	-0.673227943680662	-50.8235809235458	-59.6104491183647	-105.496537932271	-57.7572410089868	-101.941228408738	-0.670053516897613	-49.1648572136919	
30692500	-1.08823495181086	-51.6887255736736	-59.8465994206187	-163.346395577291	-57.6641230333254	-148.388126913247	-1.10217050599014	-49.4478236316247	
30942000	-1.31438474390453	-54.5109946768601	-62.8509805339924	134.078679964276	-58.8251106751382	170.660204185525	-1.36015311048435	-51.6115910407882	
31191500	-1.13451092958326	-57.2215340798353	-61.9337675587133	92.8278375767021	-60.6596641820161	109.190783374012	-1.22436268468871	-54.131442375131	
31441000	-0.731614718988577	-57.7759582898941	-61.5422489957483	14.1354499093794	-61.721557595677	58.632149607647	-0.806323070676266	-55.0612202055687	
31690500	-0.447530541430152	-56.252935391839	-63.7036043144383	-41.816816097567	-61.747435577239	-10.5423694069559	-0.458379130611227	-53.9944571717802	
31940000	-0.504388225729721	-54.2429912870617	-63.3953741355603	-127.199468432674	-67.7443998074554	-84.1366200933052	-0.452902719181009	-52.1189035095244	
32189500	-0.876924534358042	-53.6007747476628	-64.087105922106	174.944973769457	-64.0727967463109	-133.368757540979	-0.784731947423523	-51.0747315581517	
32439000	-1.31902822229838	-55.3386421358391	-66.7466727491662	121.334553356289	-69.5672219833515	-175.846335727444	-1.22381630984472	-52.0488265850942	
32688500	-1.46302067958636	-58.6504839786079	-65.4795081210911	60.4348459896404	-72.8868561019874	152.519473229261	-1.42942325988365	-54.8900986788642	
32938000	-1.18618582192843	-61.0434490979129	-68.3331714405876	-13.372639901028	-70.7073286083267	93.220087200243	-1.21246757092612	-57.5457485254125	
33187500	-0.765500896542856	-60.8437672302236	-79.8521936412312	-55.4789404555137	-71.852395067138	129.169292518925	-0.778487277345317	-58.1876774510639	
33437000	-0.541653833609851	-58.7463218665328	-71.0644296478968	-178.864059834093	-66.8530285687344	115.464638849893	-0.491988662491278	-56.8625238653711	
