!Keysight Technologies N9923A: A.12.45
!Date: Saturday, 02 August 2025 18:57:15
!Timezone: (UTC+08:00) Kuala Lumpur, Singapore
!Model: N9923A
!Serial: MY61181427
!GPS Latitude: 
!GPS Longitude: 
!GPS TimeStamp: 0001-01-01 00:00:00Z
!GPS Seconds Since Last Read: 0
!CHECKSUM:0379654130
!Correction: S11(ON U)S21(ON U)S12(ON U)S22(ON U)
!S2P File: Measurements:S11,S21,S12,S22:
# Hz S DB R 50
2000000	-0.0668153929153392	-3.01574257861495	-68.3079187089126	-81.6754998188535	-66.3209799401174	-70.2650120618237	-0.0892146847726162	-2.99654775972417	
2249500	-0.288428396050488	-3.71183760454213	-71.844689190651	-65.5067511212269	-72.6157885884927	-81.4788805007584	-0.293423796094984	-3.68769162984155	
2499000	-0.386072848954317	-5.08046584666499	-68.6050512559633	-97.871768049843	-70.0009194008092	-120.978656110119	-0.378406015998009	-4.97430326140688	
2748500	-0.275124402053699	-6.40447468673338	-68.2152344806538	-104.710149509822	-76.3593826564932	-42.4095180023528	-0.265821859195774	-6.21153411282335	
2998000	-0.046288073748954	-6.95337639014507	-68.6669625561106	-86.1842594669938	-63.0359289701243	-64.6018076469481	-0.0525772089082585	-6.73732939075006	
3247500	0.0968339095556855	-6.73657603952815	-64.0659881201638	-111.253118951368	-64.8785609584133	-105.372865701899	0.0855521385322738	-6.51882371191922	
3497000	0.0290844009575732	-6.44835929083739	-53.3092316915226	-137.04018325155	-54.0405142717931	-131.718756523431	0.0404614788797696	-6.15287422574937	
3746500	-0.162021570556176	-6.03254790150746	-55.172678272788	122.047733881477	-56.5015692537224	119.963787946086	-0.153234246318391	-6.179905492615	
3996000	-0.354139604406782	-7.14128142514608	-63.2177356753505	116.023971970765	-60.5656625385122	125.534450353917	-0.345576610532019	-7.12514609950079	
4245500	-0.388500110611768	-8.73895665502795	-65.8616519833305	79.345425233446	-63.6155978676218	90.6811283903174	-0.370209500100313	-8.47717252954349	
4495000	-0.231357691270464	-10.0125720209301	-64.7688076669522	142.296604363648	-64.3636824726102	119.008631307924	-0.205547314269118	-9.59360722046068	
4744500	-0.0525905750730352	-9.94216521339366	-52.2657137623725	119.787018515294	-51.958971213698	113.077195467491	0.00639203407575255	-9.82315597004352	
4994000	0.102055927342606	-9.4633495767467	-51.6785579006724	79.3169619467366	-51.7197289574799	77.7171987356421	0.100506339978306	-9.45842239396375	
5243500	-0.00453718546000415	-9.22394712367598	-48.9610310470905	63.5835742518758	-48.930949781293	63.4984005192397	-0.0107894200937752	-9.21770006042849	
5493000	-0.278210516309733	-9.85115956562462	-42.2254892478538	43.3606732127246	-41.947205888651	42.1992525599762	-0.256639020171194	-9.72352085898846	
5742500	-0.545683305146418	-9.81429119592621	-34.4326341006783	-54.4676124620727	-34.4555311103224	-55.905652767528	-0.499396020254446	-10.0871535664826	
5992000	-0.522632561011294	-11.7988890127619	-41.1612475766068	-164.469383612309	-41.3474899069941	-166.772883758362	-0.384907572016713	-11.4568206582382	
6241500	-0.16987270175679	-12.5272726068298	-48.0694123222497	-98.4855951372069	-48.0013187912696	-99.394079544535	-0.12458135034282	-12.8597434800585	
6491000	0.0663699933102348	-12.7140269511871	-45.345498557807	-111.710329150172	-45.2360924611428	-110.34899759201	0.0244486243639942	-13.1075741870922	
6740500	0.0983639544854247	-12.3512208408296	-41.0711512144838	-128.548731241266	-41.1637560265375	-128.347385547115	-0.00665058401459356	-13.058119598104	
6990000	-0.114129958973863	-12.2385576460438	-34.946389053912	-166.543342000729	-34.9617796335361	-166.84838449954	-0.409997586292518	-12.8555939061512	
7239500	-0.373406337752345	-12.3806657964315	-33.563272176288	118.978492154778	-33.5599273459238	118.739413436519	-0.562762624489374	-10.7589573740459	
7489000	-0.474763482271627	-14.1158191802894	-37.2714302932749	77.7421457123877	-37.2609729142038	77.9501595823604	-0.484674514328269	-13.1716584380418	
7738500	-0.446426508962324	-15.5552474012069	-33.5218566768721	53.1448079456807	-33.3952939488011	52.7983155785222	-0.511437217295359	-14.5292880817961	
7988000	-0.231815716145859	-15.5826367345755	-34.3347020560097	-9.44233862241268	-34.2254445259451	-9.90567737177518	-0.332871083133323	-14.3819117663168	
8237500	0.0240782636837307	-15.1285487781574	-38.6468153320923	-50.2879072048994	-38.5583647377794	-50.5263956664513	-0.0322061212168592	-13.7941606681348	
8487000	0.0290675376373623	-14.6919599833613	-41.5023476670075	-71.5412665662366	-41.5126142798168	-71.8521437289798	0.0150385730983638	-13.4906166164276	
8736500	-0.174442311978249	-14.7087541649097	-42.5740337824414	-87.5108478050205	-42.6099629504395	-89.1642810562969	-0.146593832735253	-13.6609351417226	
8986000	-0.413857136990375	-15.7114863807805	-42.6270453570119	-106.496736489487	-42.6628904284327	-107.417284137454	-0.352617346882517	-14.7574075175868	
9235500	-0.493672077474462	-17.3921695165463	-42.0255968677117	-128.717867018671	-41.8381822299996	-129.164329257735	-0.416390396359414	-16.4894874926779	
9485000	-0.364845558961796	-18.706077535927	-40.7983270504261	-157.454128343284	-40.719314637053	-158.505200634201	-0.291559759728252	-17.940621459554	
9734500	-0.12402120209535	-18.8053413338688	-40.0044725165637	165.692211842505	-40.0538283613731	163.843941086039	-0.0847474787139704	-18.2723421554092	
9984000	0.044173100443309	-18.2509690785326	-40.6288150606009	130.132661478637	-40.8606170300275	129.738951902146	0.0405532131658377	-17.7552700625325	
10233500	-0.0203230356162795	-17.967455199546	-41.3499030815056	103.851670038084	-41.6683350383974	103.84483457506	-0.0246734658262222	-17.3427599936635	
10483000	-0.271281848303151	-18.63964970544	-41.0197672613794	80.9205635942752	-41.1767229076062	79.9856753612013	-0.24459458431488	-17.7081376409471	
10732500	-0.556401410038421	-20.5286637437787	-38.6612668775287	50.5322460545208	-38.8063653939466	49.1394152522829	-0.45903760649033	-19.1217217988325	
10982000	-0.79724271562045	-22.1125229876423	-36.8390669547252	2.60821709229678	-36.9895030580244	0.973776773742476	-0.492669751597858	-20.463842633388	
11231500	-0.573624073085925	-21.0692383909508	-36.8052233149183	-61.3527190261273	-36.8835979972258	-61.9199454862958	-0.281639590926713	-21.4404952155593	
11481000	-0.200787688158519	-21.0668429050538	-40.8486870116758	-118.842541495999	-40.9493384580319	-120.723152226721	-0.0374231929861118	-21.4887885146527	
11730500	-0.0412899347967415	-20.0770051893265	-48.1508223731514	-111.741719155786	-48.3727531783381	-113.023359069437	0.0614023935555602	-21.2008645971172	
11980000	-0.174478699206391	-19.9390960570986	-44.5943679204401	164.5490022208	-44.8689928866266	161.55409585253	-0.111465924683933	-20.7067906914551	
12229500	-0.354831747629049	-20.6831874867318	-73.1713461272253	-160.158206374907	-78.6841167971573	-125.498219258782	-0.298015375222829	-21.5793418198297	
12479000	-0.503376619761332	-22.6794031727038	-51.9379393830796	-107.928619729836	-51.4660838563948	-107.444798864359	-0.461013971218777	-23.4045383872686	
12728500	-0.422503128036954	-24.8244948107457	-44.5840893062175	-129.647863945809	-44.574188797539	-129.477230032516	-0.40809131372288	-25.5647293890237	
12978000	-0.251234199428718	-26.0984178667186	-36.7647386540689	-168.245461815658	-36.791088485358	-168.508483559955	-0.321880422361717	-27.1075095749756	
13227500	-0.102730637278863	-25.18260987833	-32.0150300726525	116.914102596447	-32.0269566645486	116.473962386958	-0.330363000047635	-25.6214896559325	
13477000	-0.0340272123299685	-24.7937476380585	-32.5170103767262	62.8308925785517	-32.4727070194246	61.2926620910102	-0.250095642742814	-24.7250136372152	
13726500	-0.312105399779132	-25.1872337635976	-30.9771051095564	18.2733161960881	-31.0276280466564	15.1317848932911	-0.575437376758712	-24.371801450425	
13976000	-0.694109790073259	-25.7415249487881	-29.9791433540051	-43.3175322620944	-30.4025856966353	-46.7201518993657	-0.806188478116595	-23.0945210587999	
14225500	-0.791257018613692	-27.666808628042	-31.9206628178397	-97.3392150366178	-32.323982947462	-98.7740620078861	-0.62792840005938	-24.6255764482854	
14475000	-0.914194260282015	-29.7221010320273	-32.6770933229543	-145.795574902144	-32.9913161756804	-146.593572483616	-0.425152197709704	-26.7839536619185	
14724500	-0.85159128887028	-26.6463790620655	-34.821908343989	149.716503187192	-35.2498489897252	148.970962114419	-0.157443298225632	-27.66429976056	
14974000	-0.255155700691314	-24.9419161046179	-40.9322290806746	99.1528493422632	-41.3184129905929	98.7267363846104	0.0153640321427936	-27.8464534098005	
15223500	-0.126587364630372	-24.9125164248207	-46.3206146321021	63.8941218124093	-46.6472146834773	63.5053739109495	-0.124871279412261	-28.0923482825537	
15473000	-0.296586259359808	-25.5534865988536	-54.9935419546389	28.3663353458631	-55.3483785402185	20.774725448948	-0.471050090850223	-26.2205811707895	
15722500	-0.505622710788514	-27.2654738664421	-58.6409581912919	-15.501332034484	-57.9844357557423	-26.3420205875455	-0.516591155386805	-29.0026421986335	
15972000	-0.53803074325302	-29.6260999460212	-52.9952239507463	-112.088112965416	-53.3650352174916	-111.026033112828	-0.678152887214718	-31.9532927363205	
16221500	-0.386329774323523	-31.5573832390601	-42.6315973645844	-171.478454229689	-42.5662737819018	-173.572456539184	-0.848492658567676	-33.827371249414	
16471000	-0.268552576587362	-31.8832277717781	-34.3310221148419	105.229495219152	-34.4503490231895	102.468572051825	-0.899205296708613	-30.7891356968036	
16720500	-0.211476337531883	-30.7310373430639	-32.7317496402952	18.0159490261137	-33.0368785115415	15.9997007287055	-0.601272888761113	-29.242032859397	
16970000	-0.365743901955222	-30.1331112753783	-33.4083617822702	-50.1877177274541	-33.53602294286	-53.3168250568683	-0.711266393357723	-27.4499217814138	
17219500	-0.745018510844496	-30.622492116581	-33.6405389263087	-109.312889903235	-33.7405205158267	-112.81323193528	-0.80005206829175	-27.0327071064425	
17469000	-1.11539101517361	-30.9272274982942	-33.1914708751002	-174.157338232505	-33.4619494891782	-179.672897109134	-0.91695584229101	-28.3751053865092	
17718500	-0.864588691096822	-31.4796143285371	-35.3123415043752	107.152471904176	-35.7943016913476	101.900994468718	-0.806409755998726	-29.5182421617386	
17968000	-0.658341580500222	-33.2209121828431	-44.3137820648798	28.2793659616103	-44.5913651745152	25.4554110644853	-0.415815847041566	-30.6219311314303	
18217500	-0.3777026352273	-31.6419349145063	-51.863413584384	126.391922453339	-51.6259989512631	126.462550876471	-0.0989992108922397	-31.218086338973	
18467000	-0.150008747517599	-30.8508774534452	-44.5329961036691	89.1893810095651	-44.4812371563913	88.3489586811195	-0.0237264404809044	-31.0944310390616	
18716500	-0.251077965584991	-31.0235547412864	-41.454505242158	59.7491155374877	-41.3705178187658	55.9841045797355	-0.194624406071972	-31.2835396941217	
18966000	-0.500751697286968	-32.3515624695499	-38.1353445442498	30.1069705444327	-38.0918565308661	24.4417027664488	-0.513108029041309	-32.4417554124555	
19215500	-0.694407595390947	-34.5299306511684	-34.2946401309231	-9.01335194689786	-34.6648441467816	-17.7840188144393	-0.793689799084756	-34.0941863176374	
19465000	-0.614821172031993	-36.1544024991522	-32.3947518106703	-60.6410372283209	-33.4497164533161	-66.402800487995	-0.736805800539753	-34.7944767249893	
19714500	-0.338086990010224	-37.2227128049857	-32.3750917983532	-104.078735801916	-33.2346200845372	-106.113560684492	-0.393081614231394	-35.3122347019312	
19964000	-0.256695789472493	-37.4029089446479	-31.6259168444296	-140.611583195881	-32.2299869006208	-141.156692342565	-0.174814530985851	-35.3847304010474	
20213500	-0.53867997224895	-36.2156714172166	-29.8703022437493	176.341612248194	-30.3666082698253	175.754810300014	-0.271922054442221	-35.0376455611474	
20463000	-0.783891480572325	-34.2722238172253	-29.2988743254241	120.574600530552	-29.6262446664447	119.671838843302	-0.605981627589373	-34.2653971390593	
20712500	-0.931414599681446	-35.6919777019777	-31.1433508472757	63.6379444522576	-31.3952477299193	60.8828459813775	-0.806974081857929	-34.0986618654512	
20962000	-1.14524945740433	-37.3932288092361	-34.9800697209311	14.4205103201808	-35.5363399995345	10.121038537109	-0.736795357436506	-35.5729541935893	
21211500	-0.924885586228381	-37.8444228762909	-39.6484643813753	-18.5127663662944	-40.310094234647	-21.0487238611573	-0.476343277443976	-37.4674787632658	
21461000	-0.535009721006053	-37.8199336901297	-43.3848241025359	-40.7861079758217	-43.8058747906229	-43.0598078556277	-0.176888702923703	-38.3383307641351	
21710500	-0.31206833451011	-37.0336731906172	-45.7594440723104	-61.5589021960809	-46.2819698785787	-63.7220284210371	-0.015232147421824	-38.2295487371469	
21960000	-0.346082971532488	-36.2572326465892	-47.7896062133112	-80.1848078087026	-48.9808353067713	-84.9937382481225	-0.0947442127048256	-37.9857075436613	
22209500	-0.557057259697777	-36.5125677984257	-49.3651503580857	-94.8915425679633	-51.6088353945169	-101.261049829434	-0.346909164891793	-38.5846880981333	
22459000	-0.735772222837787	-38.192500094894	-51.2747418075879	-113.414881498599	-52.9089546872224	-111.054330195755	-0.571901398826982	-40.3772744891696	
22708500	-0.699945946108295	-40.5614855911536	-52.8024751059765	-129.962740910196	-54.139809781425	-121.831417533058	-0.609941525521039	-42.8280889361803	
22958000	-0.465585284919207	-42.3417034668028	-55.8537493453205	-137.609229231534	-57.3023434221591	-127.663370295084	-0.465971352704287	-44.7605414046461	
23207500	-0.242824484226917	-42.9088722866729	-51.5852330734412	-86.3578362056002	-52.1009608220954	-81.9699489350515	-0.364753290834401	-45.5441873620598	
23457000	-0.243036722962817	-42.3422666367141	-41.2384899248148	-138.696278126258	-42.8303442787525	-135.618978756798	-0.505382440451557	-45.3929547762367	
23706500	-0.494302373413445	-42.1727971595102	-38.307090399438	164.596532526627	-39.2571416010372	171.590752451117	-1.2766298933713	-44.4099732832425	
23956000	-0.921848540081664	-42.9967412327064	-38.4683313514452	98.1014892236808	-38.6657171276114	104.917959706046	-1.45387491614242	-37.0018150458363	
24205500	-1.28584448006845	-44.4484635011766	-42.3170968055804	68.8323961932678	-42.1213894507694	67.88638626024	-0.797562379919476	-40.2582148292467	
24455000	-1.31093119472245	-45.2485371595398	-41.3953868915205	52.9266899105282	-42.4110724362984	48.7563598140961	-0.650353279162298	-44.7180715634035	
24704500	-1.00732425604177	-45.1516813980246	-39.3274811679602	22.0074741725365	-40.7813723619824	22.3495842028689	-0.499594986500602	-47.2666500329985	
24954000	-0.754620061892499	-44.2212587729408	-37.9490732907372	-10.5954199879728	-39.3372050759744	-9.03528593649392	-0.557741935535543	-48.3143936335011	
25203500	-0.768380752100387	-42.5086957525999	-36.1135690107768	-48.9352639589216	-37.6074580474814	-45.1666473090287	-0.987785889587436	-47.2483094971137	
25453000	-0.936619457593589	-41.0340169698032	-34.9708340309984	-93.8343391428674	-36.8168460721984	-86.39491273847	-1.5650850513747	-44.4624212488386	
25702500	-1.08820440260567	-41.3673927440174	-35.366186947905	-138.710459257768	-36.8533618282837	-128.799811312573	-1.88969636969115	-41.8202173193818	
25952000	-1.07761710163409	-43.4158829666025	-36.9295663814412	-179.121609931608	-37.7595513892358	-165.109303555883	-1.76043452955609	-41.2717475112243	
26201500	-0.842142454086217	-45.6685525261264	-38.6496306959618	150.405758008842	-38.9342772264628	165.352717121282	-1.31129519932292	-42.1977296150188	
26451000	-0.543849868702112	-46.7153435479549	-39.4593496067248	125.850057370682	-39.4071584013769	138.23471825305	-0.782169431540809	-42.9338448672193	
26700500	-0.413738862745613	-46.2635071357672	-39.5062396745139	99.1216924392503	-39.0687133940119	110.227948415839	-0.411277514452699	-42.7927929381799	
26950000	-0.544831018792963	-44.8784435283284	-39.8925576664403	67.7036987265876	-39.1700244475154	78.5841934252518	-0.322524715730692	-42.4266743454964	
27199500	-0.760289949888744	-43.9694119765794	-41.1767419929169	36.7786464162253	-40.0191504915855	46.844280227153	-0.470518450910769	-42.7605521152744	
27449000	-0.894770307705057	-44.9844739114418	-42.3690129137193	11.8345223835486	-41.4454549506725	22.0975812645029	-0.674833817701643	-44.3887118046337	
27698500	-0.839979359373976	-47.3846003535858	-43.6463318544274	-5.04494811249793	-41.962893038387	2.0734043188275	-0.712640910771762	-46.7802371992114	
27948000	-0.572815421403092	-49.5031343252036	-43.2093346048044	-19.6292781857436	-41.5240798277931	-17.8836229447502	-0.53262087451672	-48.7415992182443	
28197500	-0.298513319610803	-50.26289885434	-42.2298564562023	-45.3379032104888	-40.2717786530037	-42.7662239801467	-0.280478326478828	-49.2050052389446	
28447000	-0.226506987876129	-49.8630505164303	-42.1688160899295	-73.534075139863	-39.9028733725535	-73.4161886165317	-0.136204852370502	-48.7513851528003	
28696500	-0.458277243020498	-49.4842525449724	-41.466160739153	-99.0396033046079	-39.4076516231914	-105.081063229658	-0.25767221526191	-48.4124570394839	
28946000	-0.882283477606848	-49.7788822619793	-40.4810122417856	-133.244596568963	-39.0108095750694	-141.875765192832	-0.558044106613094	-49.0166937000381	
29195500	-1.2127690012956	-50.7306855428243	-41.1906557248883	-178.33072625098	-39.9424431247833	171.473156143454	-0.815537931443825	-50.4847788018719	
29445000	-1.15623634238076	-52.179290652204	-49.9025951063151	146.905036170382	-45.852177326482	132.563777263965	-0.770300331437336	-52.6808340442991	
29694500	-0.89698487173808	-53.1487998550783	-46.9668679874327	-167.518914616564	-49.8958154395655	163.35647626926	-0.579685117282548	-54.5866609481314	
29944000	-0.677262033936389	-52.4392361892455	-43.8636613698196	155.116312759845	-46.8389594021687	143.15532735595	-0.413265216116201	-54.0929795047663	
30193500	-0.623748714848717	-50.53469776194	-41.2703875554848	132.680721625663	-43.5216773876529	132.261039339632	-0.306364767937704	-54.2757852801595	
30443000	-0.717309303263161	-49.1795876571358	-39.7972569054461	95.5888831152603	-41.2523479614755	96.9719561543311	-0.679217994911764	-54.8871695762949	
30692500	-0.886280275443785	-49.7476050482729	-39.5436821620728	60.7428361033968	-40.6786833100427	64.7170339348069	-1.1958381983229	-56.3251731828729	
30942000	-0.951260517362763	-51.9551060791559	-38.64909213446	25.9095289642822	-39.3311214045471	30.5769579582572	-1.90897565761491	-58.3780096832914	
31191500	-0.784930330309564	-54.3483906355073	-38.2988828032227	-15.9062205313485	-38.7182549956766	-10.5823312493035	-2.38018835783855	-56.7664031109877	
31441000	-0.473744320104122	-55.5800869902815	-39.2608457039692	-56.1008657597038	-39.2926609709338	-52.4839952422708	-1.94886441859184	-52.1098066832527	
31690500	-0.259846668616977	-55.540392739491	-40.6478071547023	-91.4675936065453	-40.6220064489316	-90.4889071320938	-1.1428503707397	-49.4877227106838	
31940000	-0.327041957411317	-55.1025093452935	-42.1885007917409	-123.560977597364	-42.0174040475009	-123.07570337524	-0.723524695131507	-48.6662548188515	
32189500	-0.641611026583037	-55.4785046667715	-43.0154412346206	-150.729468937906	-42.9027208319045	-151.551888954112	-0.706009157377032	-49.0005805583583	
32439000	-1.01457959468157	-57.2497223629536	-43.0698226936329	179.79920080452	-43.8348581172257	176.545618276298	-0.857283147835463	-50.6427328604373	
32688500	-1.21153319620536	-59.8750764439334	-43.3293562351206	147.831390023011	-44.2726779750237	144.354531255444	-0.900512441433303	-53.322245387006	
32938000	-1.1472297085127	-61.8022933943685	-43.5634812579988	111.841098374584	-44.4288935777236	113.587650433768	-0.712245002170695	-55.7521456562128	
33187500	-1.00281379417302	-61.7576636070163	-43.8412399033226	76.8540563546252	-44.7691458258678	81.1589900554163	-0.399577310185858	-56.9387067708617	
33437000	-0.985314260305985	-59.8394102483166	-45.2268493656157	44.3678760960425	-45.5533532594973	46.3626765587309	-0.203723773770609	-56.8612606481923	
