!Keysight Technologies N9923A: A.12.45
!Date: Saturday, 02 August 2025 19:07:54
!Timezone: (UTC+08:00) Kuala Lumpur, Singapore
!Model: N9923A
!Serial: MY61181427
!GPS Latitude: 
!GPS Longitude: 
!GPS TimeStamp: 0001-01-01 00:00:00Z
!GPS Seconds Since Last Read: 0
!CHECKSUM:1391438201
!Correction: S11(ON U)S21(ON U)S12(ON U)S22(ON U)
!S2P File: Measurements:S11,S21,S12,S22:
# Hz S DB R 50
2000000	-0.0655748419005579	-2.93517841292134	-87.1527767232665	-61.6319081564942	-76.6805181037247	-99.3552043532541	-0.0963413173284393	-2.97077777275556	
2249500	-0.310674735054053	-3.65204291457343	-71.77978296282	-74.7125634405976	-65.539337211622	-118.300200820539	-0.325854883438248	-3.66550822961422	
2499000	-0.41738917200442	-5.0916749395686	-76.3431935729401	-152.78535655009	-71.9484403232068	14.0037157015275	-0.421650659786006	-4.97816518879341	
2748500	-0.29357301271413	-6.47772586632613	-78.9859899232836	-85.479362732338	-76.3766515092315	-30.7186872835628	-0.291643625355818	-6.28403032712795	
2998000	-0.0416041272866509	-7.03936135379818	-66.0783451961639	-121.986104217808	-70.5117064055447	-102.064734464295	-0.0533696870829156	-6.75730507279093	
3247500	0.10244503630622	-6.84685651300446	-56.0398521634239	-131.961038735809	-56.7316433685946	-135.251655782452	0.098994984839103	-6.41017155781432	
3497000	0.0470278538658598	-5.69735570562637	-51.2342252960145	120.19243961209	-51.4934318175315	122.967575098623	0.0558405914551414	-5.84656313811567	
3746500	-0.147513162626826	-5.91326362260726	-55.367645831699	84.9634315906703	-55.152935235933	90.4955296922228	-0.16270537702922	-5.90165799135501	
3996000	-0.374478362985771	-7.06323459950467	-55.7952106418884	77.418561008041	-54.9733708393179	78.4279745362004	-0.393740811822188	-6.96372077035859	
4245500	-0.428624810167788	-8.76612455178364	-52.757632074395	43.352404711176	-52.6503065772301	41.9942218094795	-0.434621899831268	-8.5186067897398	
4495000	-0.296713618086267	-9.71567794904997	-49.8591478866296	21.0701930877348	-49.8194845862833	16.558755887164	-0.330110865374679	-9.91233545944584	
4744500	0.00347300254546992	-9.70921814509285	-45.0912758574422	-36.4465553700897	-44.9899022660596	-34.5966829562413	-0.176606107538741	-9.03676933598803	
4994000	0.136313039402238	-9.26937034851972	-46.3290988982759	-81.7300373649549	-46.4515296187396	-81.8031158992011	0.0588218584281189	-8.24930153238442	
5243500	0.0141221363356365	-8.90601442684359	-45.9152138504172	-107.335101052799	-45.7307066109832	-107.190641066173	-0.0202623887770008	-8.02271362225959	
5493000	-0.300366598929633	-9.31240624452856	-41.9380190018622	-145.581885682861	-41.7353710085901	-146.685073088593	-0.282161007837602	-8.52427237242571	
5742500	-0.483220871796459	-9.93743027215293	-42.7233350803908	135.331094159912	-42.8484074646851	134.344259361726	-0.465273374209739	-9.49036208623591	
5992000	-0.393669964267185	-11.764579721252	-48.1162782839432	105.024219397034	-48.3134120901116	100.750601751155	-0.395780707814115	-11.2132242718346	
6241500	-0.163078070984421	-12.8849952230427	-50.0462255040888	90.2520038870358	-50.4924067651012	89.8207894173377	-0.175367912079743	-12.2798747666285	
6491000	0.0811550012582931	-12.9795003527952	-50.1389683402491	81.3831277222007	-50.2016430980358	80.7419732334978	0.0627514667349915	-12.362375544359	
6740500	0.107853500963333	-12.597850879394	-48.3198624480775	68.2193025141374	-48.1582815641032	69.042637561272	0.105323224442771	-11.912422003289	
6990000	-0.158091703320383	-12.7028141942218	-43.6543854022468	45.0466907389112	-43.8144180742368	43.8698204181842	-0.0707067681963068	-11.7773280039479	
7239500	-0.602034025293356	-12.0561590227279	-39.8715593168136	-22.2286989639733	-39.9104193663381	-22.2426112099978	-0.34810608125327	-12.4325165706885	
7489000	-0.542870472745542	-13.3691831481328	-43.6182825103493	-81.0859983036018	-43.7904160016127	-80.7335556710844	-0.468346847967444	-14.0234900050923	
7738500	-0.38385391754502	-15.2118096704215	-47.6477097153539	-85.541879708142	-47.8458299384751	-86.8348044269878	-0.348704038013095	-15.7051626679596	
7988000	-0.101832605312271	-16.1751319006871	-47.3215207389554	-97.7632092666501	-47.3074747464385	-99.0810800112574	-0.100080210638389	-16.5386028647157	
8237500	0.0857643877947358	-16.0617289299948	-45.0526592863943	-114.973278428459	-45.2181927897814	-114.772388803141	0.0689483378123772	-16.4469555315322	
8487000	0.0234107672352947	-15.602681635972	-41.1170984154715	-137.639382279167	-41.2029995237734	-137.585522635903	-0.00959298905910731	-16.1571979528915	
8736500	-0.276236788738144	-15.3396831090027	-36.4481444986117	177.470790767519	-36.5306630785788	177.189739110574	-0.381692251720753	-16.1568023362064	
8986000	-0.497120670790677	-15.8379422494716	-35.2699773129991	114.632913084561	-35.407283501896	115.036822874977	-0.705298931765923	-15.9720828785619	
9235500	-0.523226852557059	-17.7895151863181	-36.3919921544727	69.3546697302052	-36.3668109541981	68.5978189201728	-0.719029064612418	-17.2075856754498	
9485000	-0.368404053823577	-19.4477319748529	-36.4199082054562	28.6985218096063	-36.4709069391843	28.539556913875	-0.556966562259879	-18.3512872141197	
9734500	-0.142044376303742	-19.6734229211351	-36.4343898319374	-16.8110903255662	-36.4186160778107	-16.2099922098253	-0.270154610503347	-18.0053989336164	
9984000	-0.0189586286073584	-18.9124231534984	-37.4462427152756	-61.1917755189158	-37.4749065792833	-61.2253515121423	-0.0287854091106566	-17.1269431663168	
10233500	-0.154619628451501	-18.2468511909881	-38.3156933702936	-99.6386094645836	-38.2796532940393	-99.8759859636766	-0.0472254364536019	-16.7236284375395	
10483000	-0.4996520217255	-18.0627499511418	-38.5813457926564	-142.567802562759	-38.4636968689329	-142.320885655932	-0.284046296976064	-17.1293465277871	
10732500	-0.690708217636994	-18.4562176817009	-40.2282222888103	169.623491438929	-40.2119179752565	169.497360525839	-0.496444044085741	-18.4504594277988	
10982000	-0.562973886908923	-20.1374807641565	-43.416293813323	131.834646400777	-43.6209604633638	131.506268241328	-0.471036796488343	-20.2950018019603	
11231500	-0.261796855289752	-21.6135188433734	-45.6752092058614	105.640672973219	-45.7517564849849	105.046783946424	-0.237515539340316	-21.6722576174577	
11481000	0.0199242837800332	-21.9701795172761	-47.6174725335769	78.7106133427219	-47.6132729868488	77.7881699615369	0.0089933924717873	-22.0082076360153	
11730500	0.0864468986743596	-21.5364981153097	-56.5238723233766	76.2379008318904	-57.3940105991826	75.5788389585718	0.0358547674008339	-21.9690038350962	
11980000	-0.129442927137666	-21.4298237493449	-38.6522514198632	89.9109863452825	-38.7288573803567	89.8307603988268	-0.218592769689122	-20.1658184056363	
12229500	-0.487442500609247	-22.4314463677969	-37.0586787892224	32.2896534311043	-37.038296018775	31.7393722350424	-0.427666810613541	-21.4779229094906	
12479000	-0.821719009451346	-23.715367042398	-34.2440830182443	-22.5741002411449	-34.2705381599786	-22.2569561125883	-0.694672716676929	-23.1637548821986	
12728500	-0.695989907996297	-24.7535065254468	-33.5746742199074	-79.4786205251056	-33.5800170622629	-79.6249182533763	-0.609404479332373	-24.6862720504418	
12978000	-0.409027545461769	-25.744108985685	-32.9011838116653	-128.423568950695	-32.9298022052173	-128.593742679499	-0.382750100386575	-25.7602435782611	
13227500	-0.279542106811159	-24.9367946689827	-31.727631531413	174.957226020763	-31.7385580352718	174.908027613466	-0.275395884312014	-25.0359066213304	
13477000	-0.205715606673234	-23.0716878124867	-32.7083262981124	115.33107316565	-32.7851785695583	115.437498942359	-0.206514738097513	-23.3311744823375	
13726500	-0.324500579730802	-22.8702701773227	-34.2668183502503	69.5897393219077	-34.353303211954	69.1562711132741	-0.34392113870671	-23.157269351855	
13976000	-0.605863476729207	-24.0644795534526	-34.7065296744837	25.7868050475342	-34.6681296462755	25.7026450102217	-0.641450882991711	-24.1394301616266	
14225500	-0.714323392794953	-25.7891290986323	-35.4945331774469	-24.8181655433223	-35.5204490798008	-24.8134806222812	-0.746393522272743	-25.352560040904	
14475000	-0.495968244881391	-27.5013186698623	-37.9862160431727	-68.3586634812319	-38.1119410042711	-68.1848266502456	-0.497137859271598	-26.870436208521	
14724500	-0.175512811070833	-28.3776875563478	-40.0990822823708	-97.9753507833022	-40.1906923730128	-98.7511317948215	-0.166916050954016	-27.9105452881849	
14974000	-0.0105310874768755	-28.2631873894504	-41.088154194516	-125.151797283917	-41.0644393543011	-124.047684287996	-0.00408361528442332	-28.0328477940166	
15223500	-0.145353932754083	-28.0017116208867	-40.4202793352757	-152.870731682696	-40.4427550930426	-153.172745032418	-0.194483608618595	-28.0688143606389	
15473000	-0.547068959242172	-28.5184079856995	-41.1034841978586	162.536225753043	-41.3251186930751	162.806565993014	-0.828599127202646	-27.1682918339225	
15722500	-1.06984759099774	-29.6431895349371	-43.5607129205727	172.760320176754	-43.6227039004172	171.829202255899	-0.796525561114919	-25.6320012603364	
15972000	-1.24593616043562	-29.3483580337144	-37.6264269378463	136.584953283666	-37.5835222123632	135.819566645071	-0.641773539842808	-28.5448654409562	
16221500	-0.787501761985733	-29.2359962962298	-35.532573307018	88.2855897415375	-35.4956273820432	88.0364534259042	-0.442858423491159	-30.8116427686757	
16471000	-0.322112531864194	-29.5019733959497	-34.1825738253549	42.0510360619629	-34.175865429812	42.5642272974369	-0.280991693081531	-31.4508655666853	
16720500	-0.153004630978139	-28.8343856099826	-33.356655151458	-9.62281190944002	-33.3562198051779	-9.7819150419205	-0.309361825046338	-29.9987460287692	
16970000	-0.225783871647944	-28.1474310305523	-34.2560745822424	-60.1149097229733	-34.2255558119494	-60.5242504595159	-0.367505950598948	-28.2972359349529	
17219500	-0.462275386369273	-28.925111700814	-35.0232713210555	-101.161114407659	-35.0725220174155	-101.298707003889	-0.541688585793364	-28.7868073333166	
17469000	-0.69951283257788	-31.1204406927428	-34.4132376777086	-145.115866172622	-34.417637442152	-145.337098753717	-0.769523305718945	-30.8809497054	
17718500	-0.721620295129686	-32.8173495184597	-35.3564232487054	151.849021395216	-35.3461752113577	152.026175499885	-0.756026049829904	-32.701928055035	
17968000	-0.377405752318895	-33.8200820437432	-40.2337684292413	111.196895078615	-40.3146275619477	110.664840062537	-0.616315379125363	-35.0758430511243	
18217500	-0.105008281906791	-34.0651439087537	-40.5504264211324	86.0163030039357	-40.5180368142285	86.110317296151	-0.610239716126425	-31.6948846803558	
18467000	-0.119844852784219	-33.752712548409	-41.642604517553	51.0435162326449	-41.7287425167758	51.5075242925836	-0.192611693720466	-30.3649234167997	
18716500	-0.475295347241784	-33.7685803727181	-41.8284768046139	20.8158946290226	-41.9406393810002	19.9774248592233	-0.254859731382354	-30.5115964816293	
18966000	-1.03750639866183	-34.1557829003395	-41.0241745546575	-14.9190117574681	-41.3089253745834	-14.9194099915434	-0.506510045217238	-31.7183095806325	
19215500	-1.29357147434819	-34.011662165662	-40.9883370940329	-56.0718368638463	-41.0040575843158	-56.9212590121463	-0.643374927019941	-34.0164111978149	
19465000	-0.966613361038486	-34.6777377510421	-41.7904126747862	-94.5237557299002	-41.9846132221517	-93.8564722505056	-0.538600585414846	-36.3657812825009	
19714500	-0.514132102815539	-35.6352595604847	-42.5423203346324	-127.075740135311	-42.6343699199079	-126.986421445175	-0.284573198407209	-37.6735573243303	
19964000	-0.296428753850691	-35.538792719584	-42.564875272157	-161.562839333487	-42.7610573628282	-162.04885809771	-0.137860036530858	-37.6956089835581	
20213500	-0.385642480490674	-34.2884770569507	-43.5276255705407	161.387104604089	-43.2809819104724	160.756636012448	-0.266547483423451	-37.2684378066369	
20463000	-0.585786862468593	-33.6903937370987	-45.2821287865479	133.456350535627	-45.2976343629522	133.785808489379	-0.678999092795069	-37.3197685001874	
20712500	-0.797531121055628	-35.1229856321753	-45.4089965593287	117.513110137512	-45.3155740365291	117.465113814433	-1.19566367656112	-38.0704664172577	
20962000	-0.848323098255225	-37.7448126041016	-43.4076176098954	90.9569294060449	-43.2190830908504	89.3812623235314	-1.48977068138279	-38.5533486265322	
21211500	-0.673189006618241	-39.8423627485611	-41.9047759472356	53.1734146617123	-41.8225909698948	53.1332498680063	-1.28726331935307	-37.9833916401684	
21461000	-0.422119737000056	-40.2615047231622	-41.7363030885601	12.6135736982497	-41.9029803013378	12.266479712501	-0.778292761493908	-36.9218095443026	
21710500	-0.323943615279737	-39.2936474186772	-42.6071598378114	-25.231275739265	-42.605705610211	-25.3350621235901	-0.384825312765761	-35.8315466206887	
21960000	-0.494451016081896	-38.1675880766461	-43.5570533043637	-56.7606354310026	-43.4783263087328	-56.1833987442791	-0.310870129648473	-35.2049173957249	
22209500	-0.856483652229372	-37.9465569074643	-44.4497175130242	-83.5885166953008	-44.1155813071558	-84.5756732820335	-0.488478340330013	-35.7075759286048	
22459000	-1.1604365319134	-39.0045862942977	-45.0570873000498	-110.246937230715	-44.8169090541705	-111.231811202553	-0.677548102060254	-37.6656906193293	
22708500	-1.1825716484977	-40.4248036446384	-45.2824890125703	-134.631913821972	-45.3519544969379	-134.788538810531	-0.663290091257768	-40.3508259592569	
22958000	-0.871974449690823	-40.8708804706196	-45.4180672786072	-154.093046795524	-45.4652282484872	-153.459099443716	-0.427988739936083	-42.4089135550711	
23207500	-0.431222949426065	-40.444228176284	-42.6579603693344	-166.24989169514	-42.487608841616	-166.527600611381	-0.191997324712145	-43.1777482640839	
23457000	-0.300530340242404	-39.5946395935579	-39.8798680898281	149.575927743806	-39.8407188229679	149.793333584463	-0.188366335742164	-42.8754658755052	
23706500	-0.425039029667531	-38.8617914449034	-39.6245741292717	114.167400765491	-39.4452765806343	113.588639309648	-0.519816204355232	-42.8397948979327	
23956000	-0.691556242376848	-39.7571474309833	-38.6181648787805	79.9104397915016	-38.6612332822415	79.910414894421	-1.13777893358632	-43.2995036319013	
24205500	-0.884530279254192	-42.2038234714049	-37.7347701736702	40.6282782336632	-37.7087386447313	40.1209828015495	-1.65035417099535	-42.8817215798238	
24455000	-0.84616334816149	-44.823525220476	-37.8363522311695	0.173729783108565	-37.8140290876771	-0.509051742702531	-1.46556117802672	-42.0543776166904	
24704500	-0.634315407455553	-45.9034420229013	-38.3746168185846	-37.8431042263478	-38.5367301254164	-37.3467320768004	-0.869603058710391	-41.9457216913085	
24954000	-0.458397468358665	-45.0069545243125	-39.4531224387368	-71.8006226557116	-39.5376449239029	-72.7750926661222	-0.404248674951269	-41.8480817733328	
25203500	-0.468569002352776	-43.4605348262615	-40.3418401995125	-104.948195362689	-40.6343927920487	-103.026132124335	-0.255224844054558	-41.330380594078	
25453000	-0.70546025629914	-42.8787514777972	-41.2112994363593	-132.092893719699	-41.0480070819863	-130.928342266752	-0.409889675263304	-41.3812117085488	
25702500	-1.0634276032895	-43.8749520309777	-41.2975958308344	-159.839513420178	-41.6124884179088	-159.765947986874	-0.688791055516238	-42.7500301372457	
25952000	-1.27402507391003	-45.7202160199799	-41.9673520184202	169.936325726821	-41.9000881185714	168.050417067143	-0.818132191036563	-45.2990209685959	
26201500	-1.117221408859	-46.601785709896	-42.5035028194841	136.620424628964	-42.7049799270674	136.554137984127	-0.69093011023964	-47.7357805490685	
26451000	-0.664083461838368	-46.2485586232646	-43.3270985261344	109.409195184497	-43.450689330319	108.726014639038	-0.418558609133502	-48.8554801764325	
26700500	-0.311582643963335	-45.4375877577946	-44.1279271069345	82.6183882377568	-43.9192575543961	81.2579889050325	-0.276494924835128	-48.6275790723933	
26950000	-0.298170322958116	-44.7165338091199	-44.4973274870896	54.6748426613324	-44.6496039530623	55.2060124562147	-0.427126822410864	-47.9813369761496	
27199500	-0.554722227752964	-45.1602855066383	-44.659778722228	28.7252825277715	-45.0213430177582	28.1934338500936	-0.844328779395786	-47.9562179600047	
27449000	-0.861692246325093	-47.1002115051779	-44.8030802786228	1.00683174869761	-44.6324971540335	0.475029277880304	-1.30001923234074	-49.0277641824513	
27698500	-0.979900924485672	-49.8379224313999	-43.6535273060541	-26.7321691315745	-43.2655671091131	-28.0333112403199	-1.52283000581398	-50.4682990873434	
27948000	-0.843861770247669	-51.4477555351781	-41.7146586429078	-62.1262825528957	-41.4317828979285	-62.2911920366448	-1.42030901219626	-50.9902359743704	
28197500	-0.607369226169298	-50.8844896216352	-40.9035308570237	-114.245608938536	-40.8656875521264	-115.715463138242	-1.11075960951756	-49.1917985833531	
28447000	-0.469765576883798	-49.0132638579535	-42.0506818325382	-162.779286013374	-42.2491729635428	-163.108018520271	-0.764233557639309	-46.8841228727435	
28696500	-0.553554720721127	-47.6392638289238	-43.8007149838072	154.660540175797	-43.8354117512027	156.039976625412	-0.696186941463844	-45.4792514676808	
28946000	-0.805200437764231	-47.9525364754293	-45.1767894286552	121.388097244656	-45.1830880614432	122.194295211271	-0.847702577757638	-45.7030098603322	
29195500	-1.02072792989026	-50.092606832749	-45.7981782832967	84.6420114332131	-45.9920503296021	86.2867196608676	-1.00167475488859	-47.6073240942165	
29445000	-0.986384338252833	-52.8063778485033	-45.8886713082956	53.9528101112495	-45.8577042761139	54.0740234132167	-0.915608897119113	-50.3169191371591	
29694500	-0.739054322494112	-54.1433057527548	-46.2458780803442	17.7066788563743	-45.9545121421013	18.2687233697588	-0.616395952563063	-52.2335106810888	
29944000	-0.464817796627068	-53.6792688933343	-47.2083266081834	-7.560214263839	-47.0203205572953	-7.36144254848752	-0.312413199107695	-52.6641929825276	
30193500	-0.425495507635547	-52.5081579474515	-45.1620819897001	-32.7880213405739	-45.1875965811933	-32.45307824707	-0.274547921934939	-52.2196467233154	
30443000	-0.667730909463637	-51.8682091972353	-42.8353880056276	-72.6076072431556	-42.6728271178772	-73.9278143421924	-0.577873212575037	-51.7980218351874	
30692500	-1.04059295254923	-52.8533951574286	-41.5178049662337	-122.457195405513	-41.3416696491967	-123.863905736516	-0.973895765820006	-51.8735499476419	
30942000	-1.32960381505319	-55.191041214314	-42.7870999740861	-170.428413845987	-42.5575249406125	-172.497109069733	-1.11208677651872	-53.549224301167	
31191500	-1.33514254721782	-56.9691909548872	-44.5780482977516	148.900957419797	-44.2219775344849	147.591976315042	-0.983779077299422	-56.1386987658222	
31441000	-1.08689271530194	-56.6594421595493	-46.3244077945632	112.353626429232	-45.9062575937809	112.577922194835	-0.711673669822582	-57.6274867454797	
31690500	-0.799197671670464	-54.7502995607214	-47.9194473991042	82.4939692284796	-47.6878387624818	79.0524254678542	-0.547806876277974	-57.4790404647073	
31940000	-0.715564981699199	-52.9483336893142	-49.7135898378189	48.3670565359042	-49.7333741746132	47.7373783984611	-0.71005200224469	-56.3926395640388	
32189500	-0.899180829550882	-52.6290793870537	-52.9178315887609	17.4310353677526	-52.0437629422463	12.9048542670441	-1.14293666250231	-55.4436276592969	
32439000	-1.17210187612416	-54.2586397730404	-56.1280943426242	-14.1251390212002	-56.2607861813085	-25.1708774812693	-1.61651472495613	-55.282739457849	
32688500	-1.27405668446727	-56.9902656809189	-65.6960547023256	-21.4775930252498	-70.1910042513008	-60.3366921273786	-1.78293626066157	-55.9533876912173	
32938000	-1.07778547180834	-59.0266951584104	-60.1022710543347	46.0269496232919	-57.928267633601	79.4027439757382	-1.49954316711653	-56.6350568545096	
33187500	-0.753119187214493	-59.1220690672464	-54.3454091696002	33.4103190366232	-52.1805119563558	38.2025796004468	-0.98272160851159	-56.5788153352654	
33437000	-0.571181124422764	-57.771421603426	-50.6695492884295	5.44137294369307	-48.7585940781669	1.79256674196271	-0.603503792236128	-55.8373666760838	
