!Keysight Technologies N9923A: A.12.45
!Date: Saturday, 02 August 2025 19:02:59
!Timezone: (UTC+08:00) Kuala Lumpur, Singapore
!Model: N9923A
!Serial: MY61181427
!GPS Latitude: 
!GPS Longitude: 
!GPS TimeStamp: 0001-01-01 00:00:00Z
!GPS Seconds Since Last Read: 0
!CHECKSUM:1992652153
!Correction: S11(ON U)S21(ON U)S12(ON U)S22(ON U)
!S2P File: Measurements:S11,S21,S12,S22:
# Hz S DB R 50
2000000	-0.065002266114028	-2.98609946855437	-74.48530284867	-50.3559299195935	-70.9238599909703	-101.074731933156	-0.0923650028616438	-3.01140298001212	
2249500	-0.29972958279216	-3.70468995669546	-74.3598622991088	-34.4902813164349	-70.2305871032541	-60.2918329272266	-0.308734408748542	-3.70171116158505	
2499000	-0.403030296007361	-5.1023107306438	-69.5313946279135	-90.0531193452315	-72.1184426656077	-84.8667152074132	-0.39737272534616	-5.02332369437278	
2748500	-0.282374224928838	-6.47715717412949	-69.3852497597587	-114.032613492332	-68.1803141141919	-94.7933351320652	-0.278703391618883	-6.28441338064168	
2998000	-0.0435558543622132	-7.02774078542161	-64.9004798278765	-111.757327671245	-65.0430241218482	-98.680529298135	-0.0531354538377229	-6.78672008763557	
3247500	0.101936529603167	-6.8043195617058	-58.1323852967744	-112.864257538511	-58.3774285767464	-117.804895981431	0.0891910608895738	-6.52311185495263	
3497000	-0.0190956910334652	-6.02901315364354	-47.4381277621346	164.684969409305	-47.776276470971	166.71556383389	0.0359637353992447	-6.05479067827933	
3746500	-0.148983589866163	-6.00059232864206	-55.4209059437735	103.974285977478	-54.9633698750209	100.628766142892	-0.158742881091096	-6.10195991932554	
3996000	-0.359946565859813	-7.13208727117652	-56.4700014662024	101.26470131344	-57.4957521404522	93.5850188718488	-0.37116077253093	-7.08832561354166	
4245500	-0.409208595865921	-8.79645128683716	-58.3456523062698	75.2894387304847	-58.1794945183923	70.3514097189339	-0.388580748198982	-8.48044211982034	
4495000	-0.272095618925674	-10.063183152871	-57.2517843800929	96.3885427922209	-55.5735713759049	97.2904288492042	-0.225826884832145	-9.70967743755189	
4744500	-0.0138490812742395	-9.82674650240994	-47.0271304446544	64.1398395873974	-47.3249206813361	62.6632846448213	-0.0246323369519516	-10.063306594261	
4994000	0.0947566107924489	-9.47416575507754	-41.28159683118	22.7406098576434	-41.170775189731	22.1820809212986	-0.0201672986566125	-9.78212900284607	
5243500	-0.0224950675132295	-8.7628247659533	-38.1861141720041	-53.5589958651322	-38.0829259416048	-55.0682143642702	-0.164837949901463	-8.03531577009035	
5493000	-0.246818980316499	-9.18765683747566	-39.8620976872006	-99.6256307175521	-39.7318790107467	-100.080263967303	-0.28093631477897	-8.50089301481552	
5742500	-0.464358114222634	-10.6297067970154	-37.8451807246569	-135.172526791595	-37.7790968470348	-137.317668117288	-0.494821010883229	-10.1160242393435	
5992000	-0.448263146262915	-11.6563619519024	-37.8609213858577	149.249420189183	-38.26253906109	147.724258596838	-0.505299005455261	-10.6700665258235	
6241500	-0.164299924090163	-12.665237356809	-43.6900122108713	110.471771494301	-43.881611748657	108.534281557978	-0.200332770505568	-11.5592029100107	
6491000	0.0737956190610544	-12.7255942070206	-46.7551315369278	93.5518912160563	-46.9069919090537	93.4977900080612	0.0464027769711072	-11.7371881597409	
6740500	0.116004193431102	-12.2647028963622	-47.3602708447967	84.4413644580717	-47.7205723332591	83.5271588762296	0.0968017214792791	-11.3663502571797	
6990000	-0.0668292713550962	-12.1658574441716	-46.3510557371791	71.5741344039573	-46.4593813421794	71.0618154467585	-0.0599790434697257	-11.2554981704866	
7239500	-0.378762774317621	-13.1338812183995	-42.9405019193242	49.4328628903032	-42.9213760040925	50.6397530508032	-0.306814025102492	-12.0523646843018	
7489000	-0.660363499915845	-14.1409202896126	-38.8628561667935	-14.3244889021369	-39.0140400771498	-15.5761582319801	-0.484092063173266	-13.5101450555374	
7738500	-0.480791173712005	-14.7070783605905	-42.8802577123244	-49.5427478771985	-42.9644853461375	-52.152830791013	-0.334156758532381	-14.9004836174884	
7988000	-0.135262120903779	-15.5660217203889	-45.3516168409028	-75.0171699760899	-45.2912355988291	-74.8335953997506	-0.0899920524209407	-15.7248424471299	
8237500	0.0759688322578945	-15.5154175144969	-45.7094606006164	-89.9710687591206	-45.9375750903895	-91.7237496249941	0.0808564663200706	-15.6664074819877	
8487000	0.0456804332668962	-15.1211341764931	-43.8197488051491	-106.349913825638	-44.1761734425037	-106.322673260367	0.0398137028885925	-15.4120215154144	
8736500	-0.20519729096788	-15.2122087044752	-40.1396221032764	-132.641604101871	-40.33318107678	-132.703197416737	-0.22727866932255	-15.8355131593023	
8986000	-0.513919665902624	-15.9810167016895	-35.5432982415793	170.354110360035	-35.5510515294692	170.247807652022	-0.699196876937932	-16.6346510571532	
9235500	-0.524813113036572	-17.4437654480834	-37.3785336706958	94.9109627280213	-37.2581793071825	93.5882581812232	-0.688022168795355	-16.3529859466401	
9485000	-0.366657787405379	-19.086197290788	-40.9560000931211	44.1935098088406	-41.1407367046821	39.6888295456232	-0.397997451296658	-17.6954234158184	
9734500	-0.134656169491266	-19.2898844491241	-44.7337359934834	-4.52676330634048	-45.6710257007044	-11.5166923819882	-0.0857914564238638	-18.2162146267159	
9984000	0.0207106487933884	-18.6579584355953	-50.9309520258751	-51.4593067041085	-52.1487515067541	-56.0944031641318	0.0811256593355467	-18.024999529937	
10233500	-0.0633468340053124	-18.3149712224091	-58.1672569507801	-101.564027268158	-60.4877466647436	-108.387303681362	0.0043046769047476	-17.7770800932362	
10483000	-0.358014313768239	-19.0243402669565	-60.9034860269807	145.222783793349	-61.0907879560977	134.777149753421	-0.232108163561179	-18.2303123276871	
10732500	-0.766677373104621	-20.7611777844766	-52.0216895479649	67.9543720579249	-51.6999125662937	63.4215014562418	-0.433674201142157	-19.7337035677064	
10982000	-0.893199436997591	-19.8459543977437	-46.4387489196383	-10.2342657075784	-46.8008435195006	-11.6007080783051	-0.445055576930825	-21.6726862210736	
11231500	-0.339944558146745	-20.7535101860455	-47.3870390228955	-65.163266154797	-47.6197928154118	-65.0323901962078	-0.267549378766662	-23.0891672381249	
11481000	-0.0124304080605235	-21.4767704467113	-47.7698824079975	-106.621203268608	-48.0330315458539	-105.241157512442	-0.100107525458439	-23.5080907488769	
11730500	0.0637202631531234	-21.0628098656998	-46.3647874554607	-126.718928028507	-46.6645349105979	-125.633922872941	-0.174459429979354	-23.2781160065187	
11980000	-0.141672116786442	-20.9728686965098	-42.1508611724843	138.337693992009	-42.8366922509282	137.052596911294	-0.520220296920864	-22.2017820214853	
12229500	-0.368387611412214	-21.6132544284026	-54.3495952615794	-131.766270182763	-53.694229264211	-131.16438480253	-1.07079772680874	-21.484261024631	
12479000	-0.555254639876841	-23.766884272511	-44.8441575235795	147.389669053697	-44.8774023025305	147.938788178544	-1.06947630885829	-20.04589932807	
12728500	-0.575176171930992	-25.9913392560024	-41.9825492822327	96.0557186741867	-41.8166768222957	96.35035310872	-0.688129344370133	-21.4709897217285	
12978000	-0.49246362663348	-26.4670473460277	-39.0629853347275	40.9494470509199	-39.1027639991213	40.932965328827	-0.30880253449974	-22.8801981614684	
13227500	-0.269262503115469	-24.7014977931469	-38.5157997633399	-18.8055407781753	-38.762379920929	-18.7731583347261	-0.0582132198740084	-23.0254263623891	
13477000	-0.154121087859116	-23.8672380997345	-39.3976493909283	-67.1360810594165	-39.6556179147296	-66.7272869797263	-0.0147937152650042	-22.5276411691701	
13726500	-0.412810984638538	-24.1249477627427	-39.1135790543344	-109.639353736729	-39.5032883744946	-109.0959003658	-0.18757410515746	-22.4898475733087	
13976000	-0.881034315773605	-24.3936317086066	-38.4780441780207	-160.543740030052	-38.812294862154	-159.431587428766	-0.437758337058775	-23.5256029546816	
14225500	-0.884959682603152	-24.4371668652523	-40.4373056544328	146.037565851117	-40.5806548265461	147.166474742626	-0.530138223768736	-25.2753308221726	
14475000	-0.538613150638341	-26.0480275201748	-43.1029877778956	110.184485497475	-43.4244059460507	110.059684104855	-0.387830407221865	-26.964643644469	
14724500	-0.168317971958326	-27.0223167553031	-44.4561303354113	86.3219990275418	-44.2470020069055	83.5083044424004	-0.133939170128556	-27.7501124316183	
14974000	0.0393880970323371	-26.9536366589512	-42.9956403524031	56.1870218464092	-43.0620069244792	52.3995415205442	-0.0158355283967986	-27.5895203459505	
15223500	-0.0350218543698049	-26.5009987911537	-41.8364323525233	-16.810948889253	-42.596438040394	-21.9894192450869	-0.157014687888032	-26.1942339147498	
15473000	-0.259456774883464	-26.8790408193373	-56.5971029897475	-51.1256609834757	-57.6148972550664	-52.5021597048846	-0.259934383262008	-26.4986589636058	
15722500	-0.509203815246823	-28.7095966897417	-53.3697654006972	28.5031650391915	-53.1991719817093	26.4601323051889	-0.49605985525479	-28.2672410311903	
15972000	-0.59172841716688	-31.3575449080175	-44.6796161047742	12.4529632853321	-45.0314228024609	10.9020714826505	-0.576419002408082	-30.6329551858042	
16221500	-0.546771941177753	-33.352518843553	-37.1985981455263	-26.1894576720684	-37.3797779591083	-29.2441179719666	-0.512641220641568	-32.2219560953519	
16471000	-0.455968691384374	-32.7879937610305	-32.1301625829836	-92.3191575019506	-32.6050290564422	-95.4137785669184	-0.324086449825255	-31.7151225643987	
16720500	-0.468259381529614	-31.776901269591	-30.4651548044476	-155.061024585502	-31.0706933392532	-158.219680551826	-0.21403103871163	-31.0896907080354	
16970000	-0.825120337158008	-29.2841434174556	-29.5694874033397	143.509705081193	-30.2979067173533	140.34906181919	-0.393619510184038	-30.4150705205241	
17219500	-0.896825861808814	-27.591793163744	-30.5026564750513	84.4287754742542	-31.2691948536235	82.8133296581109	-0.672455484478583	-31.0312312875168	
17469000	-0.889411743998243	-29.3683414407094	-31.5492441236615	33.0541289389148	-32.2529986320245	31.392940598037	-1.02807923507389	-33.1244200977193	
17718500	-0.812742242925309	-31.8122433361842	-32.7359465436874	-27.4374923199898	-33.4942989039377	-28.5389867526386	-1.284073360743	-34.3874921725686	
17968000	-0.544360830499528	-32.3523669674931	-41.4953234915905	-79.9327682528716	-42.0412330971096	-78.6298131498749	-1.24976951140347	-32.2990621404186	
18217500	-0.153204426614545	-32.3114486878714	-42.2113416511013	-71.7255020746894	-42.4668236494793	-71.5989662470304	-0.599546120079837	-30.0241670863804	
18467000	-0.0612757334776952	-32.0139536764816	-41.7277379615154	-95.7035241647545	-41.9211137073426	-97.7705807118457	-0.278637053687286	-29.5273227411194	
18716500	-0.246310860795346	-32.13138712371	-41.2611857030501	-119.476167776896	-41.3292061244201	-123.311619287545	-0.338019448456918	-29.7141876466766	
18966000	-0.569808602263137	-33.4594593956162	-39.8298037085417	-142.007697141591	-39.819357020281	-148.098903280546	-0.571080221913159	-30.9616098956281	
19215500	-0.802608537654548	-35.7765763287374	-37.2637370352094	-170.706536085769	-37.4595556276942	-179.796960853175	-0.740800521242503	-33.1243731675553	
19465000	-0.825311273935632	-37.4824886344311	-34.0795868253904	148.038357697392	-34.9277081700409	138.56359339172	-0.703372833074666	-34.8235920042579	
19714500	-0.584588385605956	-37.4959621755993	-32.4110955320958	97.2478262757946	-33.793462656059	90.5689643023138	-0.42067897918146	-35.1385261497929	
19964000	-0.419371732215899	-36.943360760879	-32.4022412037002	50.6065173395901	-33.7560948854222	46.4468801720673	-0.151297857310334	-34.6819180943364	
20213500	-0.605308426799292	-35.601058746583	-32.6522347300958	9.03439566519618	-33.9952825893527	5.55326502821618	-0.122607423465279	-34.0658861511001	
20463000	-0.925577070856444	-34.0240773046296	-33.2615984234405	-31.017490266087	-34.5916358804947	-32.7997747283552	-0.314183328174389	-34.0734340304289	
20712500	-1.10110197050856	-33.996224450055	-34.0890895909732	-65.8504809829644	-35.1499385301866	-66.1308643639712	-0.542784662051325	-35.3968189291719	
20962000	-1.01981081488394	-35.7675013404364	-34.6952170641183	-95.1178030963574	-35.6206939392337	-96.4796170254822	-0.603401890614263	-37.7569170784367	
21211500	-0.724425089984193	-37.7288307402854	-34.524159999628	-122.718882956484	-35.442887625919	-125.111603221323	-0.454742987271065	-39.9108114889989	
21461000	-0.40542071834879	-38.3474308673279	-33.6112768935965	-152.362291695311	-34.9125136626025	-156.819290266445	-0.254268762555747	-40.8780687255534	
21710500	-0.251294937689218	-37.4609000576843	-32.8680916959554	171.151076674278	-34.7538446552989	169.317598199884	-0.226637298102579	-40.6248354091773	
21960000	-0.299756726531057	-36.4202277984242	-32.9584036598671	133.767299621849	-35.0016504791448	136.787864178956	-0.473402538825986	-39.9882559904824	
22209500	-0.505841821342364	-36.7569883086994	-33.4556820773845	99.3158814788623	-35.1095644541364	106.470203710526	-0.955040467910823	-39.9456467078038	
22459000	-0.700771601846608	-38.7974713268841	-33.971902805943	64.0060529928889	-35.1718520215643	72.9282836770843	-1.46520747038617	-39.7951449214823	
22708500	-0.703288992914736	-41.5470474198463	-36.4963382216167	28.2657810639581	-36.9997988752657	36.7774956466295	-1.31482680650789	-38.4064385846926	
22958000	-0.513057692782955	-43.6222289744696	-38.613479854417	27.0671305784037	-39.1471630747469	30.6129124868383	-0.614800085350539	-40.3760098624579	
23207500	-0.414214065455901	-44.1331683442163	-35.239559218946	25.0728219400903	-36.0144999518974	29.2157062525816	-0.337361645714093	-42.7967929364837	
23457000	-0.573485458693239	-42.7876879200814	-28.7045219319039	-18.8853274775273	-29.6243525944495	-13.8218416337534	-0.601134685750844	-42.3771841831052	
23706500	-0.835729857249819	-40.1474440352097	-27.2560466913021	-81.3380447390311	-28.3866436781974	-76.8174341600508	-0.908956038087481	-39.3293272981862	
23956000	-1.01901114005804	-40.1582624669723	-28.3933734587778	-133.853136073187	-29.9725933309329	-127.799156888597	-1.00454248731174	-38.5094020321107	
24205500	-1.1904755788261	-41.9193890784709	-29.8911862871085	-178.921167555007	-31.774913368004	-168.189378884176	-1.04920695209202	-39.9536524441434	
24455000	-1.08063393507174	-43.7121299818767	-31.6649295155838	139.429059451986	-33.1313413109461	154.733064815709	-0.880751897460843	-41.970955018756	
24704500	-0.754322821367907	-44.5398773200753	-33.2782414242592	100.986517046707	-34.2637328707792	118.236727367406	-0.518241750197831	-43.0216684509691	
24954000	-0.498230475839209	-43.9303350926017	-34.7820001366042	64.1032626139371	-35.6918636767158	80.8207711064398	-0.223322043193657	-43.1651146697332	
25203500	-0.484598835012273	-42.5861482573204	-36.2559483126964	28.0091406311526	-37.441726940511	46.43115323333	-0.175711471073132	-42.7311636723936	
25453000	-0.676448532897513	-41.8076283094335	-37.5888581172145	-9.08800964136947	-38.8797576892854	14.1928214064051	-0.385568139238057	-42.781120635458	
25702500	-0.91382457691179	-42.7060532526073	-38.7566506697121	-44.4956220850917	-39.7187174740648	-16.2418716950228	-0.694972464072358	-44.0465066681696	
25952000	-0.995066831951004	-45.0890511335946	-40.039558271995	-79.4689918947758	-40.3796080113774	-48.5194614222413	-0.860559167845174	-46.3460801390035	
26201500	-0.853935407973572	-47.4028009007643	-40.8256212450883	-113.842461755385	-40.0969853423173	-81.9069212662732	-0.784709180665562	-48.5069758027352	
26451000	-0.651379011239808	-47.9167015418069	-41.3955656307268	-151.0275196487	-40.2591089514517	-118.046893259193	-0.585283091088752	-49.3877829220656	
26700500	-0.516604220046977	-46.3659250608824	-41.6553155503285	170.737807454399	-40.3973925681848	-157.132740974623	-0.533421725251786	-48.7893739182178	
26950000	-0.523781298795049	-44.4755400062511	-42.332692484214	128.641638166064	-40.5022205320698	161.382952303043	-0.742732510969541	-47.2621878100565	
27199500	-0.675950918747616	-44.1605104915612	-43.8611410188492	86.4838931612754	-41.6552817931245	119.544951746833	-1.09444311078383	-45.8743269609308	
27449000	-0.858055838223778	-45.822618397586	-45.5528486281092	42.8042114890869	-43.3709928529062	77.4355730390187	-1.33378963870897	-45.8810811384329	
27698500	-0.861277971746793	-48.609624641149	-48.6633521592947	-2.06358068758423	-45.3221284738909	42.4671478134962	-1.29365444491507	-47.2867310183048	
27948000	-0.636851379131749	-50.7987161146997	-53.3716099284666	-50.5862229522909	-47.775836680154	14.291737050528	-1.01136734684549	-48.6303983160511	
28197500	-0.398641536991833	-51.3618888189869	-59.084977862378	-46.5877479042929	-47.2736954469337	-6.26791280966207	-0.608248795545717	-48.4369878596716	
28447000	-0.383700230126693	-50.5699132228168	-55.8223771434885	-100.055672189727	-46.7728304461477	-53.5631084360165	-0.315612679828064	-48.0143743502911	
28696500	-0.66296459204386	-49.3547273365639	-53.7157499276523	-177.945900941272	-47.6156168870758	-112.959054948178	-0.388050340939731	-48.0168822741283	
28946000	-1.02940767192831	-48.802380376696	-48.2890638016931	111.065114542223	-48.520882273351	174.274578189462	-0.714813417567785	-49.1680756060104	
29195500	-1.22511830123958	-49.9129563934095	-44.1801706320164	52.9110351697933	-46.5695329365507	93.1193461765983	-1.08145106614881	-51.4068837489121	
29445000	-1.13626834911617	-52.0207588812738	-39.9462807873851	-2.56124724941925	-42.3309317715897	23.1731387912455	-1.29253291416282	-53.5719963828745	
29694500	-0.840178748314234	-53.0526336076716	-37.6274903486741	-61.4172882458308	-39.0941570649995	-43.3747560880994	-1.17677949773237	-53.5743837602709	
29944000	-0.529640669560781	-52.5312254329234	-37.2131000520745	-119.826955969755	-38.3793719673397	-110.936759320811	-1.00955455437122	-52.2902882632012	
30193500	-0.441725869555854	-51.2412562725427	-38.6025682832061	-170.159651929946	-40.4359379254896	-160.043928045078	-0.754826523966258	-49.1264860125316	
30443000	-0.599326398756223	-50.5205767413283	-41.0803355382898	153.769466537116	-42.1239314173593	164.655664329652	-0.699550208907814	-48.3678337581828	
30692500	-0.865985197591696	-51.4732190774543	-42.5234380708926	122.680064537779	-43.199713389731	136.506517604816	-0.893706401634784	-48.9999092793039	
30942000	-1.02260897452931	-53.9610096404069	-44.0740332662703	97.460840400012	-44.2199332216156	110.576810212082	-0.952823571448211	-51.2984611918425	
31191500	-0.923388067069948	-56.6083115761358	-44.8277178568535	73.0011748422921	-44.1484011722099	84.0690154155659	-0.811530535058044	-53.9877536475038	
31441000	-0.702193000476194	-57.8905840286637	-44.6022692593004	50.9764052468627	-43.8863211169037	59.4105780338048	-0.503148889066681	-55.5517067306403	
31690500	-0.63542780800343	-57.5007411275013	-43.9522211707122	26.073004576929	-43.2089022902885	34.3292849985497	-0.264632122408107	-55.7065571776805	
31940000	-0.886617118267609	-55.9556314630481	-43.6283436403753	-1.56646690229305	-42.5345616158677	3.19153753695964	-0.30170489903117	-55.248768466488	
32189500	-1.32091445457201	-54.3482130505837	-43.0204681640448	-33.2494034426004	-42.1164570843631	-30.9107456881742	-0.594136788170215	-55.4179650652553	
32439000	-1.63436793419364	-54.0537725747305	-43.0035387458413	-67.58775830669	-41.6857119990072	-65.8502981948882	-0.973013257401823	-56.9463475551512	
32688500	-1.61704727204735	-55.4397201326534	-43.0460404190508	-101.015092752492	-42.2218203578282	-100.03325810354	-1.21090183924238	-59.5630075920092	
32938000	-1.27585165826309	-56.9449114999589	-43.8089360200555	-135.552228180926	-43.0905072086988	-136.66666064316	-1.21941772272792	-61.7347498938191	
33187500	-0.830945093112656	-57.0879221493248	-45.0957138982068	-173.457386029837	-44.437973775609	-173.392669257054	-1.14775660821718	-62.0056403664885	
33437000	-0.552996744988224	-56.0674758649996	-47.7716766179701	151.636256855511	-46.9991746984351	155.324088067745	-1.19843792527577	-59.9886625705491	
