!Keysight Technologies N9923A: A.12.45
!Date: Saturday, 02 August 2025 19:04:05
!Timezone: (UTC+08:00) Kuala Lumpur, Singapore
!Model: N9923A
!Serial: MY61181427
!GPS Latitude: 
!GPS Longitude: 
!GPS TimeStamp: 0001-01-01 00:00:00Z
!GPS Seconds Since Last Read: 0
!CHECKSUM:0447504201
!Correction: S11(ON U)S21(ON U)S12(ON U)S22(ON U)
!S2P File: Measurements:S11,S21,S12,S22:
# Hz S DB R 50
2000000	-0.0641847892544771	-2.98316380201196	-71.2129620337212	-102.513377515933	-84.6833149001266	-101.186050422326	-0.0952449475043021	-3.00839848291437	
2249500	-0.299689067288847	-3.68906336359052	-71.9865975188888	-93.6353389545134	-78.7275015381155	-18.0842760812778	-0.317381830865998	-3.70473802688379	
2499000	-0.405577435809191	-5.10691152973326	-68.1541252584051	-100.19621854545	-68.7746967057862	-58.871131952396	-0.410788328182133	-5.04857789223242	
2748500	-0.285595587186947	-6.47788517027064	-73.3782616175776	-93.8148977241893	-64.6637208177939	-59.652103093658	-0.291301570955909	-6.33462093061436	
2998000	-0.0427490944394094	-7.03468175238065	-66.1605222702792	-98.4258043614849	-63.9828382668101	-71.7500660097015	-0.0564571125882353	-6.8334726183434	
3247500	0.103118093978743	-6.80781896690066	-58.4408041756356	-118.367380422101	-58.6023435940455	-121.483508412172	0.0902818991575562	-6.5231946431856	
3497000	-0.00315905373412204	-5.85212537073126	-47.6145290974768	149.07359582758	-47.3813650118592	149.502735884967	0.0395430175074143	-6.00504218727129	
3746500	-0.147364187804822	-5.98289365346902	-54.8639293604693	98.0295601333001	-56.1304347187119	91.9688505527702	-0.162897837769903	-6.05553715182191	
3996000	-0.361770215801842	-7.11433886825158	-55.025144586956	91.158862629565	-54.1537881493418	87.9087955124147	-0.389548017909836	-7.0779240592894	
4245500	-0.411545037892051	-8.7850860447632	-57.695539333155	61.7695071831515	-57.2628114966331	65.0621401936148	-0.405777186920591	-8.49663837306009	
4495000	-0.281223857126818	-10.0186596318937	-54.6255013685765	76.26456849686	-54.1979994001581	88.0783801828725	-0.241612570205407	-9.80340069833358	
4744500	-0.00888234681090715	-9.84683708556986	-44.9822830986715	49.326859197176	-44.9906645060673	48.943837450047	-0.0573458596561304	-10.2115439997597	
4994000	0.0898461247673698	-9.29141375193373	-39.4447680872152	-16.9727462799114	-39.3467426741838	-17.7465711422287	-0.104362787051499	-9.02665446816125	
5243500	0.00458642781573916	-8.78807312609923	-41.1788188936887	-80.8625895805386	-41.0550799198601	-80.6127405851885	-0.0732244741286992	-7.89396432309473	
5493000	-0.249649634612877	-9.25842544471964	-41.2669617606877	-111.329250706645	-41.2408604638017	-112.000851015175	-0.273268922276746	-8.54608888360351	
5742500	-0.502061790825926	-10.5350678680494	-37.6309377556504	-159.181115138655	-37.6500689202598	-159.894631016852	-0.525187770144163	-9.92982661008296	
5992000	-0.417013275590063	-11.5821397496099	-41.1117125056267	128.316694652368	-41.1026814173086	127.839912075448	-0.444687070471393	-10.7396512800484	
6241500	-0.158691721641083	-12.6976070821548	-45.8833714776272	100.926894271567	-45.8912057501545	102.43353625636	-0.193263916960376	-11.8213937985039	
6491000	0.0777863580931871	-12.7693471404795	-47.8630314165962	88.867994343753	-47.6661773103306	90.1497922246845	0.0539655968776313	-11.9630382816479	
6740500	0.117625148479686	-12.3153557533954	-47.9317813414153	78.2074008513949	-47.746780252474	78.3032849207852	0.102079618270747	-11.5473805106247	
6990000	-0.077407868884611	-12.2554999368054	-45.8486039861104	65.5159596926285	-45.6552924012824	64.5416338274156	-0.0625724859940329	-11.4226999984124	
7239500	-0.428809818145357	-13.2346788232756	-41.4022815520943	37.8326549491089	-41.3394950014644	36.4855852340112	-0.326358059473793	-12.2638912554548	
7489000	-0.644393787878161	-13.6972637007032	-39.2369951588436	-46.691906530531	-39.2973288605434	-46.3431073084785	-0.503869371410383	-13.5338023949347	
7738500	-0.436013858611611	-14.744786625172	-44.2073452227296	-63.4025940516383	-43.9580552543176	-63.4964983316845	-0.345549295537298	-15.1808878403498	
7988000	-0.118777296489391	-15.7111651900078	-45.270089941786	-83.0098937701106	-45.2640179118556	-83.5056204497972	-0.0981348299686643	-16.0585280758059	
8237500	0.0822635634188794	-15.6475104199269	-44.5700359005464	-98.9121286431092	-44.3408620422248	-98.3869398883096	0.0701481519367832	-16.0628139227081	
8487000	0.0404601332241314	-15.262997713124	-41.1804841103704	-119.356653303152	-41.1692764753836	-120.185607515734	-0.00405481107044558	-15.9183184484174	
8736500	-0.244033089751754	-15.2539306613392	-35.9750004936732	-165.180325064495	-35.8965266166402	-165.678285412173	-0.431571208629303	-16.059452285577	
8986000	-0.481187265617373	-15.7202383875106	-36.1875995563682	115.25102277006	-36.0521165563713	115.191172877472	-0.674057071255419	-14.7837018596013	
9235500	-0.516388563018214	-17.6217824326971	-39.9654486499974	69.0190590330308	-39.7801124553361	67.2222504666086	-0.57292958123868	-16.485567764287	
9485000	-0.367155162870676	-19.1896758013118	-41.8707611775468	30.760139257853	-41.9638402570351	29.03444428657	-0.36813275384544	-18.0832203441028	
9734500	-0.132426755987658	-19.4095748038514	-43.5191895520022	-12.2012923962026	-43.6721143915904	-15.4870738067719	-0.0850003197085371	-18.5200135627935	
9984000	0.0113688502723538	-18.7313005229233	-46.2383948281758	-55.280765819586	-46.429290036177	-57.3562960063076	0.0745968546408156	-18.1552368459024	
10233500	-0.0811860245578848	-18.2953294907001	-48.8791979511919	-92.7220062077619	-48.8949175340712	-93.7130030782991	-0.000504320195870042	-17.8198963189837	
10483000	-0.38846931477368	-18.850055990621	-50.430628511729	-128.726808386916	-50.9060053015783	-130.319551618487	-0.243515508250334	-18.241925145971	
10732500	-0.774521652262476	-20.1056512194661	-51.3834537886927	-176.424675366236	-51.6697752305835	-173.980727520173	-0.459133031135191	-19.7418738673017	
10982000	-0.755626589338119	-20.0345865326496	-52.1710809203426	143.657623602787	-51.5881978398884	145.946754183428	-0.47912419219777	-21.6398254404088	
11231500	-0.336982422158782	-21.027310839215	-50.3274429712578	74.8679525424093	-50.6774814907406	75.9385086450595	-0.27883548996234	-23.0128334449736	
11481000	-0.00673785190937479	-21.4632334149721	-49.7492348686435	31.534189374299	-49.6957368152962	28.6920251724243	-0.112348418212275	-23.4420212952532	
11730500	0.0859360297038798	-21.1478996113442	-49.990311339994	-42.6157418668699	-49.6624727621567	-44.3267786463627	-0.136048160134157	-22.990469866338	
11980000	-0.0797383489798759	-21.1636869182064	-48.0963331434351	-68.9580268991586	-47.6027462136152	-69.2818734882601	-0.558275918371636	-22.5484150546419	
12229500	-0.417323458344092	-21.6964257090615	-44.6250360433203	-147.504845707585	-44.8326656894915	-146.875282722894	-1.0530745447711	-20.909229148807	
12479000	-0.586336597643356	-23.9217109134204	-46.3774128062882	171.552186479097	-45.9515145653784	171.067002587338	-1.03885541682914	-20.1772290841412	
12728500	-0.628723531227313	-26.1826179410814	-44.4586675730541	124.976369786242	-44.1223269132145	124.617962663032	-0.717780804992092	-21.5795813466619	
12978000	-0.564247271019463	-26.0335240636705	-42.5911370990955	64.2013971470658	-42.5110876693982	62.4272048175831	-0.330404386867466	-22.8049478962484	
13227500	-0.233689112039002	-24.2747080272841	-43.7830886410269	2.8958719073613	-43.7463567890922	0.180834580738298	-0.0503815476008112	-22.9254094365065	
13477000	-0.117096751338225	-23.7366633800737	-45.1441026188525	-46.8822414216015	-45.2424156440619	-47.7225224906884	-0.00157803238245825	-22.456360081426	
13726500	-0.395585759926997	-24.0147999722536	-45.1133554511145	-93.1360652269982	-45.0102359138139	-92.63071751277	-0.17461491288347	-22.4091137169536	
13976000	-0.838118899018566	-24.0881780262597	-45.2085679924234	-152.906618884786	-45.212214574765	-152.004432273991	-0.424752701257761	-23.4656246370423	
14225500	-0.804615579340159	-24.6421148930004	-48.0805363203583	150.439671824034	-48.2319454538051	152.193018222224	-0.523085334493843	-25.3389601138615	
14475000	-0.499402743559904	-26.4718417592315	-51.653228653903	116.288964502088	-51.5392274932254	115.869852492758	-0.382245286323695	-27.0719217418981	
14724500	-0.154544628833895	-27.4431211407286	-53.3182256833416	92.761673773999	-52.6901608219129	89.0879259175904	-0.116001680254449	-27.8095114738281	
14974000	0.0459524436078459	-27.3136120273849	-52.9864771377186	70.5935417246531	-53.2204663008849	70.8664592980295	0.0454094275739591	-27.5378784675927	
15223500	-0.0242249913737237	-27.0475198430625	-50.438034368017	41.4535758397356	-50.5726975067347	41.7402494940724	-0.0348196595320471	-27.0719289145634	
15473000	-0.304822200905722	-27.4491827894567	-54.4275503549651	-36.3841028798472	-54.6588109725465	-40.8184583258722	-0.280728593864688	-27.1388458024654	
15722500	-0.576454559654632	-29.4301474264263	-54.4817244976879	25.6638901361836	-53.891946242783	24.773639323692	-0.534512120736135	-28.796858994098	
15972000	-0.728645195303857	-32.2855874641752	-46.3394809507355	2.61510848986882	-46.3327303091997	2.20468268302245	-0.615218055460024	-31.0930720317984	
16221500	-0.847442510550349	-33.8989247822364	-38.753914002912	-38.1374057831422	-38.7253189784396	-39.7279110011893	-0.512866622298847	-32.7718696494867	
16471000	-0.742831990637139	-31.2933621615274	-33.6555006252915	-107.079929459451	-33.6023181803074	-109.086713471563	-0.36348105587537	-32.8155104401924	
16720500	-0.500645592047847	-29.6506283552104	-31.8764428393436	-174.833737405119	-31.8030329708935	-176.862276671867	-0.367749271696945	-31.8036347731943	
16970000	-0.644640800020189	-27.8862737198557	-31.4608046687077	118.729882325269	-31.5506340439942	116.256999102235	-0.555908613227055	-30.5911672622935	
17219500	-0.747512649663448	-27.3339152547036	-32.8582324188718	56.4125854552179	-32.986293559934	54.3850783739056	-0.928121613252907	-31.0088122137579	
17469000	-0.791374237903456	-29.1506561690232	-34.9365734988816	-1.2928960084649	-34.932508191377	-3.8249745188649	-1.36250750023736	-31.5462228244093	
17718500	-0.693194802786695	-31.805091927546	-38.5851453415789	-65.3923200411008	-38.6953994349073	-68.9124324764048	-1.36015053167687	-31.1837905190083	
17968000	-0.438759317554939	-32.6555426549808	-51.2476532631729	-61.3628458142321	-51.6441822264023	-66.530217730035	-0.858088272640836	-30.5484507163192	
18217500	-0.0982700614764866	-32.7783528701852	-46.2841017374092	-71.2006506570611	-46.4066066659859	-71.8998071205454	-0.365254677361418	-30.4653286594713	
18467000	-0.0394107915413216	-32.4481924269331	-45.5274049121708	-98.9093091140436	-45.4765130320834	-99.4702945545926	-0.178820199898427	-29.9940349516527	
18716500	-0.254844319198382	-32.5503759465797	-44.382370593478	-123.728405975671	-44.2194850815315	-125.058138812816	-0.286693656912114	-29.9356373637889	
18966000	-0.613870568797733	-33.819285372176	-42.2446151899023	-150.40244450941	-42.1000390627045	-153.373084710604	-0.535064545348087	-31.003988568951	
19215500	-0.891194814699774	-35.9084627336113	-39.1517064675207	174.470279118506	-38.9757009535845	170.617039486285	-0.695431150952226	-33.1173328905613	
19465000	-0.892508830183568	-37.0645972792879	-36.2052644686193	126.575821161636	-36.271536951212	122.07395425848	-0.629607347917484	-34.9881929985403	
19714500	-0.586054679181729	-37.1678377616534	-35.0229022900313	74.3030520307418	-35.2211347368227	69.4407038524911	-0.348833911731698	-35.6661989724824	
19964000	-0.436811701183724	-36.5541360327404	-34.7897192192357	26.6621284110276	-35.0439769426094	22.3716617129112	-0.117256209072703	-35.2951076641651	
20213500	-0.576593184493801	-34.7864076171172	-35.1315909535077	-17.9570228063196	-35.4275176581555	-21.6947912830609	-0.108473127830446	-34.5957713173118	
20463000	-0.787044943119849	-33.4221491917612	-35.6820248890154	-56.9180793707852	-36.0705245154904	-59.2016858095324	-0.313201255376495	-34.6814781937653	
20712500	-0.937000328043607	-34.1207068759153	-36.2117682220571	-89.4465169216205	-36.3436333284834	-91.5995034246351	-0.567164167233307	-36.2000024183964	
20962000	-0.907012622621336	-36.3568725289813	-35.7157487459621	-118.163239985509	-35.9112960653999	-119.494402380086	-0.679017457694536	-38.9015667262972	
21211500	-0.674309288155343	-38.4389944399558	-33.9022717159803	-148.901154925909	-33.9958823705487	-151.601591392185	-0.639417419631896	-41.5091259712914	
21461000	-0.405913189901242	-38.8163649293059	-30.9604572662518	163.587278806035	-31.1885265785438	160.002903965424	-0.797783767019005	-41.8474340209356	
21710500	-0.189721518559335	-37.7507378917422	-32.1942853019849	93.4108587750092	-32.5094308751646	90.4879521356684	-0.631806237253949	-36.5806518681216	
21960000	-0.263960085020268	-37.3244308752335	-37.8736901563582	52.0181409222869	-38.413157690338	48.7754103341717	-0.268524688182362	-35.9719820113817	
22209500	-0.561481211445107	-37.797743210546	-42.3611627247328	38.641381221897	-43.117117416676	37.1266957074716	-0.425106431255379	-37.3447588491343	
22459000	-0.819187329633204	-39.7194067444371	-43.7408506721156	35.4581129330106	-44.3192885113897	33.0527411879804	-0.665772528151756	-39.80935034472	
22708500	-0.858315644578116	-42.3590249992198	-42.5393597600491	25.6447799204793	-43.1913506959417	25.931561287708	-0.735303970965895	-42.7808665914552	
22958000	-0.741550262625424	-44.257676478685	-41.341015942888	7.69578131974072	-41.6514691785595	9.13065801576273	-0.635852248929887	-44.9450321946205	
23207500	-0.725135115173776	-43.6002695958587	-37.9142385089705	4.76288203173532	-38.1763701425057	3.05180196345674	-0.599385597744049	-45.2280522134586	
23457000	-0.694635821302414	-41.2383410966179	-32.4394859157607	-47.9880404976375	-33.0335475136827	-50.0667608834454	-0.751608681890073	-43.7937509150485	
23706500	-0.871617330423755	-39.1402594520428	-31.4451848612771	-103.386839820195	-32.3697364449995	-104.731713636321	-1.15195210995902	-41.4401490380241	
23956000	-1.04345622532548	-38.8248123837617	-32.2939723621037	-154.036351415796	-33.2863806064736	-153.090490049862	-1.49290103604327	-39.3893289168148	
24205500	-1.10416893198819	-40.6491219487919	-34.0562612142623	162.55415387938	-34.9425684599019	165.579779322747	-1.5045127363145	-39.1360659199624	
24455000	-0.93962861564358	-43.0643900627616	-36.0519549436527	124.672319935543	-36.800777127176	129.496405894213	-1.18867313543757	-40.435271544285	
24704500	-0.630657501671861	-44.3557691458837	-37.8521912432813	91.8340718225718	-38.4235240645902	95.865534461998	-0.695008569057677	-41.3404240245927	
24954000	-0.40467865339178	-43.8799779908781	-39.3326425436814	61.3867785569124	-40.042392734672	64.8565512444198	-0.296085495026866	-41.4862038990173	
25203500	-0.395404427581877	-42.5394924621107	-40.5831072599868	29.7604566947826	-41.2614875139852	34.2045373463219	-0.180605943176328	-41.0760919648826	
25453000	-0.57859278385914	-41.8691701826347	-42.0330259719094	-2.66802588087857	-42.700951817407	4.56251788578864	-0.339267471397139	-41.0881428103508	
25702500	-0.830346260124406	-42.936111556884	-43.6935582576433	-30.2406657873268	-43.8890637121462	-21.792687154586	-0.60043153533839	-42.3423209429255	
25952000	-0.938103379093285	-45.4608819930088	-44.7896850219738	-55.3645561673255	-44.8178697664392	-43.1747239730341	-0.713334936705643	-44.7320588667291	
26201500	-0.823191090623784	-47.7125333694879	-44.8109162635738	-79.7164498934215	-45.1613038244178	-68.4034245154272	-0.574585544871593	-47.1118595931744	
26451000	-0.623810176593777	-47.9943618505458	-45.2757373999636	-108.43149514201	-44.5055957203352	-97.6945700978278	-0.294130118453825	-48.3032071763715	
26700500	-0.454766442200665	-46.3851854227185	-45.1173293946368	-139.423150441354	-44.3476908675103	-131.377603061817	-0.13094689732002	-48.288724076149	
26950000	-0.449264801116433	-44.7485615653279	-45.5959945645761	-170.803096225503	-44.61730767597	-161.160894377111	-0.249800792265554	-47.9599077284907	
27199500	-0.633336124649468	-44.6474656705891	-45.7471620362641	163.1287662301	-44.7598887244886	168.322554081837	-0.616574621650222	-48.4330971475405	
27449000	-0.856328847234625	-46.4001515088789	-45.499537304623	140.536710236523	-43.9631419840944	144.74715187338	-1.05271473143828	-50.2983755397849	
27698500	-0.88827970084723	-49.2164890776864	-44.1113660924814	110.977461682728	-42.4418256166542	115.798298322461	-1.36686193483962	-52.6266903785635	
27948000	-0.691921464173295	-51.4017387648434	-41.5309311234874	78.864954825746	-40.1261173127426	78.5688937539257	-1.45258795028249	-53.2877155547644	
28197500	-0.492304087593264	-51.874067824177	-39.8025526995483	30.6356620482204	-38.5317208865099	29.7583424080757	-1.29955090026168	-51.2421466470822	
28447000	-0.529526862973669	-50.7547744452139	-39.85427787656	-24.0664706955421	-38.4875627063367	-23.8114701460536	-1.07128106803485	-48.076612580249	
28696500	-0.80092963045835	-48.7633415405683	-43.4820189799059	-83.4772537220754	-42.0088284392801	-81.8352384726535	-1.01785767804807	-46.1159024042409	
28946000	-1.05688593709111	-48.1264544436726	-48.8678869132456	-43.6540108675708	-48.2089627853621	-78.1288629821937	-1.23236043468051	-45.3706875649366	
29195500	-1.23806213245722	-49.6339322772581	-42.6485180497915	-86.5811704542022	-43.6502561794609	-95.748140991397	-1.26091907573892	-46.2410612209926	
29445000	-1.15056549763691	-51.8195914852649	-41.7792342655407	-130.246142006216	-42.3679829310178	-134.100230536827	-1.05472539562756	-48.7455261466338	
29694500	-0.835137753250384	-53.035653447592	-41.4807102031995	-169.826231084674	-42.0963620499772	-170.662605521535	-0.685649436903067	-50.7411286228494	
29944000	-0.538066553442248	-52.6144562997076	-41.7910959729784	151.473395617919	-42.0395533136279	150.507857878533	-0.34141843571977	-51.1863097326742	
30193500	-0.451893599871172	-51.3342714057494	-42.9452803732662	117.770122377786	-43.1701976446712	116.932787646061	-0.223970429246746	-50.7159017003939	
30443000	-0.622448796834822	-50.6825201859513	-43.7677461313069	88.7228381307875	-44.3029737481992	88.6100015346995	-0.392950194528037	-50.5034241579199	
30692500	-0.923663283239182	-51.6610151852021	-44.354930018508	64.8572281084245	-44.5360610735106	65.4202898852243	-0.687680323492631	-51.5696947668024	
30942000	-1.11913373907911	-54.1315083559102	-44.3889657826479	39.2026661366542	-44.3986563449475	40.6389755592953	-0.884792153436274	-54.0020421710521	
31191500	-1.07128434852189	-56.5823022428101	-44.0958346379266	15.2050303464095	-43.9526360237175	16.6466293959585	-0.834184998938113	-56.6753369833848	
31441000	-0.885533715644477	-57.2916827873876	-43.2354852614283	-11.1648125870496	-43.0379882861028	-10.105540070683	-0.620114193545734	-58.1998740814462	
31690500	-0.786219873313264	-55.8974578354759	-42.2452579122151	-41.302060342956	-42.1852777863268	-39.1692193501987	-0.501777086275163	-58.1705308839084	
31940000	-0.869469898038746	-53.4692633156099	-41.5997663516399	-74.5591962549954	-41.5062163946211	-72.9398256500712	-0.703217103203724	-57.2723554746673	
32189500	-1.06808960961793	-52.0551208723657	-41.3297160383024	-108.158763924277	-41.1274803993634	-106.670258930659	-1.19324230592359	-56.4452752538286	
32439000	-1.25701283748414	-52.8445207989639	-41.8548207389139	-142.157910338077	-41.221532012944	-140.802802097141	-1.7469747011605	-56.1608312529828	
32688500	-1.250724134995	-55.2476525770575	-42.2198657687427	-175.700022125145	-41.6223528656386	-174.868195952469	-1.99099694149469	-56.2775965968523	
32938000	-0.969452093727182	-57.3805889260203	-43.1051634361522	152.253826850882	-42.7153649644793	151.588564581505	-1.72984467309338	-56.1634251576472	
33187500	-0.590129678299399	-57.88669253247	-44.1498612397742	122.957769526552	-43.695402868749	118.705283569736	-1.18781816791855	-55.4816940017814	
33437000	-0.376214065325204	-57.0561666488609	-45.2305522677154	92.1942384156333	-45.0592966685735	87.2705394623381	-0.746328751643852	-54.3304542525284	
