!Keysight Technologies N9923A: A.12.45
!Date: Saturday, 02 August 2025 19:26:23
!Timezone: (UTC+08:00) Kuala Lumpur, Singapore
!Model: N9923A
!Serial: MY61181427
!GPS Latitude: 
!GPS Longitude: 
!GPS TimeStamp: 0001-01-01 00:00:00Z
!GPS Seconds Since Last Read: 0
!CHECKSUM:1580044069
!Correction: S11(ON U)S21(ON U)S12(ON U)S22(ON U)
!S2P File: Measurements:S11,S21,S12,S22:
# Hz S DB R 50
2000000	-0.0609402479159985	-2.58513834107556	-83.6440319882629	89.7478113795636	-73.9003252564926	75.2327685250176	-0.0818718339617599	-2.36321907244555	
2249500	-0.34059468985143	-3.24158846769995	-67.5508369641979	-105.936498042654	-74.172612298604	-153.948888432422	-0.34410310829073	-2.97021707161716	
2499000	-0.465801950509456	-4.80020150427062	-65.1074344903879	-144.789736898228	-63.5437833075504	-140.923358544658	-0.464047074011812	-4.4712439919806	
2748500	-0.343644754391886	-6.25050112729041	-48.2510863750383	143.871409286675	-48.2093910238476	146.075860018908	-0.385455746198128	-5.73174197066258	
2998000	-0.0663813358000446	-6.80391464776724	-47.0347898387734	45.5794667029316	-46.9782839367115	49.6883640977685	-0.0715626334677366	-6.22290863637044	
3247500	0.138312331611346	-6.11579671351594	-51.654231502246	-49.7506266112517	-51.4207973315189	-47.2815963512395	0.121056265420091	-5.75278094173623	
3497000	0.109137604051164	-5.61180896799713	-56.1491950835964	-72.8184804602732	-55.997265695528	-82.7236742930566	0.081416667581679	-5.32675155295295	
3746500	-0.148632334727425	-5.74835153155542	-55.5403240859775	-91.5010593371163	-55.7344920602105	-89.8766133737929	-0.178655380360009	-5.58341560410166	
3996000	-0.427408706617509	-7.06203478364834	-57.913649168769	-147.510917354435	-59.3110282536832	-141.662413924197	-0.440056460860478	-6.48070685436799	
4245500	-0.515461592682567	-8.68821782926764	-58.4472252853307	166.952674079734	-57.7682523341397	169.888068061716	-0.458688935180116	-8.41787776814136	
4495000	-0.257389486989513	-9.98378871707054	-68.7707709351563	169.189505845264	-64.2181487771263	165.967483350949	-0.244295435210415	-9.86042664387901	
4744500	0.0274285046948365	-10.3431596465763	-58.9769660855443	-145.410372465291	-59.5929873336205	-137.099829268965	0.0317169632258895	-10.1427373813811	
4994000	0.0908252327408165	-9.61133021942118	-45.6189807544246	167.833575059328	-45.5421988235595	165.902119763939	0.125166932069422	-9.55924444462103	
5243500	0.018804911238637	-8.68007716806907	-44.9873593048691	84.6587009621081	-45.0840523568885	83.607225912336	-0.00403489154088678	-8.9031614674968	
5493000	-0.270346961889738	-9.15161277601103	-43.5454557321637	43.4506596569709	-43.7074544669849	43.209595010993	-0.330877803878691	-9.27125447314968	
5742500	-0.511659916278079	-10.4947683677894	-40.5196787826223	-20.2091959212784	-40.4832571452236	-18.7234774050298	-0.630763788259395	-9.92873393676841	
5992000	-0.448388847015445	-12.2871368311989	-42.6626600011847	-77.3893820283747	-42.4150734393671	-77.6042880908031	-0.482240946330355	-11.1921524889662	
6241500	-0.21476067408009	-13.466389490124	-42.512952044587	-115.223026237341	-42.2349830851787	-114.843931844528	-0.204661312793318	-12.4040472255235	
6491000	-0.0250782842957727	-12.872482344991	-40.5557431224391	-175.371125125575	-40.5176753317816	-175.898444478579	0.0438846210564121	-12.3365627067604	
6740500	0.109358266796486	-11.6150904206268	-44.3449554622356	123.832462878907	-43.9216650253336	125.290988308475	0.117971037359394	-11.5516310693037	
6990000	-0.0552463907098751	-11.420834759402	-46.8242394883233	93.670524291148	-46.7701437380889	95.018091610205	-0.0633256364912796	-11.3766221021071	
7239500	-0.367769656695077	-12.4241969532952	-45.2605971187037	54.8215831914892	-45.4502115320678	55.2470721519603	-0.387903965237322	-12.3753998464864	
7489000	-0.525225378455449	-14.3971026194504	-55.0618003308868	55.0890723339663	-54.565746874594	56.6113942441716	-0.502011067418515	-13.914985426706	
7738500	-0.463455333978927	-16.550154853719	-45.7590567056461	38.4279313787234	-45.6427802291538	37.4527148204077	-0.388762781125722	-16.0237671548484	
7988000	-0.261293279185713	-16.5941741441355	-40.7941925669704	-20.9736193824826	-40.6365005025245	-21.4782294554658	-0.149542823354425	-16.8606151082275	
8237500	0.0581071960055301	-15.6530109635318	-40.5788361808268	-81.5997327056036	-40.6072545651047	-81.8248716927241	0.0107329658825555	-16.3778489228007	
8487000	0.064154744394928	-15.0698998410211	-40.5167194499643	-131.670479974887	-40.3988261994644	-130.687985235511	-0.100377354359844	-15.1943964014035	
8736500	-0.205814459729244	-14.9766336840832	-41.2364933862992	178.958153248447	-41.1047226007924	-179.747593433624	-0.342208908590305	-14.0898223668748	
8986000	-0.504211353160504	-16.0443369858339	-42.5665126971642	136.806359649214	-42.5207432039957	136.849467177765	-0.535203224324657	-14.778492422103	
9235500	-0.586782507117384	-17.9801431809007	-43.2575245846081	102.296889074991	-43.2514830882874	101.842633063816	-0.553696348106905	-16.7331016624115	
9485000	-0.406773970054846	-19.5433231107867	-42.8513917216492	65.3775779459995	-42.8335091462987	66.9285012646922	-0.341164467598399	-18.4934373734518	
9734500	-0.146024697945647	-19.608070169493	-41.7165222929241	24.0134521554879	-41.6726880101229	23.5502937668915	-0.0496437242574803	-19.0209721306949	
9984000	0.0126298899110497	-18.3649136375143	-41.4392719224661	-24.5679527936874	-41.475016211483	-25.2581738486519	0.0870975875387382	-18.4070149391719	
10233500	-0.0452704556602613	-17.4618150555836	-42.062647041951	-69.7907271702153	-42.374065648609	-69.9354776412668	-0.0197004900987889	-17.7817608494524	
10483000	-0.322226352359123	-17.9136518248301	-42.3033325000402	-107.173136735249	-42.296224548488	-107.071724131746	-0.324437423472924	-18.1899178010091	
10732500	-0.59569056149512	-19.7730915078417	-41.1120420545308	-144.685433778056	-41.3002793020641	-143.73822186761	-0.627663009935538	-19.9020240227277	
10982000	-0.656274731985862	-21.9468111849257	-39.5733861949178	168.473708048156	-39.8877931109218	171.239523675883	-0.724166606242778	-21.5551369183382	
11231500	-0.416787835081568	-22.801205439967	-38.2205466088459	115.978448336456	-38.302117007197	117.399510567963	-0.442734957300622	-22.1527724322924	
11481000	-0.109222218109545	-22.5490821739322	-39.3027537259021	63.1062417098152	-39.3385844581706	63.8831048472958	-0.0908695639512839	-21.9724440457564	
11730500	-0.0574225072894012	-21.3225497154781	-42.2702528197403	39.0598258860416	-42.5287412905536	40.2832807071507	-0.0318324336386038	-21.5971389413251	
11980000	-0.217330302270256	-20.5892077073268	-38.2498686566224	-14.5834005034251	-38.1983096956422	-14.1537464962479	-0.261189871466061	-20.0435072917603	
12229500	-0.514490420672524	-21.140735215414	-39.3993496205125	-64.7938752197823	-39.2382526019912	-64.5751716808218	-0.491835890772983	-20.2643893032785	
12479000	-0.71239080371177	-23.1411313639356	-39.9542295236848	-103.851633690854	-39.9446288526606	-103.929293122075	-0.647172296428638	-22.1634399834577	
12728500	-0.640518080377318	-25.3563922213661	-39.5746932731776	-142.745694277223	-39.4626481198032	-142.253621966762	-0.5473481032205	-24.3676639543287	
12978000	-0.386618233387479	-26.000040405217	-38.5025229792946	173.292403140727	-38.4060802914578	173.420325471874	-0.287120457654327	-25.4259496510781	
13227500	-0.128409562236231	-25.0026189312676	-37.8724968641429	124.151226346422	-37.9580300480695	125.402189100054	-0.0677510177989024	-24.9932685525315	
13477000	-0.0858574684660779	-23.8481297338627	-37.6252510334142	77.2989087789306	-37.6958680309787	78.1122709756199	-0.0823548439404202	-24.0787197891885	
13726500	-0.341658827423825	-23.549193491042	-37.1331131406123	30.0525744168586	-37.1339478248846	30.6348062726626	-0.378517269706125	-23.6572631078029	
13976000	-0.689300780257675	-24.4409616364072	-36.7106586299069	-20.7204510386752	-36.7821276953326	-19.5241493937029	-0.735339028301317	-24.1383520205665	
14225500	-0.794314459336336	-26.4564857328539	-37.1296399282398	-69.9413613818369	-37.0750614827295	-69.1747206316877	-0.811006389816209	-25.7082371274607	
14475000	-0.619962789863611	-28.4618866031628	-37.5286300936885	-113.90944914576	-37.3166295075893	-112.986107576434	-0.589042252543832	-27.5118739332974	
14724500	-0.35374616483285	-28.953882329232	-37.1105798066776	-158.752162630908	-37.0924565396715	-157.990504510985	-0.262273733915165	-28.1408597194784	
14974000	-0.206554612280428	-27.6301497667169	-37.0234015038713	152.240777469268	-37.0099915496969	153.334468846826	-0.0602507513505514	-27.3533012491132	
15223500	-0.240034017839036	-26.1204825329757	-37.8025748098543	104.94549232295	-37.7695107760061	105.201826400104	-0.0999482176010887	-26.3969167738972	
15473000	-0.483603190703996	-26.0990718106139	-38.6653322972402	62.6472785476116	-38.7694617528482	63.3750802268199	-0.378790490207891	-26.538046884332	
15722500	-0.760415557371071	-27.7367718805975	-38.7636506804741	23.3708705769414	-39.0119102740179	23.4450163531023	-0.703485674136503	-28.1328018837994	
15972000	-0.811237055905991	-30.0994624137823	-38.4925876419754	-21.9643824670559	-38.3999586088709	-20.8480951973871	-0.834266500837362	-30.3137148426948	
16221500	-0.589093557329352	-31.6336710709124	-38.1838369609976	-75.2039790275483	-38.2277217357282	-73.890221614223	-0.698173781291587	-31.3492626439449	
16471000	-0.330085552132845	-31.3355710588441	-40.8616360211881	-139.336918093975	-40.7892473055373	-138.244431059233	-0.401846971819163	-30.3152574094494	
16720500	-0.153761587573454	-29.7753136594443	-47.2425057288247	-125.734073338622	-47.3396487506488	-126.701783511848	-0.110969671278242	-29.1662784806781	
16970000	-0.332379568294964	-29.1435815752584	-38.7984867426309	-172.212686247414	-38.735160799744	-171.737315268424	-0.299206069854028	-28.7152192580578	
17219500	-0.669299697239128	-29.1210298738166	-38.6240195663071	119.884238184132	-38.6098816447809	121.449966148795	-0.595190680685265	-28.5002123065659	
17469000	-0.866607201528035	-31.0698784592393	-40.1611419300843	70.6966719213952	-40.20330228283	71.9237611662549	-0.758375870381687	-30.3973552511122	
17718500	-0.82278620259857	-33.6189935808413	-40.7528456205753	30.6348575205761	-40.9241294926932	30.741640907451	-0.689697971403335	-32.9874999523871	
17968000	-0.587440887700623	-34.759369962466	-40.6258855776624	-13.9921543958375	-40.7237991401371	-12.452948933174	-0.412908369590008	-34.550700421139	
18217500	-0.342947542560932	-33.720661676303	-40.8843525975714	-62.4681271671523	-40.8379399667916	-61.4293431929089	-0.166792650021186	-34.5410692559018	
18467000	-0.241000936412468	-32.0176460192696	-42.0477808494847	-113.702045418241	-41.8885598464196	-112.479293489708	-0.194472504420695	-33.6370785058365	
18716500	-0.396945190816735	-31.4534009652901	-44.5871751397142	-164.184983791251	-44.2877982381237	-163.297515821955	-0.543574755887914	-32.6808622356221	
18966000	-0.730502589182566	-32.6999012119414	-49.9742525332823	147.82021081092	-49.9213587663581	150.852678529259	-0.956552448723996	-32.2017924973455	
19215500	-0.958884137935578	-35.1643762068037	-61.8494408209006	166.087469602471	-59.1149069313028	176.103536843076	-1.04618756907631	-33.1718261753245	
19465000	-0.885924230087524	-36.9235449713445	-49.2634271690793	-177.545297689688	-49.5499178787901	178.993956157895	-0.792466929442589	-35.0720058290187	
19714500	-0.529328407870148	-36.9819690053555	-45.1610525214281	133.957663916923	-45.1724015059106	133.910524884551	-0.393684120614182	-36.1657839493347	
19964000	-0.231844724166984	-36.0778157211012	-43.1920186593718	84.7273203756561	-43.4393909912441	87.1590068687583	-0.135297892126813	-35.8788549884639	
20213500	-0.279822135791795	-35.0991225127286	-41.8647680987521	38.9148677164938	-41.9936322683862	40.7882734933334	-0.175910235579871	-35.055693635709	
20463000	-0.639734837411932	-34.8460811059849	-40.9810389449427	-10.6184115937253	-40.9028392982462	-8.74514839154814	-0.486998821321544	-34.818916078464	
20712500	-1.03022656042913	-35.8844652685785	-39.9947112566037	-60.5710236065067	-40.1559769804623	-58.5099801959967	-0.83512091823573	-35.9086178324203	
20962000	-1.1285013261572	-37.9841188623885	-39.789626075123	-109.922229908543	-39.7404167172905	-108.654168998948	-0.943564010129384	-38.1399878136979	
21211500	-0.903801967264407	-39.6554421289884	-39.8463218284608	-158.473439392744	-39.7979453089848	-156.274496274123	-0.753455892758542	-40.0166321503088	
21461000	-0.56708557184943	-39.5698029560144	-39.6674699422411	154.439705488426	-39.75105689806	155.478039062741	-0.452635420447907	-40.2657535992101	
21710500	-0.372362575990938	-38.0937188980486	-39.7363289982287	107.321216289938	-39.8854804940076	108.917796807852	-0.304240218950932	-39.0727094944997	
21960000	-0.458453277336839	-36.7268769939907	-40.1874861849963	62.5941654356058	-40.2365549396476	64.1301344141256	-0.437791682552084	-37.6394815534015	
22209500	-0.761671499920497	-36.707226160658	-40.6646232848863	17.8064189709504	-40.6823629351267	20.05476215903	-0.770459553724739	-37.1620918629186	
22459000	-1.02083150791731	-38.4358492622792	-41.3443939546567	-25.1135432781228	-41.3644489128382	-22.5478506211233	-1.03465366587371	-38.2535801478119	
22708500	-0.990108374113924	-40.9045564244089	-42.3477704548981	-66.7874865566132	-42.1745755154592	-65.1831480956011	-0.996220943305168	-40.3278208505656	
22958000	-0.703825859187317	-42.4075698732026	-43.7694761865273	-106.740277654497	-43.7506670643283	-106.794506570776	-0.661601731324915	-41.8425935982251	
23207500	-0.388436696524476	-41.8035881037936	-44.677192214687	-125.742209700533	-44.7169229069303	-123.590356454265	-0.298306125530096	-42.0787265008409	
23457000	-0.279224825655924	-40.4337001378297	-42.7310523987477	-167.819547900926	-42.5133537590397	-165.973786252105	-0.200678659519322	-41.1886937655275	
23706500	-0.50235446894509	-39.3559195722375	-42.2264191912334	147.244033089537	-42.2879675992056	148.58860442082	-0.405959209808554	-40.4268557989747	
23956000	-0.86286993851148	-39.7696910093795	-42.4338886990962	103.334451332906	-42.4318277116497	103.852727824933	-0.768892591967199	-40.9839651091523	
24205500	-1.08174200646527	-41.9219767280143	-42.6184569217286	59.1652629607888	-42.7529045612941	61.3748893962007	-1.02734240350315	-43.0105475806916	
24455000	-0.987660169630504	-44.3729999963375	-42.434431507442	15.5090834940483	-42.4852146670246	18.6413487258883	-0.985200593755577	-45.3661737907001	
24704500	-0.65942281190997	-45.3095728242698	-42.0556043528579	-29.874295123936	-42.0517928141211	-27.5374738188752	-0.706372934727691	-46.0632721702227	
24954000	-0.377356742133838	-44.3642501044161	-42.2595037744603	-79.5225957887949	-42.2816014665217	-76.154716391552	-0.46544485713727	-45.0862077734397	
25203500	-0.35288372709057	-42.7820646181232	-43.076956766229	-126.435569931648	-42.955275679993	-123.071421676426	-0.431397030670318	-43.321671381072	
25453000	-0.595299313430609	-41.978037248201	-44.0412491724729	-169.947903610072	-43.8663539212526	-168.428279774979	-0.654124478769094	-42.2969689059732	
25702500	-0.918609375123851	-42.9986281640059	-45.2129264292168	148.292161056002	-45.1313024042349	150.792243555281	-0.967459312637922	-42.9412682671917	
25952000	-1.03878983398706	-45.5104080243313	-46.7343390777203	113.661760087742	-46.4830937618413	111.572612147679	-1.07921693751436	-45.0930476964409	
26201500	-0.838868609124649	-47.7665667046787	-47.38638169863	75.822665165543	-47.5659666183021	78.4337473358969	-0.877207404873879	-47.374627243463	
26451000	-0.503810095518109	-48.2244176637834	-47.6196189186215	45.587833057417	-47.7809265119389	46.9938258481495	-0.516694149581507	-48.2403216190538	
26700500	-0.299570836032277	-47.0168217680621	-48.1802434851965	7.55292561187616	-48.10502894563	11.5884544053936	-0.303174448608887	-47.5963586204199	
26950000	-0.392439477828904	-45.4820927983945	-48.5107249626782	-29.4251793657035	-48.7268638722845	-25.9293972815355	-0.405549602073547	-46.4850098534815	
27199500	-0.707833180841427	-45.1421901731361	-49.4620657902102	-67.8060028806839	-49.2169650144918	-65.3251300366016	-0.779593536809304	-46.1732877577281	
27449000	-1.02230057829692	-46.7613623832531	-49.8556529741788	-105.269623320828	-50.0235942897496	-104.010379865358	-1.17445616982174	-47.3996558907394	
27698500	-1.07214244992296	-49.5753481247044	-50.3903059829845	-142.049830433975	-50.9020631799613	-139.474431987318	-1.29009997791243	-49.5244087315816	
27948000	-0.804372180379708	-51.5316348970071	-50.3121478094095	-177.336134584514	-49.5101257435697	-174.073370603709	-1.04509002383239	-51.0911139494039	
28197500	-0.481839965619757	-51.4421836360218	-50.5101761076789	132.869093827948	-50.2683347654061	135.035867730763	-0.686601021674387	-50.7838549154882	
28447000	-0.358233302348339	-49.8538543769866	-51.2831914392481	85.9585824880388	-50.9238819923539	89.2744707421049	-0.461013904513176	-49.2588179816695	
28696500	-0.528524809793001	-48.4093701433957	-51.9833122347874	39.8323291012958	-52.5724931558633	42.5629884340927	-0.545423855774698	-47.9588679103701	
28946000	-0.866926496486506	-48.4479463179127	-52.874958748617	0.209924169074485	-54.0492145300575	-1.13740168983847	-0.841802322183527	-48.1505206896878	
29195500	-1.12182103284746	-50.4758412024599	-53.2456683316029	-32.58292266679	-53.8694869329367	-32.6412761739875	-1.09964229336907	-50.1444975607289	
29445000	-1.06320199395946	-53.2234932513107	-53.9918234372004	-57.4410302158756	-53.5517743512263	-64.5511606671173	-1.0789513922448	-52.8682862462722	
29694500	-0.754011907977857	-54.6473775065005	-55.1582958207978	-104.985838751284	-55.7022922264008	-103.50334834331	-0.803889941194304	-54.486261859754	
29944000	-0.47503304587792	-54.0474016693125	-53.9102415630548	-128.004673057235	-53.4607199252082	-126.653524061334	-0.537139115251914	-54.2361440671914	
30193500	-0.46092933242856	-52.3879511718208	-52.6585886377617	-171.709973990418	-51.6244468509436	-167.338217137318	-0.528922704858832	-52.6496071254856	
30443000	-0.727113706005316	-51.1876979749751	-51.1553329280818	147.625743592377	-51.1411692883312	152.454788002641	-0.808250250903715	-51.1786860952351	
30692500	-1.09974525535818	-51.7652342201727	-51.5935842921578	105.622573069348	-50.9954773126069	113.128934738545	-1.19476362593341	-51.15664176763	
30942000	-1.29531092487639	-54.0932221219308	-51.0809683567249	61.9995364818683	-51.0213768386078	69.8298087548993	-1.39090180680421	-52.8878513786828	
31191500	-1.137004597647	-56.4597995218631	-51.2254171004749	20.7385573899585	-51.4225854591441	27.3753765315661	-1.22378513580651	-55.1843775289683	
31441000	-0.776073261503409	-57.0647932156699	-51.5687284441003	-19.6459753497353	-52.3198995273842	-13.5728255614758	-0.82495320523393	-56.239214913292	
31690500	-0.517749487472297	-55.8807615169949	-52.5877742624908	-66.514943156145	-52.4347293089667	-61.037090849125	-0.49523621651911	-55.6872000979435	
31940000	-0.560273105006608	-54.1639895347665	-52.3082619473081	-110.635111932074	-52.7994831590642	-111.037163193122	-0.495623891938079	-54.4360530538709	
32189500	-0.874452703056741	-53.5429922515246	-52.5244169605865	-163.801774227844	-53.2876000484785	-156.834666135371	-0.795602571108547	-53.903648621328	
32439000	-1.23325407458566	-54.9851747381348	-52.8036970709785	149.520979447221	-53.0717447435101	154.910527426357	-1.20336594418257	-54.9460414431223	
32688500	-1.34457224003648	-57.88381582617	-52.252813253852	106.321153472436	-52.1407392101775	101.724910251158	-1.4000925124041	-57.2796864763912	
32938000	-1.10526461414286	-60.1362929422603	-51.7246953564046	53.6719503440194	-52.114002348584	56.0545161429097	-1.24006534978639	-59.1595293391873	
33187500	-0.747503708184234	-60.262317109951	-51.0526145512588	9.73536262869672	-50.9835025040796	11.5750301062485	-0.873704519558893	-59.2428572071741	
33437000	-0.570041087289138	-58.6252110097819	-51.1900790505548	-38.8972690832145	-51.7463189190773	-37.1288504950059	-0.615501792037988	-57.7580257165813	
