!Keysight Technologies N9923A: A.12.45
!Date: Saturday, 02 August 2025 19:58:36
!Timezone: (UTC+08:00) Kuala Lumpur, Singapore
!Model: N9923A
!Serial: MY61181427
!GPS Latitude: 
!GPS Longitude: 
!GPS TimeStamp: 0001-01-01 00:00:00Z
!GPS Seconds Since Last Read: 0
!CHECKSUM:0328016576
!Correction: S11(ON U)S21(ON U)S12(ON U)S22(ON U)
!S2P File: Measurements:S11,S21,S12,S22:
# Hz S DB R 50
2000000	-0.0615596129802649	-2.17921180252275	-70.8951132256252	84.068899169211	-80.360799966024	110.042840604217	-0.0771558042491357	-1.67147330782328	
2249500	-0.384252727661239	-2.83350765426594	-75.5360305693798	154.996706583362	-72.2272938828469	80.6054776013403	-0.382329125042087	-2.32947759370788	
2499000	-0.5287427425953	-4.56119284509747	-74.1952035253601	88.0737238301644	-73.1037262405079	88.3507704680348	-0.564395483982537	-4.1310335334272	
2748500	-0.373346726251421	-6.38422716358605	-64.3637092383712	47.0826043996462	-65.6964451557209	55.4667976702368	-0.386716753199204	-5.48804610494345	
2998000	-0.10231246891987	-6.8674916433966	-59.6031170890596	-10.5801950739956	-58.595727942205	1.72359680377842	-0.0558665937510595	-6.43155083929112	
3247500	0.165576109502593	-6.26008010532466	-65.5697023605911	-66.2668459839534	-68.3137547236229	-72.7298098837067	0.146216453590119	-6.20915918967151	
3497000	0.117297793160136	-5.66075238348453	-66.2892406218167	-89.3678771978589	-66.4442347638448	-110.241163327438	0.0967214352463474	-5.63162288239231	
3746500	-0.182642199217641	-5.73123384294028	-68.063779737451	-116.01144397818	-65.4695761715482	-116.207157930596	-0.182216301009082	-5.57695725554464	
3996000	-0.493524416952146	-7.08921786403839	-63.49184718816	-128.2127687727	-63.646760383598	-123.616044009995	-0.463370885573076	-6.6522767798586	
4245500	-0.605829812258126	-8.7884759589715	-56.2526589209498	169.617151754536	-55.8862720355946	174.375728122944	-0.504470943979681	-8.41907473366714	
4495000	-0.287741865839583	-10.0965495388766	-60.3043733799125	102.94042395981	-59.965304817637	115.890541526612	-0.272911773590935	-9.72992147894282	
4744500	0.0539044388560988	-10.3147970113362	-66.4461114449255	118.846282632768	-63.7138216185714	103.028641953991	-0.0100236653351404	-9.85056777729338	
4994000	0.177184263677213	-9.56211845659338	-53.8026990691015	123.545476953957	-54.6074400461858	119.310044173143	0.0480049583282354	-8.33344338559931	
5243500	-0.0418607094026612	-8.37423131879866	-47.8915686470551	27.3111144343103	-48.2011313266397	26.3521634043938	-0.00773981206755883	-7.24551107749064	
5493000	-0.300200337475494	-8.31764115909758	-51.980606687444	-51.0859757121227	-53.0840484882947	-52.0344386124757	-0.294361091291651	-7.58454546193998	
5742500	-0.533271852155438	-10.0711622327316	-55.4895169480336	-81.4217373048291	-55.6784729236149	-82.4626235176498	-0.520764400809336	-9.3606129152801	
5992000	-0.48859219530469	-12.3162659669682	-56.1936121998628	-106.722394391624	-56.3213175312906	-99.9068787727038	-0.469336275415358	-11.6417375946286	
6241500	-0.184464903608335	-13.7840152223135	-52.2323823925074	-132.443496514155	-52.3305223064642	-129.791693980201	-0.149745082195349	-13.0667002758533	
6491000	-0.0362255953725266	-13.035876417697	-47.5873515629749	161.557401462402	-47.7246866139558	164.963626196654	0.0985837490098067	-13.0122638850958	
6740500	0.121003633410682	-11.6642462396004	-50.0238860577567	101.019639708807	-49.7653199908297	100.401954999445	0.145108927659406	-12.2434181779425	
6990000	-0.0700204178083518	-11.4502252533894	-50.6951791680608	67.6068894381142	-50.4382685856369	64.7305647558321	-0.108696436457434	-11.8087054864978	
7239500	-0.415221354578346	-12.4780924543919	-48.8261204224346	28.9517445105282	-48.8544671155022	25.7915877975485	-0.535713887303876	-12.3171752434898	
7489000	-0.607830024831434	-14.6758010176251	-46.5520673831669	-27.3801735693479	-46.6631795090439	-30.9100165580145	-0.758416928416159	-12.966813079817	
7738500	-0.509105120901805	-16.7407967995199	-46.745940791552	-82.7282670775355	-47.0609864110128	-86.1951467227951	-0.501865757220209	-14.3487782882906	
7988000	-0.233214023216267	-16.8539358465236	-47.8987756707364	-146.475608212286	-48.3346869027102	-146.425664735779	-0.119881713833999	-15.2086541422431	
8237500	0.0786741247141519	-15.6415498342932	-51.6296340522688	163.513103459266	-51.9898491975624	160.641024566474	0.142023150062392	-14.8289909567685	
8487000	0.0861697937713459	-14.616883846365	-55.7259030137612	131.393749735345	-55.9530500652846	133.047900560701	0.118783487814723	-14.1095861753815	
8736500	-0.202716658388806	-14.4041635413259	-58.1480724046008	99.2805507840734	-58.420352557607	106.27066229612	-0.180137768713787	-14.1300833658349	
8986000	-0.545658069369954	-15.6397588673524	-57.857685319681	69.3579486126474	-59.8819098810413	62.2803503375994	-0.604244079576505	-15.559672971952	
9235500	-0.653157502913089	-17.8693170805319	-63.3257597620015	32.5013556628143	-64.8408060942837	58.6642847576604	-0.664558223924958	-16.4553030721291	
9485000	-0.44973504377617	-19.6472971820747	-60.5326074184428	50.4532332053847	-60.4478532444964	49.2834676676166	-0.363334706820273	-18.7828543645922	
9734500	-0.136565518164666	-19.8172407988401	-56.3908605658521	10.849762888483	-56.1154127624213	6.95475395216859	-0.0471965081631857	-19.623252815871	
9984000	0.0287315285717746	-18.6357954059582	-53.1929984209238	-48.6760971876914	-52.3599711361707	-46.9266406504438	0.0403865062540529	-19.055385900975	
10233500	-0.065121512177894	-17.5592214929667	-51.2658467080027	-116.017790535926	-51.2223163754175	-118.792604279126	-0.206541721333337	-17.5741002059409	
10483000	-0.376500564164304	-17.8747258609201	-52.0709372848364	175.234909586207	-51.8333295230487	172.428926714095	-0.514805441516782	-16.3611489665175	
10732500	-0.664935253861869	-19.8312554927624	-54.33382935249	116.486671639008	-54.204368916644	109.86747272609	-0.684248522461582	-17.4227391240122	
10982000	-0.691279139401969	-22.0816656298492	-59.4184306866567	36.7913912125658	-58.1532963708694	32.7152588921737	-0.618845405939758	-19.6506179078587	
11231500	-0.393954678892761	-23.3374562638708	-77.4264690360688	41.8759132329369	-77.8025196382126	114.12655942265	-0.301330311521524	-21.2676016061821	
11481000	-0.118779797836708	-22.7889345659598	-67.6427145380953	62.6099366854446	-68.2483414518611	66.0262299080362	0.0244442400149858	-21.4847303296703	
11730500	-0.0418413831922218	-20.9636350737818	-61.98363249799	37.3898290354321	-62.550890101379	46.738582208436	0.112327286259083	-20.8162945390239	
11980000	-0.191503857490488	-19.8098417321678	-62.6354553347152	-0.944120641307608	-60.3928397354566	7.18473142644819	-0.121213056942219	-20.3683722477898	
12229500	-0.512166261383669	-20.567788164689	-60.0354547409577	-31.6589602389411	-59.6226562054575	-31.8458945574682	-0.540736920188145	-21.079914585961	
12479000	-0.746362355585689	-23.0057147547149	-58.6981716275236	-61.4761632315169	-57.8989196757777	-62.7131447842183	-0.888715799380273	-22.7780749605694	
12728500	-0.665010832294919	-25.6546105883915	-57.4785934758938	-106.828617418237	-57.6530939425233	-110.087717117726	-0.845444627600655	-24.0642760661504	
12978000	-0.406414874247553	-26.6216626585349	-58.5685222024878	-165.81565895268	-58.2773389660289	-162.478802239104	-0.451505391921672	-24.1383746630865	
13227500	-0.176473410740126	-25.3049448149944	-62.3284162880934	150.830493481859	-61.7892771074417	154.966621381931	-0.0671346843029484	-23.3554606104151	
13477000	-0.111323928784954	-23.5381643650641	-68.7404823411835	132.101316991355	-67.0194428580905	114.889648350671	0.0167662355747557	-22.3302762109175	
13726500	-0.326642578511052	-23.1038123978689	-81.4860858693206	148.314280292049	-73.9454872600595	161.317385099943	-0.211931635081823	-22.0160235544348	
13976000	-0.663864834532518	-24.5014687056442	-74.5237502112374	177.678119628959	-76.8286474019233	146.600110001563	-0.552531504721997	-23.2518297780343	
14225500	-0.820626987488328	-27.1880800526847	-64.9295247540622	139.371077922159	-67.1758144157521	145.010578442205	-0.706803770259882	-25.7717450493262	
14475000	-0.695101732233599	-29.2123177804009	-59.9985620556893	86.7794642313691	-60.337242620993	89.3955982479028	-0.564490253273855	-28.0719048985844	
14724500	-0.408158681365727	-28.887110320297	-55.9798708847601	26.0225614936171	-55.5327638266844	23.0623988141246	-0.294081328191515	-28.7974462650547	
14974000	-0.128801476062416	-26.980004046858	-52.6748732300124	-46.7619819970674	-52.94065813485	-50.8241849690738	-0.187037502791148	-27.654496374101	
15223500	-0.124638318909266	-25.7832016208295	-50.7666750831118	-127.896258703362	-50.5489735126625	-133.387641226498	-0.32047933033251	-25.5084067810918	
15473000	-0.498758349167426	-26.1755429871882	-48.8277130736865	127.090925539334	-48.6458707497408	124.486809531122	-0.562694218370662	-24.419303107809	
15722500	-0.838309451803513	-27.3047759207031	-54.4168369332759	-29.1456618364878	-53.7707475873571	-25.6101361425888	-0.813301056239803	-25.6193879302506	
15972000	-0.857195231269938	-30.3294938602194	-57.1040816909938	-143.077230533295	-55.514171902574	-140.239154693474	-0.800000422510206	-27.9866510467776	
16221500	-0.644935186760784	-32.2513028217522	-54.4769844608304	144.598230763599	-54.0946750396455	147.489025178365	-0.493263520466742	-29.968612804124	
16471000	-0.357031704164401	-31.7251945291979	-52.9996470647198	98.8133461430518	-52.5095850851607	96.5673221149863	-0.132588402410797	-30.3929499640191	
16720500	-0.191611026865984	-29.8008906776497	-52.2626125969146	48.8626689555834	-51.1716242590428	50.6416831919497	-0.00500466450505341	-29.6663339998969	
16970000	-0.305323690224373	-28.543098511248	-51.6513527041217	6.0310134400236	-50.7968500934307	6.46745383711929	-0.237605508848666	-28.8509956240745	
17219500	-0.638589461990039	-29.0262594844991	-50.4175623358419	-32.8804554257606	-49.7376289405357	-36.8650787471609	-0.701596527816958	-28.8092838079492	
17469000	-0.906791264288111	-31.2963355860522	-49.3291282282819	-77.0552364700664	-49.5464130310177	-84.0814989279041	-1.02543346763836	-29.729994155849	
17718500	-0.868829131165105	-33.8998139349908	-49.2259280489117	-126.364461728396	-49.6880796427553	-134.063012203601	-0.891710286280819	-31.4612636782013	
17968000	-0.568453768120123	-34.893982493405	-50.2637359250537	-179.239511646261	-51.7704204737131	175.021709770576	-0.469865197479688	-33.0573705866618	
18217500	-0.25827013732921	-33.777081414811	-52.3235689914124	128.053720407901	-54.4239099184171	127.247039329328	-0.159265795534617	-33.3680974084743	
18467000	-0.16678265078728	-31.9997098258415	-55.9176913509342	87.7519581900659	-59.1717724378385	100.605295090797	-0.216632098626259	-32.2074661779459	
18716500	-0.393775318478018	-31.2510086851663	-60.5347112725582	73.8040842422593	-60.74623943063	107.336694052465	-0.515519884694618	-30.4523487918689	
18966000	-0.776512381879049	-32.3848384655427	-58.4411699378334	49.3315837806962	-57.8785081306896	60.0261987320225	-0.801617889652317	-30.3695385093028	
19215500	-1.01015999257574	-35.0921448759186	-56.8815973241345	16.4643673411678	-56.252820256195	15.5953660250437	-0.915225014794849	-32.470510539787	
19465000	-0.903642585146059	-37.470251114586	-56.0025798557182	-33.8309306462967	-55.1729802078371	-21.2847407047864	-0.728779645978139	-34.94818773219	
19714500	-0.564222761073716	-37.8486138227335	-54.5733806995809	-73.3640461246826	-53.4317549763662	-70.6445819495276	-0.360839340867911	-36.1348514248532	
19964000	-0.28982164230811	-36.4775511497511	-53.47873788263	-118.518065894571	-52.8899912648912	-112.218502897894	-0.12017279338085	-35.7255934494361	
20213500	-0.313349428714557	-34.8839384985568	-52.1032574802879	-161.786884781504	-51.7877440340085	-158.775317286352	-0.207419428465764	-34.6649949526977	
20463000	-0.631940316129623	-34.4867117790993	-51.5329652213203	158.43405294658	-50.7654283072703	159.124352818303	-0.597365265949676	-34.1304341911667	
20712500	-1.01349972797083	-35.9669231852953	-51.1619220063279	118.819759463661	-50.3373308625448	120.09291624356	-1.02524223076958	-34.8718450968606	
20962000	-1.14325565305582	-38.5639143083521	-50.3839909048954	78.7157327944384	-49.7685528432889	76.4766583111311	-1.1478585790523	-36.6882884339162	
21211500	-0.924613110431885	-40.1985512443916	-49.5152034259321	37.5240164059589	-49.6783687372781	36.0514178288699	-0.863088871371958	-38.1608328108385	
21461000	-0.541428220534986	-39.6626078491788	-49.4221947545833	-1.54453562845101	-49.3816797413231	0.392035421362732	-0.421017215170573	-38.2155310501339	
21710500	-0.297343475648731	-37.8743363095083	-49.4643413292323	-38.588728378459	-49.0644006209188	-40.98926653341	-0.155992858454048	-37.0872848827183	
21960000	-0.3903799755574	-36.458716347203	-49.0168389838757	-79.2000927504175	-49.0916581716384	-81.6302720977522	-0.241616616258024	-35.9302923124706	
22209500	-0.754982390005313	-36.6784202881013	-48.6223747236335	-119.191232527794	-48.5830146770406	-119.010996094458	-0.599734026114456	-36.0065633297079	
22459000	-1.10816038511123	-38.8217853528694	-47.9875005681555	-165.33033500973	-47.4537168766789	-166.194371158618	-0.951996114992442	-37.8887665321523	
22708500	-1.13437899721026	-41.3898840233429	-46.8142033425215	142.418077618462	-46.6743417662631	141.430756994233	-1.01324809763328	-40.6635128090129	
22958000	-0.784048861214703	-42.5330995765334	-46.9057575560761	84.4887336799561	-46.8246903409724	80.8872490011234	-0.748399119430482	-42.3430747064217	
23207500	-0.363740791399922	-41.9737653241591	-47.5185275336683	24.766938081967	-47.7182929159616	22.3993924863549	-0.423898966478075	-42.0863127004477	
23457000	-0.24709691941388	-40.4712870759806	-49.0053064586111	-33.6675382319007	-49.6644482472512	-32.3403247790058	-0.326796402737353	-40.3852961795617	
23706500	-0.486508721665722	-39.2564919074367	-51.7106654517399	-82.8608662396483	-51.7977537361749	-81.2905225392404	-0.529242583582764	-38.754771777595	
23956000	-0.880147583053485	-39.751048451307	-53.9522031288189	-125.116792219717	-53.8777110700441	-121.041131622422	-0.8764257445597	-38.6398159588161	
24205500	-1.12335049052938	-42.1800634878639	-56.4349891002332	-155.961535106378	-55.9340639956257	-151.252383022348	-1.09168761236553	-40.4724221426847	
24455000	-1.00803866134645	-44.8068022215223	-56.8308963275789	175.787913619561	-57.5523653847874	171.003506256308	-0.963567121677594	-43.0183920950728	
24704500	-0.630860322165773	-45.6105983420075	-58.2134149162694	149.023812981793	-58.9536678048553	144.061853667712	-0.569265543352085	-44.1567139346557	
24954000	-0.315103645489656	-44.4022298766696	-57.5858518419423	128.835424679946	-57.8810651209768	123.715475427218	-0.259701260098804	-43.8131197061126	
25203500	-0.288088660192132	-42.5516442897191	-56.8317627907079	97.6467299971878	-58.1144888025258	92.4337375719269	-0.26042983985754	-42.5354696214571	
25453000	-0.571887004227371	-41.7639918427229	-57.226815083771	64.909152761635	-56.9816857247658	66.0204957647015	-0.588576141501746	-41.7071437235161	
25702500	-0.971268889312944	-43.0605380598628	-57.2747984336503	25.3323756230116	-57.0881892777016	29.5969753558946	-1.03922754626434	-42.3984254308859	
25952000	-1.14024000192359	-45.9833321975341	-55.5182019421586	-6.99390264106266	-56.3713272312297	-6.3585202351209	-1.26451214679697	-44.5340642178309	
26201500	-0.931954213242106	-48.4007365782387	-55.0188711284464	-49.7125967916802	-55.2509820479855	-39.8082138056612	-1.09021267171358	-46.5777864313625	
26451000	-0.53718357592033	-48.6500004855025	-55.699076044004	-100.602833978676	-56.787020680251	-99.04913586087	-0.673650860025929	-47.0202047014113	
26700500	-0.271335170684983	-47.1329766816828	-57.1707589017464	-151.259463263646	-58.3263718776454	-150.275777909812	-0.368668909683246	-45.9327386237013	
26950000	-0.3414074932495	-45.4381762709612	-57.0987724977414	160.176043416091	-58.041217475363	157.418366622448	-0.392355940409834	-44.4876683153718	
27199500	-0.686871752550505	-45.1817210478176	-57.8020202599862	105.185662453584	-59.4309626195002	104.423206629092	-0.70580704321476	-44.0656094557821	
27449000	-1.04917696680177	-47.0371013659479	-57.0819746981049	58.7455140943391	-58.8704038829587	50.1194312053614	-1.06993494033566	-45.5044344953514	
27698500	-1.11310057969048	-50.0440572688431	-56.0082750258981	9.52350389002135	-58.5783962233976	-1.0281551788518	-1.1741052862621	-48.1017707367181	
27948000	-0.815610433906848	-51.9661462807337	-55.061956749872	-49.1615427564796	-55.6004230742246	-43.2164280607473	-0.926394980942782	-49.9884044867502	
28197500	-0.450686297696197	-51.6184188860993	-55.5364921355791	-96.2961014397718	-55.707254597377	-101.385078908016	-0.576797546877854	-49.9135608770167	
28447000	-0.305081779818811	-49.7639010139838	-55.8793992692983	-148.546712793	-55.8667694455293	-153.852173976568	-0.421321211935649	-48.2967771805312	
28696500	-0.503190303457631	-48.2591344671107	-55.8756413485365	165.391552261348	-57.374015305706	160.686516447234	-0.59194582731695	-46.6077750089308	
28946000	-0.910601413043438	-48.5113874697537	-59.3959964356909	108.927366951939	-60.0417387214616	114.832178876726	-0.96083760811265	-46.4426481491645	
29195500	-1.22353391650984	-50.9114821265212	-65.6656639272127	80.6226121328508	-60.7408385745299	44.3766296532845	-1.25290562589142	-48.4342213950578	
29445000	-1.17302877247906	-53.9475526813353	-61.5934246538858	-18.55876216099	-61.3835417001175	-16.86965259982	-1.20579876362719	-51.4248246774249	
29694500	-0.82553755611719	-55.2248470765623	-65.4006660102156	-95.8965794646844	-62.1350321027858	-90.2372429263654	-0.857840235696844	-53.2213896735003	
29944000	-0.488692088075021	-54.1924137163979	-60.1847545856021	-147.426432641567	-61.1007982062826	-158.950871669743	-0.51800228114047	-52.7859601341019	
30193500	-0.430690178072641	-52.1164071216107	-59.8771957828685	130.271871633951	-59.1892455549527	134.689348203807	-0.451092800231466	-50.8133002186409	
30443000	-0.688725701936042	-50.8098639129845	-61.4585071244983	87.5774972040713	-59.3397332895203	76.3411377960768	-0.682270778097908	-49.081810102789	
30692500	-1.08732543553435	-51.6702415440951	-63.0176164289013	26.6500341788618	-64.3124569388606	26.5664030942407	-1.05998868445284	-49.3332072605772	
30942000	-1.30726332769827	-54.4357967903469	-67.1331074798995	-43.4827050552343	-77.0228433246989	-38.1206184185823	-1.31396424107836	-51.7120795103649	
31191500	-1.12899716989802	-57.0841591041382	-70.1678045357344	142.466016825239	-76.0026133837023	-158.968293406824	-1.22173038379596	-54.4923316340159	
31441000	-0.73729277799001	-57.5988696760701	-63.5938022185131	65.811820463923	-64.8051675128707	66.672428487285	-0.86587937364711	-55.4869219799455	
31690500	-0.461630729523277	-56.070907606808	-59.9105382769431	19.8737552422982	-62.7218660039014	20.3939188291603	-0.549592875237379	-54.3604298502637	
31940000	-0.520585332207581	-54.0907136009395	-59.5619876769439	-32.0827091674143	-61.1092528279809	-36.4862925541718	-0.531888486636009	-52.4394776173194	
32189500	-0.890122501069115	-53.4953798787653	-62.3540119446731	-87.0537731480916	-60.2132987660275	-94.9177524500931	-0.824561189287931	-51.4581941714714	
32439000	-1.32129596255696	-55.2908793936357	-63.9035517287343	-148.47931279627	-62.8616745735587	-137.642524697037	-1.23141593236514	-52.5202353109388	
32688500	-1.4631495663231	-58.6209110535068	-65.3288722969529	-179.560419320107	-67.5204676824721	165.866621794089	-1.42510378617332	-55.3272925661147	
32938000	-1.19046593616041	-60.9768705690587	-71.4066855674233	109.475974075281	-67.9982160472755	138.786985228631	-1.21781551032672	-57.7692749919043	
33187500	-0.774912672701054	-60.7725664445494	-70.2547025847914	53.4497323986137	-74.8938304283403	50.8027136553166	-0.797291549239244	-58.221707167272	
33437000	-0.554253424667603	-58.6384987717899	-77.0804113867177	-33.782151829214	-72.691156029055	16.6947027951989	-0.51256227512775	-56.8551307807429	
