!Keysight Technologies N9923A: A.12.45
!Date: Saturday, 02 August 2025 19:54:30
!Timezone: (UTC+08:00) Kuala Lumpur, Singapore
!Model: N9923A
!Serial: MY61181427
!GPS Latitude: 
!GPS Longitude: 
!GPS TimeStamp: 0001-01-01 00:00:00Z
!GPS Seconds Since Last Read: 0
!CHECKSUM:0396029529
!Correction: S11(ON U)S21(ON U)S12(ON U)S22(ON U)
!S2P File: Measurements:S11,S21,S12,S22:
# Hz S DB R 50
2000000	-0.0616170281079349	-2.19871405342251	-82.4592017255736	-120.226235066779	-69.7816305524528	-78.8918402194744	-0.0773073473962071	-1.74847240594328	
2249500	-0.377016219490474	-2.85021397640788	-74.5854161064945	-107.507580964811	-73.2310203160904	159.253522921233	-0.375809891257258	-2.34600190170051	
2499000	-0.523624944142348	-4.58079612086219	-71.7395453139014	176.132300961562	-74.2344222436191	-99.5572670024939	-0.518354511921679	-4.10015538069062	
2748500	-0.372240595218329	-6.36661624303716	-59.3245473446437	131.058048402456	-56.8560094618414	144.109378016415	-0.434203764108647	-5.74284475582727	
2998000	-0.10035574819606	-6.825998057962	-53.1811299218728	14.9999547871481	-53.7854362749824	18.5848967836053	-0.0783272299626637	-6.20708167256706	
3247500	0.161903221738519	-6.25428871014799	-61.1980670366552	-53.7764161857871	-61.5874253161162	-61.2041535890583	0.137823990226575	-5.99956770266265	
3497000	0.119592672971273	-5.67296501409253	-64.3527472870578	-89.6219046683061	-64.8594176463966	-98.2694410869773	0.0933853543825004	-5.4806375188778	
3746500	-0.178994209901007	-5.75923482582931	-65.2019073223557	-97.5764733834986	-63.9945840544436	-84.7529388462019	-0.185454627674367	-5.5204400160889	
3996000	-0.495272833057272	-7.14670492352742	-60.8056102335957	-109.648941133814	-59.1463784546598	-107.887866251165	-0.46106025729496	-6.68232812761566	
4245500	-0.591758056957496	-8.76996391691202	-57.2707277452496	176.301176997346	-57.0856638612817	171.205516226895	-0.501747917687469	-8.50988405906789	
4495000	-0.281790280920594	-10.0922569416258	-63.489370157363	123.610590648159	-65.0039623194501	140.869391141316	-0.262366948082619	-9.81162272879415	
4744500	0.0541769140821938	-10.3062888495208	-67.0669719565022	132.823584932266	-68.7843526986212	138.233151111738	0.041017688648771	-9.89583575616071	
4994000	0.175823452894224	-9.5549939839298	-60.3340668506404	-172.087341062043	-59.0258551935413	176.308791837928	0.147868056458345	-9.11768466731162	
5243500	-0.034590092651244	-8.33818519852354	-46.4002090846171	103.224554873876	-45.5942838835633	90.66327012704	-0.0700104651085662	-8.14662401606094	
5493000	-0.301013464889314	-8.36952741107799	-46.4511718302443	3.35256419805599	-46.7775450484497	-8.3386641121933	-0.409416240019247	-7.57460337290748	
5742500	-0.528789599211253	-10.0774021480159	-50.4055989343116	-53.894588961352	-50.7301446119773	-59.8224107213326	-0.566653673686605	-8.89737657249192	
5992000	-0.483310976388156	-12.301908458765	-52.5000491234434	-87.823245436658	-52.7800432934962	-91.2570540212307	-0.486893515312505	-11.1328485814886	
6241500	-0.223393220237693	-13.6947772043453	-50.6789854839624	-119.481025385658	-50.7936115367357	-124.008410653621	-0.169433880800631	-12.6087545095133	
6491000	-0.0336074517135855	-13.1130201078737	-47.7242577712706	175.89432824399	-47.0888178918516	165.028871637084	0.074051093098795	-12.6742777049169	
6740500	0.114995543520284	-11.6670039316577	-50.2988246099971	98.7891779557634	-55.7694449053431	75.9039977848657	0.111513178656304	-11.6592992365704	
6990000	-0.0709026015123213	-11.4206511045274	-63.2588408580119	52.8222783882982	-59.7490687064132	95.8807768936775	-0.0586962343237507	-11.3185433554741	
7239500	-0.406889496871158	-12.4602915637565	-60.0574530721955	82.2462276524753	-59.1553707783216	76.5272378037431	-0.381849277669314	-12.1531468143133	
7489000	-0.594148077925844	-14.6883621494654	-56.1375250038687	63.4469113068695	-55.0606571289696	60.8474232990888	-0.548659071377503	-14.12006132528	
7738500	-0.507829347801254	-16.8025803033912	-50.7711839491584	33.4532865870336	-49.7527980100946	29.2249777412371	-0.437776812164516	-16.0977477913764	
7988000	-0.239921576220569	-16.7515883603251	-46.1487376022117	-29.6769897245985	-45.5934939829357	-34.7472798238222	-0.185840494902661	-16.8228204672602	
8237500	0.0874323060753177	-15.6217373733983	-45.6290086120433	-95.7474956889614	-45.2224256780399	-103.518224320731	-0.073127299078344	-15.7925982252431	
8487000	0.0876486017246722	-14.6580892725731	-47.0923304519032	-157.71237342083	-46.9791385220132	-165.895501566027	-0.121013800325966	-13.4937873581851	
8736500	-0.202743351572937	-14.4424914330413	-50.1526742473338	154.365492934067	-50.5648468374677	153.218702283731	-0.277729602778439	-12.6629432631831	
8986000	-0.54513143504393	-15.6688741687021	-52.5939671851338	122.410630455793	-53.4571022044402	115.655169255613	-0.527340320681189	-13.9039835564718	
9235500	-0.648825107895182	-17.8593949614791	-54.0644844674185	93.3276339210442	-54.6228819167423	91.2191975178632	-0.587263319391832	-16.3018921144249	
9485000	-0.440346806632838	-19.6060751502793	-54.4885513703029	63.0116062663802	-55.5435753030581	56.605807444747	-0.359866546525503	-18.3990462604883	
9734500	-0.12798462704926	-19.8091936726459	-54.2008376494178	28.6343609121554	-54.2743475948068	22.8305209917229	-0.0261708323164493	-19.1123035976925	
9984000	0.031701127884783	-18.6744070694725	-53.8205913731006	-11.4107491184427	-53.3805004019368	-18.2775997988962	0.133251001103578	-18.6459255516769	
10233500	-0.0673804212430059	-17.5788985532374	-54.0527083880074	-59.5184429548519	-53.6333191566517	-63.7267308118069	-0.00992863843906968	-18.0268830984682	
10483000	-0.375310602167071	-17.8913497864741	-53.4529544398178	-103.140554803043	-52.8917582713813	-108.195467427756	-0.389811494906014	-18.2964635899955	
10732500	-0.660512401243912	-19.8430464103742	-52.9375753298419	-157.647772864044	-52.1400237956838	-167.998640605086	-0.768747101905571	-19.6780916927091	
10982000	-0.689817539685798	-22.0539513110075	-57.1023428608326	121.835350101912	-55.7923039822504	109.216126582758	-0.868354316565892	-21.0234267381594	
11231500	-0.386797917872077	-23.2833681616017	-62.8250025759409	157.210956729522	-67.3587620907421	142.855973975817	-0.559768875204934	-21.0913996378184	
11481000	-0.108927323183199	-22.8008438687335	-56.2459835759181	103.555489522879	-58.2703930291434	86.0555805386816	-0.120557863208558	-20.4434830404047	
11730500	-0.0451085196139674	-21.0226158487321	-56.6723721564581	55.5435477054568	-58.9416179292575	42.9299287057699	0.0657421712301324	-19.4359953653126	
11980000	-0.197967881608003	-19.8284375377297	-58.6173998567117	15.1513032405854	-59.809413426546	-4.15017570362022	-0.0895454696239042	-18.8355580805353	
12229500	-0.512526663636128	-20.5679389949312	-59.249172578464	-28.1862708355539	-62.3107048061655	-32.5591783808348	-0.41586631292685	-19.5615938906609	
12479000	-0.736805424990735	-22.9894691904188	-60.0532808352388	-44.4688133431989	-61.9395918367146	-67.9334213746764	-0.646044322897108	-21.7482585659905	
12728500	-0.65450938507316	-25.6362262798134	-58.7599537629476	-65.0714989986437	-61.6966241660505	-75.400010556103	-0.551189847592732	-24.3284139849052	
12978000	-0.396082297530518	-26.6352271154586	-58.9214217091633	-113.811147924814	-59.7825500893677	-112.857300729854	-0.257023908953528	-25.7434665615021	
13227500	-0.176241753146247	-25.3485607505094	-58.7972965629823	-161.342690862865	-62.7458495588416	-158.892078358229	-0.0524098222458093	-25.5907996906612	
13477000	-0.117793228940298	-23.548610459267	-61.9052539637034	147.814740800772	-65.1106289926152	139.544133343522	-0.153574436716393	-24.3667591417396	
13726500	-0.326576210005503	-23.0986912289841	-69.9515294329325	121.097758144055	-77.4434139379766	165.043873446674	-0.486632383344915	-22.8704112000022	
13976000	-0.659897479179901	-24.5056146695075	-65.5537006817597	128.758430502387	-66.8869584264194	150.040470782121	-0.712742669524529	-23.0257993276581	
14225500	-0.813551980122322	-27.1656443935011	-55.1355416588253	14.8406076493469	-58.3030119407924	29.5724971701336	-0.843337620954912	-26.0307589376962	
14475000	-0.687165076077856	-29.1930527562406	-54.1745535766864	-105.091033307345	-53.1297667118884	-111.107683634152	-0.791806739745255	-26.5873562452618	
14724500	-0.402643523528863	-28.8904386486538	-52.5908377401892	172.134013233166	-52.8268619800818	162.528792921089	-0.298400987974606	-26.5450398661181	
14974000	-0.126344112000701	-26.9921224174544	-52.7572521779192	107.614184805488	-52.5344944045063	103.715637678269	0.00565138375354297	-25.8755244812175	
15223500	-0.123102737619546	-25.8366993576711	-52.2562948568666	53.4369809330292	-52.3201102525469	53.5303510241472	-0.0347808147319188	-25.059372234458	
15473000	-0.51678904171415	-26.2471914786047	-50.8613882258881	-13.7137248960299	-50.5597062534967	-18.1089244577673	-0.348671668745175	-25.2359504586828	
15722500	-0.828572192618186	-27.2419493648224	-56.742482793405	-96.3300172501723	-57.8097266661489	-93.4308655210854	-0.686359258275144	-27.0933017916251	
15972000	-0.845034307679127	-30.3090892485663	-61.8982951226084	-109.081867726442	-61.0555079803285	-92.4937774352027	-0.787925785666006	-29.9004831674174	
16221500	-0.630791879826773	-32.2815886080358	-60.2981495150949	-131.766514149519	-59.6418315694268	-124.747526428129	-0.610090423181535	-31.8854242494576	
16471000	-0.355850475660955	-31.7782934312936	-59.7306397518537	-171.293399552321	-56.6902736068219	-169.348987047579	-0.386075768793714	-31.7469137676918	
16720500	-0.198767753772566	-29.7964543352017	-58.9745057072488	139.757065822025	-56.1630535375792	140.424295178645	-0.320925545461015	-29.7359761642393	
16970000	-0.307788989587216	-28.5110110778874	-58.1800210253726	106.18448390827	-56.4259171397024	97.7625480443846	-0.450665802149463	-27.5736299674137	
17219500	-0.632074778377437	-29.0173394047539	-58.9037245838986	63.6168751609986	-56.6608173093656	63.52922903836	-0.698223814148052	-27.076791647077	
17469000	-0.898528733879731	-31.3162835457129	-57.4245117705026	32.1188149591165	-55.1286696695498	28.125644329058	-0.875188263689564	-28.7007166196369	
17718500	-0.859221636372584	-33.9264040453596	-55.3696454255139	10.6018719761279	-54.5507263716885	1.26987880972925	-0.767383528324301	-31.1322640288611	
17968000	-0.566550931792549	-34.9000699546012	-53.1089029787852	-30.5406693744979	-53.0895686999145	-34.2183087689385	-0.413076331306363	-32.6788918787357	
18217500	-0.258100261512853	-33.7722982057997	-52.3980471123994	-67.035456613163	-52.1622261296864	-74.2336772489705	-0.0826646116291642	-32.6417320699605	
18467000	-0.168742771661535	-32.0093480855753	-52.0749959234437	-107.325828002896	-51.2302601053101	-111.948973625168	-0.0270729085960631	-31.744439237814	
18716500	-0.392116335743276	-31.2658000335188	-51.4115426899741	-144.051807800205	-51.0901754005638	-148.89564836986	-0.302725069968004	-31.2857028015973	
18966000	-0.773835134649758	-32.4111982456255	-51.1552751097121	-178.765857546895	-50.5242298308316	176.404566632218	-0.738162618523319	-32.2014494135784	
19215500	-1.00185657027429	-35.115472192444	-50.7018979755638	141.375706579362	-50.1375018304837	134.335830299565	-1.02370204611878	-34.4555728806158	
19465000	-0.897521791258549	-37.4927343741742	-50.9095064985455	96.6685910085438	-49.4837219301972	88.1809126578471	-0.964581407071823	-36.3848262945023	
19714500	-0.563615486453368	-37.8068253947721	-57.4153208556593	51.8793720836829	-51.0962488407835	39.3289665876017	-0.630835866408339	-36.507196311578	
19964000	-0.281393597689262	-36.547248351904	-45.7123172502615	42.5131101678669	-53.9778965143797	56.7476312413818	-0.283025546954228	-35.3208140522248	
20213500	-0.31972209438367	-34.9084304190511	-47.0880597850373	-29.6068306293856	-46.6145106740764	-28.0578389088775	-0.322626023914358	-33.4611012084153	
20463000	-0.635123616773621	-34.4628613570091	-48.4069066115639	-76.9498787854327	-48.0412122209594	-84.079357535489	-0.526291560114358	-32.5721377574375	
20712500	-1.01031669728599	-35.9456862443032	-49.2838189110441	-121.073077957166	-49.1609163057675	-125.675509714224	-0.816442448180858	-33.751602587474	
20962000	-1.13600985869005	-38.5559823933044	-49.2097451810959	-157.129395088636	-49.5128260382866	-162.925985726744	-0.89660718158232	-36.355513517464	
21211500	-0.916852053609335	-40.2040939416146	-49.2819766377358	163.367260532593	-49.1762058608721	157.596074675721	-0.661678743646789	-38.6330244693433	
21461000	-0.538178281747604	-39.6911903097964	-48.265890919385	125.956939386741	-47.7943017932086	118.731852786741	-0.316475905435171	-39.244062745407	
21710500	-0.297703082981159	-37.8933486775167	-47.2525345075069	87.6262838813618	-46.7962988427995	80.0559532902419	-0.164406382447854	-38.4000457144104	
21960000	-0.390721220366003	-36.4743542057358	-46.3438289609038	47.5318539864257	-45.8135536536044	41.0616378575718	-0.358422661076324	-37.2107940569421	
22209500	-0.754477502193353	-36.6924169488096	-45.0795038280331	7.75220776723529	-44.3739492796559	-3.85043670225076	-0.797667119180314	-36.8575519564161	
22459000	-1.10305665849298	-38.7901878449325	-43.6374555719976	-39.4398954160581	-43.5015198203177	-50.2610678219007	-1.16025514276778	-38.0338494999398	
22708500	-1.12102664164798	-41.3885885683868	-43.1131568702317	-90.1560526142314	-42.9069654459353	-101.513463980801	-1.15330995275248	-40.2137275891721	
22958000	-0.779268052027033	-42.6000106675381	-42.9901453122405	-145.740188455947	-43.3080954629812	-157.810082916278	-0.808728652761908	-41.7270703597567	
23207500	-0.367859472804327	-41.9680018300599	-43.7311083021301	158.874993477464	-44.6667468584526	147.27636551414	-0.421020186015163	-41.4682887422699	
23457000	-0.241071099878297	-40.4537161386008	-45.4968848160078	103.46721134417	-46.8959774075857	91.2211968997085	-0.26651264840482	-39.9242928516444	
23706500	-0.484316470263709	-39.3062156005242	-47.7593019054928	47.1176928432945	-49.7958241562767	40.6706800128748	-0.429028171434233	-38.5979772492821	
23956000	-0.88129837809097	-39.7678546490441	-51.321952336096	-7.22495602547173	-52.7910118941998	-5.75115962273039	-0.771258919106146	-38.8597990168647	
24205500	-1.11866852951029	-42.1386814004016	-54.6796786281274	-50.9833252922053	-55.0261119107575	-46.73700065142	-1.00777203845607	-40.9723916924436	
24455000	-0.996351007628251	-44.7772544851914	-57.6226650214191	-90.2886016923022	-56.7861858058447	-80.2789576694507	-0.926009020821719	-43.6788499915017	
24704500	-0.624999384010465	-45.6372355947205	-62.0716237482929	-127.908569406886	-59.0704826345874	-116.04510964802	-0.590986195855522	-44.8513310364223	
24954000	-0.314307497636684	-44.4345218980275	-64.601201056506	-142.496104329204	-62.1018681830725	-146.791573558487	-0.340662075664488	-44.4374260795259	
25203500	-0.290591072270245	-42.5861855907974	-61.0973428547171	-140.826114647874	-60.0877355275693	-153.415585243971	-0.388596312655498	-42.8972242059381	
25453000	-0.571164666603437	-41.7838076831254	-59.9477306694311	-174.971580920353	-60.2380253887608	179.768166656518	-0.728654225533243	-41.74420709832	
25702500	-0.964787379983756	-43.0679829525626	-58.3775537140596	171.341978354172	-59.1742123607799	143.103231413204	-1.14023364431834	-42.127283893957	
25952000	-1.13435440636664	-46.0100959009212	-56.1108895136727	123.123213705098	-55.6662309948543	107.572689007471	-1.29463425624294	-44.1579593416733	
26201500	-0.925497092724067	-48.3971215242683	-54.3427761599612	79.5125508049863	-55.3495648042275	63.64621880021	-1.05006339870817	-46.3175871132886	
26451000	-0.534993398353653	-48.6642969349387	-53.2843340908126	38.0768802260216	-55.0234598326713	30.0872300338088	-0.605573162493101	-47.0088738449743	
26700500	-0.27253806006773	-47.1434848020664	-53.9543744190621	3.44812021943702	-55.0077958436203	-11.7671226369705	-0.307281954562441	-46.1154764791736	
26950000	-0.342502161756153	-45.4357709020112	-54.2921586565849	-40.4472112726166	-55.0644734992064	-59.6387697511212	-0.355270245363075	-44.7905737777175	
27199500	-0.683889267445736	-45.1758841518365	-53.7044746578201	-79.6386935946303	-56.8960388517683	-104.348924866062	-0.708059085779394	-44.4218124723923	
27449000	-1.04473826608198	-47.0659854999671	-55.6831024539347	-125.211792120716	-56.9166622019711	-137.243795776295	-1.10934743566648	-45.8553020587839	
27698500	-1.10390411735721	-50.0774319414148	-55.7150083150605	-171.038026223179	-56.9879008975132	156.400911150097	-1.2498114884977	-48.4512871161717	
27948000	-0.813423803915735	-51.9746464488778	-57.2157097649689	131.656333842087	-57.4872482313913	99.7118683152022	-1.03503029867875	-50.3223204714273	
28197500	-0.450827189701315	-51.6108559600653	-57.0873267055244	82.014994786457	-57.7225271856284	40.976405543114	-0.697523721748662	-49.9855470053131	
28447000	-0.307544545852649	-49.786599506799	-56.8823769026822	31.7274507929554	-57.7627931346723	-15.4962854910789	-0.502654860751144	-48.0038727705956	
28696500	-0.502184921368054	-48.2591220735541	-57.2713487827356	-30.8485313163247	-55.4952706729757	-90.0440733935402	-0.588928309925715	-46.234625351538	
28946000	-0.909916632484119	-48.5101392783223	-54.8460171372722	-90.7368423526417	-55.5370981020031	-149.421150728555	-0.900346183547596	-46.4596800885839	
29195500	-1.21743949759008	-50.926121651068	-56.4939652539221	-143.917434981595	-59.4398962332149	133.907998694021	-1.24665031299277	-48.8775945810808	
29445000	-1.16538472189629	-53.9848877623391	-56.5293985238435	145.510076642356	-63.470372755818	1.25834776762273	-1.28903835470528	-51.4655132265028	
29694500	-0.819474737557789	-55.2663616940551	-59.8730115025497	48.5963178236605	-61.7594327711977	-84.9711716031041	-0.919205761598948	-52.6426570307278	
29944000	-0.489806949786505	-54.2088243309206	-63.2327257231837	-62.6210356016872	-60.2036648557368	-155.072052713232	-0.497744067480981	-52.1292814090613	
30193500	-0.430566420638119	-52.1084498351419	-61.0578771909481	-164.74897615305	-59.6812740497233	150.340040415276	-0.36886647413235	-50.5838795916816	
30443000	-0.683330556728902	-50.7891383201337	-59.366291734973	147.19663572127	-58.779850588535	114.569207260568	-0.609738266813052	-49.3983848070822	
30692500	-1.08545309062303	-51.6583629035043	-60.0577063340602	82.1670456891106	-59.7866900705596	53.5339539192196	-1.03569364471931	-49.8791235062427	
30942000	-1.30102751655132	-54.4494919609932	-58.317801319077	34.2739018200341	-57.9912345737135	16.5309472028578	-1.32678153165779	-52.1076781731482	
31191500	-1.12673229232606	-57.0985961777668	-58.6788641252559	-16.1279105489161	-58.6996031227176	-31.6997276248316	-1.24397628288658	-54.7218428205676	
31441000	-0.737052405283256	-57.6103020766245	-59.242825574526	-71.2311458565592	-58.7229424855444	-95.7552078672547	-0.883877479590402	-55.6719615200657	
31690500	-0.459303205630198	-56.0874895870811	-59.0669100355526	-126.363092901711	-57.1407928193183	-154.535582836472	-0.5688506761856	-54.5963074266555	
31940000	-0.516411865558871	-54.0974282099243	-57.9249508722868	172.349000700501	-55.8969306500833	148.321962321713	-0.562369577802624	-52.672618488311	
32189500	-0.886497493774674	-53.5193940823063	-58.3680969820938	124.115206529299	-56.0957357216081	103.114466396985	-0.85369241056618	-51.5866028169355	
32439000	-1.31711218118285	-55.3044511152234	-58.9149478768378	71.6846168280316	-55.6246768581975	51.7411379963223	-1.23910255205216	-52.4835180048839	
32688500	-1.45680516356788	-58.6311286806648	-58.6387770596519	22.2907982051511	-56.3400761934527	9.95677426041321	-1.39071292527592	-55.2291090083229	
32938000	-1.18765415850652	-60.9993701969501	-56.5496985886938	-14.617094744698	-56.5571581904695	-30.7968067890841	-1.16096643293779	-57.8169170059536	
33187500	-0.773621425504672	-60.7831247985397	-58.8504259142238	-58.4204271319692	-56.5447106296886	-74.2942938499008	-0.751528711410733	-58.5687148168851	
33437000	-0.552496979118874	-58.657601160062	-60.0868716193353	-96.0434986002731	-57.4595182523095	-109.350145849653	-0.513801595062535	-57.4252685826383	
