!Keysight Technologies N9923A: A.12.45
!Date: Saturday, 02 August 2025 19:23:37
!Timezone: (UTC+08:00) Kuala Lumpur, Singapore
!Model: N9923A
!Serial: MY61181427
!GPS Latitude: 
!GPS Longitude: 
!GPS TimeStamp: 0001-01-01 00:00:00Z
!GPS Seconds Since Last Read: 0
!CHECKSUM:2129092581
!Correction: S11(ON U)S21(ON U)S12(ON U)S22(ON U)
!S2P File: Measurements:S11,S21,S12,S22:
# Hz S DB R 50
2000000	-0.0565487287348686	-2.63891516727245	-80.8283959448387	-7.73429276838429	-82.5956783970886	116.898735313631	-0.0864657338650013	-2.48291645765735	
2249500	-0.33047874845228	-3.30176942775972	-74.8127613217889	-126.728757187183	-73.7052822158845	-85.8897530186797	-0.341972143701437	-3.08034888271046	
2499000	-0.453623007770249	-4.819618088798	-64.858172065498	-115.831137633065	-66.9895062500849	-143.500431716126	-0.452397003040735	-4.51855347339448	
2748500	-0.336655796801505	-6.3293746545778	-49.8873418169528	-177.41673998368	-49.6898418839219	-174.718382167362	-0.359989084482847	-5.99365200340378	
2998000	-0.0525628365409128	-6.76455577600306	-46.7479061824348	71.3441414046959	-46.8771747433826	71.4679505479489	-0.0653676036749379	-6.19132892215294	
3247500	0.127905884080648	-6.12334834368081	-48.032308908264	-27.7468449930054	-48.0073328883472	-26.37471463337	0.0981552145047038	-5.63849326998537	
3497000	0.101407260166961	-5.57411768236647	-54.5814392578483	-67.5567964976985	-54.7474973020847	-70.9957409964578	0.0775578781423896	-5.16482545398202	
3746500	-0.150789593053682	-5.68886152705033	-56.0930686242218	-86.7713758561375	-56.4742575324471	-80.7340415130837	-0.169568253129487	-5.41435317333205	
3996000	-0.418467290129947	-6.97146641816751	-55.847447143227	-125.936348005357	-55.4154662146967	-128.460148744048	-0.440880021941364	-6.28739527915264	
4245500	-0.511082682542166	-8.65682262005778	-55.8439748349879	-174.366284184202	-56.6279987973709	-172.949039991769	-0.45281891377846	-8.23943757109573	
4495000	-0.255698984468829	-9.85904857532832	-66.7154486217219	174.570955752708	-67.0131450284924	158.973538870683	-0.242796961669305	-9.70640093180063	
4744500	0.0305400692834381	-10.2364114672694	-59.5888220110336	-134.612379359658	-58.8879449042608	-137.529753666165	0.0281446531956777	-10.0493765600246	
4994000	0.101616088205491	-9.71332413280869	-47.249708184931	-171.082346342165	-46.9171247257979	-172.742726782014	0.12731250631747	-9.58432914913238	
5243500	0.0100641868786625	-8.61818758167399	-45.4824144349477	98.7178365003085	-45.4486897808879	97.6579833974586	-0.00234780363146485	-8.94299746017949	
5493000	-0.257811355036251	-9.14684517207341	-45.7359784418605	64.148183889913	-45.90004999869	64.22013159833	-0.288182888630455	-9.35462305779942	
5742500	-0.49072616470454	-10.7279501425224	-42.0289673285469	29.5996828058926	-41.8886306459871	27.973375124577	-0.569267008680696	-10.8120749963733	
5992000	-0.47117489946561	-12.2946503992179	-39.2725462793482	-42.474119125733	-39.4181067337386	-43.030709240635	-0.570901808324513	-11.3999971194612	
6241500	-0.196264964668031	-13.3678374494244	-40.9682740463335	-93.562252909488	-41.1648796810862	-94.2516358282312	-0.222005751302152	-12.2915633397798	
6491000	0.0102411290949787	-13.211643769953	-39.7079833418743	-140.061733854814	-39.8754240252405	-141.53435458951	0.045380213347375	-12.3577382205394	
6740500	0.057095423647497	-11.6922975041751	-40.8539263231694	151.050175161928	-40.9738980545846	149.135808544425	0.0883089523031809	-11.402862953693	
6990000	-0.0708824261136693	-11.2994576664536	-44.79881193342	109.61247832746	-45.0582693057333	107.99361994951	-0.0682133293938103	-11.0868905831064	
7239500	-0.357075915215576	-12.2362781936938	-45.9285897034078	76.3049058869588	-45.962389368848	74.8123467567082	-0.36403728139127	-12.044086455661	
7489000	-0.511914485943503	-14.1880819303913	-54.5698284857945	65.2635448865274	-54.8728529065868	62.7397377611071	-0.504394891129404	-13.4386122503707	
7738500	-0.425881223976788	-16.3049728354765	-47.1975365038907	54.4650035260098	-47.4389234929295	53.2992639442024	-0.371826880971858	-15.5595465177312	
7988000	-0.236467724718332	-16.8451921793937	-42.2446056712204	9.18310061966749	-42.346966079944	8.24142903197369	-0.117981305787382	-16.5369777564133	
8237500	0.011840649186152	-15.5745781816152	-41.009956127943	-50.3519700442322	-41.1391740851009	-50.4061338504072	0.0489607494093161	-16.2401318551374	
8487000	0.051797075841325	-14.8679466411661	-41.0093204889056	-94.7155492279777	-41.0312501746602	-94.8588633050895	-0.041325479728906	-15.5220325082265	
8736500	-0.196135379635962	-14.9713242457863	-40.2065247388643	-140.951556216395	-40.2855785491729	-141.349880438255	-0.365114100700151	-14.8683750086539	
8986000	-0.50781078222935	-16.1118473805323	-40.3987642890637	169.913222604327	-40.4780279160107	168.746595112701	-0.610277075818349	-15.1021353211183	
9235500	-0.591399636935054	-17.9618530967054	-41.5257535373142	125.952867466527	-41.6537170378619	123.823654326453	-0.593951044954666	-16.7372527478473	
9485000	-0.397124389714265	-19.4884160035052	-42.1239052890529	86.1880442341783	-42.2789111822155	86.5827549343492	-0.350583973422444	-18.4113022276117	
9734500	-0.121638178972229	-19.7100811439755	-41.6705353610153	49.0694578890285	-41.5908208023596	48.4364128088174	-0.0474844078207027	-18.9422633326195	
9984000	0.00250842497512152	-18.6694489932613	-40.9712201204292	3.94750481658119	-41.0975520367559	2.89738404376203	0.0847731993576928	-18.3617300372019	
10233500	-0.0813456180076388	-17.5242035055343	-41.2884161197229	-44.8946138899562	-41.4210323756012	-46.1563465087167	-0.02730663519569	-17.6078504939431	
10483000	-0.330457438067196	-17.7380374444261	-41.9948565055163	-87.2759424532943	-42.0907499509387	-89.3212880407957	-0.316479767232985	-17.86997662885	
10732500	-0.572540674592402	-19.479338473378	-42.0383042017002	-125.516612307613	-42.1750645647707	-126.070498871975	-0.599977522558103	-19.5197783789042	
10982000	-0.598162757125256	-21.7482766737153	-41.5312521854348	-167.836927664699	-41.4963368219082	-169.782030362343	-0.702238055538726	-21.2994364844061	
11231500	-0.396665058051174	-22.8487497478282	-39.5178542566766	145.908749975377	-39.8328034302011	144.896629304165	-0.450860002774766	-21.8914706561096	
11481000	-0.109147764725642	-22.5289341000889	-40.3286181389175	91.2043392071288	-40.4451979699447	90.457342312404	-0.100820773634079	-21.5568619064202	
11730500	-0.0809984505581251	-21.516960639479	-44.4637244439364	60.5649455475801	-44.5237829362064	60.2346124650643	0.0325176966287188	-21.1802101667593	
11980000	-0.250234710467184	-20.7361815497841	-38.0466415650103	17.077208924637	-38.1100629619522	15.758197142642	-0.236446237023142	-20.3540585742199	
12229500	-0.569074592553872	-21.0120344400842	-38.8099437894647	-44.2093715458256	-38.9428275787598	-46.3080073617666	-0.485505021475555	-20.4896430026903	
12479000	-0.716355357273214	-22.8881079018002	-40.2639319750711	-90.1572571533549	-40.5944994712913	-90.5963570385012	-0.629438957940632	-22.3732162525972	
12728500	-0.614124371483243	-25.1342734432912	-40.7313364287817	-127.132946595782	-41.063566186457	-128.824144223589	-0.524017702148698	-24.6049923964791	
12978000	-0.352067134988497	-26.1303984322373	-39.9509284151478	-166.798389942214	-40.0279166892312	-168.104102880776	-0.266062294243873	-25.7542686921981	
13227500	-0.154076910262605	-25.3195535659957	-38.5969403604354	145.211239824785	-38.7047485911175	143.725924248575	-0.0827833580652312	-25.4203176693497	
13477000	-0.143450420146904	-23.8246678773863	-37.7796248974029	91.7491548808785	-37.9440705247672	89.1238454207789	-0.142460842643543	-24.3669246253055	
13726500	-0.360007974791072	-23.2004366343866	-37.7732751711037	35.7091358917167	-37.7481617953289	33.1280646151438	-0.466886040796314	-23.5282274084533	
13976000	-0.640578513202301	-24.07052083859	-38.4739781638069	-21.669437412168	-38.6550708832832	-23.743326006698	-0.787346759645504	-23.4380692212949	
14225500	-0.722293110786314	-26.3375607207173	-40.0276291850013	-70.5509914916508	-40.2831842051632	-73.1003395948748	-0.803389468819928	-24.8815908445879	
14475000	-0.564694558698397	-28.6058101572559	-40.9262832835893	-113.15303096073	-41.3139896589124	-115.191076739099	-0.555498875048007	-26.7323195453581	
14724500	-0.351230875522054	-29.3187221839351	-41.178768964013	-157.042144359564	-41.1828893640908	-158.764810440749	-0.202104466144568	-27.5310695503347	
14974000	-0.282681042564349	-27.7902717658023	-41.3688769493627	151.561352521136	-41.5942715753819	151.407731614518	0.0155739916894021	-27.1273705706077	
15223500	-0.302193342868756	-25.7844340606519	-43.1332774946971	102.875293331527	-43.4422840386476	101.826146129207	-0.0389419127816949	-26.5416108751944	
15473000	-0.490735508061565	-25.66785916115	-45.5128122768221	61.1831105306396	-45.7229002382455	60.8648748966212	-0.336352302655755	-26.8804084931718	
15722500	-0.731061458418712	-27.4350340258624	-47.5396786012917	24.1920809644859	-47.586083653231	22.5450863692006	-0.667618162343558	-28.6105421580492	
15972000	-0.777670263988338	-30.0694551864416	-49.4604466692608	-20.9400257021494	-49.6276275910761	-22.4580677106501	-0.818295170042863	-30.9852805622871	
16221500	-0.611792547962045	-31.7355354644015	-56.9168182732828	-99.7608045752741	-57.352704627423	-97.4730145306956	-0.757511605615424	-31.969026991341	
16471000	-0.367206679607898	-31.0805727477516	-48.8278322698955	48.0313866185544	-48.8823890359638	43.9233420603401	-0.470806889845391	-30.4188144344925	
16720500	-0.167259203084745	-29.509711118588	-41.9861402249812	-38.445864083114	-42.0006973772568	-39.4391247606336	-0.174129336343065	-29.0203848783033	
16970000	-0.283166542070486	-28.8318934135429	-39.1647201156002	-116.10184714513	-39.1957233474898	-117.348574957629	-0.298437818948898	-28.6658955739764	
17219500	-0.599888941777243	-29.0109398747623	-40.8944003371207	156.345801486959	-41.2931785733261	155.458507275368	-0.658671069866996	-28.1609854694116	
17469000	-0.777378040190835	-31.1586668983422	-48.2872236468953	96.072096888655	-48.3632181635389	96.7309185535759	-0.760226765288975	-29.6882207303866	
17718500	-0.751145896592061	-33.9213340580547	-57.9538410936959	69.4729255418124	-58.8334637023616	71.7028125923772	-0.651899443273746	-32.28606003961	
17968000	-0.572537225779215	-35.1684444289657	-55.0885530866183	145.296440642119	-55.4072376986442	146.013102614871	-0.357893439201424	-34.0385173522823	
18217500	-0.364506254498239	-33.9208988392676	-46.2410473199667	107.256433572968	-46.2349793985677	105.467552254954	-0.118534360705726	-34.3000319789139	
18467000	-0.251410699666205	-32.1958016553091	-41.8018952342429	55.6947128950934	-42.0195527599484	55.3988552807422	-0.157246343242115	-33.6211944726637	
18716500	-0.439092046788609	-31.7737292798832	-38.9348201321476	4.06939715843645	-38.8646702805775	3.70440594749985	-0.522731796839539	-32.8516961206332	
18966000	-0.789727869145456	-32.7785982569497	-36.8078435059505	-49.6037941202808	-36.8681002498455	-51.7100891583952	-0.936666547508618	-32.4338159907493	
19215500	-0.992690741216633	-35.0018683042022	-35.9969949036364	-102.082089798067	-36.1069572140387	-103.700898908886	-1.01340999682645	-33.5815790146372	
19465000	-0.90269870048016	-37.0144781026128	-35.7935836926118	-151.16057571267	-35.7497597526231	-151.981711908164	-0.792157206907102	-35.6503970748918	
19714500	-0.627489442407081	-37.1823545824232	-35.42513743852	161.916678430812	-35.5358869921319	160.843519117363	-0.44213074478229	-36.6189868329569	
19964000	-0.369568429433386	-35.7186063976116	-35.5939101060789	115.772073595585	-35.6987420759474	114.448067892545	-0.196516174885486	-36.0948057383843	
20213500	-0.348505592845401	-34.2742357201822	-35.9290826324795	72.1743916086393	-35.9870934568686	70.6580020956359	-0.229181753086764	-35.1320236644752	
20463000	-0.610869209126003	-34.0506710058784	-35.9985494999538	31.2516554284683	-36.1216779677454	29.3013151899085	-0.539994198284176	-34.7897004602692	
20712500	-0.946534095348357	-35.3967227805566	-35.8858327587205	-11.445480844831	-36.0042550749372	-13.2400015382779	-0.897533995495313	-35.6601651402374	
20962000	-1.04178629691949	-37.6644732111279	-35.6257665902751	-54.918327799812	-35.8951388611484	-57.2183793371059	-1.00027777810689	-37.4810891956642	
21211500	-0.817750432866874	-39.499545103247	-35.64717912597	-99.09241835924	-35.9104881109021	-100.774573247421	-0.764154333463811	-39.1530559879831	
21461000	-0.51552052003801	-39.6904682734368	-35.5737296162637	-143.611531084432	-35.8312296303016	-144.385849374036	-0.428607658345381	-39.5194724214124	
21710500	-0.383583521697172	-38.1725797210637	-35.5357656479469	170.512430067923	-35.7318241452777	169.361679900482	-0.265880710945248	-38.5499703000607	
21960000	-0.470059110536509	-36.4455427246269	-35.9882456268383	124.226033832862	-36.2654239339633	122.616348380427	-0.37524368283389	-37.2864346317019	
22209500	-0.721584509481912	-36.3743232904122	-36.8749532572507	81.9324134564056	-37.09640733784	80.6160205380361	-0.675207757284217	-37.2091363456491	
22459000	-0.957344384015951	-38.3211915949842	-37.4046654742813	42.5018454346527	-37.4617314111005	41.333631562945	-0.962679445212119	-38.8173608560675	
22708500	-0.961576190904915	-40.93959935166	-37.3647320118458	1.57446326269947	-37.6563666788708	0.419811525720182	-1.00187529565697	-41.1219499825141	
22958000	-0.705541764790026	-42.3730497463979	-38.1942569967702	-42.549739642109	-38.3188074226267	-43.4056610474671	-0.740106706012246	-42.2593372225485	
23207500	-0.420404349299627	-41.7926429824418	-38.6242029570594	-71.8788887063076	-38.773655943692	-72.6700075269146	-0.353713137850473	-42.2439726849399	
23457000	-0.289238627460235	-40.1735432783709	-37.875636635787	-116.47031757404	-37.9728072759773	-118.294724610999	-0.258661386575427	-41.321292687437	
23706500	-0.463489483035658	-39.2210543444639	-38.1987230004675	-161.782354500203	-38.3898943076237	-162.997801857535	-0.474103666543995	-40.5339891020589	
23956000	-0.791971995054959	-39.8265377189313	-38.6880638790192	155.656273220663	-39.0273490076025	153.620517767062	-0.857076536858687	-40.8468448619926	
24205500	-1.0004359459046	-42.0589990461675	-39.4540839644706	113.470622839246	-39.6608950059174	110.756080700848	-1.11525823182265	-42.514107460272	
24455000	-0.901812890169497	-44.5842107825161	-39.9711048253039	69.9667250908139	-40.3318863486239	68.5747417428744	-1.05411894191701	-44.4873202580212	
24704500	-0.596415030653886	-45.6381590984439	-40.7028806569969	26.1751742824899	-40.8960116088968	24.854604253527	-0.727493461375944	-45.0155833273656	
24954000	-0.355823300451897	-44.8027575590879	-41.4724827823517	-19.5733004162098	-41.8334925196493	-21.02106295385	-0.433409526899045	-44.2168421354125	
25203500	-0.3682685316346	-43.211675870694	-42.8280251068521	-65.6546774928167	-42.9935392654059	-66.7536735615042	-0.378188830099163	-42.7432108325271	
25453000	-0.642975118713857	-42.3625869872272	-44.1127484018563	-110.240437512956	-44.4758107738934	-112.577898439737	-0.590150693312916	-41.9823575179061	
25702500	-0.998829625495471	-43.2043501289475	-45.8594853623626	-153.110387347189	-46.4532845933036	-156.830235359473	-0.90039734672868	-42.861213307686	
25952000	-1.13098947522702	-45.4450575835327	-47.4094282743189	160.241987488029	-48.1566417350307	158.319754563338	-1.03292186530311	-45.2045523347706	
26201500	-0.917783942613632	-47.5154669179873	-50.0128263345971	119.424445273737	-51.4364248414223	116.530529781503	-0.857960437335545	-47.4879731061735	
26451000	-0.56856983860439	-47.9306985137396	-52.5260039918892	87.9158102102373	-53.6101485350375	82.1090371289065	-0.522833511102609	-48.3289319327974	
26700500	-0.349333811630707	-46.7245574998969	-55.1240597047689	57.6615789467713	-55.0775637247822	57.9713942842756	-0.325749897313183	-47.6886228082259	
26950000	-0.418087118220549	-45.1681123502039	-57.5284064198603	28.9432589476275	-57.0229413993679	26.4484424222868	-0.438451586062412	-46.4934808065377	
27199500	-0.707461246100091	-44.7760264928628	-58.4882086918876	-17.8325909594519	-59.9676364592062	-13.4235650035093	-0.808508413923664	-46.0257257991098	
27449000	-0.989406884789713	-46.2903648084366	-60.7559893052133	-30.6091471773106	-58.9484839293101	-51.9813754730515	-1.19065258484251	-47.0439059815394	
27698500	-1.00661610220035	-49.0480193872364	-64.8883191344837	-52.190755163517	-65.3888337572674	-60.2881586838904	-1.29451392326941	-49.0233226878095	
27948000	-0.72571423086237	-51.0882257945133	-68.0562581509267	-58.2628568530047	-67.0659734817385	-73.9813117143158	-1.04617477909586	-50.4638022666541	
28197500	-0.399906162187263	-51.2605508336529	-63.8527765308979	-112.366555339043	-63.6323952173276	-116.940289408564	-0.664803462515052	-50.129662810769	
28447000	-0.302780608893149	-50.0019874839924	-68.4470633846178	173.613584434819	-64.6814578622411	170.387099844743	-0.423145042780876	-48.7843946925529	
28696500	-0.518591452800404	-48.6597924339321	-66.862489976951	134.777875934	-75.5493500373436	109.195487479855	-0.504111983949745	-47.6913925201077	
28946000	-0.885797841729381	-48.5673227086781	-71.151118247461	35.7975534343834	-69.9909200381124	21.6060614891963	-0.803810910267247	-47.983779148509	
29195500	-1.13532222483499	-50.3546105165621	-63.4922948953893	-62.0297341790332	-65.3777970653861	-51.6183673293396	-1.06359691910801	-50.0175430043339	
29445000	-1.05346701151452	-52.9581011170231	-62.5543002783594	-105.495275403647	-60.0353661234602	-88.2678468360701	-1.04674630088649	-52.7863939935232	
29694500	-0.721296618215739	-54.3787063270035	-59.6651376954993	-146.624748190482	-60.9235664838234	-141.025198166613	-0.776750239345946	-54.4205356742672	
29944000	-0.421809590469832	-53.9764665838441	-62.046593088836	174.138847904374	-62.9143270057195	165.142014985844	-0.50548923210683	-54.2270529186928	
30193500	-0.398164528915803	-52.5166561929668	-63.3888274899086	144.261039917536	-66.1295617866493	165.313009377721	-0.502251951071276	-52.8093310017031	
30443000	-0.663401661176696	-51.496845682478	-64.1309521470697	118.694116539244	-65.1922547568146	128.022850091361	-0.79791956974696	-51.4588043176254	
30692500	-1.03729960849461	-52.1496332209388	-67.2029978593483	119.363684492337	-65.0863535271469	94.4717831583637	-1.20248090778167	-51.4615293779009	
30942000	-1.23625548916807	-54.4849064024507	-67.5340432534063	76.2401593927601	-66.8542806935855	79.6055481407739	-1.43226726096667	-52.991679943868	
31191500	-1.10126773744592	-56.8872617151831	-62.4305128839071	38.0997273151579	-62.2941771507428	48.2820275609259	-1.29321581998651	-54.9323941944367	
31441000	-0.776133664430921	-57.611590025669	-62.8616881537246	-6.29876592574126	-62.2384226566733	10.7470658913153	-0.89392945300545	-55.6652870222573	
31690500	-0.56652905019863	-56.4855917015961	-63.4439212718982	-34.7515246418823	-62.7651610850767	-28.4462867413573	-0.544671623624822	-54.8613416531309	
31940000	-0.653336385598231	-54.676941099922	-62.4622543858763	-70.0513205868798	-62.1629008524828	-92.0179927282182	-0.496154615137163	-53.5100402689624	
32189500	-0.986888339312189	-53.8608124602658	-60.0735199856607	-127.028671045662	-61.5646929476537	-135.404366550906	-0.744909811851207	-53.0140925876045	
32439000	-1.33969184362134	-55.061335150525	-61.2923865995687	-175.276931024707	-59.9318959079288	-177.227956678289	-1.0900980990799	-54.2458867389796	
32688500	-1.42976706807651	-57.7438793288816	-58.285841070942	156.777163829447	-57.9397851701679	141.298204933872	-1.24960322767014	-56.960251577584	
32938000	-1.1757503268863	-59.8017913418399	-57.1814800966349	102.24903850405	-56.8171471140814	103.016986907343	-1.08936211312662	-59.3460676394654	
33187500	-0.796878295481686	-59.8009907053043	-56.4191828484004	65.9799675046493	-54.9147599593418	57.1926477839439	-0.784737757100388	-59.9071818120598	
33437000	-0.596639343759927	-58.0609213802264	-54.0090343001659	26.0219190632179	-53.4611347639223	21.6009251873438	-0.617979279667959	-58.5901605185667	
