!Keysight Technologies N9923A: A.12.45
!Date: Saturday, 02 August 2025 19:27:12
!Timezone: (UTC+08:00) Kuala Lumpur, Singapore
!Model: N9923A
!Serial: MY61181427
!GPS Latitude: 
!GPS Longitude: 
!GPS TimeStamp: 0001-01-01 00:00:00Z
!GPS Seconds Since Last Read: 0
!CHECKSUM:0068548214
!Correction: S11(ON U)S21(ON U)S12(ON U)S22(ON U)
!S2P File: Measurements:S11,S21,S12,S22:
# Hz S DB R 50
2000000	-0.0590136286674564	-2.56185381276549	-74.2451601046929	83.3019729063113	-79.4381847074482	63.1475502604976	-0.08046197990424	-2.33828799066612	
2249500	-0.338968260396691	-3.22308011809807	-75.3476783995587	-111.50580208633	-73.1305424283774	-76.1084567155397	-0.343291209120017	-2.94245490149407	
2499000	-0.466300357217729	-4.77551664074852	-62.1754467606696	-136.934286088007	-61.3051098650836	-152.355801432066	-0.469119771730069	-4.48622312385594	
2748500	-0.338946265427781	-6.23761044182208	-48.0716970480802	122.536166957774	-48.2946938208901	124.328328224741	-0.371891815834663	-5.61458742267265	
2998000	-0.0777950652181331	-6.77400233649692	-46.7022650750987	31.7284254548251	-47.3503602435299	31.3320084439815	-0.0714870053461583	-6.24539450248632	
3247500	0.149920438909459	-6.15323696921671	-52.9434583071711	-55.7925047221899	-54.0524155878174	-58.007573686037	0.124690995402172	-5.81408304050668	
3497000	0.110403368413969	-5.64521849931822	-56.5455013859797	-80.9468441638587	-58.2920136621476	-83.5347784289871	0.0814244735562784	-5.37948217253033	
3746500	-0.150789892582547	-5.79606762653396	-54.8213462765361	-98.9579773495325	-54.228239922659	-101.026685000735	-0.183795461901178	-5.66810552432691	
3996000	-0.426690374853289	-7.08948096309217	-60.7461030920259	-157.847675965721	-60.6183445341585	-142.9391936868	-0.431531737076862	-6.57389595578776	
4245500	-0.517571443435976	-8.68594765032224	-59.3685834751944	-179.872467261355	-59.4982486038087	172.329828722043	-0.455178294882757	-8.49144743765636	
4495000	-0.257253699357724	-10.0193332973761	-65.2631018549901	-175.861259347609	-68.2113672873081	-177.618221508221	-0.242377545905417	-9.91641360378526	
4744500	0.0318977752542929	-10.3648506497402	-56.2527442019963	-152.675724796449	-56.2926390477017	-149.430649261305	0.0251635053272295	-10.1891033077386	
4994000	0.100501564098537	-9.46383536429242	-43.9650618552881	146.800212733402	-44.0102131328342	144.622355861968	0.112032035282807	-9.50735156120151	
5243500	0.0252285927794474	-8.74994269518016	-44.5758500223872	73.5082239204935	-44.6781307995227	74.6720509906516	-0.0101299583809084	-8.88962407770571	
5493000	-0.279952334173932	-9.14355150170622	-42.2821961521508	29.0913575062742	-42.4476657750351	28.7912960601118	-0.357059276252753	-9.1714008036317	
5742500	-0.507754926349549	-10.4200989463858	-41.2370014840615	-39.6727205811018	-41.2813502388945	-40.4640257144177	-0.593664588365529	-9.62016629171373	
5992000	-0.449152115430817	-12.3402924743728	-43.3208342976677	-86.0200815708374	-43.5075947288231	-86.7270035781964	-0.459534377884086	-11.2978983097522	
6241500	-0.190143997377811	-13.5643907766799	-42.3991880502064	-125.64472730113	-42.1962334932995	-125.8021101835	-0.162862408724669	-12.5645091306314	
6491000	-0.0198783031428363	-12.7053297197457	-41.0491306212728	168.260889771544	-41.0155690413664	166.926831535295	0.0499556953838473	-12.3591771346135	
6740500	0.123301851255555	-11.6878698238594	-44.9704535948639	116.871342479804	-45.0648081039164	115.751330511673	0.125574616034337	-11.6863084846794	
6990000	-0.0523315162707371	-11.5245816588139	-46.9240254404584	85.5961126593622	-46.8756267305996	86.4308312825891	-0.0655833815830385	-11.5381139600224	
7239500	-0.366678162567656	-12.3918792233123	-52.0521119325974	14.0346853277248	-52.3730362674714	16.2003383271127	-0.38914767232718	-12.0825113456974	
7489000	-0.534178607541127	-14.5517619834049	-48.8920327095167	60.5731054153879	-49.0876754039152	58.6962849660024	-0.502939021523683	-14.2089212694666	
7738500	-0.496113294782218	-16.5966203358551	-42.4425100415023	24.2680097522513	-42.4159537222504	23.8030319005304	-0.412402403655159	-16.2663838357666	
7988000	-0.244543644900517	-16.3074948445765	-38.8657578991029	-45.8759786565011	-38.9149500384528	-45.9296023275875	-0.187788969265384	-16.8561950509475	
8237500	0.0789037049211165	-15.7534113401193	-39.7142276148472	-104.793090948436	-39.6988000813663	-104.756105923223	-0.0243738388658988	-16.2010240698955	
8487000	0.0604280903897336	-15.1303416829139	-40.8613870734441	-156.051252202444	-40.6774895591779	-155.551432831185	-0.0923549505429515	-14.7159418956354	
8736500	-0.202168686449967	-14.994684096838	-42.6828006621895	160.365193858464	-42.4447314220047	160.05228197432	-0.276218998150844	-13.9356571969611	
8986000	-0.501886640056952	-16.1057121348202	-43.8176055030837	125.786079869929	-43.5815539524364	124.708485341906	-0.492674362377237	-14.9275710637118	
9235500	-0.590250773382031	-18.066102682358	-43.7403332910139	93.7871053693448	-43.8195781153863	91.2481084960333	-0.535970113152492	-16.933934586843	
9485000	-0.419078835357517	-19.5923705364542	-43.0452311039946	58.9325432087331	-42.7983281357176	56.1252686190484	-0.334572228801555	-18.6986055867995	
9734500	-0.152611132024521	-19.5350641677469	-41.4943770148533	13.321125302614	-41.6915746578543	11.7298688696006	-0.0535693885212877	-19.2121680224056	
9984000	0.0261338617562914	-18.3211861641744	-41.4143421840014	-36.1544990115811	-41.5418995507133	-36.9709319173958	0.0822493741594083	-18.5815868300287	
10233500	-0.0341804744960981	-17.5401079529337	-42.2100359490788	-78.5954148102421	-42.1912441952063	-80.2269757375007	-0.0304623930768059	-17.9871512219595	
10483000	-0.32305234748271	-18.0292921071051	-41.7978709204243	-114.810495078412	-42.0551795437164	-114.835886545926	-0.349320632750224	-18.4130570108067	
10732500	-0.610589271666147	-19.8922044291667	-40.5558359603989	-154.196607759788	-40.5724781020402	-154.528325925888	-0.670880104941926	-20.0151601346488	
10982000	-0.673685469619331	-22.0054827789517	-39.3759990807255	154.498087348972	-39.1611610198879	154.481074255176	-0.756119636175354	-21.4625918933326	
11231500	-0.430847300546103	-22.7959560239152	-38.8659593919234	105.582065436622	-38.8695873523468	102.995044173362	-0.446299282430099	-22.0216418262644	
11481000	-0.120051761717482	-22.4706173948504	-40.5597943164911	57.4832831234929	-40.7567376002934	55.5788026553487	-0.0845454292220891	-21.9650837247436	
11730500	-0.0200605562366363	-21.3862602040787	-38.4525076860028	22.1208116023095	-38.6532031012701	21.0204524280912	-0.053004151223985	-21.0492277101062	
11980000	-0.205758537201737	-20.5978592449685	-38.9773590087328	-32.1711570373061	-38.9917854081888	-33.0723923126791	-0.202671050954017	-19.9765184373024	
12229500	-0.503118040052793	-21.2289318903194	-40.0544493945442	-76.0462177044137	-40.2764746505022	-76.107336231147	-0.460907267513516	-20.416602011245	
12479000	-0.701790375141603	-23.2956953382182	-40.3992397700944	-113.236116877725	-40.5366529999259	-113.885816487633	-0.644185300075025	-22.3737131941031	
12728500	-0.651821639240747	-25.4294462035432	-39.7597222710006	-152.09965241832	-39.9357391689909	-152.236556653357	-0.555268735743585	-24.560651375785	
12978000	-0.396169822285866	-25.9514266341084	-38.6590927717376	161.308548137413	-38.7936246502029	160.854386460088	-0.299516405445377	-25.5781577533783	
13227500	-0.12133872015766	-24.9827703709071	-38.1494934462327	112.480311714579	-38.1873448240287	112.292489394524	-0.0846107532483839	-25.1633380590393	
13477000	-0.0847207360806709	-23.9049209516931	-37.831301446041	64.6754365027006	-37.8833031778062	64.2540263262459	-0.117683112029457	-24.2392737399586	
13726500	-0.351770470915161	-23.5822817391358	-37.3963914870129	15.4815543287358	-37.4374825961392	14.0239065851769	-0.427182357881046	-23.5838079085255	
13976000	-0.690286128086545	-24.4674375411028	-37.3396708887512	-37.3903722499569	-37.3973330247137	-38.3606783183754	-0.741865818411423	-23.8499682263628	
14225500	-0.801802538962497	-26.6178243848411	-37.9913257229474	-85.4427017471386	-38.0520630348273	-86.6850185175902	-0.786824500366769	-25.5594576476056	
14475000	-0.644218813187196	-28.5980513061223	-38.2760044137018	-130.723786763705	-38.3316482514568	-130.766717631168	-0.563801840405993	-27.5007344594076	
14724500	-0.378641296304443	-28.8391368714523	-38.1378150130355	-176.577571351158	-38.3030612229392	-177.530575261178	-0.232540407884693	-28.1333330765498	
14974000	-0.183203778227236	-27.4233204642623	-38.5654179582767	134.489413016553	-38.6080260595207	133.388931915639	-0.0179171983630935	-27.4565719083576	
15223500	-0.200211982822503	-26.1447438374222	-39.4326628746728	87.5677339532811	-39.6054143039132	87.123296263079	-0.0780809473271634	-26.7258213891496	
15473000	-0.462913307237681	-26.2389718816885	-40.1381259171797	45.8858566371941	-40.1798173939399	44.5865121976452	-0.400867116943254	-27.0022200374192	
15722500	-0.752490223864915	-27.8932619405309	-40.1803569888063	-2.96186936590131	-40.3736379896144	-2.33319951111177	-0.799814186865838	-28.5468078238528	
15972000	-0.816208401927018	-30.3400090482612	-41.3341365047281	-64.3829070527385	-41.5362297668924	-64.7995405354209	-1.01289636558027	-29.9628554285202	
16221500	-0.647841577577282	-31.6628673416048	-55.1995740030048	-123.482665635914	-55.8103096251137	-125.920343978343	-0.685537116032693	-29.8892822471073	
16471000	-0.296691349254184	-31.0180314697071	-44.4051472085583	-63.4364159162074	-44.1971506655452	-65.2835436811655	-0.221143113663965	-30.3456955773907	
16720500	-0.143353330280992	-30.1105718595756	-39.7683362542758	-130.071330123277	-39.6370176723334	-131.994181975355	-0.121793516560556	-29.8145023259425	
16970000	-0.358763953787173	-29.0799823642776	-38.5599294866219	159.422533885479	-38.6545553281241	158.157412009839	-0.304384774722425	-28.518131827573	
17219500	-0.659289297043817	-29.1633637298411	-40.6154018361297	95.4009692319988	-40.7289774434311	93.87297243414	-0.53279753618066	-28.6726675596965	
17469000	-0.877520222925759	-31.2544993347015	-43.3712701011263	44.6694106572842	-43.5377190561419	43.6230534926937	-0.717620084550994	-30.9199114064116	
17718500	-0.863873690727938	-33.7054100637695	-46.9594360805727	-4.21216610662884	-46.9196838003337	-5.06409606824391	-0.692421661198753	-33.7483416170625	
17968000	-0.615038884410629	-34.3969854729521	-57.716609062289	-36.7462230241178	-57.870124325896	-35.9182643169689	-0.510230935505829	-35.4061078879288	
18217500	-0.270324712108111	-33.3961726317544	-47.4595718097561	19.8251313693354	-47.4794571930006	20.1204622594627	-0.384089504231618	-34.5388192154373	
18467000	-0.163232644462087	-32.3118857911228	-42.6351432753654	-40.5057064079759	-42.487545029775	-39.3078634186062	-0.326417775712106	-32.235694229552	
18716500	-0.395592177344583	-31.9188657263936	-40.9836054834201	-92.4617342078877	-40.9411409162327	-93.659367017833	-0.448828850180044	-31.0891970347314	
18966000	-0.771171747109488	-32.9210782815776	-40.2741155229662	-139.970681145825	-40.2624523315113	-140.38338087911	-0.727743775966492	-31.8117957353927	
19215500	-0.98491332575144	-34.9728050852812	-39.6496172084083	172.113578915319	-39.6779649119801	171.338863339302	-0.897328594785425	-33.9426917451134	
19465000	-0.838243584753726	-36.776107771386	-39.538746572861	124.184059830006	-39.4665425326891	122.137861610625	-0.774961907825517	-35.969941035084	
19714500	-0.479553463841021	-37.3580899848787	-39.6633714115587	76.7429138020518	-39.6912359022333	77.0912195314649	-0.440236142344479	-36.777353287018	
19964000	-0.259224265747856	-36.5765338990437	-39.7770660274887	32.5738324673974	-39.9003782008193	30.69160109093	-0.200252031941933	-36.1637411918281	
20213500	-0.351833948920336	-35.2318239830638	-40.0771236289134	-13.144714721989	-40.26380141722	-14.7755073688407	-0.232060887840241	-35.0516128938503	
20463000	-0.686554992644304	-34.6333519043314	-40.2609426536801	-59.1397012727965	-40.3161029747994	-60.1085908970616	-0.515202028664316	-34.6575989466753	
20712500	-1.02929149256574	-35.7193921071057	-40.2444305087753	-104.919707476128	-40.415362982599	-104.648962048986	-0.841182341941726	-35.8313469394285	
20962000	-1.12325814938042	-37.9803378503932	-40.3490337317704	-149.720193915566	-40.3993123951378	-150.270955238306	-0.952511319436989	-38.1555811405614	
21211500	-0.895710767558952	-39.6253657276485	-40.2810109990063	163.39875030203	-40.3952836563424	163.40104435387	-0.768815010224828	-39.9929500330615	
21461000	-0.529985361123281	-39.533365258621	-40.4672569593257	117.584988695866	-40.4539507598935	117.045164191206	-0.471374735908637	-40.1624166458074	
21710500	-0.324429068136067	-38.2064315282156	-40.6034116958046	72.1592116493152	-40.7472512858968	71.2351900543573	-0.31959652118241	-38.851082279479	
21960000	-0.428858633467204	-36.9898570999414	-41.3761383718483	28.553437746652	-41.4341195176658	27.6633842230804	-0.437940208394774	-37.2594554646238	
22209500	-0.75471254777396	-36.995918356484	-42.1768927557808	-15.488526307203	-42.1521699441139	-15.2660366346434	-0.733548454773974	-36.7480144256661	
22459000	-1.02989502578234	-38.7182601165902	-42.9961050413811	-57.5945985505923	-42.8860687262902	-57.3186750131472	-0.964100008099428	-38.0393407751433	
22708500	-1.01345536002259	-41.1861509761175	-44.0618836942368	-97.7371290335796	-44.3003414739043	-97.4912926326634	-0.915736466680193	-40.4399839264735	
22958000	-0.743266063629886	-42.5803634567857	-46.6776910059042	-133.702644751867	-46.8962453339119	-133.50866107169	-0.605007676446745	-42.2743134235992	
23207500	-0.415048607556858	-41.9044644870823	-44.6850040137637	-151.461233353377	-44.6814882156744	-151.52959436787	-0.30100792756217	-42.5269569316931	
23457000	-0.318409951002199	-40.4263488114445	-43.5105441346518	157.707491380353	-43.4326637169923	155.774937704083	-0.21260163698262	-41.4962926408149	
23706500	-0.531983164023071	-39.2581319750686	-43.5971763293813	111.860819121367	-43.4835399662421	111.153765569598	-0.425654725510528	-40.6943873139681	
23956000	-0.880284739893772	-39.7016826492166	-43.7905691545381	66.6065293130914	-43.8762241186568	66.0177810110494	-0.8067385778574	-41.1766844820373	
24205500	-1.09415086319594	-41.8505815292703	-43.7287994935398	21.3313662051679	-44.0717284173527	20.2762736485726	-1.08051206158822	-43.0496350041341	
24455000	-0.982440113456131	-44.2779525118424	-43.7091825709615	-24.0853721914978	-43.8540848738705	-23.1671859324023	-1.03426144954697	-45.1515804188704	
24704500	-0.625725440910377	-45.2164819885948	-43.7295253121602	-70.9647252847097	-43.9067339291255	-71.0052524445157	-0.722315798172211	-45.5979415553055	
24954000	-0.331582563900435	-44.3989881447308	-43.8370636641429	-117.99135352544	-44.1059972721543	-119.674768002168	-0.423271592207426	-44.6400894883102	
25203500	-0.31342501603459	-42.9213229319192	-44.7863915745098	-165.285523320766	-44.5666231697509	-165.692578994168	-0.365111244026481	-43.088679933172	
25453000	-0.573381585086188	-42.1837137334296	-45.695849216263	155.359851169801	-45.5900082794739	152.077342065316	-0.587838330243023	-42.2620609590892	
25702500	-0.916028104624642	-43.2443418062037	-45.8333039251216	113.291853061754	-46.2947023332909	112.467917996085	-0.907467021837353	-43.0946506267269	
25952000	-1.05199336114598	-45.7793332755743	-46.9644230577248	73.4294553139966	-46.936963507221	73.4708265107467	-1.03453360534819	-45.4747907486555	
26201500	-0.865052546538396	-47.9982945065386	-47.7460181495004	39.4543333698425	-48.2209857067211	40.4878709969728	-0.860047474154457	-47.8646303037617	
26451000	-0.533551899122011	-48.3651784677469	-48.4075183591905	4.00532120455644	-48.4755293059804	5.62507999722674	-0.526542261158409	-48.7279803191804	
26700500	-0.324624084832698	-47.0685995582953	-48.4406427267603	-36.6631611281573	-48.2470520229039	-36.259661887095	-0.335589757917152	-47.9987666349147	
26950000	-0.405304127983491	-45.4700573588568	-49.1585940922866	-78.6469307565801	-48.7574413581387	-74.6155938682532	-0.454643627380688	-46.7217010579312	
27199500	-0.713374645646323	-45.1456801252921	-49.2050199910043	-122.743952877381	-49.8535951211022	-122.774782713823	-0.82940841661626	-46.1666787455695	
27449000	-1.02840459160496	-46.8029513623655	-50.5661714706545	-165.100369028133	-50.2561115808299	-163.662414531389	-1.21089841928246	-47.1601451129042	
27698500	-1.06801786976783	-49.6019210600151	-52.8420550688349	152.229464123222	-51.6397504155368	156.153029319508	-1.29326039252512	-49.1828383183872	
27948000	-0.792097851213272	-51.5239366637624	-52.6806643934764	106.873976029689	-52.0507775128459	110.898636683249	-1.01267069056877	-50.6787556766367	
28197500	-0.456901985558095	-51.4556215368239	-51.8168711420158	66.999171317543	-52.0680814332243	70.8427599622979	-0.614076664162501	-50.5564964832998	
28447000	-0.323814954970381	-49.9438294125831	-51.5875584129169	21.2916092081472	-51.7719635103339	22.7750126224487	-0.379674853388734	-49.2927046958018	
28696500	-0.501099752673905	-48.6032743953755	-53.0677224387254	-25.5815595474286	-53.0132415803255	-26.4295485475261	-0.483552734985233	-48.2226204192485	
28946000	-0.858652556361477	-48.7502115379558	-53.5420959182087	-66.2264302674501	-52.4927317034385	-61.4749996256471	-0.806609482064681	-48.5248170039042	
29195500	-1.13383068505339	-50.8310924496288	-53.4072381107791	-101.373302850459	-53.1693136150142	-103.644929445609	-1.09009380219155	-50.5942969887556	
29445000	-1.09485738129437	-53.5766693523793	-54.1537511322254	-135.120377627777	-54.2736172165999	-135.461540404804	-1.09121325663721	-53.3404976275904	
29694500	-0.800020537513984	-54.8955918392827	-54.9541572979815	-170.151164630535	-55.2218416520322	-164.935020721767	-0.836186239070622	-54.962374968382	
29944000	-0.520056603065072	-54.1311298144255	-54.6823204934779	159.035801212751	-54.8472298767153	162.798088116663	-0.580579467433415	-54.5183670009402	
30193500	-0.496154705706019	-52.2885831221313	-55.1452053886956	127.425371985334	-54.4977095915567	124.935376788301	-0.56833900705452	-52.7275675371902	
30443000	-0.747258397626052	-51.0049300939352	-55.217274658036	84.5667822857998	-55.0658846722296	88.7540302993448	-0.827331100656502	-51.0729134975601	
30692500	-1.10442071364659	-51.6096130740193	-56.1760309992039	51.081232457119	-55.1677249012322	51.4683345995762	-1.17233288376163	-51.0214030679053	
30942000	-1.28893468429486	-54.0032542457669	-55.84698142443	8.84815118816376	-56.0665645579609	14.6745384896339	-1.34059092176994	-52.8923262445651	
31191500	-1.11377548729862	-56.4749995515194	-56.9634294599887	-18.0259523088032	-54.9927282126218	-21.0711742481134	-1.1643401499314	-55.385774774401	
31441000	-0.740230413446872	-57.1849721865885	-55.5702778086669	-64.8999088290242	-55.4599318336951	-68.0700369854895	-0.77780579986146	-56.6955390186929	
31690500	-0.479259681252632	-56.1014201325995	-55.1094289882794	-119.820244714515	-55.7081666098457	-122.88472818441	-0.497910422237575	-56.2945910385214	
31940000	-0.532719934684665	-54.4527444380985	-55.0304256030796	-172.246514473391	-54.4557581098839	-175.159259224665	-0.568028664197265	-54.9503629825642	
32189500	-0.868165089408436	-53.8909635379131	-53.6502332045923	138.699673809275	-54.4757559319721	136.204740957508	-0.930822473196941	-53.8296004909713	
32439000	-1.25520328732321	-55.3439569223979	-55.3300995127059	83.8614627172219	-55.9647913577995	81.4900224444524	-1.29441837408696	-54.1556033639277	
32688500	-1.38680725728153	-58.206794747746	-55.6232494133182	29.9130486342755	-56.3069492386972	35.5064918571616	-1.37202218725564	-56.3011587993372	
32938000	-1.16476872345035	-60.3809333965581	-56.3700804827294	-14.1727329547957	-56.9448102746074	-14.8822776561949	-1.10002920659751	-58.6657618242255	
33187500	-0.804815100694498	-60.3464431001551	-59.2281057527718	-44.8880211046863	-58.6538086296576	-47.1797549508335	-0.703305894043734	-59.5495193710668	
33437000	-0.619335287135436	-58.5659414676581	-59.5174577353869	-83.6987486376694	-60.3720699876429	-92.6370825381502	-0.491414319570691	-58.7938213203644	
