!Keysight Technologies N9923A: A.12.45
!Date: Saturday, 02 August 2025 20:03:15
!Timezone: (UTC+08:00) Kuala Lumpur, Singapore
!Model: N9923A
!Serial: MY61181427
!GPS Latitude: 
!GPS Longitude: 
!GPS TimeStamp: 0001-01-01 00:00:00Z
!GPS Seconds Since Last Read: 0
!CHECKSUM:1068642128
!Correction: S11(ON U)S21(ON U)S12(ON U)S22(ON U)
!S2P File: Measurements:S11,S21,S12,S22:
# Hz S DB R 50
2000000	-0.06368541275154	-2.15639197563379	-67.5133197993976	83.8700656276534	-65.7399063918972	81.6590722013124	-0.0776536189725892	-1.57287999298591	
2249500	-0.387681451839621	-2.81351115444296	-64.89490759304	62.7151342022548	-63.8404401981375	73.5578268005701	-0.403824767101658	-2.38021671440469	
2499000	-0.534216230132466	-4.56430612994283	-64.6461451773991	-43.9318568320718	-64.9740066669622	-20.4566417102633	-0.562684653311516	-3.77991015261845	
2748500	-0.37685881968571	-6.36654393046397	-66.9604732459565	-36.4819532030232	-76.1568516653673	-113.580711683541	-0.372658836452993	-5.80546361940347	
2998000	-0.0962828521689374	-6.94332102702164	-71.183135617613	-29.1995827671924	-69.3052960249427	-26.8085690676277	-0.0568429596509427	-6.74246506328651	
3247500	0.161544027793202	-6.23963319606832	-74.3945842795609	-84.5599097945303	-76.1691499978212	-88.7971414666724	0.148535367020753	-6.43284322745006	
3497000	0.119131649909762	-5.64442597316197	-67.409141418066	-103.869631709955	-67.507825127426	-115.712510974291	0.103939383761273	-5.71423783968049	
3746500	-0.184576222992414	-5.71505245575642	-64.2418593654629	-115.848212758563	-63.4836812011442	-112.894715968353	-0.175366281355616	-5.5197502729659	
3996000	-0.504592513200618	-7.08996828087165	-56.5126533472456	-147.004530497636	-56.5764681075517	-152.160399291856	-0.469782806603309	-6.51749903882012	
4245500	-0.576429377308674	-8.73838616459067	-49.7224723324059	113.849714170291	-50.326139704353	116.310151628301	-0.544994890585483	-8.21333020818389	
4495000	-0.292302172006084	-10.2000778721804	-51.6386617369491	15.4771507209874	-51.5650241469005	18.9764366603635	-0.379624407270197	-9.06401399505333	
4744500	0.0466984270052682	-10.3476130657565	-58.6720165152493	-61.1266444435053	-60.7018095924521	-60.5439088967799	0.00682562623069467	-8.77301733191472	
4994000	0.162206079806284	-9.58004716203649	-61.5305244904357	-130.945113470394	-63.7243908975733	-130.923072265751	0.178849137228685	-8.22650851278016	
5243500	-0.0101803401199992	-8.13581053828044	-59.9390378178099	116.437983909045	-63.2598913767486	105.704978349978	0.0391669536317082	-7.77290805889423	
5493000	-0.292798051991833	-8.47278573084865	-55.6378699858039	61.6636456410478	-57.5074641259874	61.1434463601223	-0.287422942905202	-8.357162044734	
5742500	-0.552696445781362	-9.99346161549045	-46.6891449824162	-66.1187732367702	-46.2991081960752	-64.03122009108	-0.561752614701754	-9.74648463656807	
5992000	-0.493851945590664	-12.3212321172327	-52.0071304705466	-117.28407391526	-51.4077690615188	-118.576781177983	-0.472938180615451	-12.0697612438572	
6241500	-0.236846408947781	-13.7246131825644	-48.1430418312904	-154.768332136436	-47.8824683765361	-154.715515688876	-0.164644847650491	-13.3971396461659	
6491000	-0.0180008538507558	-12.9801532175918	-43.0536629939115	129.459356857016	-42.8623685856065	126.525429796879	0.0544021570612593	-13.0715787218123	
6740500	0.119443311312852	-11.7441078683587	-43.5754251589018	44.443629728357	-43.472522210045	42.7743468330959	0.0268045393891089	-11.8481727343111	
6990000	-0.0779141502335282	-11.4099904317057	-47.6291568163938	-29.5605791948836	-47.665257831135	-29.7911920984584	-0.164939927609431	-10.1636654020384	
7239500	-0.417260937127434	-12.4270224717846	-52.3030317718645	-68.3617278373259	-51.6595442769149	-68.5311061527525	-0.414186580516294	-10.7411172563002	
7489000	-0.607159003456744	-14.6710690247999	-54.3903203769872	-89.8508318199528	-52.8198433316151	-95.7720995661721	-0.558437345373964	-12.8168498981562	
7738500	-0.511234290178521	-16.7971133175023	-52.2283376339916	-122.304930876415	-51.946658764216	-122.011360283712	-0.416888358259951	-15.0198736136859	
7988000	-0.235681028528289	-16.8555758662387	-51.3382356632341	-173.711696629561	-50.5250720231918	-175.795784749456	-0.0915216997013682	-16.0326309738333	
8237500	0.0848969763569233	-15.6330843986814	-52.4345313613769	138.006339666474	-52.2510336866295	139.748308488877	0.13978106596563	-15.757525354999	
8487000	0.0910898925000624	-14.6217004901569	-53.6518439406226	99.8323548595539	-53.2893556257962	101.578344531069	0.0755427390755589	-15.0298761676964	
8736500	-0.202053235657131	-14.4205089528422	-52.6773478736039	62.5976459503904	-52.1836360347813	61.4498309390991	-0.293150105823263	-14.7937442056556	
8986000	-0.553758007645728	-15.6512388864598	-51.7938576315713	8.67171222846416	-51.3170107050499	10.4445931416567	-0.728943879236452	-15.1265339793663	
9235500	-0.663109950770179	-17.8615984474267	-52.1735067816718	-47.7601170541971	-52.1720337960793	-49.1039006487264	-0.754942835838406	-16.1298221203599	
9485000	-0.447602126983312	-19.6263606701161	-54.4735533267952	-94.1706007704358	-54.1541401242446	-94.9945788696734	-0.433416769063167	-17.7586257193589	
9734500	-0.124724978601195	-19.8280458751168	-54.778831894014	-137.16191048107	-53.6797545499797	-135.689685250579	-0.0467145821690463	-18.3290774544448	
9984000	0.0377194452682377	-18.7053751703231	-54.4498021394202	175.385618997559	-53.9494701999973	172.21181912419	0.142822263793005	-17.7940869611972	
10233500	-0.0687165279408093	-17.5696544860115	-53.8783261315453	131.262079467164	-53.5799337892153	127.061162755606	0.0224489117702886	-17.1696966858162	
10483000	-0.381890743030319	-17.8419524291489	-52.9809578113489	79.1961814097061	-52.5882007242782	79.085333711509	-0.334268880061199	-17.5295218234668	
10732500	-0.673530048530497	-19.7882583655745	-51.3251623299041	17.3549680568437	-50.6875339473767	19.1123547822221	-0.682601209635775	-19.2690772364678	
10982000	-0.690362130288689	-22.0313918666644	-50.4353658235942	-78.8690250855183	-50.6258637093598	-75.8937793732206	-0.76624279562717	-21.3471872354163	
11231500	-0.388689050413255	-23.3360790879247	-54.9484626923344	167.115195796904	-54.7215844734184	174.023919400154	-0.577450450894192	-21.9841012416629	
11481000	-0.108733319800494	-22.8522273538549	-57.4905166239995	77.3968215240792	-56.9173483793526	80.4845554997419	-0.178916788563636	-20.7702556392622	
11730500	-0.0439570742315694	-21.0487431694627	-58.3785569974243	3.12437087084592	-59.9831022887509	-1.08926079373282	0.0397796616652106	-19.5379786730807	
11980000	-0.200446053467932	-19.8020808344782	-59.4786093169272	-54.2183845528523	-61.3319586560769	-52.9226988976158	-0.0943802561065873	-18.8872889989683	
12229500	-0.517198985319318	-20.5434757782383	-61.4449474533507	-83.0724105946185	-63.1577194880745	-81.3202551783939	-0.418307582942769	-19.5798294006475	
12479000	-0.741954912428089	-22.9887192972083	-62.3139043747155	-106.964623682437	-62.2606800937656	-107.354503025737	-0.651654997791104	-21.7383409032357	
12728500	-0.660732673942745	-25.6328805681222	-61.3635608354033	-145.039675540823	-62.925128035238	-129.665224108401	-0.569568281524135	-24.2833784356416	
12978000	-0.397115209124232	-26.6515669795551	-59.5071134908974	178.647534625042	-61.1367304411534	175.574407339886	-0.292619979466686	-25.6460669508762	
13227500	-0.175326125435039	-25.369330908751	-59.9866114741886	132.805832424898	-60.8673316385243	135.427698924937	-0.115537472654717	-25.2730890996824	
13477000	-0.116240442210355	-23.5439789616286	-62.3848102347734	86.681386827768	-63.6747427857145	92.9635049650654	-0.217983112033275	-23.5262731035787	
13726500	-0.330181453011247	-23.0795966544168	-66.0394557824033	57.7868031189967	-64.0007029467636	62.9407679823427	-0.46483102532003	-21.8762477971951	
13976000	-0.66802182481531	-24.5055762895647	-61.9050268857933	24.7480886962688	-61.6683713927387	27.9584384062705	-0.704604356148233	-22.3407605886236	
14225500	-0.8245875109628	-27.2133541516989	-60.5679304818641	-23.1441595578489	-61.2637424856493	-7.02417620390273	-0.760689628261197	-24.5821525305761	
14475000	-0.700963873738463	-29.2360224959723	-57.4482787930282	-56.3854982433421	-56.7299659493276	-56.8104092846669	-0.531334970720787	-26.7915333258746	
14724500	-0.403483295824119	-28.7703756433528	-53.6088704960145	-120.831829660773	-53.5437406010111	-120.707242979023	-0.171952917571561	-27.6732199238212	
14974000	-0.0741154962578371	-27.0596281978793	-51.2835778120584	165.007493374912	-51.5202653452395	161.439026804935	0.0164127205700207	-27.196262698849	
15223500	-0.196301864325006	-26.2702078204274	-57.4553710933728	44.4267981251874	-59.0119790820759	24.2744932132785	-0.157640140320862	-26.2355470649062	
15473000	-0.512134764366436	-25.5173829338048	-55.7492180371674	167.503109937962	-54.9203538698721	171.223467318895	-0.596909070047211	-25.824278056634	
15722500	-0.800749896056098	-27.4612116090501	-51.2454339189665	97.5108385183345	-50.3494020589002	100.213623897379	-1.00051174898497	-26.4245691769697	
15972000	-0.859247678985677	-30.4682569111324	-50.0548817189784	41.7344520176653	-49.742697785172	41.4103991909663	-0.997613715051186	-27.9878751596514	
16221500	-0.649040763396056	-32.3312116855255	-49.3423651239701	-8.40725207458749	-49.0387283223577	-6.81113249073372	-0.613793907518205	-29.4775293513045	
16471000	-0.357934387116671	-31.7466729655931	-49.7049591039104	-55.7982472009928	-49.4038343600195	-54.8272380625183	-0.173554930482787	-29.6828116253554	
16720500	-0.190314992195235	-29.7707454383634	-50.5170568670358	-101.337458154066	-50.4497167385852	-98.8158964732702	0.0214375367319376	-28.8488659065902	
16970000	-0.303118128302047	-28.4952795678443	-52.1302640333323	-143.467465281672	-51.6301066532486	-141.612930557228	-0.145758008839772	-28.0583431549643	
17219500	-0.638174182775802	-29.0158338013386	-52.716495962008	-178.966620053537	-52.213111333396	-178.274426163804	-0.55679242102674	-28.4397179306994	
17469000	-0.909696804663378	-31.3227120516207	-51.8749548737053	138.527053514009	-51.8477323780084	143.607326189563	-0.935211701275725	-30.2731392637963	
17718500	-0.866587483704065	-33.9593487909939	-51.4503818399885	97.6083266509958	-51.486423035723	95.945954385249	-0.99704814637024	-32.170962270177	
17968000	-0.565182763383925	-34.96462071822	-51.3475417595765	39.5832466628728	-50.7030772735065	42.229826709704	-0.673170612126229	-32.6972110920992	
18217500	-0.256005737710989	-33.8222436351158	-51.9936765945833	-15.0145433301675	-51.1470468173924	-12.3195810146953	-0.252220405989244	-31.9676361170847	
18467000	-0.166812777368725	-32.0009269420809	-53.2106657827418	-64.7433184837789	-52.2642177817744	-61.5239869466534	-0.0884015808181818	-30.8317936561842	
18716500	-0.389028892753929	-31.2089288541916	-53.5893275018851	-108.561398305173	-52.2852081943353	-103.394738657409	-0.272709267208434	-30.3364306397568	
18966000	-0.778240603510535	-32.3785040506346	-53.243579849837	-145.208438054281	-52.338387133125	-141.693754457321	-0.642223895473503	-31.3005695143627	
19215500	-1.01052976586415	-35.1245196827659	-52.0942122726361	178.365342858982	-52.0691742738152	174.890664139377	-0.872711272538689	-33.685297476212	
19465000	-0.900534408320655	-37.5440341996092	-51.3669401093452	129.645377424428	-50.4234694981704	128.579201398674	-0.807735957691362	-35.9537118820995	
19714500	-0.563761914996438	-37.9132632498305	-50.7042223018428	81.8163169834802	-49.9950517	82.1246859630753	-0.528354592309779	-36.4174188533474	
19964000	-0.288524858741553	-36.4992842058659	-51.8784332394007	34.4530434949187	-50.8161900873285	30.7785826107621	-0.288902870296813	-34.9359976232149	
20213500	-0.313445821873124	-34.8552027682907	-53.8392722201851	-11.081618942993	-53.193276578433	-18.2102798840475	-0.262542049048652	-33.0996235240257	
20463000	-0.633714613686018	-34.450887756204	-56.5505269101819	-57.5376090440979	-55.3405832677824	-58.5116660698178	-0.505475291228012	-32.5552493015434	
20712500	-1.01491480805917	-35.9671704731597	-58.5827866865259	-91.6508069865027	-57.1484458838829	-104.322773316843	-0.833688078069397	-33.9775794292975	
20962000	-1.1428984959517	-38.6153242721724	-60.1233580006679	-146.548769110135	-58.6496230634824	-151.868379958856	-0.944869269159026	-36.7690694312804	
21211500	-0.919921034605253	-40.307445056982	-64.7781126078487	119.677761245972	-62.3070636501629	138.782960904689	-0.735200158234987	-39.0218138850968	
21461000	-0.540446040865242	-39.7626566498518	-65.1685681359962	16.7271468464033	-64.3819990513878	36.9006853249521	-0.41070778904642	-39.3060821781034	
21710500	-0.301082820399098	-37.9016689318951	-66.0982911601097	-86.8636295357153	-64.8159238630419	-65.2548898328668	-0.249308628615739	-37.7816640021052	
21960000	-0.389834776801665	-36.4142655316615	-60.3154685837472	-157.538033895301	-62.8023931086771	-140.903675758377	-0.364310302093332	-35.885984288869	
22209500	-0.754150318033411	-36.6170643506001	-61.1348159925423	137.475929732516	-62.1610484945623	136.550096916293	-0.681194339661138	-35.3554270748266	
22459000	-1.09600670705896	-38.8219445043084	-61.4758939960991	69.3532441302662	-62.5086846688031	72.5196829606789	-0.963174335137552	-36.9295834807811	
22708500	-1.12638324402565	-41.5707021928205	-58.3335742000566	0.592249489497551	-60.1982173775266	3.48991207503511	-0.956808960055079	-39.7380030076288	
22958000	-0.803168090534594	-42.6937847669149	-56.5541226089987	-56.6874124487999	-57.034442607136	-50.9215111191878	-0.649258322698289	-41.6817797192589	
23207500	-0.379132738288261	-41.87032077031	-55.6092597777305	-118.797870684878	-56.6932976040091	-117.858689354154	-0.307874949332616	-41.7413374895643	
23457000	-0.221431724389362	-40.3362135596586	-56.8671723599155	-174.966416640822	-59.0524908301252	-171.591897243609	-0.221361271225762	-40.4108961349734	
23706500	-0.465053571017494	-39.3685814448572	-58.4812637993348	143.108071940714	-60.19799217157	156.33850161991	-0.469978078717894	-39.0448541941232	
23956000	-0.894946389743753	-39.8519758925616	-64.3080232032299	126.200621439723	-63.0790364018405	152.170368894216	-0.867457947939988	-38.9955167747547	
24205500	-1.13886714515344	-42.1795382478951	-61.4889359607063	124.992941638817	-59.8848197725207	131.690239207722	-1.10983135816511	-40.7404985897555	
24455000	-1.00866875798674	-44.8111644268056	-58.9055809938227	93.9630033792892	-58.1781945777579	95.8310103674171	-0.982014152938756	-43.181844688471	
24704500	-0.623785182807095	-45.6748487174424	-56.491720125391	65.9607416778946	-57.4416491740994	56.1373871510058	-0.570868765900347	-44.1981810153412	
24954000	-0.306507779318152	-44.4520060092276	-56.1257271589624	23.610878940263	-55.5532031123753	23.5816324145732	-0.249743983020098	-43.7584743769326	
25203500	-0.284111162578685	-42.5779066777364	-55.64491262873	-18.1663002760854	-55.2792919065853	-24.6061500182317	-0.239859219118006	-42.4214339493582	
25453000	-0.569157530434098	-41.7844996887103	-56.2870124382197	-72.330413906953	-56.5128596173006	-61.4793063924597	-0.565734275542381	-41.5536435347481	
25702500	-0.971374731549825	-43.1015578929836	-56.1410086427731	-106.272495860906	-55.9947348680785	-99.6150782078618	-1.01217548619777	-42.2929283391263	
25952000	-1.14412120351547	-46.0600427993633	-56.135331357993	-155.638515347706	-57.1949292698268	-147.510095923584	-1.23663786805574	-44.5248651114721	
26201500	-0.930195306977404	-48.4503950919501	-56.0508220059643	156.910991491568	-56.0205026616386	151.428134164334	-1.06740581415622	-46.6321585272125	
26451000	-0.533660172329866	-48.6877271163147	-54.9621421114977	93.8884404544743	-56.6261354615833	101.408494126845	-0.657324999346962	-47.1172874289958	
26700500	-0.268146119878394	-47.1480547860592	-55.5942023354582	42.6941833566689	-55.9626608475781	39.5666693647119	-0.359411949678546	-45.9983719475218	
26950000	-0.337750185343825	-45.4176210209914	-55.955183540487	-1.08994163111671	-56.2785422123142	-18.1407807064157	-0.390509749211288	-44.4713322571385	
27199500	-0.685564331908737	-45.1811022012153	-56.1880430566673	-48.9818982017448	-55.670877049698	-50.844504245833	-0.71555643465752	-43.9916755001367	
27449000	-1.05620415378761	-47.0782341544152	-56.1664109798796	-90.440576503859	-56.586606617646	-102.552040000838	-1.08716958808881	-45.4147013149894	
27698500	-1.11675872322163	-50.1506801902119	-57.1876923717779	-140.957961986498	-56.0789177803757	-144.954254250918	-1.19040249353853	-48.0000505816121	
27948000	-0.818230741092671	-52.081850535344	-58.0739608909875	176.082375970418	-57.4849380905163	176.277203606824	-0.925648893350187	-49.9498233832923	
28197500	-0.448838723731269	-51.6816660884312	-59.0259585375617	131.639752364079	-59.7683775097487	129.718947952034	-0.568176784618081	-49.937469245767	
28447000	-0.299150747355175	-49.774002001201	-63.6579047374669	108.783900662461	-62.1345729818219	93.6088756703289	-0.406848512240979	-48.3091830414363	
28696500	-0.496395595758193	-48.2301455451744	-65.0464241566297	77.9117433870161	-67.9048044864669	76.3745057338266	-0.573656775059307	-46.5884340239609	
28946000	-0.906803829970809	-48.501435337287	-66.7389599504552	56.1866743056484	-68.2125686992036	41.8694619993259	-0.944187590967784	-46.3794736253431	
29195500	-1.23071927157009	-50.9659400646486	-66.6038870785677	25.4554287335314	-68.0652993590369	32.9152226952454	-1.24254413305654	-48.3075272779177	
29445000	-1.17911318180137	-54.047606860385	-66.1305783752068	19.7693524947897	-71.0767312071616	-66.1405552719132	-1.19233924333365	-51.2212881548283	
29694500	-0.827209869296153	-55.325894298556	-70.7689086365686	-39.3615934836668	-73.633105257704	-6.31761964770878	-0.834566711257944	-52.9777256926425	
29944000	-0.483083556484774	-54.2621860757083	-70.1733031807249	-114.55904225734	-70.8745462636717	-158.223973704284	-0.472976089905815	-52.6407680878905	
30193500	-0.420058801532782	-52.1248736802369	-70.107976043505	128.85721376636	-74.2435111909815	158.234308241733	-0.408516992865035	-51.0059024787092	
30443000	-0.681202952694462	-50.8063245868276	-65.9664637209321	87.1230750864168	-70.4708214994959	104.910919368029	-0.696295697107655	-49.5864606085356	
30692500	-1.09089543083017	-51.6633588717957	-66.4226276467629	12.6671416174912	-65.4633107858001	16.0977951761852	-1.14166591228559	-49.7537798159765	
30942000	-1.31289559541934	-54.4569398389747	-64.7784322166992	-33.315113162225	-62.5775183109375	-32.5593663266477	-1.41023085466014	-51.774120431767	
31191500	-1.13457418469454	-57.1453460494929	-64.162635848685	-73.2070348075165	-68.8935013915019	-62.3120263027481	-1.27038786149779	-54.2371096039433	
31441000	-0.734887848485137	-57.692881518893	-66.1357996296313	-166.693790638914	-69.2277609119323	-158.559527632205	-0.846451807116593	-55.1850943501385	
31690500	-0.455142127010746	-56.1731998501669	-63.4420130661661	149.192235391459	-66.3259547151146	147.185388058369	-0.491071399028192	-54.206452986692	
31940000	-0.512691414255196	-54.1532244271943	-62.4618792880435	85.1325971005906	-63.3538197343826	87.6764952399463	-0.480490354508985	-52.4601738389158	
32189500	-0.886260436685984	-53.5138653447366	-61.8867818986627	15.294080747465	-62.9094272503448	-8.21187282738414	-0.810337220264517	-51.5331816942294	
32439000	-1.3220929032893	-55.308082328112	-61.3469317843301	-45.9263801017134	-61.3582224749362	-50.5305739554997	-1.25786080757757	-52.552618723596	
32688500	-1.46449227185871	-58.6449512576195	-59.9008710477079	-101.527997271768	-59.1276625202676	-113.417052101141	-1.46831268215316	-55.3230955751541	
32938000	-1.19269630528687	-61.025216612967	-60.3900243308079	-150.906696771861	-61.9580115422457	-139.236931882594	-1.25310153308462	-57.8441825240118	
33187500	-0.771762814129595	-60.8271320800795	-59.1252596537973	169.233223530952	-59.5797647005382	178.087278759873	-0.832210155568887	-58.4321174059836	
33437000	-0.55112342683772	-58.6913221309493	-58.9814801007778	130.378354994593	-59.6790118711013	132.372892905075	-0.565766968924559	-57.0237204242653	
