!Keysight Technologies N9923A: A.12.45
!Date: Saturday, 02 August 2025 19:08:54
!Timezone: (UTC+08:00) Kuala Lumpur, Singapore
!Model: N9923A
!Serial: MY61181427
!GPS Latitude: 
!GPS Longitude: 
!GPS TimeStamp: 0001-01-01 00:00:00Z
!GPS Seconds Since Last Read: 0
!CHECKSUM:1540115789
!Correction: S11(ON U)S21(ON U)S12(ON U)S22(ON U)
!S2P File: Measurements:S11,S21,S12,S22:
# Hz S DB R 50
2000000	-0.0649328189000537	-2.93522891517425	-82.3526026453087	-76.7514904073641	-74.5347551847672	-119.332698201919	-0.0964459664695797	-2.94163571377769	
2249500	-0.309305497626634	-3.65386667278326	-71.1105957333844	-110.441506411983	-68.6722876895582	-80.6291138478818	-0.329370797811053	-3.61515037450306	
2499000	-0.425785502789005	-5.1174587314037	-56.3981059090781	-133.072746987111	-56.3140502001066	-136.941328934847	-0.439555756668944	-5.06253425648818	
2748500	-0.295273606478788	-6.46459583874755	-78.9446883040209	-118.306619590151	-86.0314694230118	169.69086725213	-0.294565105902149	-6.23268570863454	
2998000	-0.0422533715115924	-7.03876961876565	-68.8357063712137	-120.217303354599	-69.8722403492451	-122.033426515893	-0.0541906659105596	-6.69358205282329	
3247500	0.0959650977537288	-6.85158300159675	-55.0922603551545	-140.279981073358	-55.8468315106856	-141.105416827197	0.106428887561366	-6.35520501059323	
3497000	0.0630450488015314	-5.69809782387874	-52.3092997906909	109.494350842874	-52.2968684248845	107.668768457067	0.0557152494572671	-5.77431589861728	
3746500	-0.143790469918609	-5.90152338181772	-55.236855931347	79.5797428079495	-55.6152737929595	80.0695018236571	-0.166862329452166	-5.84794039452102	
3996000	-0.378309607087397	-7.03621689786273	-52.8707966056495	63.3150772424141	-52.7943771709185	63.5472878325015	-0.415802904158652	-6.95420977388191	
4245500	-0.440428034470321	-8.7401873832572	-47.9320506959989	22.5807848846431	-47.4585520732104	21.0584923198568	-0.496454823545418	-8.54628127748662	
4495000	-0.286061411973878	-9.59055873566408	-47.676184692912	-51.8042790868731	-48.0219341956202	-52.0291736382917	-0.407377788243331	-8.84054530395474	
4744500	0.0234135241155696	-9.72982941036786	-51.2550640476877	-79.0533191238754	-50.9296621770361	-82.0267294607542	-0.0424459731147936	-8.72994408311463	
4994000	0.140634542022268	-9.2900203382175	-50.9397895555325	-100.341004711971	-50.9950865229335	-97.7043171198564	0.105789011379489	-8.41646940974797	
5243500	0.0114546865606688	-8.93679893126539	-48.1851446838413	-118.379655458675	-48.1802969465099	-119.367126596479	-0.00277826885624715	-8.13915972220945	
5493000	-0.324167926953336	-9.25086903626163	-43.0279888711005	-161.799381480176	-43.0092595508286	-165.098901809538	-0.272238298876683	-8.52842050575182	
5742500	-0.468019642196628	-9.93088904419736	-45.6119995244713	122.142966730328	-45.7115168336264	120.497351849	-0.442669739443069	-9.67968492097002	
5992000	-0.393806153626916	-11.8324858189588	-50.3777742915843	96.8934851312818	-50.1441520274794	92.3550381198843	-0.390647023326561	-11.4176495744282	
6241500	-0.161229115375937	-12.9837348909899	-51.5798034685898	82.644568504071	-51.353608402294	85.4659513067764	-0.158272846044411	-12.5125998233632	
6491000	0.0797294735250428	-13.0861602593351	-50.2558329483669	76.3105744174336	-50.4937717590737	75.9255654862125	0.0656265939164641	-12.55964065672	
6740500	0.094090812310858	-12.7773701404461	-47.0714953179356	60.6949118692402	-47.0997428896736	59.9549374320962	0.104993949910999	-12.1106106026177	
6990000	-0.253327081713777	-12.7109435942884	-41.3527383154966	23.6756596247521	-41.2663940028974	22.5282289528886	-0.083484132059226	-11.9562135799881	
7239500	-0.499591812689623	-11.5076810488365	-41.0520573817581	-52.1176633806766	-41.1042317950059	-53.1203164366204	-0.348353997000695	-12.5645588940445	
7489000	-0.513135964812443	-13.5334942689798	-44.3177903465512	-94.3026926428777	-44.2636797326016	-94.3038311445602	-0.476679517641615	-14.2776572154897	
7738500	-0.371831707724727	-15.3844150650008	-46.9730308989304	-96.2670160047415	-46.8791617504128	-100.117755836489	-0.365737744983627	-16.0293255410914	
7988000	-0.0994721818166061	-16.3295216271233	-44.8581139460251	-111.927578773328	-44.892282570283	-113.358317621582	-0.137008597798841	-16.975505817519	
8237500	0.0792084662575379	-16.1936822410503	-40.8103155978442	-137.513660307049	-40.8644306836599	-139.210175292342	-0.0394936777205092	-17.0367861902164	
8487000	-0.00727347099252066	-15.5019817969085	-35.8407585841842	170.637504138138	-35.7426750672521	170.169560199309	-0.317133090802486	-15.776226312946	
8736500	-0.223490601374118	-15.0722617116832	-36.1877334554733	101.158862888831	-36.0697516993219	100.756706541598	-0.429288304270249	-13.6430010586487	
8986000	-0.474209208544247	-16.1982770494904	-38.4122629320492	56.729380633795	-38.181532621533	56.4609811045657	-0.54713075856625	-14.6834607471478	
9235500	-0.566551639626312	-18.0001377886617	-39.2123515900895	20.0722011415778	-39.1152489587804	19.2659165135687	-0.586159618342549	-16.4694054480337	
9485000	-0.411599963762647	-19.2807061573509	-39.6578100004095	-18.1113472424555	-39.5976225565552	-20.1971094178784	-0.393963766774234	-17.7767175140821	
9734500	-0.136270469907325	-19.4384626710721	-40.5715113817019	-56.9909224403068	-40.5517835757107	-59.1922292726542	-0.0875655468802667	-18.0889571588111	
9984000	-0.00571095752753993	-18.8581666290073	-41.0068392104951	-91.3026880674879	-41.1665008887949	-92.8817849514982	0.0820416647592806	-17.6635790469839	
10233500	-0.169119123318021	-18.1519535203909	-40.6208375385554	-128.029209082932	-40.723540185573	-129.876330301984	0.000414230017355309	-17.2355913710054	
10483000	-0.492123260308658	-17.6304688296959	-40.6520261112035	-173.05682553587	-40.7333461671283	-174.147893709163	-0.26240094902467	-17.5224276048746	
10732500	-0.627986676311678	-18.340811454629	-42.5778850148619	143.805163091388	-42.7678124905471	142.235814679399	-0.47562984231873	-18.8740711690857	
10982000	-0.529478273061168	-20.3272849752091	-44.7271885057269	117.101075681158	-45.037226702405	116.418688116133	-0.469721972810407	-20.8443285771483	
11231500	-0.253010480738836	-21.8199002951183	-44.660441882983	93.4432607376947	-44.910380233894	92.4653205399241	-0.25846307999528	-22.2677492465233	
11481000	0.0170433546589695	-22.0929722706119	-43.3316763124829	66.0572233942229	-43.2682657709363	65.918784326014	-0.0510504095920148	-22.5967974062454	
11730500	0.0831302046553439	-21.6410355245095	-44.9775142651364	40.3107813022606	-45.1326633109547	39.2189707116319	0.00773056539487688	-21.8571394929199	
11980000	-0.130028891670448	-21.6056440572694	-38.7130484106243	16.3202383696132	-38.782610815837	15.2877612486675	-0.287695663447806	-22.0512762821874	
12229500	-0.515241768162756	-22.3356587364606	-34.2042329097901	-41.4561280927126	-34.1981296433562	-42.8943263636305	-0.772382615452111	-21.561476641966	
12479000	-0.764507956110502	-23.9992768120878	-32.7435455151304	-104.8736622915	-32.8016695739304	-106.747924374609	-0.866573158934588	-22.0410914093462	
12728500	-0.840754433239159	-25.4082023342037	-31.8260922082811	-168.934127399168	-31.9039908915488	-171.195290870765	-0.748981360734973	-23.5790620385405	
12978000	-0.487729879993144	-24.6382704262381	-33.5165757522998	124.192551149426	-33.6688050812069	122.011554239596	-0.383923363752084	-23.8162489834465	
13227500	-0.111387257599414	-24.4681043862351	-35.9761698410905	76.6985754639537	-36.1331758655706	76.0401964213869	-0.0509173641640283	-23.8052782769553	
13477000	-0.138391836794415	-24.1839182201394	-36.4834501939586	34.0239249162883	-36.6146766572579	33.0254868115593	-0.0132224836898067	-23.3819718299164	
13726500	-0.496713554738431	-23.1298223582174	-37.1220791421113	-24.9767744478623	-37.2616928103802	-26.0352604202257	-0.203717232334997	-23.2070445122473	
13976000	-0.622132892993822	-23.2224274324221	-42.5260856826368	-79.7495553982424	-42.4013535581229	-80.1398235023283	-0.434863980191762	-24.5161921252909	
14225500	-0.620013956068758	-25.6623590196067	-51.2557741996681	-98.005071268382	-50.7818681719248	-96.9384189882201	-0.577193764330364	-27.0250284414306	
14475000	-0.46069753940172	-28.0336612935914	-45.3024836693046	-37.0467724502835	-44.9692458591123	-40.1405356400647	-0.583362527218066	-29.0662761341371	
14724500	-0.214186791933976	-28.6623293881046	-37.6947170463411	-106.276346686054	-37.8571365322459	-109.083953108579	-0.374286714076874	-29.2158255422419	
14974000	-0.0517629749187541	-28.3144672423813	-36.9672204974143	-171.406260867585	-37.17344839744	-172.525061203308	-0.464834279002056	-28.6011918139795	
15223500	-0.188137107411486	-27.9068560895629	-39.6652187161462	126.42502823403	-39.8619512014322	124.514168185494	-0.566030233454981	-24.6463659388338	
15473000	-0.628374897868062	-28.2194457684478	-46.8137388583171	89.5719890990179	-46.6595858880059	89.5900912802375	-0.491022345777049	-23.9617370650449	
15722500	-1.12140136392234	-28.358984347061	-49.0852595583406	124.462118765217	-49.4765035358236	123.445739931523	-0.591532492580222	-25.8282945069841	
15972000	-1.05622270203737	-28.270839375926	-41.8180156072401	104.973574059428	-41.8715425060855	103.968305083952	-0.591002623500096	-28.5060523911532	
16221500	-0.605168856079455	-29.6073039926447	-37.3357020444278	59.9582487562786	-37.2945051481117	58.4052247408446	-0.435950525952692	-30.612375762394	
16471000	-0.288789784162338	-30.0513849701055	-34.657918694219	0.0256413109281919	-34.7437774082661	-2.53751426924697	-0.284742492119319	-30.480282119465	
16720500	-0.107565494996722	-28.9436721327135	-36.0951326376848	-58.179521769662	-36.2897976041569	-59.5704450231731	-0.0935353300984161	-29.1291260044093	
16970000	-0.172385470943244	-28.5804704064028	-37.8299449550642	-95.5120191338828	-37.995514485403	-95.9704917462236	-0.155007743730442	-28.7742876867283	
17219500	-0.448155143499971	-29.552597799021	-37.7269053584954	-125.861305917262	-37.8474895158143	-127.306122789392	-0.43419515726703	-29.6333168618766	
17469000	-0.73930203937481	-31.7671005908051	-36.1467453133522	-167.282729116062	-36.2343724887063	-168.82067040151	-0.703276676842261	-31.6515344926556	
17718500	-0.770805436677767	-33.2490789690811	-36.6864193626829	134.745694191117	-37.0372562871677	134.090269922695	-0.712756716714469	-33.8610531457912	
17968000	-0.424999220949276	-34.3036875634999	-40.8738393570788	107.496904769175	-40.8579866289585	107.310988819361	-0.690623547536513	-35.8641030262609	
18217500	-0.179482403022046	-34.5557247440712	-37.5528871370808	86.9545000044332	-37.7262419884795	85.8273930615015	-0.649753377917854	-31.9827090514867	
18467000	-0.24590095450988	-34.1099470537737	-36.8191307675329	42.4176137425559	-36.9104679992207	41.7263185600191	-0.171753828900031	-30.7915187722378	
18716500	-0.681687500153373	-33.5635079720453	-35.9260470692615	3.81056630081398	-36.0093332352513	2.96751516561241	-0.262420325208317	-31.2656782357928	
18966000	-1.17223476752121	-32.6327587993794	-34.898369348085	-39.9912791104551	-34.8806670293547	-41.4160501466414	-0.571070174930304	-32.612518815445	
19215500	-1.19037065592441	-32.7479516475527	-34.7743970904039	-84.6630538945042	-34.7210200735968	-86.8814020309584	-0.768731240467467	-35.0021197906785	
19465000	-0.859458430468224	-34.486457747872	-34.6886683003796	-125.714220547288	-34.6265331962866	-128.568671796712	-0.763230966597324	-37.3231612988515	
19714500	-0.4668750968075	-35.5955213191054	-34.1219398136725	-168.144469886229	-34.0984247229444	-171.977398361398	-0.647760240423949	-37.8471911784686	
19964000	-0.23232536675826	-35.275596265521	-33.6693002152932	144.874158831815	-33.9449104208405	140.622026506829	-0.501615125513744	-36.1268755094965	
20213500	-0.267284438021377	-34.4548390958031	-34.0044341076505	97.4841185826509	-34.3499676909237	94.4550438615208	-0.4367563164914	-34.5062714842862	
20463000	-0.543602071258467	-34.3599087455867	-34.4725880940005	50.1394811004897	-34.8229063723736	48.5288323968674	-0.657246404045239	-34.3365996643757	
20712500	-0.830441758751545	-35.5497996086903	-35.5530543260752	3.00521214002612	-35.698961127593	-0.167876633019934	-1.0134481525154	-35.0842559134725	
20962000	-0.890401851595306	-37.8806148984385	-37.1331849583503	-41.4106119247091	-37.4463589258335	-45.0269632559446	-1.09662619147612	-36.1924268443269	
21211500	-0.695757699963136	-39.8841356043944	-38.7032811328836	-81.1699652933974	-39.1934100260755	-85.6296946168273	-0.80648702463867	-37.3496880256218	
21461000	-0.432942077601051	-40.3232033967699	-40.0227869306499	-120.221659441114	-40.4994874952592	-125.308456937652	-0.397236386207849	-37.7454109586831	
21710500	-0.356953469735279	-39.3810127517314	-41.1875683989699	-159.867266296627	-41.7595634456429	-164.340167219223	-0.156213433295314	-37.2454530956363	
21960000	-0.561887062234788	-37.9694113873221	-42.3459652864555	160.791677202366	-43.1175124606186	154.940484992962	-0.202394888982002	-36.6855209846268	
22209500	-0.902270155472341	-37.2363911255092	-43.4709657879602	117.714698476403	-44.5103568301436	113.577376160214	-0.457316776792638	-37.1170513138251	
22459000	-1.11933466804323	-38.0698429627747	-45.4249943494769	76.698965383226	-46.7168838737118	68.2455517230345	-0.699717360618093	-38.9683280916944	
22708500	-1.04854360784747	-39.8906826751717	-46.8962823335204	27.6634091253733	-48.9023696428672	20.9120125967673	-0.726588022179695	-41.5767522998552	
22958000	-0.717619452694516	-41.0389911913229	-49.338794294516	-28.5345118506902	-51.2732339541581	-38.5525074234764	-0.529753077029241	-43.4685770893445	
23207500	-0.337943275920686	-41.0722129474284	-55.2672570800314	-120.784973708141	-56.070378999663	-129.169084577037	-0.313963653827387	-44.0040912178769	
23457000	-0.256203779675199	-40.4022003940695	-71.3664201496333	-147.005526786848	-63.2425358027356	-177.472203413461	-0.367062110488624	-43.6345737788366	
23706500	-0.446433364606146	-39.7680749178664	-55.9377496747403	-177.298424874789	-54.9929624331377	156.975263363578	-0.793080946191608	-42.9011854482378	
23956000	-0.767195581270924	-40.6065935732063	-49.911392639064	119.354835430424	-49.3476551924939	108.376639275363	-1.38956132288694	-42.0018721899812	
24205500	-1.0027260658114	-42.919202235397	-47.0436305966764	68.1035472747333	-45.5202121160362	55.6146684162698	-1.67081321866762	-41.1794323892701	
24455000	-0.992047957389966	-45.3294883380795	-44.4841855981792	17.3772373538941	-44.0150049977319	5.61586986893545	-1.40590624146734	-41.3826413468997	
24704500	-0.799448786732523	-46.080262018577	-43.466226290298	-28.3544232634851	-43.0865558358729	-38.6391706925478	-0.862257068653778	-41.5802753722618	
24954000	-0.617802320170832	-44.7442017839126	-42.9127342263683	-72.6215992085034	-43.1031605218496	-81.6283922448252	-0.399286584949444	-41.3347047016968	
25203500	-0.601698277978139	-42.7672427589742	-43.3053491280435	-114.871149567878	-43.6050752529581	-120.8678472094	-0.234123080647497	-40.7315989882833	
25453000	-0.802212557788938	-41.7396959055277	-43.5963392775468	-149.252014359336	-44.2239866120565	-155.61545319097	-0.372633764401139	-40.7299527292565	
25702500	-1.08908993828966	-42.3306076997914	-44.3621670836622	175.866741830528	-44.268296177913	170.632686052634	-0.632711493465574	-42.0535749696143	
25952000	-1.16726248311177	-44.0611794546259	-45.0251048216297	143.729536818889	-45.9492324031481	138.298244919689	-0.74546734533357	-44.5853017149919	
26201500	-0.891413654476491	-45.6937099102632	-45.7817556312363	110.525378181303	-47.2232530762299	111.185065973062	-0.598193685229232	-47.1212631510671	
26451000	-0.459330099780786	-46.3115236413192	-47.2483635291256	84.6467305980491	-47.7113519320034	85.8361645949703	-0.308574267877718	-48.3836494667159	
26700500	-0.180248152184041	-45.8544734966218	-47.5280753688535	62.2332924618179	-47.9890168486343	64.6653986913584	-0.151199894740192	-48.3756690636651	
26950000	-0.22056220465603	-45.2073384026836	-47.1239438406976	39.6777936583353	-47.4136576485097	41.2499463199016	-0.302138668685323	-48.016092442604	
27199500	-0.511051372109403	-45.6098356247856	-46.4520868979752	13.7110570775584	-46.2022956734977	16.6734569954679	-0.745670906698506	-48.3840774099158	
27449000	-0.845105957591208	-47.5647198166515	-44.3160994594028	-19.3144515799105	-44.3142932665958	-16.9090038350524	-1.30245356579909	-49.7552114823265	
27698500	-0.976573279703504	-50.3074425080223	-42.3257276030548	-57.4322859463937	-42.5362711516185	-58.6866549077679	-1.67213374699377	-50.5998529144853	
27948000	-0.856963868908291	-51.947592905777	-40.7689209934356	-109.197388934702	-41.0198495195503	-110.240388934777	-1.47761477921743	-49.5566003541969	
28197500	-0.644325885607741	-51.3141437458112	-41.5110038198093	-163.904323301409	-41.7651246795496	-165.15432509646	-0.93954548965631	-48.224433323503	
28447000	-0.519296527594734	-49.2957990784524	-42.8521013438711	147.079055586046	-43.3595445260334	148.345568033696	-0.55142190625306	-46.8041817911626	
28696500	-0.607249922088244	-47.8411313256023	-44.4907401734978	107.056320004091	-45.1872167570873	106.93515378263	-0.499234569841941	-46.0402984915568	
28946000	-0.871616238715653	-48.1084216872298	-45.9046136713777	69.4173434800624	-46.1925129361699	70.4295713566043	-0.691138666615569	-46.7201862281504	
29195500	-1.109092626742	-50.2049679806165	-46.5448704884273	32.7183681254558	-47.1681929847718	34.6542552267005	-0.886489808001766	-48.9759519889252	
29445000	-1.08405712584202	-52.7625181713886	-46.7224832856036	-3.9446767480259	-47.4435752121604	-2.6561524806301	-0.850708701356843	-51.9222517733816	
29694500	-0.818686869636691	-53.914246030654	-46.3372540198756	-42.6091280205398	-47.0164697757807	-40.3183210232142	-0.604564583096573	-53.9816908505947	
29944000	-0.515905961636664	-53.3506553808392	-47.390961686988	-82.0999366320799	-48.2585491377868	-82.3873416942445	-0.373535488710437	-54.4651945978272	
30193500	-0.460787152817887	-52.1755728487335	-48.0729125848366	-115.031980551704	-49.3604159657381	-108.98913142023	-0.423894479776087	-53.8959339822508	
30443000	-0.709177029998596	-51.515112105833	-47.8427775035468	-142.189141279171	-48.9553836568704	-134.515984677773	-0.785907563698958	-53.1109630509447	
30692500	-1.11388586309846	-52.3200233728439	-47.3183023025331	-175.006559413682	-47.7205802724944	-165.70700865728	-1.30387038904178	-53.5703320671429	
30942000	-1.39151580638992	-54.2419447023577	-46.6267254682233	148.772638767582	-46.257229025393	160.915007752484	-1.70315831721066	-54.4147457915938	
31191500	-1.31887531710099	-55.7657544557993	-46.6780203085314	109.745167065556	-45.2520903920278	123.006216518227	-1.65654350744179	-54.770620185604	
31441000	-0.974688951714218	-55.6430479143426	-46.2949281491257	71.3123469222768	-44.6561181708201	79.8793723462106	-1.21372623658067	-54.1866219108275	
31690500	-0.643573253841878	-54.2770091034994	-46.2571891003083	34.2584360863379	-44.3773644772845	38.2104771613015	-0.751055232310561	-52.9139685207628	
31940000	-0.579295796206307	-52.8457109865323	-46.0684979069035	-4.46376450894997	-44.3365473980002	-4.96588919887209	-0.583573002123286	-51.6340448677675	
32189500	-0.783838391993079	-52.6192266675299	-46.0028758231112	-44.1583739413687	-44.8010122657054	-47.0427757904724	-0.722588587685208	-51.3063949813056	
32439000	-1.06186194101249	-54.2533094512049	-46.1672517030037	-91.1605420068662	-44.8306064308335	-91.3027043724375	-0.979095794134996	-52.550353771883	
32688500	-1.15677460570223	-57.1300176969064	-47.3436649055186	-138.744524514978	-45.7581515052011	-140.21466829639	-1.07240448308302	-55.1536858431373	
32938000	-0.978822323040859	-59.3338300383581	-48.7940859829813	174.434455635218	-47.7639783619325	169.43545597703	-0.875010166435158	-57.6471418455226	
33187500	-0.676309154548181	-59.4352431670806	-51.6191876974147	123.305859384695	-50.1603270106374	119.610491394299	-0.544278497773833	-58.7921562923803	
33437000	-0.497982511574505	-58.0594241102625	-54.2547924736941	64.2408514491548	-52.7433404743503	64.7554377207275	-0.36656241977553	-58.5977409082081	
