!Keysight Technologies N9923A: A.12.45
!Date: Saturday, 02 August 2025 18:45:57
!Timezone: (UTC+08:00) Kuala Lumpur, Singapore
!Model: N9923A
!Serial: MY61181427
!GPS Latitude: 
!GPS Longitude: 
!GPS TimeStamp: 0001-01-01 00:00:00Z
!GPS Seconds Since Last Read: 0
!CHECKSUM:1781830317
!Correction: S11(ON U)S21(ON U)S12(ON U)S22(ON U)
!S2P File: Measurements:S11,S21,S12,S22:
# Hz S DB R 50
2000000	-0.0588619360896106	-3.024168388258	-63.2362226668076	-86.9112028797484	-64.0739595412906	-86.3174524958154	-0.0818710501412823	-2.98510917589604	
2249500	-0.261456086946377	-3.68462096745741	-74.0186379968484	-78.5407808921918	-70.5057938837229	-103.185785925151	-0.271885283661246	-3.66752228188446	
2499000	-0.35209367604692	-4.96714630858634	-67.931861143857	-62.9590410883836	-71.3728456602157	-79.4843373097945	-0.35316722735346	-4.89759084896988	
2748500	-0.2500714136568	-6.2014253153921	-67.4905382791141	-84.7617711226855	-73.0937481023002	-81.2370934062734	-0.24869844125905	-6.09487178794695	
2998000	-0.0442280955996342	-6.74024365918835	-66.5616810973506	-90.9192063060347	-66.824622292813	-98.3105817470409	-0.0526690820670596	-6.61554246256174	
3247500	0.0973672600215921	-6.61896165066354	-62.5512589616189	-108.776634212577	-62.3485148488464	-100.688001942621	0.0702745220660558	-6.44840836464461	
3497000	0.0373955907533414	-6.40323598301826	-54.4980819832463	-127.606981625963	-54.3267177219838	-124.552333252679	0.0379162081366254	-6.16754900609959	
3746500	-0.156266931133782	-6.04283543045494	-53.5596143638875	127.531692057312	-54.1082320345728	130.935827541028	-0.149319591893499	-6.22541792565324	
3996000	-0.321542364705732	-7.10977661488129	-59.9528636014867	122.642651403994	-58.967338601207	100.532979583477	-0.330117416029166	-7.17541324706144	
4245500	-0.354119600308662	-8.59318311213127	-63.9679419793432	88.2340576300806	-64.3948821295857	100.10386347925	-0.347747365145746	-8.45604821545304	
4495000	-0.207936027135661	-9.81141283363303	-65.1781534570277	144.185985944846	-66.0583746225695	164.297393943826	-0.196065828655826	-9.53344674033271	
4744500	-0.0454681581588592	-9.91795031822268	-52.2479504181356	136.285273068821	-52.807360107184	134.779341909469	0.000900595969529098	-9.79165692745944	
4994000	0.092183340730168	-9.47275969383658	-52.4480940709261	85.1781246039335	-52.2123117420163	83.4800400083895	0.0896120382440111	-9.48033657791998	
5243500	6.70598039869435E-05	-9.30823603840598	-51.926242230029	70.9118375203987	-51.7380290678897	73.0553520525307	-0.00862204112009359	-9.25125834352874	
5493000	-0.225278362587677	-9.88054892934246	-47.6734112082631	61.8722863638782	-47.4721234599235	61.3863986358572	-0.217475500261498	-9.66106747560058	
5742500	-0.479753553399137	-11.5750308890046	-39.1438934185981	37.7492249928404	-38.9653482921746	37.4190441496736	-0.397944813894455	-11.0074726049296	
5992000	-0.433829391582937	-10.9796778558102	-37.0661418486032	-70.641701631	-37.3591191587668	-71.9502397642113	-0.370052198702823	-11.8004664321837	
6241500	-0.12803268853301	-12.5412836259683	-41.3209463105665	-101.289311297471	-41.4535855601751	-101.260152092105	-0.186482903462856	-12.9854602006489	
6491000	0.0564564578624494	-12.6756317701836	-48.5187707253159	-108.953990161806	-48.5300167972041	-106.885691344602	0.0329862700644957	-12.772741814635	
6740500	0.0942232102013077	-12.4730425648966	-44.0751239017631	-113.898562817338	-43.8939682014262	-114.114987229569	0.0505109340329274	-12.775274828127	
6990000	-0.0746506482836233	-12.5703504507143	-39.200124594593	-129.41912773268	-39.1990903439998	-129.598299700165	-0.152432953357979	-13.0496121452925	
7239500	-0.425655961621108	-13.277350927477	-31.6483176003054	179.298218101856	-31.6332407788175	178.924113729806	-0.663789300976406	-13.3019382407678	
7489000	-0.451516104777557	-14.2015154590484	-37.82665623156	99.2757926125391	-37.8550985214194	98.4108244411003	-0.464737098313378	-13.3951904854604	
7738500	-0.430164285908956	-15.071407442855	-32.3562401022547	95.7722923580931	-32.3410770504699	95.2007084188568	-0.493076040701599	-14.9286715419415	
7988000	-0.181196796309294	-16.0340547348557	-32.3039427586059	42.9859258721283	-32.2677749798871	42.7519184619959	-0.340921580018522	-15.812955965783	
8237500	-0.0490339276952016	-15.417094287434	-33.3859340770819	-14.623146985502	-33.3030234112127	-15.2401735712444	-0.231682158183824	-14.1063014332601	
8487000	-0.0177962219422626	-14.7643991100127	-37.2794183217104	-53.4444879665391	-37.2633123407214	-54.5134038955089	-0.0648396025881838	-13.3242379464599	
8736500	-0.184873470042958	-14.7792004924709	-39.8129580547692	-77.064817293982	-39.8189270802599	-78.541971182095	-0.164404405270037	-13.6386926727524	
8986000	-0.390158832497381	-15.6901306190887	-41.0903901854256	-97.2166410555925	-41.1018172784581	-98.7592453472395	-0.337007717974816	-14.8133810495518	
9235500	-0.44622346342143	-17.2190325014957	-41.3883943967167	-119.693617104218	-41.2282745764874	-119.020001911929	-0.388279857478713	-16.5349702810884	
9485000	-0.310370495226761	-18.5243245809105	-41.116667191124	-143.136171830842	-40.9012536366555	-144.24033617839	-0.272972326251233	-17.9971866652588	
9734500	-0.098606217925574	-18.8123026911946	-40.2694634736833	-174.382378996598	-40.1449462435337	-175.878047166806	-0.0939164264207331	-18.4676121740609	
9984000	0.0298886962480455	-18.2651540355296	-40.271331256045	150.007738373472	-40.2831577307304	147.238894287473	0.00198105520371958	-17.9816478323646	
10233500	-0.0271722652073003	-17.8755783559202	-41.1883761940435	116.039293224775	-41.0485749670986	115.456129823376	-0.0601035965898308	-17.5762154268888	
10483000	-0.235603908511303	-18.3337983354604	-41.7389890600114	88.4681774068585	-41.4959176269037	86.4924427290517	-0.264724184521078	-18.0645077574094	
10732500	-0.43681528834177	-19.8472818339429	-40.6700806800345	62.2386866065747	-39.9604660262792	55.82568957756	-0.500715868650365	-19.7232931448884	
10982000	-0.50698381061227	-21.7664922535682	-37.6299940309744	24.1562968417177	-37.1962497074762	-2.23550606543013	-0.766673287813275	-21.0183901298827	
11231500	-0.424527134704034	-22.669356292964	-35.4177684249926	-52.7658613427143	-42.1063518560277	-81.9060482979724	-0.447280884788867	-19.9913419861468	
11481000	-0.386106007996101	-22.2509508557843	-38.9338829608653	-133.41418227179	-49.1334759156433	-87.5571277454743	-0.0896398409952758	-20.697725992173	
11730500	-0.200946802201638	-19.5938741390951	-42.2679949154209	-172.031185176356	-41.3173246413292	-155.871058399473	-0.189488495457687	-21.4151722378353	
11980000	-0.160803589831056	-19.9064286607897	-39.4618527581454	48.4132510102926	-43.4866649698523	49.3288493922096	-0.25480203764342	-18.4706235535347	
12229500	-0.336646863624188	-20.378052723796	-50.1764392079679	-38.6697353659268	-51.6998713621111	-43.0456256085427	-0.326745011026321	-19.4915362828308	
12479000	-0.453892481883755	-22.2490933927384	-51.9797478151573	-64.2065715781937	-52.5618224193731	-62.7202668826149	-0.429297813985719	-21.214977852353	
12728500	-0.373644034111765	-24.2890038061146	-50.5908148685193	-89.2984196796879	-50.8535753373474	-87.1813186988906	-0.356088612085859	-22.9688929426361	
12978000	-0.179897680132069	-25.5762085693008	-47.0981480894994	-110.341016180158	-47.2622502297887	-112.73526034293	-0.140854727921919	-24.0232562194958	
13227500	-0.104052254786176	-25.7061707789364	-42.2838170003595	-147.052050175941	-42.4946401957674	-148.675682871084	0.0362134011591651	-24.1769511309983	
13477000	-0.171590012256922	-24.0999713501014	-39.603951798174	152.398042385178	-39.8405650741577	151.985415902077	0.0205959076391355	-23.7614493214171	
13726500	-0.225699148325278	-23.9801241834055	-41.1656621736106	106.826695049598	-41.3540262514209	106.210973227071	-0.143979360807295	-23.6494774280477	
13976000	-0.442539113160218	-25.5974043347158	-41.4515964853859	78.5379836010495	-41.6931780084536	79.1102668707397	-0.357649710214841	-24.5835183577054	
14225500	-0.634188444147661	-28.1780782937977	-39.7390943052765	53.782815520057	-39.8287479299822	52.9115345730616	-0.447580588313597	-26.3187732924335	
14475000	-0.862358408436069	-29.8784668404366	-36.4509511152907	15.2955184876909	-36.5025278399322	14.6483358038378	-0.364632746884091	-27.9600426178806	
14724500	-0.800557718659811	-26.9698878885228	-34.4095885400879	-45.4801045003242	-34.4066287839093	-46.6632321869282	-0.206237964461014	-28.6036890331611	
14974000	-0.34590322105272	-25.7342115144433	-36.0618083398036	-128.051598582708	-36.3516946127664	-129.656487416827	-0.130753229240363	-27.6423595143725	
15223500	-0.260714807297387	-24.6495423170725	-54.3996151285165	-139.580255232944	-54.7237495170671	-143.150043219945	-0.047941936645229	-27.3213810639967	
15473000	-0.347507137074647	-25.1183224686076	-47.248282181789	-102.315326890629	-47.2209410273109	-100.584831679318	-0.272564964840492	-28.1128936331824	
15722500	-0.500902118006863	-26.6979154717363	-43.4343637876458	-120.361883757218	-43.2152504737709	-121.556812490465	-0.549244156915345	-29.8386481851986	
15972000	-0.511205873446007	-28.8838354511095	-38.8112192371331	-149.804888187072	-38.9214598521996	-151.921521589954	-0.773279754402446	-31.9449292934664	
16221500	-0.364184816740936	-30.4476959552434	-34.7411756863883	157.946876829434	-35.174729650354	154.650284057205	-0.872232437875638	-31.4831161936442	
16471000	-0.13337433454331	-30.7008869159342	-34.7887268811176	99.7100866008009	-35.3729021647354	98.6610354257768	-0.406654753244293	-30.1917130993139	
16720500	-0.0413495264307932	-30.4954859879243	-35.3100767557305	59.4607476277381	-35.695955783374	59.0341737442391	-0.196132466911047	-30.4441222933633	
16970000	-0.225309203928613	-30.5302155796238	-33.7807337369578	20.9842617633604	-34.0059482978872	19.9944458065205	-0.389640320004157	-30.6760449480562	
17219500	-0.614018423698056	-30.9390643926357	-31.1940570277839	-32.8217609627645	-31.5289659512755	-34.8632892841878	-0.760367015273167	-30.3907791103413	
17469000	-0.808809341425605	-31.6687830883148	-31.0537750744633	-96.9575881943592	-31.5548318375037	-98.4711265717781	-0.792078208839991	-31.4402286809531	
17718500	-0.759330625645496	-33.6235911007016	-31.8802926554283	-152.402065335985	-32.3588440532919	-152.607096838501	-0.883877377359974	-34.7729588001259	
17968000	-0.651257852371901	-34.9882150999077	-34.2605511445846	142.644274361647	-34.6158544968766	143.643056271185	-1.29896098567972	-33.6897013295076	
18217500	-0.708155846080445	-33.5911721059673	-39.605020242085	138.377075685625	-39.5886659730831	139.444755663373	-0.536817215244234	-29.6504225949264	
18467000	-0.449033166615362	-30.5308107116266	-36.7645077288303	103.59880664357	-36.610079250418	102.945858053742	-0.144071312226806	-30.3074948206025	
18716500	-0.355632794707827	-30.6220692273762	-37.3961014428163	67.9303311475388	-37.286130959825	66.4853465313386	-0.195551335922478	-31.3917577987177	
18966000	-0.514363818860401	-32.2122757124977	-37.7814751931403	41.6866406480675	-37.6524111958296	40.0887240906373	-0.446055607541941	-33.3907682128524	
19215500	-0.640016210292128	-34.6981980335922	-36.9640262941378	16.5121185264464	-36.854582764278	12.9632855569418	-0.693742840696399	-36.4075042466795	
19465000	-0.611845147297454	-37.0069877655315	-35.1992100126061	-14.8400847230363	-35.188649382313	-18.8024140163076	-0.959053777824951	-39.2241001864265	
19714500	-0.513830333999903	-37.9055120558566	-34.1635066208534	-60.441769700621	-34.4545406385339	-63.9683990908312	-1.31958192470576	-38.2784316698334	
19964000	-0.443103739314631	-36.7692736299231	-36.3435221983879	-104.133101563483	-36.7600166431738	-104.114758335018	-1.16004474853969	-33.0063933823995	
20213500	-0.451339402119295	-35.9513191207257	-37.8911431090335	-124.531403613394	-38.0844461573456	-125.930865717683	-0.718764123139399	-30.4950216222829	
20463000	-0.787006840287792	-36.1775666077997	-37.5956670044805	-149.206147519612	-37.7289675616804	-151.831160885594	-0.626489444675846	-30.501731731774	
20712500	-1.23056898656178	-36.5729886989696	-37.1653461471126	178.728710786084	-37.4698322579891	176.532594706254	-0.704478834086022	-31.8383108622522	
20962000	-1.36974774499944	-36.4924477663988	-37.433935838677	141.437535018333	-37.7900225857348	139.988286648707	-0.692718036979809	-33.9167138373561	
21211500	-1.04426709367469	-36.5289477616098	-38.4417253584187	106.944964412972	-38.8318427309777	104.826604212955	-0.494995893921901	-35.7601547991043	
21461000	-0.602125976761616	-36.6054748098262	-39.6184462752231	75.5263853027937	-39.9356664875109	72.0059714318325	-0.218784380422107	-36.5816391913164	
21710500	-0.361299666158387	-36.0760239145817	-40.7755802322868	43.8605898981063	-41.4358724083777	38.0669509014531	-0.0579855591699457	-36.4611810769907	
21960000	-0.376484996647818	-35.3471267475509	-42.2906515120748	10.3546274074027	-43.5576536873298	4.38496388546043	-0.111924296482053	-36.136680510782	
22209500	-0.531862023244134	-35.4571677420625	-44.5951953272086	-22.6688554522583	-46.112598673005	-24.7743165401068	-0.315278068154125	-36.5012555576433	
22459000	-0.655297147936453	-36.9248925407462	-46.7950335733892	-46.3795156767369	-48.7005888957695	-44.4264263943158	-0.494410007940316	-37.9605689670236	
22708500	-0.598578117313827	-39.0332834923991	-49.2799760244708	-63.2789473351203	-51.0122593883248	-62.4024712909409	-0.49178701359816	-40.008396279067	
22958000	-0.365028650083682	-40.6017081702468	-51.5756239121864	-78.2853182061078	-52.917375846103	-69.4647643254523	-0.302633829503354	-41.6315143378448	
23207500	-0.119223691916625	-41.0556392959003	-51.515150361065	-60.6043212770082	-52.2627034086702	-56.6506452726543	-0.0963086685107557	-42.3708598197987	
23457000	-0.0618779980953132	-40.6309776723139	-45.4181271176091	-91.9479521185953	-46.6865193812211	-86.9309591129077	-0.0715888960814165	-42.4094523381656	
23706500	-0.217050494797307	-40.5486245636766	-43.7990978471158	-124.843267719037	-44.5375442821494	-119.718948531194	-0.378564203479982	-43.3610865548377	
23956000	-0.496707666215022	-41.5550651194989	-41.771665819164	-166.583436347754	-41.6419158119175	-166.041114410719	-1.41364068457556	-41.272774032115	
24205500	-0.713098680356052	-43.5697771835009	-43.0198488790217	165.920420802686	-44.271809500784	162.390865691615	-0.813709234084027	-39.670070349864	
24455000	-0.728504869544026	-45.4998267947251	-41.5359245096975	143.753616615066	-43.0566815551994	143.567510634215	-0.567797846121985	-42.846489794636	
24704500	-0.550305166344013	-46.1800341324035	-39.5597040602496	112.828648125766	-41.430571505504	116.945190409544	-0.30407713202726	-44.5585041304682	
24954000	-0.376999222369852	-45.8079880178686	-38.2177017126726	82.610684785664	-39.9257066679772	91.1946716066157	-0.128184502589972	-45.2642260582603	
25203500	-0.455482472919524	-45.2629817812676	-36.6246468383241	54.2726696876679	-37.7906946052283	65.3036930208459	-0.178362132683151	-45.4104375695751	
25453000	-0.819194555600082	-45.0017171629935	-34.5700515152434	22.8888378622114	-35.2102858139698	33.1980435411253	-0.47833414512317	-45.9878775021269	
25702500	-1.27193670790227	-44.9609782194977	-32.2376190170659	-15.8366758895657	-32.6201164536924	-4.07601957753321	-0.94382359248255	-47.5974511489559	
25952000	-1.36279198916867	-45.0567868025359	-30.5689880768527	-59.5744246000268	-30.549163896528	-49.8041360634635	-1.42025862019049	-49.0099602794095	
26201500	-1.01765314030771	-46.1484043219658	-29.8965878577408	-108.99528934708	-29.9558517822614	-100.874182019481	-1.5787303960767	-47.9183928230909	
26451000	-0.659168621175435	-47.3342510420002	-30.7415632855701	-159.423750249597	-30.8983323431601	-149.604193652621	-1.14464079363203	-45.493522175579	
26700500	-0.559523111717884	-47.3124149151664	-32.7353682160418	154.342703646184	-32.6884289644332	167.592208782764	-0.612168975817317	-44.2747929630745	
26950000	-0.785491142759697	-46.0976523453277	-35.3509657870123	112.070846085886	-34.8551223898232	126.806015233905	-0.414380005156324	-44.1715243080064	
27199500	-1.07722142451655	-44.6077286284738	-38.8823524711171	68.7146127587806	-37.8196875137471	87.0947825687213	-0.528516077556527	-45.1728826645945	
27449000	-1.1760734891866	-44.6833908148267	-44.2010273843127	26.0479206435574	-42.4920991494364	51.9380414808671	-0.743975487746511	-47.3589752338738	
27698500	-1.03950259462986	-46.5717420640814	-53.7058408155159	-22.8445252315326	-47.5368187728751	29.745826335305	-0.841792459838268	-50.1140760027295	
27948000	-0.722215354479874	-48.4944357624365	-58.9655549075376	160.295778762503	-54.1478829717413	29.7588700318042	-0.757526557919209	-52.4248875565343	
28197500	-0.407434356938192	-49.2578861566551	-49.6689634848578	122.94242255157	-55.6422076076137	78.3788583834953	-0.68917218675099	-53.5449426972581	
28447000	-0.28278795475998	-49.0780862720113	-45.6310075525903	94.3367327857014	-50.3668792440434	76.8630582677421	-0.899529266237457	-53.3822754317209	
28696500	-0.444834065208372	-48.9878181935481	-42.9040246062725	64.9342515831849	-46.7777556139724	56.4837674690855	-1.51027881629327	-51.4790720057482	
28946000	-0.788278223126317	-49.7588978025344	-40.7246262273274	28.1520850448225	-43.7468909166229	28.7496523702822	-2.03956128585849	-47.4965505084526	
29195500	-1.12171739114926	-51.4479804309409	-39.6350371912141	-8.54247900785848	-42.2430820268365	0.227201287842574	-1.9567862215198	-45.2530446551052	
29445000	-1.21438914653125	-52.9575723784756	-38.7953416229517	-44.7968455741921	-40.2978607977112	-32.9286855061181	-1.50343184855415	-46.0043608780997	
29694500	-1.02628922919944	-53.259149209452	-37.6722851109433	-87.3022182722514	-37.994290495226	-76.0070041528851	-1.01609059120879	-47.5804256748915	
29944000	-0.802399840550441	-52.5624357580596	-39.5491597721889	-139.524351188981	-39.7516918183569	-134.082410765159	-0.545613005910305	-47.7104849229227	
30193500	-0.788629638614016	-50.8137116233627	-42.2349464890876	-170.48609810392	-42.827274288795	-164.343605047031	-0.299912719185929	-47.8119570498284	
30443000	-0.904997428100419	-49.1953863229645	-43.9908766453244	160.931697815639	-44.8075848518014	170.782298452128	-0.369096020171243	-48.1882922378814	
30692500	-1.02499704573655	-49.2905139228094	-46.0654959450678	137.163193693887	-46.0206797603448	152.310607072307	-0.580329355870959	-49.5140523058761	
30942000	-1.03289751585602	-51.2189001849404	-47.3457999421109	114.987404210965	-46.0647388349903	130.375163920668	-0.730252487247959	-51.8960748738461	
31191500	-0.845493543535476	-53.6019882592492	-46.1402130491586	100.183146225524	-44.0816727728262	106.386770101029	-0.705142531934365	-54.4667689874521	
31441000	-0.560217139980965	-54.9736868982376	-43.5509242638446	74.1751524757486	-41.6474705335362	74.0581940746857	-0.578119373661669	-55.7534225070872	
31690500	-0.384665876510936	-55.1648522455854	-41.0986626646566	29.2812628581783	-39.766351826505	29.8484640532183	-0.459644655242857	-55.0735110425489	
31940000	-0.494612421180459	-54.8059677365941	-40.8398728400119	-16.66206675106	-39.3242395709836	-14.5192900521555	-0.442828402015133	-53.9523308509377	
32189500	-0.848994014824007	-54.8937242121573	-40.7960060484182	-53.7845320646439	-39.0589966635409	-53.948523132353	-0.616753419953039	-53.9105979155387	
32439000	-1.2475219959831	-55.9305503219919	-40.2838968589759	-87.2671667080002	-38.7492084851334	-91.8446318523394	-0.886093527977868	-55.2455879278532	
32688500	-1.44654749784586	-57.5001076427772	-39.1963602033054	-123.617973537169	-37.9429275111528	-129.804367549139	-1.06102932737221	-57.5632971226825	
32938000	-1.34347772154081	-58.409397599029	-38.0599164911884	-163.699618693014	-37.3899221443605	-171.929651706937	-1.0722066127459	-59.4993356547114	
33187500	-1.07625839063654	-57.7192443967252	-37.7043341294361	150.308818607929	-37.2896622775321	143.298899741856	-1.03404375815925	-59.5312759930504	
33437000	-0.862961192339157	-55.8417273691006	-38.6690984132588	100.301688654032	-38.530531145017	94.3593295645111	-0.999798036646739	-56.8706020623219	
