!Keysight Technologies N9923A: A.12.45
!Date: Saturday, 02 August 2025 19:12:59
!Timezone: (UTC+08:00) Kuala Lumpur, Singapore
!Model: N9923A
!Serial: MY61181427
!GPS Latitude: 
!GPS Longitude: 
!GPS TimeStamp: 0001-01-01 00:00:00Z
!GPS Seconds Since Last Read: 0
!CHECKSUM:1539743734
!Correction: S11(ON U)S21(ON U)S12(ON U)S22(ON U)
!S2P File: Measurements:S11,S21,S12,S22:
# Hz S DB R 50
2000000	-0.0656371058749723	-2.87732414529121	-82.1167797001972	-152.314866660218	-73.2202025331453	-107.681407781701	-0.0943249642735679	-2.85337609728859	
2249500	-0.31852483622462	-3.57769856374312	-82.5150036822589	-66.2080207367481	-72.8896762995104	-100.890275453796	-0.337459686958172	-3.4993563815947	
2499000	-0.434328300048523	-5.04281274432163	-61.989930244661	-112.473491368351	-61.9353752878162	-117.538740849752	-0.436982077524	-4.91707310899937	
2748500	-0.302879248715762	-6.43763253897958	-65.2197859255878	82.821448349035	-66.6683866763982	78.1869360486717	-0.300640969422624	-6.0790556892498	
2998000	-0.0406171309950374	-7.00551064012765	-82.4201562736203	-118.949540575372	-71.07811740139	-127.682749325478	-0.048852647321412	-6.56528680945543	
3247500	0.0689692433612562	-6.70479303610179	-57.5631474850969	-166.491403068157	-59.5905193237688	-160.230184557081	0.112446235957577	-6.19430396338915	
3497000	0.0816418906132509	-5.63640585106993	-56.2153095245355	97.0793893764057	-55.3111375665128	95.0038724452526	0.0663832548138321	-5.64523501274764	
3746500	-0.14284858734216	-5.78687420115603	-55.8226280522228	66.3125526313847	-55.0163481875088	68.7459877467194	-0.177958725746441	-5.7352336794744	
3996000	-0.386329284399254	-6.93540912467886	-51.4116360007515	38.9092530369366	-50.611291493363	40.3423809579516	-0.472116783832981	-6.92673788235393	
4245500	-0.452816456370991	-8.58663051123654	-46.1425596976453	-36.2956069403564	-46.2722911739062	-38.2646205829989	-0.577686195467132	-7.79166348154964	
4495000	-0.267712245708381	-9.54002577921296	-54.9352201365704	-102.323659510109	-55.3769542843293	-101.157268304241	-0.296434348168086	-8.62745212977	
4744500	0.0307662567744768	-9.79825879018898	-56.0015380111827	-96.3417386574398	-55.5422690264674	-97.5991607890964	-0.00229174325858226	-9.01525365346686	
4994000	0.145067074699807	-9.35242886771022	-52.9989851440887	-110.00029898387	-53.3778004770238	-110.286819656928	0.122155801111921	-8.66245621070506	
5243500	-0.0130717256458473	-9.02537227359681	-48.672141805523	-137.133687248779	-48.5238393605586	-139.448159445678	-0.000542228895529414	-8.34093276197224	
5493000	-0.338697711979009	-8.74419563239674	-45.2724231537683	149.702832997694	-45.3969737042064	148.95023256041	-0.269334299887195	-8.64622356234842	
5742500	-0.457507676060633	-10.1283712516009	-50.262956647836	104.871785749699	-49.8820667027321	104.807898936981	-0.444424548466991	-10.0486636936871	
5992000	-0.403472047606622	-12.0767087807867	-52.56182154581	88.4226524703642	-52.5576200454165	86.4752305395895	-0.398152869081124	-11.8347823445367	
6241500	-0.170003190625588	-13.2630196431477	-51.7351350532914	77.8761786704681	-51.5124693983839	78.6935907085789	-0.141568560427003	-12.9453805436088	
6491000	0.0707257713455413	-13.4408336964856	-49.3346722091819	64.2320535597273	-49.1411782465652	65.5963334362068	0.0675002550795014	-12.937917508424	
6740500	0.0205455921062525	-13.224357663125	-43.4126845342	39.7891553777976	-43.3922671601483	39.386787714164	0.100441628454535	-12.4405423125734	
6990000	-0.291335071938245	-11.0721143357052	-39.8216838923587	-40.2905228119045	-39.6924070634156	-41.4611256716121	-0.0974320661097981	-12.0512924449329	
7239500	-0.374411062242375	-11.8628295650501	-44.2862815371918	-85.0072768790721	-44.1997224655303	-86.1451349228802	-0.357699000859568	-12.8225866451487	
7489000	-0.492178309159242	-13.9469527795021	-45.0190699308122	-113.32112222686	-45.3186089217453	-113.514980892434	-0.510894253686099	-14.6112675346178	
7738500	-0.367929058520667	-15.7905857624023	-45.0073151907411	-118.586549092114	-45.316718494857	-118.842462760234	-0.427952647684517	-16.4588344913494	
7988000	-0.106355659167408	-16.6705770789107	-41.1830793210059	-147.801096029436	-41.1450340043575	-147.82277224396	-0.289403677174083	-17.3296035662126	
8237500	0.0510645768311997	-16.2780056982862	-37.3184468550988	158.496379647882	-37.3415012127414	158.360398502632	-0.282216552696506	-15.6519339564183	
8487000	0.00554845271894377	-15.3858791916846	-37.7749494325575	98.7363252915686	-37.7311829871545	98.8805487954688	-0.141803537756994	-13.569663064076	
8736500	-0.25276982867622	-15.1553737954935	-39.2757244780866	54.8048567651486	-39.147593143106	53.5978135483031	-0.261888337338749	-13.5581184001478	
8986000	-0.53623982388281	-15.9592251215061	-40.5351429168214	13.7570645947083	-40.3232973344416	13.8925242821118	-0.490121786093095	-14.6412879963321	
9235500	-0.593162745885604	-17.5317805689378	-41.3072089319539	-23.0216712792871	-41.312405845367	-21.890517763142	-0.540276519768792	-16.3854117513796	
9485000	-0.382195450682142	-18.9575729300165	-42.5374569157557	-53.7608146000432	-42.4391652529771	-54.0792660628251	-0.338033278738447	-17.9019104850083	
9734500	-0.0922356274317112	-19.3784552405798	-43.006498374792	-82.9213824767216	-42.7930771560426	-84.4543663871888	-0.044960185746085	-18.3938271404219	
9984000	0.016050269462422	-18.900454581763	-42.3392041253544	-112.80548729397	-42.2543687115253	-112.889078604854	0.104774634713962	-18.0010407389277	
10233500	-0.178682846758147	-17.9965484026775	-41.0793288768444	-151.635398166135	-40.8828410757496	-151.850461751492	0.000881149338500053	-17.5544851377854	
10483000	-0.454015453639567	-17.3357494725068	-41.5270288503864	162.012997645066	-41.409750831247	162.141043186757	-0.274173403920632	-17.8004865535459	
10732500	-0.586211105051706	-18.5792764268165	-43.6597477071946	127.91761760563	-43.615081167856	127.028332059436	-0.49336417736885	-19.2525532470434	
10982000	-0.528164851432793	-20.7682351134508	-45.0303522285566	107.499411814982	-44.8257130103533	106.73044268293	-0.491310581789314	-21.3063418666171	
11231500	-0.26298909993759	-22.322054216377	-44.0937069916353	86.3864846493952	-43.989936267591	87.0858281024771	-0.27349770714345	-22.7645836354136	
11481000	-0.00248031820963567	-22.6322372044247	-41.8535911058119	63.1390484712551	-41.8869181493861	62.7935691073298	-0.05621083401015	-23.0516090746152	
11730500	0.0299551817256408	-22.1937846656276	-41.548771545173	35.4778639263161	-41.6276900377698	35.088528696977	-0.0290186382450299	-22.4499516234251	
11980000	-0.275025977080981	-22.1018258130345	-35.5179637495022	2.53647172733033	-35.493784056114	2.56126679307019	-0.36090767448222	-22.2333199158371	
12229500	-0.73015352945495	-21.6311348432987	-31.9300306136361	-64.0201300909387	-31.8776906673504	-63.8725452349978	-0.775960076182463	-21.5101829829168	
12479000	-0.836925021956249	-22.5451842358221	-32.4468135740573	-129.107220376986	-32.3554157771994	-129.313610353135	-0.925964863105156	-22.623246711433	
12728500	-0.664319043873601	-24.2703012139207	-33.9109373948313	175.484683212706	-33.8184035647326	175.352734349401	-0.853428608076315	-23.6358363587842	
12978000	-0.317471179094345	-25.2069807685627	-35.7436206205926	127.028574319642	-35.5567140334537	127.169645102015	-0.467996582354899	-23.7399935024967	
13227500	-0.0752633742271303	-25.1108323373509	-36.8032858876994	85.9607527701878	-36.660778390345	86.4879860164226	-0.117962485998281	-23.4122658614991	
13477000	-0.154335743023839	-24.2491643674361	-36.6950454146561	42.0671801346952	-36.5992643447761	42.413624782674	-0.0596133346412483	-22.8110043359788	
13726500	-0.423994895800188	-23.015375957823	-37.3160097893865	-11.7564805336616	-37.1864432384575	-11.6881892008483	-0.268020837779373	-22.4671351607814	
13976000	-0.590632635223528	-23.5892958118637	-39.6798073786935	-58.5836359394284	-39.6451374830323	-58.7057749376954	-0.510966860756386	-23.3282516401365	
14225500	-0.623017058424389	-26.0160601529323	-41.3226640140121	-94.9008781716718	-41.3768967067465	-95.5659656229276	-0.594440482245523	-25.3649438034142	
14475000	-0.477421521734268	-28.4036905070532	-41.5171804943266	-135.133474496455	-41.518657908779	-134.140162925405	-0.438813546954172	-27.2693827457527	
14724500	-0.280796831897818	-28.6662190505436	-44.8028978555704	153.545979817775	-44.5643857935131	153.621078285428	-0.137604882369538	-27.9458738981515	
14974000	-0.0462256012981375	-28.2366211786213	-53.1284109680486	-156.160824017291	-53.1694968024697	-158.873930834459	0.0400529265462091	-27.9910229987862	
15223500	-0.240907847025274	-28.0271358484515	-43.3278650920235	177.298841626883	-43.2444819261088	178.11945439674	-0.134918983122281	-27.9607215373564	
15473000	-0.763635575842574	-27.5346880315218	-39.0156516067055	95.2424568658587	-38.8495044768403	95.9114157091357	-0.797224630602586	-27.2620653672911	
15722500	-1.06212014079783	-26.6273007447596	-54.1058766577639	109.495010535758	-54.3648975445932	113.279147563875	-0.698040434844441	-26.2286500970367	
15972000	-0.854102193913146	-28.2879884074895	-42.1166746629306	79.0311757733873	-42.1590795300692	79.1609615242813	-0.653147194725733	-29.5158037419601	
16221500	-0.522043441184858	-30.3317205495461	-38.5709544877067	33.892029833215	-38.4652653001965	34.8000000052787	-0.519678597245783	-31.6435256016322	
16471000	-0.23692947437242	-30.7948268880357	-35.6267960638279	-17.910393436791	-35.5517635592271	-16.6300298525765	-0.37370540363766	-31.4244706535107	
16720500	-0.119254829017978	-29.8623654084446	-34.9052159404399	-74.5348872691362	-34.6708036712832	-73.9793675686513	-0.20263914042347	-29.776072279652	
16970000	-0.255594871336763	-29.3441026423965	-35.0284828860629	-121.656844818343	-34.9031696027858	-121.167951960085	-0.270461400791267	-29.4349188568464	
17219500	-0.598545619607107	-30.070816307413	-34.4567146638157	-164.720607160991	-34.3178594270179	-164.600429724534	-0.643095712150112	-30.3653117876396	
17469000	-0.907328086892894	-31.8359547711414	-33.5333250830826	143.497822009846	-33.4251613126916	143.924113862234	-1.0318845164172	-31.8029440375095	
17718500	-0.932529655656939	-33.2727972965901	-34.829473419972	75.5566600106885	-34.6159519464904	76.2016762045376	-1.12587476099062	-32.851514090257	
17968000	-0.515078759641453	-33.8263782049123	-44.0194507562821	52.496658549704	-43.9221283786124	53.1222398674731	-0.780141115508475	-31.9472777920728	
18217500	-0.244719717319572	-34.1680907139901	-40.2700793448682	50.2592353771314	-40.1754554289513	50.3040718908589	-0.289776576714264	-31.5866329518213	
18467000	-0.334136178495083	-33.1313842081893	-38.0996132698289	12.4338646778605	-38.0180886472273	13.1234499577651	-0.138951652584954	-30.9874208127946	
18716500	-0.620678702820796	-31.4998847085933	-37.0865053684701	-29.991982239603	-37.1463360331512	-29.1130847569932	-0.293768235973026	-30.7050946659837	
18966000	-0.844351365347998	-31.3262818779568	-37.3993742026917	-70.5031931512281	-37.3281665798893	-69.3924082538272	-0.577412652500002	-31.6336481161758	
19215500	-0.878162995568637	-33.2688503623415	-37.5291595346922	-105.53344439585	-37.4023413824434	-104.212867950604	-0.737635927783731	-33.8645900771159	
19465000	-0.690345891068508	-35.5684819183208	-37.2308728929005	-141.584478178798	-37.0534527367187	-139.483272618786	-0.667179909263759	-36.090024255417	
19714500	-0.380704011735502	-36.5158499940337	-37.0149765995146	177.700577891542	-36.5585829364383	-179.94548070833	-0.433189866520908	-36.778663641889	
19964000	-0.162631578418844	-35.9527038944544	-37.5147703681	137.006099077307	-37.0259730813554	138.052459208519	-0.204193560743055	-35.8860434859438	
20213500	-0.207307548416309	-35.1520530770245	-38.3972071529232	103.309313929993	-37.9535473808815	102.113435997379	-0.177250616487128	-34.9610258537675	
20463000	-0.509915279780154	-35.3115888689137	-38.591024639638	72.6496751355777	-38.1723972362969	71.7561167776065	-0.408042639148948	-35.0343588786742	
20712500	-0.88246639502807	-36.9626075258642	-37.888146370519	40.7354719917304	-37.6737643300877	40.0240575784721	-0.721019213011051	-36.6037579011661	
20962000	-1.07839008282021	-39.3843687569439	-36.4843049736486	5.36599029269646	-36.1563283897647	4.40802529387567	-0.885294122587331	-39.1675099020398	
21211500	-0.993010393623729	-40.6143316746568	-34.8488123159509	-37.6952014759481	-34.5384312774656	-38.281996740485	-0.826006422205143	-41.0104783490315	
21461000	-0.689385311425939	-39.8811179763583	-33.7366417077154	-87.1511520667858	-33.4918086452311	-87.0465625322366	-0.658122391618491	-40.8944219579731	
21710500	-0.482736281004062	-38.4219345352693	-33.4693679679304	-137.904579236079	-33.1398947521562	-137.723710597281	-0.584670039670862	-39.1247060978296	
21960000	-0.596763303512446	-37.0544244410169	-33.7809896110236	171.362658695191	-33.3411001058205	171.3016557209	-0.702160872033229	-36.8838681639532	
22209500	-0.891509028127818	-36.5632954139947	-34.7891195488009	121.810279704065	-34.3503736360945	122.741792275605	-0.898807437708679	-35.8744410476595	
22459000	-1.08959789837894	-37.7265786553135	-36.4492496075319	76.6911725881831	-35.8007444018438	77.2481608568837	-1.04083052921906	-37.0434475397923	
22708500	-1.00899868940156	-39.8275053422537	-38.1305848405959	35.3852858076559	-37.605408216026	35.1731941764457	-0.978880534485677	-39.285861409066	
22958000	-0.672312781688777	-41.2566417420095	-40.5615179015882	-1.3727613287603	-39.942308470029	-2.98041521694437	-0.661182251330767	-40.7320714476064	
23207500	-0.320967175097319	-41.3840580543628	-42.7888836728191	-15.9701459042972	-42.3200973242086	-17.6101329870024	-0.274756650677917	-41.0977531319162	
23457000	-0.250103349534744	-40.5496468738228	-40.1236675836876	-45.1390030864352	-39.5089427550775	-47.0730087447014	-0.182766929410964	-40.4834133511548	
23706500	-0.473376868237793	-39.9509999805674	-39.8812647518706	-83.4035350364279	-39.2116213885225	-87.6498653693348	-0.337427412713066	-39.8093785302154	
23956000	-0.86857869992884	-40.6661217846634	-39.5958096233188	-118.957957274737	-39.149113160274	-122.4465932766	-0.636252062591339	-40.5561698581577	
24205500	-1.16358343106568	-42.474003948926	-38.9929286078626	-155.834736629111	-38.6526064067099	-159.671372634787	-0.868171146209627	-42.7549802733333	
24455000	-1.11010298390788	-44.0597709689058	-38.258492641153	163.466502201717	-38.047097670166	158.96778506178	-0.859753316688006	-45.247826832006	
24704500	-0.746734525577711	-44.3838746073865	-37.8865954754654	118.24732574471	-37.8814233003541	114.271037817645	-0.658492152295894	-46.1715251071682	
24954000	-0.394786932917501	-43.5977425701489	-37.9784790167806	71.3722405355987	-37.9285719967494	67.5486829283076	-0.530212895900025	-45.3806998544364	
25203500	-0.346542691832581	-42.5549345279194	-38.7093013049399	21.8230194910475	-38.7429382792236	17.6722688054199	-0.581173246002321	-43.2090403161431	
25453000	-0.596331659718297	-42.035889282607	-40.2291106341087	-27.4629307676304	-40.1858747622027	-33.7188461114508	-0.734599327559751	-41.592809441245	
25702500	-0.907133226677112	-42.9042879399899	-42.4441209516274	-73.9859062210585	-42.2533525008192	-81.2065722547339	-0.910840547367463	-42.2505694897467	
25952000	-1.00148375938947	-45.1587219901021	-45.2946992188961	-116.993230895376	-45.4519466499374	-123.595148256888	-0.966070641732584	-44.7727888188612	
26201500	-0.782241514854269	-47.30586809578	-48.3528683453593	-152.887539396651	-48.0906573201603	-162.919902323447	-0.789431684405123	-47.3543975089387	
26451000	-0.442111352303216	-48.0779391373833	-50.9956597862834	174.398723066505	-51.9627697099974	156.503348364387	-0.485058549759681	-48.5220762444813	
26700500	-0.26459023413001	-47.4848637409123	-53.5291298290531	145.02582957809	-55.0119011731899	133.029726634317	-0.334116134064957	-48.2350441237314	
26950000	-0.422694040941135	-46.5136866300933	-54.7214854165582	105.438558806016	-56.3108340912999	97.7837550750054	-0.507951771227213	-47.3129473333846	
27199500	-0.83907385759532	-46.2890651074047	-58.2922229914188	70.17757293276	-59.2174414045774	33.8831420689037	-0.936301722483097	-46.7679885928884	
27449000	-1.25284000538788	-47.1811076692508	-62.2917129699407	-32.1484521562223	-64.7675307620019	-66.391717116928	-1.35223295462384	-47.1994617059176	
27698500	-1.32408198688168	-48.6596435053046	-60.2947928262931	-135.168460989523	-58.5097711266222	-154.650976016042	-1.42913734276383	-48.4918729054704	
27948000	-0.97443203259461	-49.6197239513099	-57.2712022729267	145.402190621033	-54.7863532190499	137.089771716811	-1.18137933147882	-49.5419708698421	
28197500	-0.520810719581765	-49.4269935402289	-57.7551978036522	88.2136885839357	-55.6767801969157	86.8010085145703	-0.781109826789975	-48.7226446585466	
28447000	-0.288361611335715	-48.4237834834245	-59.9901423573673	66.2296444995819	-58.818088081215	67.6555173755846	-0.451597975452971	-47.3952242417673	
28696500	-0.393264444274362	-47.7637164431842	-59.3642728565458	49.5763916444549	-56.6815269276792	48.9494749306303	-0.46489093300209	-46.5612629710156	
28946000	-0.711008874836903	-48.4379520050273	-57.6919450880434	33.1466021614777	-56.3534377977524	28.6079201101632	-0.703707143255872	-47.0720415206228	
29195500	-0.974425595404614	-50.7279141413632	-55.1645197670223	5.71172112251159	-53.7471933978458	6.12820637460104	-0.925184122837832	-49.2096488777563	
29445000	-0.960141556937211	-53.5188382228839	-52.7903973186851	-14.729718106519	-51.969003238943	-19.9254440578455	-0.89370179919772	-52.063210774233	
29694500	-0.717533148759883	-54.9579482838819	-48.0718482256333	-48.1832781119194	-49.0022966390819	-50.3005619371041	-0.640318649182103	-53.9270438037738	
29944000	-0.474523397593448	-54.507992093373	-48.4590216469598	-103.2663473661	-48.5653342421384	-106.509883918206	-0.357283288348069	-54.0937578341029	
30193500	-0.509418029398665	-53.1884075542799	-50.310937689685	-130.770805082077	-49.6147524929665	-135.877839472035	-0.339509259118788	-53.4370831596904	
30443000	-0.856637961537671	-52.0574512925464	-50.0795996212772	-151.252992211391	-49.926188295534	-161.363569231636	-0.651586308310582	-52.9506269714244	
30692500	-1.30172258632782	-52.0627920815567	-48.8214667940062	178.233630155142	-49.470256528933	171.64380718513	-1.11425808824805	-53.6681875350544	
30942000	-1.51518629039545	-53.2810700041244	-48.9826592705509	148.143523666653	-48.9857656434965	141.602652546964	-1.46553188072919	-55.5018128852047	
31191500	-1.29540403020265	-54.7676569895526	-47.9946014940455	109.583907068889	-48.1689734440454	104.261931607815	-1.49780293121875	-57.0736248611187	
31441000	-0.838219199880692	-55.292888212213	-47.8172467497101	72.3244821480415	-48.1513680032577	75.5787419890813	-1.25257064129144	-56.7778135802502	
31690500	-0.497966107153855	-54.6305727837817	-47.6935132142125	38.5355267601063	-48.4123416729874	37.9223684308127	-0.950331485952294	-54.7479462043774	
31940000	-0.489758529754082	-53.6523544793763	-48.0349804102379	-0.213545682288428	-48.7720211490063	2.13304368910834	-0.838973813546689	-52.3663462721411	
32189500	-0.782278434194941	-53.6216032835109	-48.6041835793452	-40.9283131081458	-49.5433214659238	-35.1342085028678	-0.964859916757492	-51.1889184024485	
32439000	-1.14938524040055	-55.2916106031899	-48.4571519970248	-81.3830251560702	-49.3540125990516	-77.8876066200877	-1.18075795988884	-52.0123475928175	
32688500	-1.30740583874866	-58.0392302559226	-48.6534862404368	-126.139459154783	-49.4665636364343	-120.024505300055	-1.23515299589655	-54.4973760236171	
32938000	-1.15841354276041	-59.9223172434888	-48.5002232698822	-175.236430638373	-49.193958448794	-169.321122410189	-1.00252505015698	-56.9245927124712	
33187500	-0.852145412287426	-59.5636602253778	-48.2798618753335	132.648092933358	-48.5737760410055	134.100744847672	-0.626818987632877	-57.9057309115434	
33437000	-0.646783917796937	-57.6522461142305	-48.2768930885922	76.206885112402	-49.1373737284823	80.7087891886741	-0.39637599900725	-57.4213618968087	
