!Keysight Technologies N9923A: A.12.45
!Date: Saturday, 02 August 2025 19:00:45
!Timezone: (UTC+08:00) Kuala Lumpur, Singapore
!Model: N9923A
!Serial: MY61181427
!GPS Latitude: 
!GPS Longitude: 
!GPS TimeStamp: 0001-01-01 00:00:00Z
!GPS Seconds Since Last Read: 0
!CHECKSUM:0059276176
!Correction: S11(ON U)S21(ON U)S12(ON U)S22(ON U)
!S2P File: Measurements:S11,S21,S12,S22:
# Hz S DB R 50
2000000	-0.067131802184002	-2.99243543318215	-71.3818321861734	-80.0581543627671	-70.2098867184491	-102.129552954556	-0.0912935109683943	-3.00030761651896	
2249500	-0.294213587339319	-3.70918431328336	-68.9976630637284	-111.102685613783	-76.5725877762162	-95.2632165450923	-0.306683023955393	-3.70419726395588	
2499000	-0.396609093956641	-5.10069905500014	-72.5124093669611	-79.9831137429013	-72.6091603981295	-91.2850132240633	-0.395648276835909	-5.02383868280263	
2748500	-0.281549096523559	-6.4511898301728	-67.900124329026	-76.5969152473602	-71.6765784843151	-150.809978444444	-0.278010202557236	-6.29728508167945	
2998000	-0.0434911785925441	-6.99873800974397	-66.3051977908241	-99.0021455831863	-64.2815756982398	-114.031139999767	-0.0561899799681395	-6.8050390508294	
3247500	0.110981225738414	-6.80630846034583	-60.0786300459141	-108.89564710979	-59.9541250721664	-120.898983545863	0.0841638146819504	-6.53969491289441	
3497000	-0.00167456836431962	-6.37874407284288	-49.422954349924	-159.62742084348	-49.7223974407519	-162.198910473422	0.0382466670944877	-6.13462728477861	
3746500	-0.151710477367402	-6.00857162418327	-55.0318117527679	109.025534407427	-55.5678252433892	113.646782021418	-0.160242674979612	-6.13498515963458	
3996000	-0.361477929028856	-7.14428106565951	-59.1073194684528	110.033064253138	-58.3826776351468	101.589710258235	-0.364654607555966	-7.12147284602237	
4245500	-0.39671820492456	-8.78978299315502	-61.2294250070323	77.660807855267	-61.9775470489299	88.0563748823907	-0.388047546348763	-8.51072930617042	
4495000	-0.247868409352213	-10.0727429109008	-60.7756211605138	111.960498037254	-62.440774167027	113.574192817957	-0.219536638736692	-9.66579886788934	
4744500	-0.0290738400898475	-9.85843811691766	-50.2618675998918	91.8017215588352	-50.2788386741157	89.6816654437684	0.000156001787957632	-9.92066225644194	
4994000	0.107634875340165	-9.50020921932697	-47.5918844316202	59.8268022082183	-47.7430403146288	59.8347768222272	0.0852133846779558	-9.59242525626625	
5243500	-0.0299759934769149	-9.25816361975539	-41.2703699923808	31.5393548157887	-41.2832965441345	31.3974646976241	-0.0813932066523315	-9.44028293952955	
5493000	-0.325114327037839	-8.97433540333878	-35.611099190656	-46.4197370654945	-35.5792377226858	-47.5562361967969	-0.398724259376631	-8.71161977980724	
5742500	-0.427368850215457	-10.3065466800639	-38.561009748404	-100.45232256501	-38.394982791847	-100.398447762305	-0.45387742047654	-10.123898944766	
5992000	-0.406308405888282	-12.110615477081	-37.1601946870683	-133.863998575763	-37.1845092265699	-134.595634545812	-0.493019191858882	-12.1256014918776	
6241500	-0.171413582888962	-12.7396742503757	-36.2677733993345	156.968945409959	-36.3312533068737	157.072065165254	-0.421590926700679	-11.5959266611807	
6491000	0.0563337386508343	-12.6014741456311	-41.5622532461334	111.936931300044	-41.5082689949106	111.660351123952	-0.0167882974508715	-11.2611940431591	
6740500	0.110760105988523	-12.1590999503412	-44.8897304213574	93.4141919510654	-45.0808490353641	91.9459303343392	0.0780151209115184	-11.0531088893982	
6990000	-0.0604351346629468	-12.035107891809	-46.3773518631849	78.2833223383005	-46.2152326678673	78.3802102474389	-0.0628284337599747	-11.03568920892	
7239500	-0.333751291451676	-12.9146893629868	-45.5295293406632	64.6117953839745	-45.6609365293933	61.7056956780133	-0.299264990343343	-11.9199341070418	
7489000	-0.568917912773675	-14.656034184568	-43.4314341430991	20.8862576008834	-43.7243585139679	20.2881601043374	-0.457966411548886	-13.8091587190198	
7738500	-0.527942905543754	-14.9864919378497	-39.9190111647659	62.3826073944781	-39.1160587570981	58.0476415184109	-0.628443785875682	-15.66621191002	
7988000	-0.174931695335541	-15.3829417800786	-40.7819856169068	-42.3617471630476	-40.8202746622827	-43.521190953517	-0.191516725434446	-14.3433007865681	
8237500	0.0615422437534577	-15.2878266600564	-44.6352769948414	-68.8313171166043	-44.6255900661764	-69.555839091557	0.0587123819895435	-14.4587816874986	
8487000	0.0443109819272805	-14.8911505745289	-46.0348946033403	-83.3160123948103	-46.1198605537945	-85.0350955377079	0.0570324466920802	-14.1444000472344	
8736500	-0.180454317153537	-14.9620267634851	-45.6403645806705	-99.5764419342142	-45.5442307547253	-100.041752022003	-0.138396883029205	-14.2469579991684	
8986000	-0.445034360825759	-16.025023905422	-44.1372210094344	-119.733626208701	-44.1360122079912	-120.192081986448	-0.365660166169137	-15.3558750129822	
9235500	-0.547786105120493	-17.6741919875757	-42.3385753843356	-147.433705468274	-42.3866432452772	-148.04655776744	-0.438065933430219	-17.1282921772945	
9485000	-0.407573156416889	-18.7515912781102	-40.7938138238574	175.683964361066	-40.9320276300547	175.619068790397	-0.307950295266668	-18.528005826204	
9734500	-0.114366071622253	-18.8446633050003	-41.1003138362841	137.168085920577	-41.102716649135	137.213339249866	-0.0706344140201348	-18.860947795542	
9984000	0.0604107280824914	-18.5017441946138	-41.6881200520407	109.293777287878	-41.7491940550927	109.066199649913	0.0612522993908311	-18.4618650810936	
10233500	-0.022906035961371	-18.3472493777414	-41.1511090726702	87.0667931391363	-41.1462705582893	85.7943238014675	-0.0242046923558573	-18.118044107137	
10483000	-0.312454609582344	-19.2487151667723	-38.7025105974678	62.439726862767	-38.809095697651	61.894443755414	-0.278050102709876	-18.594105394332	
10732500	-0.765756841208735	-21.1681333159	-33.9348688873865	15.5371889994999	-34.0060080475168	15.408609086373	-0.559685500734109	-19.9653176106213	
10982000	-0.893204608363396	-20.5227695069844	-35.1296269473612	-59.4158527502599	-34.8687211761832	-58.3051644223572	-0.532688009014495	-20.9938384125115	
11231500	-0.422663224984744	-20.9838555316615	-37.6152853949007	-107.648759268402	-37.4726460160692	-108.300346888644	-0.298708175246342	-22.3474177930862	
11481000	-0.129339181373371	-21.3193106892165	-40.8196030401698	-152.73097513997	-40.8104851966271	-155.456612482003	-0.0698678297313301	-22.5294092922524	
11730500	0.0105781849794484	-20.6069408716899	-44.7757651039253	-149.111810826977	-45.0420007342279	-148.720740112745	-0.0266904080463299	-22.4220008443016	
11980000	-0.137769628940192	-20.2596534066896	-44.7806601169698	118.392918823745	-45.3675352599987	116.696944119814	-0.169777144619296	-21.7986334937665	
12229500	-0.355500276297602	-21.2010668165658	-61.8866476872954	-102.88692086288	-60.8926624412714	-110.218440554997	-0.504075064663035	-23.4552077317743	
12479000	-0.515350100641488	-23.2483844445574	-42.8573279875089	-155.895300563388	-43.2375381738227	-153.694739545521	-0.993324936815224	-25.5430202055108	
12728500	-0.491118782582264	-25.3645009968216	-36.1097639311488	138.988466079552	-36.0585243561873	141.713410878855	-1.27011590313205	-23.7396324635525	
12978000	-0.297854961586493	-26.3327382710164	-34.389072554345	77.7857674754465	-34.1932769040115	78.8777996236261	-0.581558612566345	-22.6509352143194	
13227500	-0.175738680857567	-25.8951784127342	-33.4104286216351	26.5605091521001	-33.3554583438629	26.6998215974081	-0.222799999097227	-23.1949266525777	
13477000	-0.210555780821932	-24.5665013351789	-33.2567740238388	-25.5483130452896	-33.2138101037172	-25.4927761800352	-0.211337795343308	-22.4218847292512	
13726500	-0.396107558389088	-24.3024341342035	-34.1313158738068	-70.7369108726302	-34.0154874388121	-70.5642795591962	-0.32795030445836	-21.9041708558972	
13976000	-0.753857315660729	-25.6486101859573	-34.189682824736	-109.668054528085	-34.0721389745061	-109.437819231358	-0.512294987185953	-22.912567442884	
14225500	-1.10987480477845	-26.7755343307641	-33.5444024849874	-154.929088333432	-33.542159715741	-155.463006850646	-0.599707135621563	-24.8421329050678	
14475000	-0.90145496120975	-25.7641627795993	-34.9446420691292	151.995440011498	-35.0479966566496	151.393460850169	-0.462668973754145	-26.3561611884806	
14724500	-0.337241187074331	-25.9015347820457	-37.6229286684974	112.578735500709	-37.7430697324763	112.334154508004	-0.177182124422776	-27.0595586896533	
14974000	-0.0257848913643507	-25.9219148277216	-38.8549245256528	81.3467935231705	-38.96298880245	80.4718172485083	-0.0267535738865045	-27.0762109689345	
15223500	-0.0503660895852299	-25.6636392756443	-38.797003248782	21.8094899841258	-38.9564092254109	22.3734818388526	-0.311414931488338	-26.2823354094807	
15473000	-0.246482395336776	-25.9896092138222	-56.0432161960927	-23.8081362340946	-56.6080577005249	-21.9969400341706	-0.324451710079985	-24.8979772283111	
15722500	-0.468930070840579	-27.6731265408199	-50.9298503331167	57.906788734848	-51.1360087247573	56.8248583914489	-0.475188536993991	-26.7055703845318	
15972000	-0.507249608314138	-30.0897271223565	-45.5796203115555	42.0507287577258	-45.5336289390548	41.7701074874991	-0.510526650459485	-29.0241503021636	
16221500	-0.359433173206673	-31.994921228717	-40.3426663137048	15.1986466077257	-40.2946625379627	14.8776037349466	-0.370698230500231	-30.8494085940959	
16471000	-0.2191472776271	-32.2469453250335	-35.2724530038935	-34.1301911990729	-35.4010259350438	-34.0286594582649	-0.236933788581864	-30.9408404757281	
16720500	-0.14098717465001	-31.3414264161872	-33.9743461634324	-93.1107030293078	-34.0415266697488	-93.1638389004701	-0.102637749525436	-29.6849580415057	
16970000	-0.383883932987529	-31.2806191814787	-33.5658169982386	-139.315715059721	-33.7245051596124	-139.470180953211	-0.182905788952548	-29.324138955348	
17219500	-0.959592884718841	-31.0486331622647	-32.3585627874692	171.128049092628	-32.4501024939093	170.575820460777	-0.458260139569586	-29.865663899654	
17469000	-1.10893218180108	-30.0081473274575	-32.9719189309401	111.826647701949	-33.2104615816516	111.060180381085	-0.634631877253974	-31.3560549737406	
17718500	-0.837613337747194	-32.2722038922512	-35.9557202082747	60.6151436948352	-36.2358093613205	59.5292021055977	-0.568532794893455	-33.7143045268216	
17968000	-0.736276974130834	-33.2207183807229	-42.3626486507884	37.5191089875589	-42.6985812216472	36.5841074643277	-0.372893725660542	-35.7692290799269	
18217500	-0.332501152103808	-31.8560707710984	-38.3042414893246	43.6772306262104	-38.8117258721634	45.2398666076683	-0.364068388300655	-36.7532853387115	
18467000	-0.162310750343654	-31.3326049183112	-34.2953207877241	1.37906800377229	-34.7373815283506	4.07168544395677	-0.819536482863997	-35.454838347964	
18716500	-0.296198893145561	-31.2244826311777	-33.4081474342823	-52.0016287931264	-33.5004942915277	-48.8551033329836	-1.14359737057537	-30.4448390970185	
18966000	-0.531740570482341	-32.4304633387714	-34.7727397246125	-92.0245686204388	-34.5442696129094	-90.5954523384207	-0.966512071026689	-29.4952198187617	
19215500	-0.666972449921152	-34.8291891078124	-35.1440751522837	-120.081200859786	-35.0068106844024	-119.703042696043	-0.869513914510905	-32.0044083739637	
19465000	-0.595219700922439	-37.2600103264574	-33.9783463371172	-146.359954751223	-33.7768870091246	-146.157516148901	-0.722399560938251	-34.7652731964366	
19714500	-0.454278937741173	-38.4189226164744	-31.257844067777	178.66774000569	-31.1025492099247	178.828563297142	-0.56291772872927	-36.0685127468678	
19964000	-0.412813527636879	-37.2502392313104	-29.217571821175	126.840575625838	-29.0418474993822	126.827083868543	-0.460407111823937	-34.4753625171102	
20213500	-0.428413269119328	-36.023443809525	-30.2074028179239	75.5474696023205	-29.9805581843333	75.4348196935527	-0.272042820995117	-32.915783950601	
20463000	-0.765579059113317	-36.3531691819865	-31.6998875846441	36.8519767978601	-31.4758848745693	35.6854540711309	-0.364536394335993	-33.2351661681878	
20712500	-1.27450981546727	-37.2027957456654	-32.7731402333383	1.83386688769087	-32.5365497053122	0.0355804170653109	-0.57386468203259	-34.7605894289922	
20962000	-1.46977282990175	-37.2370773562884	-34.0222725844214	-32.852273938321	-34.0225164487128	-34.5456306773771	-0.627946503324271	-37.1510316111488	
21211500	-1.10575780243119	-37.4010479533064	-35.991167392285	-58.0425371575487	-36.0359824215822	-60.3718370200497	-0.461369395579683	-39.4100476593265	
21461000	-0.665394800150144	-37.4836951645396	-36.314286356688	-70.6567676195839	-36.4540406152344	-73.3775805178949	-0.263895175795678	-40.6686194579529	
21710500	-0.437509760128717	-36.3205881392009	-32.725343843193	-92.1245571415003	-33.1512888458938	-92.3385427875078	-0.365106258852362	-40.481952838918	
21960000	-0.397463654570699	-35.3465298040081	-30.7742801926989	-144.421304926277	-30.9343019181345	-143.161637087393	-0.603476159077796	-37.8841822467338	
22209500	-0.595758826597308	-35.6723402797004	-32.032484060452	170.699528909155	-32.0673729162476	171.03223153022	-0.746901583564211	-37.2429573884142	
22459000	-0.761139061393166	-37.380873370244	-33.6744540620917	135.284701677412	-33.7976736402773	135.238712361151	-0.896239427501755	-38.6233382096061	
22708500	-0.701201542291908	-39.9190188431663	-35.1825763539074	104.690866659402	-35.1964494888711	104.930756765875	-0.859256348225612	-41.0375498358968	
22958000	-0.450898972072154	-41.9167511805452	-36.3155683538905	78.3180287994394	-36.487493241679	78.3273764589716	-0.67220626111282	-43.2084373154836	
23207500	-0.253980210752875	-42.5281034832384	-36.2431315788229	67.6910820418437	-36.3306937956055	67.2367227428242	-0.661345601686397	-43.9893967772961	
23457000	-0.259553415367889	-41.6569278046762	-32.1896350660168	23.1082996581769	-32.4116399442852	23.4766206388633	-0.808928587298509	-41.4000646589877	
23706500	-0.525462761893768	-40.9594648407342	-32.5485612325073	-31.3448442110402	-32.7162409891688	-30.2782882508477	-0.992974856463338	-38.5717419538023	
23956000	-0.889577496228716	-41.1133930913375	-34.441151654953	-80.7025648066575	-34.5711717112614	-80.0824748716656	-1.05819990033512	-37.3997587905018	
24205500	-1.10225443586316	-42.4064476221113	-36.9642124545871	-124.818376745501	-37.1038880610663	-123.608107174269	-1.02657180650273	-38.8153146762329	
24455000	-0.987809308649751	-43.9641972337578	-39.8230209952033	-165.142084850306	-40.0182160627132	-164.474458363893	-0.820821483708007	-41.083471370718	
24704500	-0.663932194411358	-44.7794587843769	-42.6959250802969	155.163146332317	-42.785440242223	156.239888406648	-0.461259724456479	-42.3900718995	
24954000	-0.412178336612844	-44.3819153553416	-45.6331900457868	114.455924091868	-45.8567380866089	114.401135372454	-0.173363909691745	-42.6975126943559	
25203500	-0.433423238970726	-43.3146466774315	-48.8050762724673	72.0234865263165	-49.8469062796556	74.1265879289985	-0.128795954587512	-42.2876221657897	
25453000	-0.680559372136094	-42.6011205593535	-52.2714396787086	28.2982166799505	-52.935238760092	33.7556276091553	-0.323222289422688	-42.2908812512226	
25702500	-0.949671988329547	-43.1677077166504	-54.1738507436188	-16.5789194153937	-54.43557147371	-17.3271134008327	-0.600496538925051	-43.526721745507	
25952000	-1.00556691806802	-45.171059755811	-55.0741719631598	-55.5227106323605	-55.3528588412156	-66.5931001930157	-0.729712931062631	-45.8796358643974	
26201500	-0.807137421865126	-47.359154921825	-53.2629689550141	-113.014350836994	-55.5100515107442	-109.851668629343	-0.617775153858082	-48.2197123195634	
26451000	-0.551220116087112	-48.3426752746597	-52.1579536354319	-165.059330734584	-52.9377667965904	-171.184945044544	-0.386774533122292	-49.4165596301401	
26700500	-0.474167272001543	-47.7194188050818	-49.2152757339208	155.105733603736	-49.6275124549999	150.678946327588	-0.291713678508561	-49.4866250157619	
26950000	-0.663739775896659	-46.0009831820905	-46.2558062370029	107.571326265847	-46.5893201725813	106.770936015897	-0.514089172165168	-49.1459884790659	
27199500	-0.912738144687233	-44.7464329065675	-43.2976819015794	58.2227459521104	-43.8505243134669	57.4117649130668	-1.04602898306291	-49.0915114138625	
27449000	-1.05081222190739	-45.6449664996476	-41.2811944986566	6.37073149560368	-41.6536872763331	5.68274114148312	-1.65699130399326	-48.9804788655324	
27698500	-0.984930776859325	-48.0638245625631	-40.0678363926789	-44.8592166697272	-40.2148053065959	-45.2917587194611	-1.79019343205209	-47.9028609599146	
27948000	-0.701947282830945	-50.177415965076	-39.6888596513566	-91.4094320579938	-39.6705204368996	-91.7743248075087	-1.31722584580668	-47.6195370017093	
28197500	-0.414101696449134	-50.852065486751	-39.5870093061106	-133.292452401139	-39.6992143567045	-134.722318179858	-0.770697957194795	-47.2398882173717	
28447000	-0.358952260058914	-50.385962878036	-39.749567104844	-167.062692709693	-40.0097918587592	-168.057613199786	-0.359835830454464	-46.7951860012546	
28696500	-0.632531293741041	-49.7850204554392	-39.1191731008554	165.410990565153	-39.1186631104954	165.05766903039	-0.359152631986188	-47.0614908423061	
28946000	-1.09497074698847	-49.7260048770635	-37.716160779477	133.78410248341	-37.8596335662183	134.008174624796	-0.650497427554784	-48.3865966034115	
29195500	-1.41662608105456	-50.4658019137663	-36.2875967234009	102.23600456063	-36.4233057707736	101.993191347772	-0.96128907903647	-50.0328531741264	
29445000	-1.35067238461796	-51.7935569785993	-34.49469149964	64.8395095081164	-34.7406800033474	64.2902337437805	-0.966523110273356	-52.9698015648688	
29694500	-1.02936192960477	-52.5381999626975	-33.328862109997	21.5131024972823	-33.5041550033223	21.6956896971339	-0.876489736120915	-54.5971943191959	
29944000	-0.742649906497883	-51.6261581819947	-33.8693340306146	-19.8004700886947	-34.0428123434332	-19.6512815227266	-0.815390849481583	-54.6772249602933	
30193500	-0.615214361263165	-49.6806980218451	-34.1252482648995	-59.5581914889141	-34.2899496917351	-58.3247658349875	-1.0099439266862	-51.3780740236415	
30443000	-0.676393333322435	-48.5193587060658	-35.7210343211201	-98.1897769666316	-35.7209868944861	-96.7531736932164	-0.97004626353897	-48.3699776615241	
30692500	-0.847903266824213	-49.2913796718006	-37.3653257171808	-128.091115895189	-37.3791937994149	-126.765470188004	-0.987775267495931	-48.8439950751041	
30942000	-0.923248785420455	-51.6694033864747	-38.5279345671368	-152.029918863008	-38.5949640042221	-152.019270122743	-1.01218752199882	-51.624446995623	
31191500	-0.753036136035876	-54.2978190750691	-38.6953985995174	-177.35274308602	-38.8266392654763	-175.95037918947	-0.918839197361119	-55.0368552687223	
31441000	-0.441351700306525	-55.686283237106	-38.1456675858232	153.794354919076	-38.2635771704928	155.49228386039	-0.810624630517976	-57.1924254505726	
31690500	-0.238441884005162	-55.6946896947935	-37.5672596029908	115.068682968276	-37.6834103411602	118.103271274608	-0.918463658438466	-56.3852993463313	
31940000	-0.328154559015112	-55.2410039103753	-38.4544626378705	71.2335781317363	-38.4919932452658	74.08413076311	-1.06861661824554	-52.6290924168473	
32189500	-0.701712266787795	-55.4429185642284	-40.4729732639194	28.9813832951739	-40.3315041959323	31.6689967843233	-1.0762968812823	-50.1847393600764	
32439000	-1.13146728517193	-56.726008609296	-42.9443502760141	-11.6629560093892	-42.5230091196941	-8.16878312057017	-1.12171753881946	-50.7399896737447	
32688500	-1.30822209521014	-58.6579314839206	-45.7693258918991	-52.5245684157902	-45.798580305994	-49.5359748509974	-1.07981086308302	-53.1906558447738	
32938000	-1.13885998106277	-60.0647248254944	-48.8279490284428	-97.843449360526	-48.6478708309071	-92.8491989182292	-0.833108393614667	-55.6828013833059	
33187500	-0.845901762775492	-59.9777526023046	-51.2065429773207	-146.971011948514	-51.4136966415231	-150.497552471622	-0.475207004973553	-56.9510356619368	
33437000	-0.708650886525212	-58.4829582960593	-51.5170990927062	147.814245096212	-51.4201671095149	150.039692726319	-0.260914227914877	-56.8996558149671	
