!Keysight Technologies N9923A: A.12.45
!Date: Saturday, 02 August 2025 19:06:51
!Timezone: (UTC+08:00) Kuala Lumpur, Singapore
!Model: N9923A
!Serial: MY61181427
!GPS Latitude: 
!GPS Longitude: 
!GPS TimeStamp: 0001-01-01 00:00:00Z
!GPS Seconds Since Last Read: 0
!CHECKSUM:0770905685
!Correction: S11(ON U)S21(ON U)S12(ON U)S22(ON U)
!S2P File: Measurements:S11,S21,S12,S22:
# Hz S DB R 50
2000000	-0.0650565002246017	-2.95738788611338	-77.4136827653111	-100.365378619954	-78.1498014612433	-163.509103303883	-0.0979317390197577	-2.99152020299221	
2249500	-0.306010589717279	-3.67365886340609	-67.6286138911577	-131.026824314309	-67.2352663450141	-124.280732182787	-0.328275415609906	-3.69145644852549	
2499000	-0.416979854259866	-5.09345423345549	-70.7240055494394	-74.063284183463	-68.4001438078157	-85.5845469448429	-0.423947617818394	-5.04231296648017	
2748500	-0.291470796442195	-6.48463919378151	-71.9724706281094	-112.707233478354	-70.2655617983093	-96.5039371442622	-0.294452555396974	-6.34234921615853	
2998000	-0.0412902746822873	-7.03717269138321	-65.5365585144405	-104.181417113746	-66.1693234395025	-140.693162490727	-0.0547351445687715	-6.82106919395294	
3247500	0.0997516801726542	-6.84536247244987	-56.3459940399833	-129.400350016917	-56.640852140673	-137.58688134603	0.100069015934423	-6.48916495284394	
3497000	0.0318933481869699	-5.71388604812995	-49.8944546388082	126.771620495847	-49.7877657346064	125.814681587188	0.0472135204204076	-5.90159600533848	
3746500	-0.146325821105982	-5.95065784916715	-55.5101978566821	90.5612898876656	-55.6200848745746	98.0400644901673	-0.166435709065254	-5.96295055361743	
3996000	-0.370096582070256	-7.08531884471328	-55.6240769734768	72.7486932133095	-55.0409938859186	73.9410195226226	-0.397188154784178	-7.01683873091411	
4245500	-0.4230422117901	-8.78419172112172	-54.8047480418251	53.1806338370809	-55.5244799488579	44.6383062189227	-0.426365488415499	-8.52498736602189	
4495000	-0.296436265430282	-9.83876416506694	-51.4070219583942	47.7603228309807	-50.7948948787536	46.2680274667433	-0.288345185043962	-9.9381420244334	
4744500	-0.00275472616651163	-9.76615858422471	-43.6315219294894	-1.78258341835808	-43.2816627900684	-2.89043196411585	-0.190430394801816	-9.7244116162388	
4994000	0.127621644250846	-9.21520531959283	-43.888454190707	-69.0508391124818	-43.7229712621922	-70.1221866034753	0.0185090311632892	-8.21390696509779	
5243500	0.0153522350563868	-8.86691436819036	-44.6808385370809	-100.384093313724	-44.4304532450652	-101.249280693045	-0.0296629235878917	-7.9940003990491	
5493000	-0.277234842603765	-9.32455814305842	-41.5605857415759	-132.686409931371	-41.3790920168265	-132.638345020798	-0.28201625052129	-8.56172652113571	
5742500	-0.502397661032761	-10.0047073804246	-40.1913272481115	150.98220313166	-40.2262079334111	150.643501148772	-0.500551642161513	-9.45664477754357	
5992000	-0.395237623068386	-11.7031999635008	-46.2564546927122	110.633614374332	-46.0024116795	107.949702155292	-0.406336686417232	-11.0679471651031	
6241500	-0.14885489832199	-12.8220585082684	-49.2115484210326	93.9596044007926	-49.0584265222865	92.770693107309	-0.184466536977781	-12.1699526761691	
6491000	0.081639050841544	-12.8941826878595	-49.6022177345862	84.1779895050446	-49.7753561856719	84.5854267159944	0.0599931830228659	-12.265547031128	
6740500	0.113584625542784	-12.489308059553	-48.1803190750483	72.7323355930427	-48.2071629441567	70.7688574832674	0.105431390492756	-11.825231969581	
6990000	-0.114677262037225	-12.5424315383606	-44.6764423079904	53.7917524003907	-44.7227432667034	54.1902440390282	-0.0677686429469984	-11.7011705289173	
7239500	-0.582999573619602	-12.8565473621764	-39.3276219163513	3.03043067219763	-39.168485265188	3.28051795037694	-0.350290903815088	-12.4652138614569	
7489000	-0.580213844699049	-13.3841228649397	-41.896295443591	-75.5584638352549	-41.8846032000633	-76.2588522622046	-0.479715478331716	-13.891114356928	
7738500	-0.397438390258694	-15.0566504598953	-46.6632834105696	-80.3574080034373	-46.5220869223667	-79.7710224056937	-0.35049976508605	-15.5914878237403	
7988000	-0.107394150813194	-16.0535571667615	-46.5080032695213	-93.2436543117511	-46.5711929667838	-93.6707914008186	-0.099752840511918	-16.4488797283169	
8237500	0.085329894028378	-15.9605199139399	-44.8954643338364	-107.041126215183	-44.8918231330158	-107.594814095813	0.0727078789145195	-16.3914818500219	
8487000	0.0276129539967425	-15.5481277378741	-41.0453600334998	-129.40701876903	-41.0642445366029	-129.009967034169	0.00591788156480328	-16.1135957275364	
8736500	-0.278439925574053	-15.3675642992683	-36.1449328870524	-171.958395178445	-36.1882273328486	-171.842497690541	-0.359906778752712	-16.2630170260282	
8986000	-0.50529736337231	-15.695406168294	-34.952529914285	122.051542233248	-34.9361560261231	121.803107348157	-0.699017748772305	-15.9657230311197	
9235500	-0.512093071836468	-17.6462501870904	-36.7052274416225	75.7114088872354	-36.8105430091346	75.3614940451625	-0.679158531145096	-17.2375922106604	
9485000	-0.347289133533658	-19.3655496364691	-37.0984113326848	39.9790976003953	-37.0949347218306	40.1447709592307	-0.503247736011617	-18.6048644222708	
9734500	-0.130440144208732	-19.7451912382376	-36.4735923418859	-0.912751172153332	-36.4441185460912	-0.60869694421838	-0.25890245758874	-18.5278626359333	
9984000	-0.0230017880921011	-18.9116334242808	-36.7518365248543	-47.4670373505862	-36.7494133795271	-47.5276799596384	-0.0510994678833087	-17.4461350593345	
10233500	-0.132834264785149	-18.1934540481973	-37.6316448254818	-88.8782911601819	-37.6136287014678	-88.360661209581	-0.057192748455155	-16.9500312208751	
10483000	-0.449572693449358	-18.3097287849439	-37.8075165626761	-128.631639398105	-37.7448576913887	-127.613853588339	-0.284701891278681	-17.4344339879717	
10732500	-0.715778025995984	-18.9331793764303	-38.1261391677691	-175.256751359269	-37.9832398477985	-175.020475550998	-0.516390707321641	-18.8916513286559	
10982000	-0.599997661399681	-20.1826912462101	-40.1733916758762	142.306404749642	-40.0201361509234	142.266665526797	-0.531739726434687	-20.6714444697925	
11231500	-0.282132900043157	-21.5904363264435	-40.9737883352142	105.309260488368	-40.8537292277831	104.99216833639	-0.306460682993968	-21.8305409692091	
11481000	-0.000456819044240363	-21.9227908497812	-40.9240386373344	68.0204610046734	-40.8150858712416	67.736654730768	-0.0997514569645421	-21.9644082889521	
11730500	0.0801112897173576	-21.4611572179967	-45.2202699235345	50.6983708362659	-45.3369909380348	50.6294781241868	0.0283489585137287	-20.9408822918192	
11980000	-0.134506762263297	-21.4187459035386	-38.7978755934435	15.8427506292166	-38.6990854682214	15.720628043381	-0.202736748308155	-21.0342190673555	
12229500	-0.436211046005065	-21.9006196995015	-39.52402944944	-68.6330958242752	-39.5673501878365	-69.0135563923977	-0.440170886640954	-20.6731416713239	
12479000	-0.664171321941363	-24.3127642934999	-51.2494631931279	-78.9850766954588	-50.8530190825575	-81.7721294594101	-0.547441997476455	-23.2454403486511	
12728500	-0.801384890638706	-25.8156660606114	-39.2680738271034	-58.7262388571713	-39.1794395655567	-59.4721940726305	-0.600658253874953	-26.0316783756232	
12978000	-0.540918163622406	-25.2905575138928	-33.2422909855749	-132.477106488482	-33.1606383201341	-132.855836020668	-0.634443878471884	-26.6842972356281	
13227500	-0.240413986058954	-24.057364528433	-32.7642134172871	149.112438283447	-32.7018568310947	148.28523765027	-0.510760781155643	-23.6959092743038	
13477000	-0.10927764783334	-23.2346917953873	-35.2344395405337	92.0316872453467	-35.1666248578451	91.4463597704511	-0.226488223985775	-22.0532850022453	
13726500	-0.326388419534215	-23.4348261655982	-36.3667426481138	48.2993159609438	-36.4308606919218	48.1801311934905	-0.311380278778557	-22.1149132963163	
13976000	-0.703545682126385	-24.1146326116381	-36.881037625368	-3.45754914604323	-36.8213447209143	-4.29914598748393	-0.541871954716187	-23.1210426496363	
14225500	-0.728783718488825	-25.2637432737173	-40.3452366831924	-54.7167807332156	-40.2696103399516	-56.2740217092929	-0.580429191427756	-25.0394279009669	
14475000	-0.473978865258715	-27.197545636814	-44.3401545732283	-86.0412081863122	-44.1879792243713	-83.9082948415805	-0.402486081015173	-27.0182247428631	
14724500	-0.155188511650995	-28.1763853111996	-46.808163858602	-104.981415727058	-46.5410865107887	-103.989809322061	-0.12011933441034	-27.9283695264582	
14974000	0.0168712255804351	-28.0684098111317	-47.3073231328608	-121.539434512993	-47.2449700665574	-121.572214145126	0.0447087649801571	-27.7699952305377	
15223500	-0.0899248897362668	-27.8301380798358	-46.5916190552776	-136.913408738912	-46.6540795552774	-137.951158330166	-0.0499796226123483	-27.4819620298346	
15473000	-0.442544376601199	-28.5024274457108	-44.5317545839191	-162.881458692941	-44.2933733393458	-162.044986635197	-0.447848656147293	-28.017087474461	
15722500	-0.889411389253205	-30.3476082761551	-45.2641098166749	168.337183623404	-45.49296326768	165.361849892337	-0.645572647619013	-27.2295201509177	
15972000	-1.25870853064671	-31.5440742422291	-41.0577691871799	142.830204686335	-41.2969031414001	142.936795059822	-0.60264227109858	-30.343359033077	
16221500	-1.07087436447993	-29.8041120308876	-38.5792316249391	94.5396544104539	-38.5040393637239	93.8935738456389	-0.467622557183313	-32.4120422562167	
16471000	-0.454920997135141	-28.8006618446964	-37.7311773573523	45.7774464733636	-37.7189454834419	45.6874741198835	-0.336171705635928	-33.0005892173863	
16720500	-0.1587011801704	-28.4939526459195	-36.6946820961955	-1.97140595590389	-36.578456287761	-2.64228417785105	-0.447366314827938	-32.0307386117516	
16970000	-0.281013473805223	-28.3474586715661	-35.3279140644925	-61.4669631963446	-35.2433833374765	-62.284387976624	-0.759153686641386	-29.9853765714632	
17219500	-0.590355822211229	-28.4127259935172	-36.1938340225534	-136.90267763555	-36.1546060541866	-137.241824652855	-1.11186785175315	-28.6584034200711	
17469000	-0.696207327099613	-29.9505695134636	-40.1385454732619	157.872760832948	-40.3098493244954	157.164550074118	-1.1823207795178	-28.253404633671	
17718500	-0.616093876931864	-32.5128842549937	-42.5305232915552	97.875835343371	-42.4669331291962	97.2720044703017	-0.906695989064537	-29.9229169374027	
17968000	-0.359238810183793	-33.5799740685725	-47.4187061153221	11.201374821932	-47.5402904740222	13.3824851379569	-0.549607185921502	-31.3214615862134	
18217500	-0.0718905713062127	-33.7512815847156	-55.4878202080257	-38.3354878048824	-55.4670976991042	-37.6719979374061	-0.19994587156755	-31.3646224063947	
18467000	-0.0606710213093867	-33.4157708549262	-59.7208382614861	-76.1317539667473	-57.9454196880411	-80.3070373194317	-0.0825636152690404	-30.8202414784294	
18716500	-0.360528490497288	-33.5438954697853	-57.7059534980375	-128.29247215869	-58.1767364765086	-133.038196945676	-0.227310837386573	-30.6468983077797	
18966000	-0.842896660200708	-34.573635270969	-54.2031182852147	-176.212892993438	-54.8148240319456	-175.230528589227	-0.496332808078671	-31.6190836962284	
19215500	-1.20268418617989	-35.4739348688835	-50.2493033701914	123.674339310991	-50.2713913010523	127.012896982457	-0.640397029744334	-33.7547763088635	
19465000	-1.03085853826821	-35.7922607314913	-46.5946799517095	68.3243474438032	-46.707781923546	69.1439091995013	-0.536800856517329	-35.9105491434209	
19714500	-0.625200763605855	-36.2801863008202	-44.0803456281326	17.4896500908036	-43.955132397615	16.6259341797595	-0.270628784126759	-37.0268529351014	
19964000	-0.443041346415713	-35.5956194478076	-41.7812496170785	-34.3564475352376	-41.8987033736253	-33.9369385888625	-0.0812692455750314	-36.8550649245082	
20213500	-0.471544688674004	-33.8363158910734	-41.0905062607057	-82.2764189606433	-41.0537801486636	-82.3785460594871	-0.12508063013065	-36.3494166962855	
20463000	-0.626038429928519	-33.2635526862407	-40.7522207357167	-120.872597005074	-40.8615077844335	-121.853315930133	-0.417302174154667	-36.6237781925299	
20712500	-0.826812629214462	-34.6614675563497	-40.0070454974605	-154.226127357115	-40.0978503996177	-154.49392264805	-0.790609187712683	-38.2365501315901	
20962000	-0.865526311090881	-37.2015157966563	-38.4856347229603	172.32751601494	-38.570615533537	171.826199256288	-1.04417058970856	-40.5953148467673	
21211500	-0.666629749602916	-39.22817232087	-36.6121559968273	132.788084568395	-36.6789004887411	132.959431267789	-1.10065998438884	-41.8019386060905	
21461000	-0.373144987818353	-39.684269217725	-35.3160361022415	88.4882380637498	-35.3603096092667	87.6699723599503	-0.978175296481623	-40.4602860258858	
21710500	-0.24263168392713	-39.01981834352	-35.0397052995467	42.4492135505436	-35.0650971085494	41.5918785543435	-0.788675436748911	-37.6475418915079	
21960000	-0.409036855601483	-38.2593056207565	-35.6868752250334	-1.2299032471449	-35.7707107079199	-1.2600399315555	-0.701252091759886	-35.2775583454251	
22209500	-0.776718869379668	-38.336933296249	-36.7674373908856	-41.0917837765469	-36.8274520078235	-41.3099387217988	-0.752267363926151	-34.8479689552505	
22459000	-1.10881712889071	-39.7791635341036	-37.9893383700045	-75.8015489579157	-38.0612807926796	-75.6893092230536	-0.816413095830873	-36.5968002699741	
22708500	-1.20802308707788	-41.5474135553266	-39.4900097698456	-107.469754253067	-39.5250423729355	-106.673276737745	-0.719522682939227	-39.4301495542192	
22958000	-1.0319999034073	-41.7264731786554	-40.8601874635542	-132.409285622024	-40.7500264348052	-132.308128007468	-0.437138963413063	-41.7311325045794	
23207500	-0.602938518645088	-40.2826476199258	-39.7603111780515	-146.17585290674	-39.7357764397015	-145.717204975116	-0.174049033622248	-42.8070629958202	
23457000	-0.418506409451877	-39.2493797371134	-37.642740448434	171.906302816794	-37.582403650375	172.184628301433	-0.187795233628389	-42.8498104286014	
23706500	-0.512609575510314	-38.2196767969328	-37.8256886617861	132.9944574834	-37.7960705737299	133.198955527269	-0.599850181202315	-42.8615737110137	
23956000	-0.724873367857423	-38.9346963375175	-38.1211827658727	95.245277167018	-38.054778653255	94.673687104826	-1.289310134579	-42.2454633254499	
24205500	-0.869945454150421	-41.2976127062505	-39.3648866272596	56.8990936281223	-39.086074123802	56.960952157316	-1.5511695997713	-40.8931487226969	
24455000	-0.784963146482675	-43.9209607970982	-40.6449602425621	26.1065097741491	-40.5274941289786	25.628586456265	-1.21876662999552	-41.4458480939522	
24704500	-0.533627921115192	-45.1766445568777	-41.7133612129888	-1.72588393040435	-41.727986596135	-2.3386835877527	-0.704043156511428	-42.2740786627078	
24954000	-0.332504905143657	-44.5994053710976	-42.7995008102899	-28.8857371698461	-42.5440422931059	-28.2098594195942	-0.319709876753199	-42.3700978547624	
25203500	-0.337652632883808	-43.3098186482332	-43.0193661599914	-55.5197007851424	-42.9876570956297	-53.7124116783353	-0.229126809869201	-41.8393229185658	
25453000	-0.558746620878983	-42.8774296873234	-43.265884658406	-82.2422434427928	-42.888176139446	-83.3023562700339	-0.410871284197525	-41.7374842238583	
25702500	-0.881381467177387	-44.1349462544836	-43.2234261860617	-108.167643632829	-43.1575549557225	-109.794962028091	-0.688744842507249	-42.9992547597352	
25952000	-1.07617945754745	-46.6710267794912	-43.0707378386026	-136.480953203349	-43.2515971464818	-136.208022398544	-0.818076644220655	-45.4822796229773	
26201500	-1.04808361633296	-48.4141257201136	-42.7268923114554	-162.436364233871	-42.6329262451187	-164.02966232043	-0.69109903301575	-47.8826277998086	
26451000	-0.809673020113089	-47.6365937599122	-42.2138492068197	162.777884001649	-42.376233291592	162.018110059744	-0.423846306734364	-49.0012366761054	
26700500	-0.492343868338597	-45.7540092744169	-42.303241837788	128.520331439849	-42.1568754806717	127.264450513156	-0.280462339323511	-48.7540088225748	
26950000	-0.428556997722662	-44.592544773656	-42.9170698913642	95.4372851600189	-42.6797846911875	95.6026374490686	-0.421170173334766	-48.0764833296621	
27199500	-0.646283114472831	-44.8987978978803	-43.2834500974465	66.9309303071846	-43.3153122174369	67.3687100423821	-0.812940228053769	-48.0834659816812	
27449000	-0.936648172075473	-46.877881205361	-42.867477022438	39.3460861135494	-43.1074387957494	39.8031807897799	-1.24095587866408	-49.2736114613951	
27698500	-1.0582009659838	-49.6023824147037	-40.8928674992018	10.6127928237664	-40.9437207762044	9.3450583262118	-1.42113254742234	-51.0009803757468	
27948000	-0.932951763300661	-51.0903741437502	-38.3486958478871	-36.3923408581774	-38.3808214759108	-35.3775075061645	-1.35767882830857	-52.2572577671472	
28197500	-0.686610586600366	-50.3258711986393	-37.7002459337563	-91.1560130891277	-37.7581231720966	-90.4393447131039	-1.1697974933337	-50.475756849982	
28447000	-0.509325064764937	-48.2877605903394	-38.407255986279	-145.060379585279	-38.3213833537492	-144.179052020107	-0.859140568013126	-47.7410039537878	
28696500	-0.549159949730236	-46.940165616026	-39.3717947748231	163.951088483175	-39.419886197383	164.803581337596	-0.779732872784447	-46.4381749568348	
28946000	-0.768745411223536	-47.3296683120912	-40.6926935923494	113.944619964932	-40.7112745056486	112.887154523279	-1.03984986082811	-47.0668506694824	
29195500	-0.969487553413153	-49.4920771053854	-42.7421788845958	63.8402869561503	-42.9316339277067	64.116035441073	-1.34078252716504	-48.2465544768542	
29445000	-0.919341140037528	-52.1298808386323	-45.9734770175968	12.4800072840128	-46.2869846586638	13.0164723767434	-1.27793552287712	-49.7486036454173	
29694500	-0.638528522829169	-53.5601579670294	-52.0928919259742	-28.679899945766	-51.506884835722	-28.3458157155564	-0.891266549871738	-51.0106751530375	
29944000	-0.356255462845691	-53.3386042139107	-57.2265114896957	-22.5138770623872	-55.7795163112653	-17.7125574977467	-0.551239510666246	-50.7141096663487	
30193500	-0.310997135768863	-52.3386293694249	-56.363603828239	-45.3722603412275	-56.5296344658729	-40.1358393863285	-0.342389045614254	-49.7319501032614	
30443000	-0.54451165424252	-51.8565835861197	-58.5207271709384	-54.6142829479173	-57.6264122317554	-48.2974809228813	-0.464205928311051	-49.3671378471778	
30692500	-0.919268074087123	-52.9063042504358	-56.6069254389367	-52.9517412938151	-56.3791203193893	-52.168794452597	-0.738584058031964	-50.2957729933642	
30942000	-1.18326018109477	-55.2521465087424	-55.0242344333886	-68.8937390221788	-55.452837180833	-71.2244231137912	-0.907203534991604	-52.6247813800353	
31191500	-1.17263181202844	-57.2899954823024	-54.1959098303166	-88.515755053542	-53.719193558606	-88.6902179577206	-0.810759456792886	-55.2617915919961	
31441000	-0.961991445606372	-57.3479278994851	-53.367484154633	-111.575304470543	-52.776469054592	-113.785990097913	-0.52573928268681	-56.731477784722	
31690500	-0.753229711615159	-55.5571479229435	-51.1237938566993	-139.745581618988	-51.6220818943237	-142.397830236944	-0.306515621598053	-56.7195252685169	
31940000	-0.71923293840702	-53.5388520487802	-50.627538801496	-165.659298966489	-50.3791012902917	-165.139404491397	-0.378249208156904	-56.0922650453462	
32189500	-0.90386386698542	-52.9935032214317	-49.7282358161312	173.939109562759	-49.790404490824	170.20502430381	-0.720492193899649	-56.066594864759	
32439000	-1.15584639648393	-54.4926642803593	-49.3456611157819	151.240765149914	-48.9751250385059	147.131253495647	-1.16624575422757	-57.4187229815508	
32688500	-1.2294732404132	-57.2879048805683	-47.937623446845	127.89714392407	-48.0779059008569	125.436792266987	-1.46824671820558	-59.7751437076494	
32938000	-1.02380522133576	-59.5313281002171	-46.2040515658417	100.312884006471	-46.2864734771989	102.163262218794	-1.4954325632138	-61.3201210921793	
33187500	-0.722177439855201	-59.8960454260736	-44.5086575989912	77.3240574146203	-44.6359789779921	74.2343191411969	-1.34240412668746	-60.5633168334509	
33437000	-0.587130534951223	-58.7492705395586	-42.765467004131	46.8814716415631	-42.8958253982492	45.7157058899888	-1.17460862317147	-57.7731227503897	
