!Keysight Technologies N9923A: A.12.45
!Date: Saturday, 02 August 2025 20:00:08
!Timezone: (UTC+08:00) Kuala Lumpur, Singapore
!Model: N9923A
!Serial: MY61181427
!GPS Latitude: 
!GPS Longitude: 
!GPS TimeStamp: 0001-01-01 00:00:00Z
!GPS Seconds Since Last Read: 0
!CHECKSUM:1416474677
!Correction: S11(ON U)S21(ON U)S12(ON U)S22(ON U)
!S2P File: Measurements:S11,S21,S12,S22:
# Hz S DB R 50
2000000	-0.0630469310894381	-2.16055895107613	-78.9497073783431	160.79125083213	-80.6005635287615	138.692002554528	-0.0777886602643387	-1.6300635391756	
2249500	-0.387086195623472	-2.81204267511523	-68.258202954094	113.690149133474	-71.0059748302425	165.668759044328	-0.401249218635564	-2.29534431236718	
2499000	-0.533398564640043	-4.5675250753147	-70.0645867653857	54.3441379780054	-69.0534939451319	67.2039289084585	-0.542840578312204	-3.78031207999016	
2748500	-0.376533418415538	-6.37867547173993	-63.4491168063903	43.1193682757396	-66.0448511663953	49.3250701380862	-0.367915320369957	-5.67471512749606	
2998000	-0.0986245034850358	-6.87196116387941	-58.5690098528015	-15.9869303504558	-59.6165871384011	-13.1043548991682	-0.0558514440050173	-6.56579470217977	
3247500	0.170825498744547	-6.26890601343989	-63.2294824521311	-83.0811040002935	-63.3955378552021	-90.0614616064484	0.150941710168351	-6.33154100508022	
3497000	0.115003566065011	-5.65445328486809	-64.5676599723287	-109.435156991986	-67.0765435816871	-112.162246445377	0.09327377662758	-5.69651269495005	
3746500	-0.185570674033274	-5.73154107832339	-63.7275883575789	-134.779202554774	-62.019889940872	-123.932334429688	-0.188538511934303	-5.5968645812009	
3996000	-0.504667249986947	-7.06232387160921	-58.8057073169349	-175.042862228888	-57.7553654515551	-166.325080965652	-0.479362917351112	-6.60089786024731	
4245500	-0.579566380756928	-8.89118560891395	-58.3718153797319	59.310011596306	-60.093175720265	62.8724117996506	-0.515555584757183	-8.26067715247335	
4495000	-0.3042904068486	-10.1286672529477	-57.4377259368762	-136.4742011821	-56.719474154156	-144.290859299535	-0.292056136841753	-9.64156595143269	
4744500	0.0495301618932116	-10.268908585097	-52.9369674462994	117.768580545832	-53.272991694608	113.915003812579	-0.0518800777976038	-9.18045282368392	
4994000	0.182759157870998	-9.52051346398546	-52.9643716282318	68.1451230176045	-52.7214409571415	71.0665176869372	0.152720801040593	-8.1087571443857	
5243500	-0.0421162200804437	-8.47233745314703	-48.361037856527	7.01847934136501	-48.4725581408883	4.08512010812343	0.0213953878880269	-7.49041394622705	
5493000	-0.303929476228516	-8.28454777910103	-51.8698125603664	-67.6551748812748	-51.7843490218077	-67.9921451700338	-0.287635650284696	-7.85271932768626	
5742500	-0.534335156783013	-10.053088368687	-54.2395663843874	-94.7687830920835	-55.3154325069714	-99.6147113680189	-0.525910441110394	-9.6415329527048	
5992000	-0.493253835804365	-12.3228248791571	-54.0088980655701	-119.822348683794	-53.5076649362313	-119.488257056873	-0.481721157426668	-11.8994113015893	
6241500	-0.200467748619038	-13.7555428723147	-49.2421329679046	-156.294593039561	-49.1285465243252	-155.932289867694	-0.219624433281026	-13.2265799840935	
6491000	-0.0226389626072534	-13.0067677453676	-45.1319050788751	132.172174593984	-45.0673441428047	132.642799182152	0.0679889292316179	-13.0645414468725	
6740500	0.120066931407584	-11.7298241262576	-46.7330553905007	64.2910918877398	-46.5312172750061	60.7312960999758	0.0942709474430907	-12.1541188162847	
6990000	-0.076201499012878	-11.4415720535546	-48.447320755719	12.2410231235203	-48.4550007009803	9.38055336848843	-0.173890034119103	-11.205278644253	
7239500	-0.417964783060839	-12.4432278454586	-50.2897970232558	-35.7828774248078	-50.3131559623691	-36.3535413677158	-0.492428727142935	-11.1969058804811	
7489000	-0.604466790219908	-14.6525014449616	-51.4974822652976	-70.767332733728	-51.8700230270506	-68.8260342201825	-0.61113477514629	-12.7914971179595	
7738500	-0.50779230593311	-16.7775320325772	-51.0405945238106	-109.147716855367	-51.2259601830611	-106.519437627255	-0.451087273957691	-14.6952052515608	
7988000	-0.236366475303896	-16.8525117608742	-50.402987113853	-162.768274178907	-51.0099723461358	-162.958625647154	-0.115453456955618	-15.5202689562102	
8237500	0.0799977280011981	-15.6361355665475	-53.7118162055361	144.111731664287	-53.8184549075543	145.683709866939	0.124947101755663	-15.1123432252081	
8487000	0.0875842841263563	-14.6240153810671	-56.4110632087328	111.183866609345	-56.9290163033474	113.130571001946	0.0836904213760394	-14.3143672209005	
8736500	-0.201381137330923	-14.4117468989422	-58.2198277600909	74.9868768662339	-57.9948091773722	79.6656278814116	-0.219527337507262	-14.1636344879354	
8986000	-0.551609963048463	-15.6320170407691	-58.7191697497346	43.6298430761231	-59.9514196527576	41.1597474746931	-0.577977002823514	-15.3141591746358	
9235500	-0.658200351480456	-17.8560721954598	-58.8842245035254	-1.68126243290341	-60.6335069775086	-2.67169372869032	-0.701552310466549	-17.2903697082435	
9485000	-0.448234557347915	-19.5961198147087	-60.059747418373	-51.8863502879597	-60.8935304935662	-44.1296186560394	-0.492907585269111	-18.7460273137762	
9734500	-0.128092594195444	-19.8214844940861	-62.7391245784217	-104.943245595449	-62.6287717207425	-103.508949327905	-0.139477749427213	-18.8010090948115	
9984000	0.0331568051724691	-18.6980680773289	-63.5801563073222	162.201595062435	-69.5021521373635	169.341598362114	0.0597777675605758	-17.753313876121	
10233500	-0.0730154860384231	-17.5965025660823	-64.9798956115677	49.5578266204535	-66.2783807680461	41.2073874929189	-0.0274880139681518	-16.6703197404382	
10483000	-0.386079635505128	-17.8278451241102	-59.8788759644628	-29.8930575578177	-60.2245658605995	-36.089397927507	-0.325345293074274	-16.6839356178386	
10732500	-0.663452522831284	-19.70440917649	-55.7833972982825	-83.9591809093355	-55.4933431601881	-93.4701566560876	-0.598126501576367	-18.3631967159354	
10982000	-0.663736371346216	-22.1395793624774	-50.9998270748585	-142.170968259367	-50.5069800456186	-147.29563999917	-0.64209481095135	-20.8862142100957	
11231500	-0.412233353510414	-23.4534629656359	-45.1103859057404	150.045430367745	-44.7434300578475	142.036735623884	-0.486363813832052	-22.0756512868071	
11481000	-0.130785538760704	-22.7158909502793	-42.565528828023	67.9527160516712	-43.0804271725992	60.8256191003505	-0.118666175734195	-21.0916216453983	
11730500	-0.0361898728924853	-20.92051462704	-44.3013550709154	-2.45683648096082	-44.8169028906671	-5.27840798767489	0.0766170321405825	-20.2606468239158	
11980000	-0.184380529225683	-19.8016171468619	-46.4799327724829	-53.9639788899845	-46.7720928129474	-54.8945876456615	-0.104606691819966	-19.9687206780629	
12229500	-0.51105995014809	-20.6057807163665	-47.3604919594629	-95.0977765688489	-47.3807859347291	-99.0139995759923	-0.521629129345122	-20.8729525477958	
12479000	-0.738964366705362	-23.0502296126741	-47.06299214536	-143.541730623126	-47.1677158734447	-147.266492252825	-0.902910106748227	-22.4311735351787	
12728500	-0.67232769522173	-25.6554693190723	-47.7124330185191	159.059924725982	-47.8822774285891	154.359623262232	-0.8131514568681	-23.2157939514115	
12978000	-0.408065956013455	-26.5879398301127	-49.2877661132127	99.1640799184031	-50.080521177326	93.8612098546476	-0.35154784260632	-23.7581779870626	
13227500	-0.171269714765404	-25.3012636072267	-51.7519379121528	41.7540729379087	-52.9611457527523	36.4169674673657	0.0113057065356091	-23.4468895255874	
13477000	-0.109016578731241	-23.5514815222062	-54.9817546401652	-13.9488261342227	-54.9489521223153	-16.5739042688141	0.055223211403032	-22.6558807291108	
13726500	-0.326739369342559	-23.1127641440869	-56.7372277432859	-57.168728237684	-57.3152627027649	-63.0124013758038	-0.212445451981215	-22.4753741963023	
13976000	-0.667397761462244	-24.5209073681739	-56.1774802190775	-97.034537631171	-57.1936262414703	-112.092054609135	-0.591539000708358	-23.792668074752	
14225500	-0.826875801501494	-27.1972495083135	-56.4097491810472	-146.533250160787	-56.3782331078132	-163.513393419034	-0.798397307809354	-26.2591893471965	
14475000	-0.701708530733472	-29.2033117686568	-54.5346022934926	150.612920643863	-54.5099090917861	136.708766477872	-0.708203443390333	-28.1485212767429	
14724500	-0.405155255193775	-28.8288293630812	-54.7980768198761	71.8627488008461	-54.2122288448953	63.9566560999815	-0.428419191930267	-28.0520921335238	
14974000	-0.119669916117883	-26.9969959899732	-55.5885609047046	-9.70788033795826	-54.732651046746	-24.4563826855054	-0.185210429229578	-26.3153800076489	
15223500	-0.121254941133574	-25.8391654628689	-55.6522286230363	-93.8237286162625	-54.9973959305738	-98.2518043169354	-0.178117562558813	-24.6445665612499	
15473000	-0.511730119964299	-26.2253350183046	-53.0472025798771	-177.254358350236	-52.9591702078636	177.308716880561	-0.425590725649285	-24.3178770307903	
15722500	-0.839904790081938	-27.2326575169518	-57.4323690953981	77.8831097523593	-58.0192098299138	91.8009561993664	-0.70859488730656	-25.841182828236	
15972000	-0.85681334042303	-30.310383391368	-63.5320575667168	70.4430710006258	-64.9595179597187	82.6809278972234	-0.745851953217204	-28.4669715410775	
16221500	-0.642522727602506	-32.27045745536	-63.783857550531	57.3214555929323	-62.5678103074438	67.4304743736082	-0.494081064894545	-30.5138035613652	
16471000	-0.35776895559217	-31.7359580820057	-61.7858827086508	34.9848635306792	-59.0507635300957	35.0604304743875	-0.180627525786613	-30.8685320312965	
16720500	-0.191716736293731	-29.7900043505876	-59.6321965612308	6.65403911534307	-58.2486458227163	0.551499201882682	-0.0936498186015684	-29.8801527347256	
16970000	-0.304637096834152	-28.5249113325206	-59.0924139701433	-15.9062998775406	-58.8023671932072	-29.2395066048251	-0.333441573794344	-28.5854410104371	
17219500	-0.638841752514963	-29.0496143694733	-58.0636524760442	-47.5715905707403	-56.7744107450961	-58.7463528695152	-0.736044436048641	-28.1550686454218	
17469000	-0.909864591277304	-31.3228142631782	-56.2880253607733	-82.1002342230642	-55.9289347722438	-89.8828029001439	-0.993738473305986	-29.3365812303459	
17718500	-0.874154784019318	-33.9196910763763	-54.2986757954567	-116.326034522513	-54.2411826151986	-123.550155286941	-0.892166678622037	-31.383710529632	
17968000	-0.570611765401558	-34.8823477211523	-53.4995696430209	-160.586840812923	-52.8537154226283	-167.866572082589	-0.511596428664621	-32.6823824594666	
18217500	-0.25326442292233	-33.7601410734605	-52.7265362376874	153.031449669562	-52.3900809456279	148.43885413087	-0.151685050909051	-32.4872335814722	
18467000	-0.163102176092668	-32.0129586910831	-52.7426144706868	106.190389439785	-52.3079502112537	101.799364429653	-0.0744292268630918	-31.4261241315747	
18716500	-0.388230395807361	-31.2568736617582	-52.6675803531429	57.0320161197266	-51.9362208720031	54.2497721203071	-0.326398030986005	-30.7672215164011	
18966000	-0.781613177553056	-32.3963105485978	-52.4882134756516	14.0734598632903	-51.4365701874138	10.0175683869509	-0.733029082223827	-31.4798809546973	
19215500	-1.01722535914803	-35.0894769733042	-50.8993292896581	-33.3559225514692	-50.6100826357942	-34.2919114751771	-0.979237123506132	-33.5678707555406	
19465000	-0.905103717828502	-37.456852043699	-49.9218655063078	-82.2535421631519	-49.2545610017612	-85.5019315879816	-0.88082437053872	-35.5842097919244	
19714500	-0.561464153219685	-37.8453329386341	-49.0692358673926	-134.728494572303	-48.8269291274552	-136.002173047757	-0.533817483588799	-36.0853826048103	
19964000	-0.288217634654602	-36.4878722186859	-48.8425864063629	176.580960336643	-48.7360149434125	175.233504301455	-0.249115627696546	-34.9824219190567	
20213500	-0.312292201382685	-34.8996655089733	-48.6148874806084	130.532592118242	-48.7409330482389	130.900073763133	-0.236769985691104	-33.4857850992766	
20463000	-0.635166987261535	-34.4892141903642	-49.2294201149324	91.4446564648497	-48.9834718165595	88.8173478466377	-0.507567933258442	-32.9596555408605	
20712500	-1.01704847773988	-35.9685580064372	-48.9757314914208	49.9875888867046	-49.4034147555954	49.4327420139601	-0.849829880288593	-34.2200738399302	
20962000	-1.14927790553265	-38.5747350684562	-48.4862041077005	10.3562925805096	-48.8320551919672	9.55422723179453	-0.970490645367342	-36.7839033155601	
21211500	-0.924994645671793	-40.1651399623695	-48.431670603415	-33.5017168972148	-48.5742940815729	-33.6167894867341	-0.764074746877865	-38.8125182512052	
21461000	-0.534236342772252	-39.6661160992061	-48.3432805867184	-79.0749691169639	-48.2708573072431	-78.6811684769273	-0.425918238640363	-38.9541741542981	
21710500	-0.292003999589008	-37.9095970574453	-48.9581559573503	-129.435043645514	-48.896873474404	-130.269136604439	-0.234296193792658	-37.5018512074833	
21960000	-0.394740371099568	-36.5077267837959	-49.3837965631753	-179.463606797853	-49.6922851371996	178.505185439374	-0.335395360259859	-35.9190736445279	
22209500	-0.766956820832762	-36.6448850238322	-50.2203551652212	126.58530470378	-50.2579472602655	127.555470671257	-0.666148920722593	-35.7502947413849	
22459000	-1.11032007170459	-38.7040038978546	-50.3301286449863	71.2745969461011	-51.2025955774202	70.1729537399761	-0.982262564054708	-37.6014103111444	
22708500	-1.11725475503834	-41.3832624042666	-50.7386706470085	6.4496781163022	-51.4758636600774	9.48044258594381	-1.02558282134242	-40.4507364025179	
22958000	-0.778448877824957	-42.6893122209774	-51.9341193589873	-58.4278609403238	-52.6681183663954	-54.6964267007553	-0.764792765243798	-42.0994984441489	
23207500	-0.384989958160074	-42.0173263941728	-53.0480148571373	-118.81306780803	-54.7237331298171	-126.750120037012	-0.425156023401044	-41.6184239564381	
23457000	-0.252967279114294	-40.3331075955198	-55.9116705246812	167.923213416428	-57.7359583931063	160.696213209691	-0.280266563255343	-39.8599664319513	
23706500	-0.472872077220117	-39.1959620812518	-59.5077172617778	87.7844207369058	-61.079504938217	75.8154363252566	-0.450916673088063	-38.4627206474128	
23956000	-0.87080862126922	-39.8202952016869	-62.5089268425954	-2.65881495193425	-60.7792332900393	-35.0310774136525	-0.808680073856458	-38.6826128211745	
24205500	-1.13059135922528	-42.2364986370515	-57.956159039809	-81.6372939129936	-56.5696019743947	-91.7505174711361	-1.05978047597487	-40.7518670757736	
24455000	-1.01600901878407	-44.8180843962545	-55.6808586306355	-138.171092672433	-55.5165716369752	-146.303444174129	-0.970922269256044	-43.4409176918354	
24704500	-0.634442238964707	-45.5899560553395	-54.2044988397976	173.488351156186	-52.7270368148864	164.924943631349	-0.61542131393137	-44.5914924475779	
24954000	-0.309556029889115	-44.3774633258933	-52.200362482422	123.628450204057	-51.5319063519365	119.606890663252	-0.346051927568135	-44.074691701186	
25203500	-0.282499175490843	-42.5405989925372	-52.2219465024937	77.8243090669068	-51.1082219791361	71.0891770288019	-0.360841283574527	-42.4122264498643	
25453000	-0.570086018400863	-41.766427612361	-51.5792715460666	30.8922550652373	-51.6130371022473	25.7608067428057	-0.669395524784785	-41.1606676460535	
25702500	-0.971144877267453	-43.1053170186806	-51.8565737151883	-11.765841491495	-51.2304748231279	-15.1229353286827	-1.06040656989799	-41.577390455642	
25952000	-1.1465882962165	-46.012381488197	-52.3430186079845	-51.5070065167129	-52.7235307640594	-59.5967401137217	-1.21284463611001	-43.7377713498527	
26201500	-0.938128417837909	-48.4005843252181	-53.0532384424536	-102.651414759996	-52.9248270834335	-105.521998099185	-0.988176699975011	-46.1083253666193	
26451000	-0.538464665311601	-48.6358231439305	-53.4820479006755	-153.854905865112	-53.3529137708539	-153.659325463844	-0.575887052962344	-46.9827076671349	
26700500	-0.269599878300196	-47.1097182421791	-54.3772490293405	154.448471103081	-53.6929281702335	151.207955487414	-0.31144317453694	-46.2167447680524	
26950000	-0.340314430178812	-45.427028098152	-54.7244317141471	104.854395925164	-53.5570148499338	98.8322096404811	-0.395603462055331	-44.8858914493269	
27199500	-0.684310570628047	-45.1839727977521	-54.533617301248	49.7499169001196	-54.2914624955476	53.2778266810741	-0.776176171974685	-44.3663567433257	
27449000	-1.0527825758484	-47.0616657255194	-54.7952766372242	5.06772736688975	-54.2986713132941	8.2363753908578	-1.18093290040123	-45.5671841731159	
27698500	-1.1175003576499	-50.0767343055484	-54.298690958806	-43.2222477649309	-53.3525889608461	-38.2521346409246	-1.29535471332329	-47.8402684674874	
27948000	-0.820583648962366	-51.974203533867	-54.197322652966	-84.4996256301599	-54.8725289545757	-91.7971414709258	-1.01333061115584	-49.4470603989031	
28197500	-0.45118706080744	-51.5941005268771	-55.3119202188294	-138.965907425553	-55.7449059747284	-132.226857293185	-0.596618937562616	-49.2449176261613	
28447000	-0.303521189808771	-49.7630669546988	-56.3136151942717	175.464368359967	-55.4634757178062	178.118479938574	-0.373410029180471	-47.7390057783426	
28696500	-0.498548122464912	-48.2501377771961	-56.9601319250799	136.373836619452	-57.2624182618401	135.493638905139	-0.512300523383182	-46.3614545096549	
28946000	-0.91129399294722	-48.4997918963355	-61.8857432155832	80.7285761674102	-60.3504338243114	108.261095184421	-0.894436775341342	-46.4672456476583	
29195500	-1.22951616165304	-50.9158684272781	-65.1813523049517	59.2772931384902	-62.6263104503245	52.749078169219	-1.23015690641681	-48.5459285320243	
29445000	-1.17963417200061	-53.976110875044	-65.5127594029987	-4.58797559833374	-64.7006615710089	0.407594714248106	-1.22640853673831	-51.4340601573459	
29694500	-0.829485700301997	-55.2473666476724	-66.8240988838325	-42.8236098108697	-65.5155157612519	-29.9384972557151	-0.900392096232919	-53.0349375213224	
29944000	-0.486992067367751	-54.1992165399029	-70.3930289821317	-96.3221876860173	-68.1203613541837	-131.447635392403	-0.54877122067324	-52.4846594597177	
30193500	-0.425754099186628	-52.1000058526853	-69.0254998072049	-159.351175406847	-67.7698666837512	176.916614292568	-0.475614957264303	-50.5861598938128	
30443000	-0.685077425550719	-50.8194923162659	-61.161464216886	147.895500574752	-63.2621920105392	148.290710711601	-0.717921249794298	-48.9245634591047	
30692500	-1.09098331242498	-51.6713069341804	-62.6892524043914	102.988395892145	-61.8374513918145	107.047362729879	-1.10312877898318	-49.1306225578951	
30942000	-1.31335209568745	-54.4479399913622	-58.055088292409	62.3661506441487	-59.465950931877	62.7196918553102	-1.3412882053007	-51.3767518463192	
31191500	-1.13554276828618	-57.0692231068052	-56.7556514596144	17.4340154306461	-57.9897569008121	20.1948484822384	-1.20969722623259	-54.0999287939244	
31441000	-0.736605015895858	-57.5878596364455	-56.6204209850381	-29.5578342857458	-56.724324192777	-29.2024068893701	-0.822484618872953	-55.2239454728945	
31690500	-0.455761983012531	-56.0773050685278	-56.4806792073524	-73.7149530804901	-55.9328683771846	-78.720742592553	-0.506337109570917	-54.2672237556326	
31940000	-0.515126221599849	-54.1062117793767	-55.2257990300687	-130.227085432231	-58.033199349164	-127.001872700185	-0.523272467806699	-52.3872007200582	
32189500	-0.889585550701307	-53.5053278489777	-56.3565618827087	176.937638113549	-58.3388104501073	171.958345441689	-0.850288303235586	-51.2360415101103	
32439000	-1.32598588659712	-55.3054319203051	-58.6299818494203	126.997143048645	-58.3919015603665	122.680995502276	-1.27269142415724	-52.0781037334842	
32688500	-1.46608543032485	-58.61549327392	-57.0008525908923	70.884312951019	-59.3430398902177	65.326304324323	-1.44365687105705	-54.7577699352983	
32938000	-1.19314313924953	-60.9758031184617	-56.7486928653218	14.0093292530152	-57.8195182006864	15.0584853679726	-1.2067372446062	-57.3510085042467	
33187500	-0.772598414934514	-60.7686504951689	-56.665188501434	-30.7206137357	-57.0420605051741	-45.7597874820341	-0.76811660526588	-58.0562838100346	
33437000	-0.550657414488097	-58.6537597842013	-57.1826001697583	-91.3675247798013	-57.4682210665484	-88.4300737726066	-0.49307886583597	-56.8947592920837	
