!Keysight Technologies N9923A: A.12.45
!Date: Saturday, 02 August 2025 19:17:11
!Timezone: (UTC+08:00) Kuala Lumpur, Singapore
!Model: N9923A
!Serial: MY61181427
!GPS Latitude: 
!GPS Longitude: 
!GPS TimeStamp: 0001-01-01 00:00:00Z
!GPS Seconds Since Last Read: 0
!CHECKSUM:0133479574
!Correction: S11(ON U)S21(ON U)S12(ON U)S22(ON U)
!S2P File: Measurements:S11,S21,S12,S22:
# Hz S DB R 50
2000000	-0.062193595805326	-2.78863223392606	-84.0961492171515	47.8033559592407	-94.9575630910668	153.641878108503	-0.0881531659040846	-2.73961956949224	
2249500	-0.320697389410863	-3.46934854583433	-73.5111049367502	-125.637453485885	-73.041486778951	-96.00920134014	-0.330174013018249	-3.33939961080913	
2499000	-0.439447366021733	-4.95682090469262	-64.1954422470318	-114.577694350463	-66.1285204404273	-80.4377549022346	-0.429099450366396	-4.69348931044168	
2748500	-0.311135857605719	-6.4379164645887	-53.7939590741445	-133.153865186916	-52.9081429874755	-138.94019354471	-0.315304566549201	-6.10501112944095	
2998000	-0.0390675487775894	-6.71206861493608	-46.8806494388364	94.6083140323207	-47.2928867910797	93.9641655278272	-0.0611001534634898	-6.17071230454956	
3247500	0.122865309111832	-6.47559108381393	-47.6207558102596	49.9648695528813	-47.3664367768	49.0000499863668	0.104506657806991	-5.94606241695711	
3497000	0.0811467990374327	-5.58113096892934	-50.3270429475682	-44.9087091063601	-50.7432672492439	-47.4696713170412	0.0642729248186919	-5.22065436091874	
3746500	-0.14198626445969	-5.68785493138412	-60.1953991155381	-58.8267182837036	-58.729234235853	-72.4884640442321	-0.159315579261032	-5.41986207280314	
3996000	-0.394589059183424	-6.83937583978915	-53.1829904728762	-34.1728763717108	-52.5178891693612	-35.6303095809583	-0.481142950975646	-6.55570428399429	
4245500	-0.456856053765567	-8.60743177587779	-52.0307236743052	-118.084685471668	-52.1517404268262	-120.611331150413	-0.445409746209109	-7.68363261784537	
4495000	-0.256620274235072	-9.58386386073729	-58.9273644794907	-112.454292453552	-59.8521409271603	-111.542826539483	-0.231874256634372	-9.23775168600811	
4744500	0.0324486820065295	-9.95830593489187	-48.7281825498954	-119.609465044036	-48.6371547883751	-120.174490566952	0.0101994551382647	-9.8824723534778	
4994000	0.127856748572761	-9.20318214870898	-40.6044893680768	130.110278855601	-40.8002226900846	128.838341657781	0.0145974950625628	-8.63258353307039	
5243500	0.0164329551396251	-8.97001919765564	-46.7459547956508	75.7178011412886	-46.5560389738956	75.1634900253158	-0.00662613191831679	-8.42655499018318	
5493000	-0.343692768355844	-9.25663642890933	-46.0018531321071	16.3004879966448	-46.0970149754161	19.1165027230968	-0.268210399879519	-8.8999448155713	
5742500	-0.483061536305113	-10.202655573539	-54.3170327884916	-50.6336117712321	-53.2722500618771	-50.0323196821395	-0.44222835806726	-10.2844964389492	
5992000	-0.412393850341803	-12.150283208119	-62.0159058075835	-60.2495916975039	-60.9584259601694	-67.6884328130884	-0.394557909253664	-12.0350631244248	
6241500	-0.116066338534081	-13.3660003667329	-69.8173603132162	-62.8203944876375	-69.0754256257756	-61.9358702724458	-0.169986203565221	-13.0561612664445	
6491000	0.0789583655866377	-13.4085583707268	-73.8812524793727	3.72651274162692	-72.683952135934	-0.869062279516627	0.07666898107237	-13.0254081181953	
6740500	0.0298044211705874	-12.9812821574843	-59.1780237695079	23.7869837776493	-59.495126693557	28.2740229381942	0.110062512147956	-12.4598151403254	
6990000	-0.202346722611378	-11.1102330091862	-50.6676478897877	-49.4461384059767	-50.4247624677996	-52.1016858493424	-0.0937666069952767	-12.2272049685008	
7239500	-0.355174559877295	-12.0109769139081	-50.1670780097505	-97.6508502209105	-49.750031326545	-100.572757563339	-0.420154851022638	-13.0660396050193	
7489000	-0.483366037476835	-14.0018867666679	-47.7744589285701	-148.071001440046	-47.6630149873662	-148.285986921695	-0.710196787160161	-14.3888709023396	
7738500	-0.370558264418766	-15.8772599305519	-45.6373038823648	171.926395760447	-45.4172971677797	170.152415545516	-0.677916241314089	-15.0989164167087	
7988000	-0.105173591029452	-16.6777757695604	-46.0653061961982	115.571601356891	-46.0983642425398	113.459357355623	-0.26407878407272	-14.6643313024842	
8237500	0.0505368662014593	-16.3469042334096	-46.6232814565461	71.5241524054854	-46.6848906492046	69.673308620442	0.0345947959228759	-14.4326119860442	
8487000	-0.0483046535073815	-15.2730112464824	-47.094780257166	24.7596036894164	-47.2661919900578	23.5411751876614	0.0464330910853928	-13.9534147012584	
8736500	-0.277379247920935	-14.6046052960277	-49.2869662061167	-17.2016643744546	-49.4769602750773	-19.5955825563374	-0.166106896923355	-14.0078961258837	
8986000	-0.506665083008612	-15.5338708624811	-51.2989534504672	-48.5429473600276	-51.4823622810949	-48.1028374458494	-0.41090528690078	-15.2104811658371	
9235500	-0.549693620382474	-17.4650780003976	-52.3881919232827	-69.3129401948561	-52.5715624666343	-70.7555125607432	-0.475769513247699	-17.1871132837899	
9485000	-0.341068399436607	-19.1339760487722	-52.1178936623807	-89.3747918881648	-52.328758094332	-92.8773280133387	-0.294329579144305	-18.8642295722832	
9734500	-0.0588109202108521	-19.6547137067024	-51.2059926100541	-111.674127159984	-50.9087025837849	-111.452412479634	-0.0233298985673071	-19.4223005632658	
9984000	0.0447082332148506	-19.23329504758	-48.1562901766347	-134.553537971053	-47.70347349555	-135.822657031645	0.102357718276353	-19.0695275801881	
10233500	-0.178135135196006	-18.4379773204992	-43.9975370955112	-172.133682824314	-43.7584729103045	-171.585243931878	-0.0331489704353101	-18.697545178609	
10483000	-0.482162603575809	-17.5746363384549	-41.5084228100022	132.367279309911	-41.2578457880844	132.097734737244	-0.362441715403241	-19.0699968128236	
10732500	-0.601908501437854	-18.908575627915	-41.5211993536872	77.9432144340011	-41.0224432636964	76.3335122465409	-0.676556205353316	-20.5267525371257	
10982000	-0.571803276802304	-21.1765178981514	-42.6221021132938	21.7476534292733	-41.942736597953	21.4317281031745	-0.793878608373084	-22.0433540782708	
11231500	-0.306283280998833	-22.5051701592051	-46.1695650364282	-0.687287484947734	-45.8798236713206	-4.12547283036571	-0.688081014395605	-22.3847334900075	
11481000	-0.0498775620314645	-22.6434261776408	-44.9114743490048	-38.040109058993	-44.9615086399845	-42.1705657610629	-0.358367272660852	-20.5216702524497	
11730500	-0.0390906311503939	-21.9713828792867	-44.4902894848121	-78.1909749197079	-44.4137030894975	-82.0011116938653	-0.0939041782494215	-19.3080904300755	
11980000	-0.327155906292925	-20.9804049836932	-44.398500618429	-125.177582149411	-44.3380862953352	-127.352904137153	-0.158324866498744	-18.953487806555	
12229500	-0.613439060194168	-20.5487360689641	-45.8341229221801	-172.557655730614	-45.8319030231404	-174.696551392974	-0.395999637359451	-19.7024925112835	
12479000	-0.682085535740215	-22.0795479543737	-48.0072228774575	148.258779126002	-48.0124399091073	144.275863463638	-0.562272366962603	-21.55179483141	
12728500	-0.518463725681154	-24.3146853932451	-50.2158259351364	117.298329293839	-49.6902560860801	116.665602236338	-0.453298502358708	-23.6393354797341	
12978000	-0.206454905219307	-25.5920035044806	-50.3163778886981	95.3037856299417	-50.3089358798624	92.5039047135372	-0.176768606206034	-24.7930563823596	
13227500	0.00178241631808359	-25.6341160878472	-49.4591425706188	69.0216347659772	-49.2976041945152	65.8734780142593	0.0528445597988497	-24.748352887112	
13477000	-0.113709020012831	-25.0573970436597	-47.3461616163249	37.6637597754724	-46.7283321320952	34.6924460280681	0.0463048215865722	-24.2457935240576	
13726500	-0.516082335958608	-23.939270484224	-45.0661776947385	-11.2548325491301	-44.6781756387419	-12.201141933135	-0.200774116147759	-24.262702473545	
13976000	-0.736289260608043	-23.7020239673417	-45.2269231186354	-61.1600556065484	-44.7158380109962	-61.3884511720722	-0.52474810700267	-25.5413750605857	
14225500	-0.715679714877156	-25.817653728962	-45.8988054626295	-96.895987632828	-45.2749082599851	-98.8838303986805	-0.701941066867456	-27.8232602058521	
14475000	-0.498693722228474	-28.088721709555	-44.8477016926913	-128.901997882117	-44.2088276995705	-131.927126818091	-0.677738501939145	-29.7735736461573	
14724500	-0.215303133200913	-29.1194349588701	-42.479160366305	-166.181500128478	-42.0943923147969	-170.997129989021	-0.590945300582225	-29.8169191051528	
14974000	-0.141224239454504	-28.8280453507739	-39.8551956981776	144.133016303739	-39.556973770385	137.981060363217	-0.525627269870029	-27.3560459514886	
15223500	-0.417069645092204	-27.4379315795025	-38.143426231665	81.9297785859476	-38.1206491099551	76.2807469814684	-0.452438287930642	-24.9241149016736	
15473000	-0.72218544034897	-25.6844954259848	-38.4927135492271	9.2627014876334	-38.6509547511015	4.30325802622515	-0.560457865372211	-24.57286195408	
15722500	-0.851125482536974	-26.3809454914099	-46.1135415716462	-37.8535820406445	-46.1997656514563	-42.3037348621266	-0.750160771517118	-25.5700960201958	
15972000	-0.717685412644375	-28.7580016613368	-45.0434868430105	-65.9368099871138	-45.4020029980351	-68.5776463053867	-0.687570067868881	-27.7649969265176	
16221500	-0.425025159887493	-30.888874535676	-45.1868627832747	-99.1570579815164	-45.1067267274295	-101.611153625948	-0.420434355558032	-29.4985401961197	
16471000	-0.15221263215094	-31.6000994166809	-43.7880623575343	-133.653581092939	-43.9967812953809	-134.704556897012	-0.109994214360678	-29.925221455929	
16720500	-0.175432587412032	-30.946911568152	-41.4158728543331	-175.167147404684	-41.4027258810166	-175.052248075678	0.0146293583904489	-29.3912493762883	
16970000	-0.455740879994756	-29.0841169669482	-39.6635549598952	133.832933460753	-39.6792794275687	133.199022666292	-0.131618470614745	-28.8936413421549	
17219500	-0.645440100381153	-28.6600284145221	-39.8286836272715	83.8406352833641	-39.6748843741235	84.08261753827	-0.429151421307489	-29.4856596178511	
17469000	-0.788280216450314	-30.9207277820417	-39.5299564648139	39.3425055292773	-39.3096763567472	40.6885018909759	-0.674972836303586	-31.511414297704	
17718500	-0.826931391265395	-33.3326132837362	-39.2603298845585	-18.8747792517871	-38.7005585020943	-17.9245139860666	-0.676920203006247	-33.7851921016775	
17968000	-0.452414150794209	-33.9247835070618	-47.007353528784	-58.0833801274718	-46.3277043794983	-59.4475610554807	-0.456220673082482	-35.4857181110863	
18217500	-0.151464332122845	-34.3588872845934	-44.7432652157704	-31.6817032282562	-44.1494165403749	-35.3632160505078	-0.369553668358784	-35.5166443490712	
18467000	-0.247962360026444	-33.8776942537911	-38.06021147388	-66.4493227170808	-37.7242076895417	-71.3032247102199	-0.515603607510924	-33.6440665848806	
18716500	-0.672201455788649	-32.5206063150502	-34.1748034560846	-126.67035431987	-34.0273781484546	-130.898873802196	-0.743877244370668	-31.6502432051277	
18966000	-0.945173722891141	-31.7625949110054	-33.7637241423156	170.281685230768	-33.8994514031136	166.301229432803	-1.00509729117507	-31.2194770128843	
19215500	-0.931417523928478	-33.5909058297792	-35.3657872843	118.662467519785	-35.6035392699892	115.788396820682	-1.02612397977589	-32.4123888155402	
19465000	-0.714599090745288	-36.092932857463	-36.6821196586322	76.9872292597861	-36.8628908652473	76.1248006275467	-0.774478327077665	-34.341338958827	
19714500	-0.422269340896287	-37.2486725058319	-37.1674517661932	39.1542197873587	-37.299718326825	39.6459014061967	-0.394968128296661	-35.3888794987654	
19964000	-0.283300673579028	-36.516683336751	-37.3781711635237	-1.83063709131636	-37.1787212552397	-0.541395371010104	-0.133679755542175	-35.0301913897484	
20213500	-0.373554109137451	-34.8771809489119	-38.0142374352857	-43.8579714783435	-37.6278720376232	-43.3057042706244	-0.121163457023063	-34.1444845113456	
20463000	-0.631156305396647	-34.2310557234516	-39.0383652291722	-82.3862393057427	-38.6275339020174	-82.2117871009937	-0.341387223828196	-34.0588218789634	
20712500	-0.913265322463025	-35.4949753025672	-39.6443313992997	-117.006601216783	-39.3106796203157	-115.981586571402	-0.619949004226218	-35.4858273098568	
20962000	-1.00304129448039	-37.9458980340609	-39.9327987482079	-149.341059687762	-39.4723416548451	-150.300555153714	-0.720042944107966	-37.9960877545637	
21211500	-0.818245142020853	-39.6407750190685	-39.9795583607797	175.305402947015	-39.2150373910463	174.720212868796	-0.566802455105247	-40.1247841971282	
21461000	-0.489067518155879	-39.6102387088705	-39.8614371622586	139.593786744882	-38.9717635203176	138.173635983836	-0.33046603266356	-40.8338548688078	
21710500	-0.296701232785733	-38.5357186073815	-39.6481223635784	104.110835447513	-38.653988388481	101.157781295775	-0.274256474616967	-40.3076824553848	
21960000	-0.421920155913173	-37.5970651900782	-39.2048778745165	67.1359652343569	-38.2649024556649	62.7771315037804	-0.551101013484032	-39.3317628360811	
22209500	-0.790798047148003	-37.6957465483687	-38.7581700672707	25.9133734294546	-37.9180201643251	18.8053565061868	-1.05105350411836	-38.5363932136419	
22459000	-1.1224054324344	-39.0381560436476	-38.9632399994817	-21.7104495796047	-38.5258988926475	-27.6946718454545	-1.37611903841613	-38.2786463558937	
22708500	-1.12753115646005	-40.7175150680136	-40.7767280319846	-67.4671771902977	-40.2084710223687	-74.5737628872026	-1.24097718407087	-39.1653822530594	
22958000	-0.787638147723194	-41.5516575573088	-43.8878112127554	-104.49532640936	-43.187201099334	-110.468852621649	-0.793672381458288	-40.3029589557134	
23207500	-0.383288352203139	-41.4276424039603	-44.1224736575228	-127.780666136004	-43.750190803081	-131.311229747031	-0.346762154887024	-40.5639718863061	
23457000	-0.308787317566533	-40.4248163461313	-44.6774610594999	-171.238779540908	-43.8913337789263	-177.061425092494	-0.163968458468249	-39.9563364970698	
23706500	-0.522010723255135	-39.556916556752	-46.8412755779629	153.04126631551	-45.9956303482736	141.463288087493	-0.289175036022851	-39.5629450329689	
23956000	-0.884324008191794	-40.0651592913947	-48.6548652272775	119.889551103076	-47.8786544839915	110.929166617887	-0.58048274179943	-40.4630222826377	
24205500	-1.11755747572017	-41.9029356990491	-50.0742445648215	89.4213865507606	-49.3822476945245	76.8737100682338	-0.794361460203563	-42.7544834988954	
24455000	-1.00618572841854	-43.8481676011873	-50.4393138950989	55.8616299298212	-50.2459479130661	45.564445239609	-0.758842360876274	-45.4009841876425	
24704500	-0.632269562683835	-44.5730214589095	-50.7613034328504	24.250387439953	-50.848515425949	14.1235974895612	-0.544321500690713	-46.6359319359454	
24954000	-0.309830437536329	-43.9342529879511	-51.6580203685791	-4.58673973617302	-51.8828585110123	-12.9113678198682	-0.438238073085453	-46.2872927147452	
25203500	-0.272167116433757	-42.7972571975505	-51.3117139599711	-33.473475701417	-51.3403840245604	-38.9007365477119	-0.597464497673633	-44.5394355948652	
25453000	-0.526770355015851	-42.3686671545545	-50.1467287109878	-71.4718457154616	-49.7343673862131	-79.283560922018	-0.924838713663764	-42.629651214411	
25702500	-0.877199780449658	-43.445773594327	-48.8215687225281	-114.668335360084	-49.0004215788717	-115.972468634467	-1.18709354693009	-42.2676554673799	
25952000	-1.0220641578714	-45.7301720671374	-49.2037847389045	-148.187551335488	-48.5364251080239	-159.605882142469	-1.19310033339054	-43.8976621786247	
26201500	-0.839605386655948	-47.7021907064107	-49.6578862470909	169.68201839109	-49.1285610276177	166.464319136453	-0.915676978978086	-46.0714135570602	
26451000	-0.500941170308181	-48.1746634674345	-50.0589563580184	140.236965151876	-49.8387833477997	132.151251341603	-0.517572171945342	-47.1615316277857	
26700500	-0.306200354005581	-47.2903134868386	-49.777771440551	112.007433594747	-49.2856512839666	100.207676633552	-0.276262177460512	-46.9318605514286	
26950000	-0.440788131994712	-46.0833302346889	-49.4992370609039	80.7877112802166	-48.6163881466225	69.7725451498088	-0.349066867361014	-46.300650727801	
27199500	-0.816103082344034	-45.7566633571654	-48.513265753898	50.8199202324935	-48.3155854033033	38.5195061672479	-0.696209009566049	-46.4441819947891	
27449000	-1.1725855635304	-46.8154719654248	-46.854682756952	14.3078979693965	-47.2050431554611	1.94239288617636	-1.09159161272733	-47.9528754996478	
27698500	-1.20159732236742	-48.7763013880555	-45.3737753482621	-22.5095236797234	-45.7608864063352	-31.0519064001729	-1.25387694331878	-50.0681058975959	
27948000	-0.854545729985673	-50.265712494586	-43.8768367105186	-66.428842949156	-44.4977473800594	-77.4335848702532	-1.10801271147929	-51.4829471873219	
28197500	-0.440488817773401	-50.3549523438362	-44.3673537725202	-112.41728203349	-44.8378370477635	-125.105760888793	-0.864688264423603	-50.6089081059203	
28447000	-0.259956224974265	-49.4087213321306	-44.9286050254534	-153.900974109614	-45.9027011679724	-166.930879461106	-0.644648393839475	-48.3352007869689	
28696500	-0.426579474711608	-48.6446962117609	-45.2085194495439	167.693458123202	-46.2045198165725	158.015129376766	-0.653519906692737	-46.6615403963508	
28946000	-0.802096016287584	-49.1507501029993	-45.2829260453009	130.365733148944	-46.8016382295372	120.484799601649	-0.856564702956897	-46.7397642180322	
29195500	-1.11486111229525	-51.1593974693369	-45.5712014780356	93.722589240185	-46.5364653908045	88.1085185711606	-1.04377423002796	-48.7100105389294	
29445000	-1.11503457487865	-53.5018689372009	-45.3231462234556	51.4276640036175	-46.572664128136	47.4210289408493	-0.980986879345773	-51.4621812010371	
29694500	-0.828079157134223	-54.348259641334	-46.3289723989403	14.1818425658422	-47.2900541208009	10.8900722616742	-0.685622618054169	-53.3230526407721	
29944000	-0.517918902492622	-53.6270806425041	-45.3707469111161	-7.30376146222704	-46.2370960625544	-10.7244324940593	-0.400384273199511	-53.6038292926158	
30193500	-0.487811316961837	-52.0112900843698	-43.5703337458738	-47.0110043604519	-44.9044509732689	-50.0817347590141	-0.400647104306523	-52.8216580609967	
30443000	-0.737386513486608	-50.8026709745791	-42.8481501916681	-85.9912164191362	-43.6782665879242	-88.9663953650854	-0.710514223666202	-52.0803346906225	
30692500	-1.09309011794057	-51.253910708261	-41.7213263744217	-128.5163530071	-42.2831397035427	-131.331438091657	-1.1630250202397	-52.5289298975072	
30942000	-1.26989555664688	-53.3783424147454	-41.1385322914089	-173.644186682838	-41.9364006823746	-173.39976101704	-1.46208813594098	-54.06944274237	
31191500	-1.09596940143928	-55.695227678566	-41.0957418816682	142.213068112342	-41.5789296679373	141.364306617067	-1.38612607153254	-55.5063622502852	
31441000	-0.717871120957485	-56.6183464919784	-41.6758889022384	98.8168106508875	-42.3783708789361	97.2087747592878	-1.0027605842566	-55.714135011188	
31690500	-0.458311864502146	-55.9908796353605	-42.2358631579462	56.1165210883189	-43.2646263871189	56.0255258942692	-0.628726015966501	-54.6431782148314	
31940000	-0.53003897134505	-54.8342812680803	-43.2850185773152	14.0075949851746	-44.0046383243779	14.0194412175305	-0.555716190736116	-53.2964728142106	
32189500	-0.888991142500873	-54.4134726117863	-44.4169784305203	-30.7417946318089	-44.9376155342673	-26.9801088593975	-0.778059467126263	-52.8285499073858	
32439000	-1.29344103944238	-55.5191771627298	-45.4317395178584	-76.4369609459574	-45.8912638600942	-72.8850702314385	-1.1117461716797	-53.9296574503507	
32688500	-1.42153273392645	-57.6304997187133	-46.9047672890992	-124.255980298634	-47.2466052319157	-119.955625853526	-1.27263795872582	-56.2916566255074	
32938000	-1.15267406656648	-59.145051028089	-49.0559242819944	-179.453741316485	-48.9665665332865	-174.511502873913	-1.11028982912319	-58.2528620561731	
33187500	-0.718102331450966	-59.0471319111246	-51.0866613622829	126.138294639568	-50.8217498148666	127.965586143447	-0.764282617947671	-58.5897929259181	
33437000	-0.460991059702757	-57.7749131355538	-52.0764806861104	64.2589401005472	-52.4380130534255	65.3655934163074	-0.524087847358188	-57.5658866431294	
