!Keysight Technologies N9923A: A.12.45
!Date: Saturday, 02 August 2025 18:58:42
!Timezone: (UTC+08:00) Kuala Lumpur, Singapore
!Model: N9923A
!Serial: MY61181427
!GPS Latitude: 
!GPS Longitude: 
!GPS TimeStamp: 0001-01-01 00:00:00Z
!GPS Seconds Since Last Read: 0
!CHECKSUM:0545159904
!Correction: S11(ON U)S21(ON U)S12(ON U)S22(ON U)
!S2P File: Measurements:S11,S21,S12,S22:
# Hz S DB R 50
2000000	-0.0656988198019095	-3.01512147964033	-67.1669031092045	-100.34172815273	-66.5330274089492	-89.1637554491039	-0.0909692582341639	-2.98686286328533	
2249500	-0.291086849906088	-3.70696144399029	-71.8150828939416	-72.7960078575799	-72.3544004940503	-133.509107855694	-0.304703961722201	-3.67937896546578	
2499000	-0.390806821632183	-5.07927551982487	-70.3542132183851	-76.3398712514117	-71.4725856463136	-110.000355084046	-0.393192326709788	-4.99729460850453	
2748500	-0.279261582816944	-6.41602962627641	-72.0048465200427	-60.1346509627487	-70.5641062967463	-97.6222048675485	-0.276329379851687	-6.25642814184847	
2998000	-0.0457285172696096	-6.95603339120747	-66.6649642016031	-90.8607256866385	-69.9904742336276	-98.3716759512037	-0.0577682410666537	-6.7782882512529	
3247500	0.108344034100686	-6.77274405163795	-62.6707509021562	-105.895784601801	-61.3752791835945	-106.181689508811	0.0822356161915309	-6.5122498418361	
3497000	0.0202437535263986	-6.44321193641591	-51.4399541916365	-144.055558582638	-51.50992272552	-140.710741921177	0.0396221900625568	-6.13718012132468	
3746500	-0.158335571849865	-6.02021532837922	-54.8472480536943	116.830116249111	-54.5022687192812	117.203957982714	-0.160944114161254	-6.14026070549125	
3996000	-0.352178723948784	-7.15231527848766	-59.8079510828478	114.192161153094	-59.0237789241665	111.180807338768	-0.361150827626585	-7.12077504601555	
4245500	-0.392908211620517	-8.74121626954614	-62.652752284804	82.3001260313355	-62.3056550576526	86.6785545900334	-0.385074298974045	-8.49686552521718	
4495000	-0.238437904610248	-10.0380846991979	-62.2838037046676	131.39934294744	-66.0276213917203	133.3816259897	-0.21626087839074	-9.62292016867264	
4744500	-0.0422640902391404	-9.9029728128478	-50.7319223141475	108.70704748549	-50.7140405187577	105.736658432564	-0.000577983600393189	-9.85494955819901	
4994000	0.104273035778601	-9.48169297562168	-49.8405831645725	71.0433176407345	-49.7791842574634	71.9002878549707	0.0995272014920103	-9.48062137655235	
5243500	-0.00959716483389592	-9.25982473299772	-46.0551665778427	55.6852550713473	-46.0919840086894	55.5153755449006	-0.0221986043085915	-9.24465412230573	
5493000	-0.334232956933323	-9.82711747170039	-38.0419258000839	23.45185454286	-37.9478312375077	22.7981126237118	-0.320721283205015	-9.77845465555461	
5742500	-0.47725354933357	-9.8093904339211	-36.2681772132974	-72.6000167844239	-36.1661557654978	-72.9925017945242	-0.469694529400191	-10.0397808012675	
5992000	-0.379122527454516	-11.7660843703879	-39.5254875202209	-105.14407943763	-39.5715894492442	-105.11145964958	-0.401421861267545	-11.9777834380037	
6241500	-0.184832607524549	-12.9128134980066	-37.8725475825416	-128.826004359621	-37.8235055502798	-129.042704534556	-0.294853160726538	-13.3608562645705	
6491000	7.99370528181247E-06	-12.7318971856032	-34.5055435456301	169.634469335376	-34.5822568176876	169.560711481855	-0.315985815683956	-12.0187079479654	
6740500	0.0891029809882361	-12.0044127989932	-39.701488556821	110.370165540993	-39.6890326436744	109.955258618282	-0.000274420116784842	-10.5363353310893	
6990000	-0.0636973320219683	-11.9275837343314	-44.5667243973353	87.1733835865887	-44.3553976670412	86.8453345171963	-0.0755180942985835	-10.8549022585023	
7239500	-0.333868641559268	-12.9030601626314	-54.1684382076617	103.350420933243	-53.8474262832886	104.619194265938	-0.308001074238075	-12.1284737482592	
7489000	-0.49390103902902	-14.1850408305694	-38.7399118056343	75.6305378696596	-38.7475876732368	75.5130074676519	-0.497180296877376	-13.4759078973643	
7738500	-0.495395029981677	-15.5977360390202	-34.6544925969223	31.8431339820127	-34.6072647687173	30.927523527728	-0.48840156954762	-14.3000900110099	
7988000	-0.212424882394762	-15.3442009844446	-37.6650119110786	-33.9931214735761	-37.6300459942642	-33.6841631600114	-0.193278829284172	-14.4428526283362	
8237500	0.0434303547777166	-15.1454094733911	-41.9963839086612	-62.8860864457677	-41.9708042020789	-62.7738561423043	0.0487960889111641	-14.3363425885069	
8487000	0.0369760986395495	-14.7305894985268	-43.9480258368756	-78.9811359361866	-43.840301055615	-79.6090203834995	0.0523133215044968	-13.9899614940751	
8736500	-0.1749280953363	-14.7710313624627	-44.1240795474404	-93.9529198489519	-44.2878299013135	-94.0341479393341	-0.135346546644293	-14.0919531321586	
8986000	-0.424631130894581	-15.789760651494	-43.3312869077231	-113.205004903782	-43.3410527998974	-113.133230976975	-0.359356338880759	-15.1809268197151	
9235500	-0.51090654351207	-17.4561563310801	-41.8678963984597	-137.262332075517	-41.7274448534132	-137.742864782211	-0.434042924151314	-16.9606321334221	
9485000	-0.378328173024368	-18.6739910258778	-40.0726382027103	-171.092307495762	-39.9659794022362	-171.140377245793	-0.318717985230234	-18.4166890265092	
9734500	-0.113980990785656	-18.7527613887929	-39.3133098778478	148.162501346579	-39.3100686431754	147.771349238523	-0.11024475402308	-18.6864470332637	
9984000	0.0593576325165878	-18.331614122403	-39.7228292530587	112.757204285637	-39.7293322960048	112.07519350122	0.0199343758992481	-18.1843165807284	
10233500	-0.019446610249757	-18.1533915333107	-39.2131599096592	82.9340556215644	-39.3116104732533	82.2955914594939	-0.0685430805105888	-17.8326617509783	
10483000	-0.31426183421818	-18.9395469646007	-36.8928176749813	45.2368486629156	-36.9318660755225	45.4144260228083	-0.364961943190132	-18.2450999290441	
10732500	-0.645044750990625	-20.1458500476634	-36.3418882053346	-24.1840080863524	-36.265390911412	-24.1447274209046	-0.623866604864194	-18.4694084476398	
10982000	-0.77199923150962	-21.5612771031665	-39.8804196002081	-59.5685620798363	-39.7755529381057	-60.2737904783838	-0.497069390545481	-20.087055836376	
11231500	-0.519352436990608	-21.6363039437509	-39.6223326450409	-116.651358973343	-39.6704257994388	-116.866743117146	-0.276304194875116	-21.4039763191366	
11481000	-0.240331232177589	-20.9287289360712	-44.8076480327111	-174.841161463882	-45.026215598902	-173.490773321593	-0.0225716985348694	-21.6303186267243	
11730500	-0.0311568759265558	-20.1656881318169	-48.2086180618359	-161.725805474385	-48.1456812859434	-161.934061045701	0.0270975290301228	-21.4487815698268	
11980000	-0.12042845891571	-19.9143591250335	-54.5912421658609	97.4256362384274	-54.024336889552	96.317893583956	-0.0765971489514174	-20.9860343847457	
12229500	-0.346594720594652	-20.8916815292967	-66.286662294206	-59.6333661631944	-65.5980260338372	-71.9772734701498	-0.322242838553369	-21.9928458129412	
12479000	-0.500295359061672	-22.8552678734326	-51.913561636454	-112.077714862362	-52.4985367651816	-110.904408517111	-0.517745570870787	-24.0675902897283	
12728500	-0.440609282685434	-25.0407640513079	-43.0264892749729	-146.202118245313	-43.0897830189654	-146.571469925506	-0.553700445514467	-26.6557050476745	
12978000	-0.280875164595136	-26.0741207489524	-33.7028363013045	150.191719432645	-33.683616137436	149.950663296154	-0.796568180369312	-27.0277597865439	
13227500	-0.0762531191312377	-25.6260627941204	-32.0545274245801	67.372183738053	-32.0090375179501	66.8144558426814	-0.395917243718913	-23.7836874896162	
13477000	-0.152647431355957	-25.0151170188004	-31.7236922374959	8.57167089415981	-31.7235010145803	7.91856364492095	-0.329241698895159	-23.0441640611321	
13726500	-0.375207503364756	-24.2727289231528	-32.8415089484951	-52.0999035996091	-32.8182230109806	-52.130045413757	-0.396668570885029	-21.82624652734	
13976000	-0.60536563224182	-25.5573749023948	-35.1626736426668	-95.0307307486522	-35.1416147542909	-95.2191687152067	-0.475807771684205	-22.9606377960946	
14225500	-0.838349106425042	-28.2081706016253	-35.6101721389878	-130.223449765526	-35.4954405247703	-130.386534619909	-0.517440721350661	-25.2127828480111	
14475000	-1.12288960481274	-28.8357223006771	-34.5755918190028	-179.294962267659	-34.4798802850594	-179.11301110555	-0.393743207923658	-27.1346526714876	
14724500	-0.662012115557757	-25.4746793266293	-36.9467310602955	119.493968349171	-36.8933806969406	119.146702572981	-0.134302575750396	-27.9884100219116	
14974000	-0.136237864077246	-25.1228051963189	-40.6047799333197	77.6502183571949	-40.6577298936396	77.2905850818334	-0.0101959690760263	-28.2350505412046	
15223500	-0.0750422840164284	-25.1330503638245	-42.4655482967094	28.4480190262378	-42.4714033561521	26.8206532798474	-0.354770974086067	-27.9609689301923	
15473000	-0.265795072448439	-25.7172936992062	-55.7388502121132	-3.90590397337572	-55.4921006976293	-6.13921740927553	-0.34211950608374	-25.7557527055264	
15722500	-0.485071144137662	-27.4196401355318	-54.0557151172309	14.8432712293424	-54.0764865653529	17.6084732540331	-0.505150314731494	-28.3586913522886	
15972000	-0.526554509179717	-29.779653406507	-50.8662301862141	-9.41959372779773	-51.0483802430155	-7.29414442599421	-0.631899531457977	-31.234936265804	
16221500	-0.365699104408767	-31.6868081008921	-47.4865411801319	-48.5718908305569	-47.2323510345652	-48.2898010901563	-0.686628971666676	-33.3819404426153	
16471000	-0.231476090185885	-32.3768256131944	-42.8100345516346	-111.527198783345	-42.7449387581087	-112.05880566717	-0.856847868812385	-32.7511383129613	
16720500	-0.328376620709347	-30.6327696398637	-39.7432373657103	143.174455370335	-39.6498796176837	142.723107848102	-0.905792421143595	-28.2497867840348	
16970000	-0.309241011645544	-29.7631246574283	-45.542656327367	38.2816268487449	-45.5532659616322	36.6431928861274	-0.648887250188052	-25.6124714730115	
17219500	-0.712478130026302	-30.861956626683	-53.6445111420964	-56.1804168074148	-54.2141987830495	-55.3568841735691	-0.651481064075884	-25.9523012967171	
17469000	-1.13186608143708	-30.9407654676536	-55.7484831035166	143.81226015663	-55.7577146261506	138.035860557888	-0.712196162973167	-27.7404569888733	
17718500	-0.858828207461026	-31.6276180467684	-50.6852665719615	16.9585223103868	-50.5110728681393	14.8536000541417	-0.600114792470017	-29.9015122060891	
17968000	-0.662129593196389	-32.9954380750391	-49.03967467573	-105.113849462893	-49.5927111309313	-104.821615649952	-0.31765304575836	-31.4651070786107	
18217500	-0.326160529029789	-31.7146001138926	-49.1594499483693	156.642128035123	-49.1164728886838	158.574369004502	-0.0662896361284931	-31.8063323441182	
18467000	-0.132021230643635	-31.0135247259742	-47.9098364282097	102.484350348212	-48.1840594166005	102.745310915654	-0.00489537602441904	-31.4210047457557	
18716500	-0.239871361607024	-31.08202788325	-45.8177485717843	67.1970867395025	-45.649530112202	66.0939432245353	-0.171226954993624	-31.4074929854505	
18966000	-0.491501530942813	-32.3755989656612	-42.0041366725706	34.39765244915	-42.0408006199417	35.2678416728066	-0.469596366933985	-32.4660578115791	
19215500	-0.6760162434581	-34.6321826850512	-37.5673791308779	-6.33994654028462	-37.5174940458306	-6.53725777233197	-0.703197587549964	-34.4217274803946	
19465000	-0.61327645084398	-36.2987566155935	-34.5889173512232	-59.6340921205337	-34.511572772827	-60.6332314306617	-0.675725648360847	-35.4919114551908	
19714500	-0.317985690214156	-37.2219386197218	-34.1930411181137	-105.764695671895	-34.2054900387785	-106.852438489523	-0.343836555484528	-36.0878482292382	
19964000	-0.194869375618668	-37.454962561465	-33.0461767258702	-140.624002134747	-33.0798416277029	-141.405313556247	-0.13639610518065	-36.1871799867019	
20213500	-0.460992428456403	-36.8295422888931	-30.510046624989	179.854468115697	-30.4821001104406	179.791791337947	-0.248002442828323	-35.8923604220069	
20463000	-0.834364373760929	-34.9270891251782	-28.4501339488761	125.823872359492	-28.4603424790733	125.32154738455	-0.611517861517462	-35.14970210877	
20712500	-0.91200024934463	-35.8399891143617	-28.7642987730003	70.2727634012471	-28.7755434976123	69.531196221387	-0.825663180084987	-35.1932571896433	
20962000	-1.11525115809289	-38.8083500942996	-29.864204477167	18.2498802881069	-29.8377935374906	17.3132196136598	-0.821349033369999	-36.6965786576396	
21211500	-1.10575636434512	-38.8689995209395	-32.5298158257296	-32.9892342303875	-32.5496597498049	-33.7907335061175	-0.544007021244539	-38.2623215099012	
21461000	-0.677646844767252	-37.9241654544051	-36.2258709370729	-71.0838107347163	-36.2818913709152	-70.8976338561644	-0.207377656051977	-39.2735893437784	
21710500	-0.390070756923149	-36.9927090383907	-39.203386364276	-99.4213200104418	-39.1166758565661	-100.105988857159	-0.0535898906205897	-39.4044951576959	
21960000	-0.404059371080494	-36.2897942941505	-41.4910817326116	-125.638981339667	-41.4027576341336	-126.456667215385	-0.17872903848627	-39.4306295278228	
22209500	-0.622580259970943	-36.6363687679685	-43.3431360536544	-151.019966435796	-43.1921865283146	-152.616257500166	-0.512462210739918	-40.3175653076077	
22459000	-0.815493918965592	-38.376113415074	-44.9452740747473	-178.211241564639	-44.9434518868504	179.519468181487	-0.866816200813529	-42.4540288637717	
22708500	-0.787081881236568	-40.7917526380751	-47.1972396046096	146.97397233815	-47.3890685372008	148.806567812777	-1.10015992660557	-45.0815418519129	
22958000	-0.557894380602171	-42.6481687158288	-53.4829190866076	100.351002732208	-54.2733780476082	94.7861585578192	-1.2488388390129	-46.0929512267468	
23207500	-0.374453273221439	-43.2280774086336	-46.7670496200532	-117.561089161019	-46.577035493536	-118.36763122071	-1.29010046954631	-43.7061179490754	
23457000	-0.421226521903826	-42.2349140558946	-38.1470684600725	146.052677007879	-38.1473291345948	145.632417735621	-1.31217448108078	-39.8094111775355	
23706500	-0.692173286866522	-41.6593791376638	-38.9213098028159	79.1226495358621	-38.8509937890471	78.8922893370069	-1.124331715762	-35.6858443464022	
23956000	-1.1567183063924	-41.8002557671346	-40.7679284584637	34.7363770516802	-40.5701133796398	34.0458485543015	-0.95307251130203	-35.6760377170735	
24205500	-1.45031908743538	-42.2263266570456	-41.9024064439988	-4.19384529481372	-41.8795070175631	-3.57074149024175	-0.876458029926272	-38.0199071883666	
24455000	-1.29130769296229	-42.8135232912121	-43.283827348274	-35.7206693261266	-43.2220439320066	-36.6351120877153	-0.671425265863003	-40.8776770118288	
24704500	-0.872996130528175	-43.2151751463094	-44.1562941831894	-61.9636200841249	-44.0345133906373	-62.5340655267129	-0.329751070116144	-42.6933031479051	
24954000	-0.549942258768775	-42.7351006782764	-43.6836334716378	-89.0393005441526	-43.6563422909126	-88.7063915704123	-0.0713476534082515	-43.5303196713706	
25203500	-0.501923769625284	-41.5751562248406	-43.0123015963594	-120.55990533593	-42.8384117023075	-121.378405829715	-0.067497496077671	-43.8972179616985	
25453000	-0.665886606533166	-40.8454396935956	-42.084478871727	-156.994542251884	-42.3941508810773	-157.508222868625	-0.402209206994798	-44.9968430097819	
25702500	-0.872993831215038	-41.6165733294924	-41.7686480432558	162.354707871348	-41.8817087204392	162.879046454492	-1.06755236582905	-46.9984924466656	
25952000	-0.912597283677042	-43.8272042540287	-42.4298301934735	115.551894914445	-42.7054156186294	115.516273486471	-1.75292591173109	-46.6228245041189	
26201500	-0.714167069882971	-46.0518304190525	-45.7326984615754	71.1643533880594	-45.5635141500846	71.6706486548318	-1.5070549942666	-44.1925717521798	
26451000	-0.43037388979488	-47.0567249768211	-49.7866106830746	50.3444991094111	-49.327123384039	49.9891178536476	-0.8449423853218	-43.7197434433504	
26700500	-0.296315259161997	-46.5937709482078	-51.0891296565966	39.7108007774267	-51.1369294212265	40.6408030816379	-0.402401505875956	-43.4116336910137	
26950000	-0.428130725824597	-45.3806436017856	-52.5734788420204	19.4590830954407	-52.2651900632534	18.7311095238622	-0.304585386975401	-43.0176662884923	
27199500	-0.670475612611532	-44.7049193020824	-54.6143038121566	6.5243207352331	-53.85222265181	7.00230730569416	-0.467413669096883	-43.3535211131496	
27449000	-0.841719340893726	-45.8345038649038	-54.8523604260781	3.63193756897819	-54.5267469745983	-1.45931548713712	-0.683085869876632	-44.9846042707115	
27698500	-0.806057094548161	-48.2716424948299	-52.8773707258752	-2.55471200270463	-52.9143705717776	1.70838466667243	-0.733239161549769	-47.3522622905566	
27948000	-0.555788057432557	-50.3407860425355	-49.6953523212781	-14.0364523191679	-49.1462315815179	-19.4894272524124	-0.545144551059199	-49.2033608156103	
28197500	-0.288503848207756	-51.0377257020207	-47.8002484391154	-45.3137593354283	-47.7389180992679	-48.8580375908246	-0.244880108872337	-49.6833321020436	
28447000	-0.235389160219654	-50.6565667667219	-48.2872020392433	-65.2294063054758	-48.3603766891711	-65.3487463839084	-0.0853711008149141	-49.498959396202	
28696500	-0.501224032780069	-50.2623995965541	-46.5866424543898	-75.1493406985652	-46.5636948149847	-74.1680094257634	-0.231010733246826	-49.420235879152	
28946000	-0.957780822765234	-50.454999762607	-42.1516846964338	-88.359959611101	-42.2247458341577	-89.3979442481752	-0.575010637926439	-50.3608655826516	
29195500	-1.29339653421036	-51.3956533317303	-37.27294734042	-121.955311757827	-37.2009082377465	-121.69880711627	-0.953213738423086	-52.3033819839248	
29445000	-1.28096732169764	-53.0689267102559	-33.9882578063104	-175.581642088063	-33.9815103901455	-174.829640215402	-1.07033221652092	-53.4964741082809	
29694500	-1.07121052557028	-53.5553490058158	-34.0431167484421	131.921774011534	-34.0262636548446	131.859120267558	-0.74798960556822	-54.3299497389538	
29944000	-0.798184823754704	-52.3050841937847	-35.6646858157975	87.6815306694121	-35.6182460022349	87.6452222753985	-0.437279478394702	-54.2567338766076	
30193500	-0.685533704133665	-50.3237543678051	-37.2083319628819	58.8498646360926	-37.278922144599	58.5914299982028	-0.364448483545323	-54.5905853530508	
30443000	-0.757178290733737	-49.0874396959121	-38.2577841450692	30.408420638838	-38.1182772111137	29.4591818161697	-0.728631923294768	-55.1075285103651	
30692500	-0.929490505441351	-49.7949602929132	-38.7187362287548	3.01049062996117	-38.6964376209473	2.59305672967654	-1.28314508055611	-56.4544708175305	
30942000	-1.0022918638829	-52.1379470631445	-39.1432008401899	-23.8126083704701	-38.8614046753499	-23.3529234756693	-1.85247965544313	-58.3522351368972	
31191500	-0.840453320083108	-54.7134387447603	-39.2378701300281	-52.3782813145808	-39.0358405234301	-53.1864781610821	-2.19985522555791	-58.6136260196596	
31441000	-0.535901535035366	-56.0767556354218	-39.1300666100257	-83.3109850018841	-39.1952559541507	-83.5546341981991	-2.11204677120415	-55.6932719773688	
31690500	-0.349857225928798	-56.105352613882	-39.6080885123629	-114.995111655356	-39.4975613985052	-115.603092883001	-1.65071668481355	-51.4758254223225	
31940000	-0.460257872446162	-55.6438090029154	-40.262740003699	-145.883441412196	-40.0796566466985	-146.972855212969	-1.25662485365082	-48.5173806859423	
32189500	-0.84156588887845	-55.8685348527857	-40.6797667925477	-177.370962502731	-40.4667211029416	-177.812356095794	-1.14226980717265	-47.5805675983798	
32439000	-1.29113714810104	-57.3706654679459	-40.8975869969368	150.673821374529	-40.8667290936612	149.498334594155	-1.20013617512447	-48.6672473350014	
32688500	-1.54551467480828	-59.4547868769464	-41.5880801540824	113.219906956659	-41.4682066184083	114.961960801362	-1.1648663344633	-51.1440891168756	
32938000	-1.49530817363405	-60.6044289776428	-42.2281298743928	76.5558211834395	-42.2551535143557	76.2809424317365	-0.903648056601342	-53.58961171533	
33187500	-1.27765419498133	-59.5626163243548	-43.6644603405863	39.8627098980128	-43.5518755286273	38.5810230566418	-0.519629891038442	-54.8119061147094	
33437000	-1.09740504876608	-57.0197340946058	-46.2643034936288	5.52167975621193	-45.792337451694	2.97203635355083	-0.253457325139272	-54.7455530332726	
