!Keysight Technologies N9923A: A.12.45
!Date: Saturday, 02 August 2025 19:20:45
!Timezone: (UTC+08:00) Kuala Lumpur, Singapore
!Model: N9923A
!Serial: MY61181427
!GPS Latitude: 
!GPS Longitude: 
!GPS TimeStamp: 0001-01-01 00:00:00Z
!GPS Seconds Since Last Read: 0
!CHECKSUM:1389080942
!Correction: S11(ON U)S21(ON U)S12(ON U)S22(ON U)
!S2P File: Measurements:S11,S21,S12,S22:
# Hz S DB R 50
2000000	-0.0560885180653876	-2.71239491138326	-77.5711407924705	-106.924548602721	-78.1881420375425	158.411306484614	-0.0829939707254818	-2.62701497250897	
2249500	-0.324590085438736	-3.3924503410542	-73.4271825506423	-119.92254443595	-72.0434202162611	-90.8463157292265	-0.330697932040312	-3.21089066232876	
2499000	-0.446178005883014	-4.88197623973377	-60.9248924208422	-135.25488016068	-62.3920066839396	-126.807009279127	-0.436106838708197	-4.60702614448179	
2748500	-0.329505207111467	-6.38288576329353	-48.2287289503899	-162.469943517307	-48.0135044077391	-163.125090503188	-0.347780403470019	-6.03749700348189	
2998000	-0.0349611684475192	-6.75002365350618	-47.8825398853242	80.4237261707566	-47.5749178382971	82.7635696795786	-0.0534258355394042	-6.18351437969035	
3247500	0.113757567232978	-6.32696905341654	-45.4130021834224	16.4661119844196	-45.5724258072898	18.2783883636692	0.0816697091319459	-5.85725031295078	
3497000	0.100259614338483	-5.55793503592751	-51.8207303087297	-60.9725137359269	-52.0179968365214	-58.7603217578985	0.0720631553291334	-5.17211004421656	
3746500	-0.140699509306278	-5.66441641790633	-57.3980808020055	-78.5312301671994	-56.3205559547341	-83.1831298749042	-0.156004748867741	-5.37587676298995	
3996000	-0.401432912512589	-6.89644274279352	-52.4515883630543	-85.5028082189077	-51.2426448251576	-78.1422406450969	-0.474706803813237	-6.41485756618829	
4245500	-0.484409962746435	-8.68175540539158	-53.9237160630638	-144.722829293145	-53.902236317024	-140.888252574948	-0.433554532992543	-8.01290167621531	
4495000	-0.255384996448265	-9.76443124535552	-61.1314999911912	-139.16749373923	-59.9596363768299	-127.105413940463	-0.230769862099257	-9.5077582109125	
4744500	0.0289617837769274	-10.1511489666692	-51.7305246215991	-124.804989004501	-51.5251287857348	-129.067590286316	0.0226838647651414	-9.98361459333119	
4994000	0.0768081613798217	-9.46686157912663	-40.3914450660498	170.179289434015	-40.2275469045881	170.524711120744	0.062916570204385	-9.52419381735494	
5243500	0.023539955611753	-8.73191210966186	-43.5935883145288	90.3890730681837	-43.6218297989138	90.876752560742	-0.00986894917391267	-8.82659119815844	
5493000	-0.262479583782922	-9.32412362828584	-43.2577218539121	60.2225611867087	-43.2818101272775	59.6936985643102	-0.282818634990717	-9.35078096990479	
5742500	-0.542336668586942	-10.7202444185905	-38.5254178576291	1.46316652015042	-38.5281902599224	1.02648154702572	-0.56375385824465	-10.4570017179116	
5992000	-0.442615055334234	-12.143089690846	-43.0404548549517	-73.8380011566066	-43.0326543641245	-74.750271339523	-0.426089407081047	-11.6366099112922	
6241500	-0.176458509298734	-13.3302380556617	-46.4721596710392	-99.2758323343164	-46.0616512012611	-99.4337796092089	-0.154961269973567	-12.7800313353427	
6491000	0.0699939671038486	-13.3776875177752	-45.3458552765861	-127.106901271459	-45.4978259192853	-125.418028466341	0.0785998367525666	-12.8050914570043	
6740500	0.00961653548809394	-12.4649084618333	-42.036011786451	-177.409521867114	-41.8631865145547	-178.211419298975	0.09455325191036	-12.2079081258303	
6990000	-0.125997212536741	-11.1475816970834	-44.2394186005819	107.652264807856	-44.0989776838453	107.337013353255	-0.0946144407445144	-11.9032954812001	
7239500	-0.353822515748228	-12.0122929565681	-48.0426455978196	53.2691336385872	-48.1179477927397	51.9139905727649	-0.470916087700613	-12.8825092654887	
7489000	-0.490225247462368	-13.9840538639106	-60.988670625486	78.1068812685683	-63.4187221129421	59.9265382710003	-0.625680794804159	-12.9480543600793	
7738500	-0.386637021115007	-15.969193627756	-47.9261169091161	29.8790996986468	-47.6130693843085	28.6089768398285	-0.503353430677228	-15.8262287395692	
7988000	-0.139257563987809	-16.8333016736798	-53.5288807639674	-54.7111597978292	-53.8135775028108	-58.2781431491657	-0.239186083097714	-14.9204602758226	
8237500	-0.00384226146646137	-16.1658425201188	-58.7676993030021	-63.5928362881499	-58.282438765323	-62.9045463580897	0.0668983155649273	-14.8183201764389	
8487000	-0.0214070468241268	-14.8437096842836	-58.9545296114943	-89.1057930928666	-58.4217426018313	-87.8058461154097	0.0705512965208446	-14.4163526285493	
8736500	-0.22587686327286	-14.6185539303214	-60.016661777107	-111.484551612961	-60.0087599698748	-109.446910988705	-0.151556173386784	-14.5275462940643	
8986000	-0.48777036759133	-15.7860921321475	-61.2857537713115	-138.861974448623	-61.4510407628201	-134.297869858753	-0.407114595076339	-15.7493068673272	
9235500	-0.549261065230035	-17.8285711387342	-61.669277781349	-149.834074274804	-62.48904511124	-158.601540670001	-0.474569924181516	-17.7192846210568	
9485000	-0.355383513094824	-19.5111820825731	-63.4003110830087	-158.65956815608	-61.5067163770356	-155.065161176956	-0.300051726443626	-19.3818011670945	
9734500	-0.0860100979772533	-19.960280863022	-59.574153037413	-170.753433043738	-59.471616155467	-170.621908727277	-0.0427631968884017	-19.92248147213	
9984000	-0.00277530638014059	-19.2399114741536	-55.3609554948561	177.265906447581	-55.3132152083539	175.040260676152	0.0499396930653706	-19.5601988651638	
10233500	-0.170714387933011	-17.8261721421381	-50.2623113069529	133.29586904128	-50.4604115236213	133.746071151671	-0.162709548036273	-19.0626730436224	
10483000	-0.382051192986554	-17.4665219104542	-47.9588128899651	75.7983450564712	-47.8464929792808	75.22970884954	-0.615193647511016	-18.6481399026542	
10732500	-0.558626743578715	-19.1300462957923	-47.9473060807573	15.8081006682867	-47.9717898803935	15.721268023875	-0.873097981446115	-18.2919666123321	
10982000	-0.54801139495347	-21.4397685168354	-50.5501169884128	-30.2000116055544	-50.0911328476701	-33.8610677667995	-0.704875161980757	-19.3848052661258	
11231500	-0.308900824354549	-22.8348239579973	-53.6263621236508	-56.6499739562362	-53.4896838903195	-53.7562767982738	-0.352649333032479	-20.6813386156635	
11481000	-0.0792534874929633	-22.8834525060749	-51.7777394249786	-91.8551637606141	-51.9865092914868	-89.6701775302011	-0.0223189208503434	-20.9743042402471	
11730500	-0.0917287134393379	-21.8953584081151	-54.6816366247298	-121.079096497037	-53.8099336280253	-119.859361577728	0.0672861290311971	-20.433864358162	
11980000	-0.317987899258263	-20.4685456361088	-50.9522436185238	-162.301356088616	-50.6738147225233	-162.884468872559	-0.0734824277843256	-20.1698506854041	
12229500	-0.545832873182901	-20.6145294106304	-51.7666205647617	154.398986071143	-51.4152151872456	155.513701595328	-0.356613798149914	-20.9692835895469	
12479000	-0.671922605287953	-22.6522687385737	-52.1002896066958	118.842306540312	-52.7001675715953	123.353742563097	-0.534741317877051	-22.9161343723921	
12728500	-0.553490650267591	-25.0789852600627	-51.9781067082159	91.4360441236736	-51.5688684817064	89.8211969338024	-0.463548669930034	-25.0952487501288	
12978000	-0.296391466572153	-26.4464336163999	-49.5209691474146	60.0903718099773	-49.6489181759577	59.3083491434062	-0.218667604405029	-26.3167181213315	
13227500	-0.184119762635639	-26.1305406379065	-46.3744111823152	20.3650100016227	-46.3776057951033	19.8043469000091	-0.0580468685766073	-26.313201734375	
13477000	-0.302485467592105	-24.0000223219388	-43.9019196387549	-38.0567999294288	-43.9379562113289	-38.3531198911093	-0.181408467858497	-25.6127919914212	
13726500	-0.418714185727563	-22.623478208506	-44.1998916059	-99.0282544577112	-44.1539838493687	-97.0789806675821	-0.588239371685435	-24.8133417899212	
13976000	-0.608431313765707	-23.7788401999521	-46.2296360373104	-149.70952348152	-45.8181080234093	-149.422725927158	-0.987929140794678	-24.2356698773131	
14225500	-0.682551038566315	-26.3130670929375	-48.4004099456046	166.854838435906	-48.1142273661262	167.04775888759	-0.995713406466824	-24.6935482178747	
14475000	-0.534747694277487	-28.6012752705457	-49.6564890774488	130.359623944	-49.9984516455244	131.30907276473	-0.675871236022759	-25.95314482134	
14724500	-0.318373662436062	-29.3158526578592	-50.5126294240626	94.9426043785349	-50.5524493472354	93.2104069860453	-0.262543419354211	-26.615206801695	
14974000	-0.26389355591258	-27.9536150961526	-51.1232447492701	54.1633554759158	-50.8440109752539	56.5557054333877	-0.0096288139372155	-26.293274319504	
15223500	-0.318085357372727	-25.7815663942734	-54.6163508529078	15.5378680771286	-54.6348466498523	16.8080520500225	-0.0504760426635978	-25.8575803837341	
15473000	-0.479599974767487	-25.4429832848635	-51.2065560845376	-25.4623374824659	-50.9367032876585	-25.6713487651944	-0.306371399653228	-25.8168754851671	
15722500	-0.68074274300536	-27.1365215762294	-52.7842295059742	-63.9668240886065	-52.6764674644346	-64.9972830103339	-0.551640761863751	-27.4172047289942	
15972000	-0.689436176579523	-29.8419172789741	-53.1073507759355	-99.9037021426208	-52.4251460599764	-101.421513424241	-0.590258033879925	-29.7734962997379	
16221500	-0.48969542422005	-31.917711377109	-50.7569836924659	-138.138226656314	-50.489048678029	-138.193487735979	-0.385864809893462	-31.5865990835736	
16471000	-0.331088177749521	-32.220919582839	-47.2580161328888	175.360599596672	-47.4525856243937	175.828892421023	-0.142856098928288	-32.0371086340251	
16720500	-0.34751224515636	-30.0685831007598	-44.8061591375354	113.80992699546	-44.878956501352	112.513510246945	-0.0967274871213513	-31.4623758733055	
16970000	-0.367464322123799	-28.2797885493736	-44.7758665194277	50.1517804021766	-44.8461413095132	48.2791164672717	-0.353604381104592	-30.8926174343619	
17219500	-0.581252427915211	-29.0800776756481	-45.650052383132	-8.77411573216014	-45.8789693562592	-9.53379980750578	-0.815385265328487	-31.0086321388504	
17469000	-0.85869209511223	-31.5049182025671	-49.4106716935524	-75.7178653958325	-49.335815198967	-74.2846665255301	-1.18156010829367	-31.6331747950147	
17718500	-0.797173651145465	-33.192538303248	-49.0517425038524	-29.601537418305	-49.0896128673114	-33.2074259215906	-1.11039178083819	-32.1508422903286	
17968000	-0.502017010356391	-34.9644975470953	-44.8539169283445	-98.9804708397811	-44.6564492918417	-98.1190866613397	-0.701956756693445	-32.5286466631355	
18217500	-0.369819072311776	-34.4379875103279	-43.7300708931623	-155.720282634649	-43.4892654072278	-156.233965509588	-0.307902484201876	-32.0698036956915	
18467000	-0.352451674148	-32.0750908627475	-43.6851267654105	149.105670062327	-43.7896944582446	148.015264336179	-0.161561257410178	-31.1344879249422	
18716500	-0.44029488157664	-30.9635435719758	-45.0432936491928	102.038974281816	-45.0344839088389	103.016652097652	-0.302020542830153	-30.7808366418742	
18966000	-0.673059719569902	-32.1421357172841	-45.9953757426874	63.8537253360382	-45.6260989609796	63.3906108136038	-0.575024761641425	-31.7505715198757	
19215500	-0.831689637310377	-34.8524678104619	-45.1345548092157	28.8577059554251	-45.3702001252474	28.0087077113656	-0.719248264360708	-34.0155253348184	
19465000	-0.774806162987986	-37.2939029958404	-43.6704409856414	-8.1306938637523	-43.7416478878788	-10.0308721485748	-0.603066654299533	-36.29278021995	
19714500	-0.571122926997874	-37.6530185023813	-42.3087564369988	-53.4829715801232	-42.2831823698511	-55.6414196847749	-0.313164439908659	-37.3727850213305	
19964000	-0.370785543338092	-36.1278148759938	-41.6051648568418	-99.9607265543089	-41.6462893683111	-101.025889522535	-0.122474595856727	-37.133389216397	
20213500	-0.389106308479423	-34.5751318736749	-41.368126277549	-143.203999338892	-41.4866546565718	-144.830323970806	-0.210996270900998	-36.4727989457725	
20463000	-0.667308071724986	-34.1597356497959	-40.9433981344723	177.070705163764	-41.0466539881816	176.432743439655	-0.572561815390564	-36.3983738426042	
20712500	-0.998660530140617	-35.3768250628824	-40.2087156378313	135.25801532778	-40.2154688426903	134.551652805848	-0.995568843037147	-37.3768027248689	
20962000	-1.09306915497576	-37.5424409800519	-39.7044470267224	88.3357126707241	-39.7382985994305	87.2642101280822	-1.19655566294112	-38.9663735453813	
21211500	-0.849984894631907	-39.1593232167537	-40.0172096495887	38.4114285057622	-39.8968831798482	37.7084885920394	-1.06574545075614	-39.7503069679132	
21461000	-0.477362042227384	-39.3639347962254	-41.2890108247592	-8.16276879422447	-41.3211221756537	-8.28976345912665	-0.729045869377254	-38.8764620671074	
21710500	-0.291331930506664	-38.3855752228156	-43.2042525425807	-50.9489466640021	-43.0062547733021	-51.2921404463941	-0.443581939668286	-37.1583373832065	
21960000	-0.422778517885878	-37.2592162741111	-44.8585017469013	-91.3004391994898	-44.882694029034	-90.3403327511911	-0.417768308505793	-35.8740961428949	
22209500	-0.75435526241549	-37.0595813060311	-46.9604352552071	-127.26880627109	-46.7200106883622	-126.286481925661	-0.621526439753368	-35.9779436317016	
22459000	-1.01112609759553	-38.4055645740423	-48.8242622668959	-160.199615392802	-48.5416744517068	-163.010348122257	-0.823915330205448	-37.7400314556324	
22708500	-0.957678379739054	-40.5207240106989	-51.3404350659697	167.242500610301	-51.3903634248601	172.110351170074	-0.796848558764507	-40.3597683242271	
22958000	-0.627606005106272	-41.9551850222674	-53.2011198740303	149.55237153091	-53.2331192341967	148.997564517984	-0.533144648622955	-42.2595366755543	
23207500	-0.314836042028075	-42.1103431770041	-49.2965428393875	145.621730685484	-49.3316826843812	142.671434049578	-0.253370879387218	-42.6535729086127	
23457000	-0.282482380582289	-40.8035029583174	-47.3732516968049	87.9564895460219	-47.5089520633922	87.1442238286689	-0.183909852012526	-41.9671497260877	
23706500	-0.518282524261347	-39.8731177691747	-48.3002625795022	48.0411799932178	-48.3722943654214	46.8993098087503	-0.425126964473616	-41.5420150228418	
23956000	-0.906220496353243	-40.2579327312367	-48.8366794188762	8.95601891509645	-48.7524313146353	8.25572772965725	-0.841494778077852	-42.2510561526153	
24205500	-1.13613983945015	-42.0296314151105	-49.3692328065337	-28.1049070067628	-49.4410075373502	-28.615580708951	-1.16734959245666	-44.0446174524062	
24455000	-1.00041131807608	-44.1110293157726	-49.5598125573225	-58.7115169354447	-49.3858966135906	-60.0553457774477	-1.19962285864213	-45.7464206318766	
24704500	-0.62932969597734	-45.0849418352138	-49.2495941288065	-92.7115603353703	-49.0476809444406	-92.7858829591797	-0.953666561920539	-45.5977426522017	
24954000	-0.334676259519784	-44.5341584392709	-48.6387393113402	-128.978777817272	-48.5582225450761	-127.290142843515	-0.663923230777189	-43.9413660941535	
25203500	-0.343769446172861	-43.281004181981	-48.5444107820869	-168.027649586631	-48.1407348470799	-168.806555209193	-0.534759769244475	-41.9857554063743	
25453000	-0.624271990795211	-42.5754997582517	-49.619643995436	154.001919316263	-49.3345436553543	150.402569805879	-0.66470436361577	-41.0782493335351	
25702500	-0.977199402295485	-43.3555391606145	-50.0301215453029	120.152444477974	-50.0279833731626	115.772120291455	-0.89905352958732	-41.938082662121	
25952000	-1.09229558971994	-45.476810641514	-51.6488491632708	91.423402905764	-51.3611113327975	81.9898858516693	-0.974983598585687	-44.2624642640805	
26201500	-0.86366796422193	-47.4524850987482	-52.5245017634832	55.3513403646085	-52.1589766684337	57.6885763163333	-0.77476551290293	-46.6453055496314	
26451000	-0.500998993912199	-48.0351593376132	-53.2506569972471	25.0109463276353	-52.5012466477252	27.4358573051151	-0.431677894957085	-47.6666040959225	
26700500	-0.301252849195784	-47.1592301045787	-53.4821840390405	-5.37510224037028	-53.0426402057678	-5.50923977049338	-0.224047434284592	-47.3098751771951	
26950000	-0.435975309382787	-45.8882310092594	-53.1012299752045	-42.1888265331912	-53.3420549510743	-37.9135884689987	-0.320312615926425	-46.5559613627407	
27199500	-0.803331610854949	-45.4256578549585	-52.8717036112203	-73.7380934056667	-52.7900041955753	-75.4250058125283	-0.672761222483777	-46.6194290743099	
27449000	-1.13965932239904	-46.5405899134077	-53.1091350978159	-110.730303376197	-52.5372468160091	-115.934810362915	-1.06596058488823	-48.1649320815866	
27698500	-1.15817434097956	-48.7827515154823	-52.159386474279	-151.61998237015	-51.4569846062222	-154.828030818689	-1.22303953160931	-50.4084379786306	
27948000	-0.838565300033193	-50.510269882901	-51.0592315503931	156.889602532613	-50.9218205775855	161.115626604095	-1.04472067602218	-51.8534866964755	
28197500	-0.464506459430124	-50.6198891005566	-53.3528331896535	107.678249043257	-53.3133588071491	102.385050697069	-0.787756681608785	-51.644047934418	
28447000	-0.312850998144327	-49.5017543072369	-54.8645330089194	67.4522061509906	-54.4438855865043	75.9675422882114	-0.681982272629531	-49.6480242174175	
28696500	-0.493608488080936	-48.4383405513349	-55.4421357034557	40.4345829411067	-55.5524739941338	32.7640689591353	-0.776275724647284	-47.6234294655727	
28946000	-0.855384721364372	-48.5756487627033	-54.579971361198	8.16463054629113	-55.6037342506475	5.20010032508203	-0.999827965819001	-47.2064392918043	
29195500	-1.11562249208456	-50.3417015929891	-55.8048745531473	-29.6924555106764	-54.7537633453532	-31.568837081694	-1.17287253940222	-48.7958090395201	
29445000	-1.03828433974935	-52.7736714121398	-55.0389471658231	-63.0896216604586	-55.2347582951791	-62.7509676469275	-1.06274302842716	-51.292589735646	
29694500	-0.692769788735181	-54.0151923623037	-54.3087211170912	-97.7371388052965	-53.1999299696331	-98.8496670467303	-0.724811979095046	-52.9743517777837	
29944000	-0.373988445405911	-53.7124216009289	-55.5305741757783	-149.255458054706	-54.1102680093735	-145.306324771572	-0.393729039365035	-53.0714000326995	
30193500	-0.353931809564478	-52.4432207355141	-55.8139248789454	-179.488346199378	-56.2187950405449	-179.294016736844	-0.327716903743394	-52.2116365153484	
30443000	-0.632029963926322	-51.5709256167518	-55.6267962989967	157.018030898856	-55.6765404208881	151.334998278915	-0.583687909276182	-51.6748290336797	
30692500	-1.03207415793031	-52.2578759507211	-56.478563898588	119.578890517141	-55.5818691228958	119.08072726422	-0.989461717115669	-52.5259019167255	
30942000	-1.24423741914293	-54.528524525728	-56.468820870187	77.3331273559601	-55.3718133798827	82.9550138921955	-1.27985114703667	-54.7161416980261	
31191500	-1.10953434084467	-56.8729191967979	-55.2743931540516	37.911460574474	-54.0030961161368	41.9873114982745	-1.26577321447102	-56.8750651613073	
31441000	-0.783261815139929	-57.6673112757962	-54.2949122199697	1.30338240756749	-53.5728365751479	3.32372133714776	-1.01984078828015	-57.3208793043599	
31690500	-0.574050626305941	-56.6836780125246	-52.9267191652875	-42.4070832389592	-52.6819943120525	-42.6924815375543	-0.776789662213712	-55.8121534455323	
31940000	-0.676776777068678	-55.0230647940635	-51.6235699872317	-86.5764376659336	-50.7254822758812	-90.0685900004038	-0.752792714010472	-53.6470090406916	
32189500	-1.0394029193706	-54.1522550880215	-49.2084229131555	-138.348235261397	-49.5584307840494	-135.379988007703	-0.946912709061786	-52.495739864098	
32439000	-1.41539211119435	-54.9869503948903	-48.39507756619	175.764416104576	-48.1681621236628	170.89317539412	-1.2115618352117	-53.266903178916	
32688500	-1.48484288552177	-57.0997968244041	-47.4645037699388	125.763865701117	-47.6474447360928	128.408124193946	-1.27622729593353	-55.6784097104202	
32938000	-1.16352685736234	-58.8970498852982	-47.2027834892161	80.1955781731263	-47.1727404289113	82.374382260716	-1.03382490677719	-57.9731808402761	
33187500	-0.7212104083079	-59.1338043011253	-46.7866344710701	40.9604353287997	-46.8819130719144	41.4218338123505	-0.659456389563528	-58.7996503087447	
33437000	-0.501352260314615	-57.9508252763072	-46.7226384690149	0.174374327902726	-46.8070273587716	1.9017430430441	-0.44806310984508	-58.1379382048507	
