!Keysight Technologies N9923A: A.12.45
!Date: Saturday, 02 August 2025 19:05:53
!Timezone: (UTC+08:00) Kuala Lumpur, Singapore
!Model: N9923A
!Serial: MY61181427
!GPS Latitude: 
!GPS Longitude: 
!GPS TimeStamp: 0001-01-01 00:00:00Z
!GPS Seconds Since Last Read: 0
!CHECKSUM:1359037922
!Correction: S11(ON U)S21(ON U)S12(ON U)S22(ON U)
!S2P File: Measurements:S11,S21,S12,S22:
# Hz S DB R 50
2000000	-0.0659300606106445	-2.97464081498052	-71.2015272953716	-100.264402345299	-78.4492989208642	-92.9694730373555	-0.0956202897668478	-2.99984205236102	
2249500	-0.306311837003061	-3.68169458973014	-72.7336081406163	-85.5806886261773	-74.1598553262871	-73.2669928805886	-0.321453396772874	-3.68279918864992	
2499000	-0.413014896760159	-5.10848070369851	-69.9548965642207	-90.3016231722328	-73.0511402139282	-75.573238787711	-0.41446687715014	-5.03748611048071	
2748500	-0.292829152528018	-6.49199832719277	-70.9350757107632	-97.5111107018259	-70.9907614625777	-83.3595509525116	-0.287912810620779	-6.32168278805128	
2998000	-0.0464180405774169	-7.05510895262562	-63.2847459719609	-113.238983042709	-64.1792413820787	-100.387296339979	-0.0529889293561111	-6.80564102389674	
3247500	0.108647795804617	-6.84991419179647	-56.1431659492214	-116.821057814989	-55.6700422643772	-121.789688236886	0.0925741691848621	-6.48668150843772	
3497000	0.0193628767775021	-5.74036183208858	-48.2148346604929	133.679046886701	-48.3378277991309	133.660257267072	0.0432883119954847	-5.92681869046158	
3746500	-0.144983021184974	-5.96552153191432	-55.5306966620259	93.3907523503052	-54.1695486504558	94.409660048515	-0.163993406127591	-5.98735993617166	
3996000	-0.367579344244945	-7.1000619916941	-53.7133560019129	84.9386665684149	-54.6161538741579	83.4551091413932	-0.38964358496017	-7.02402305842042	
4245500	-0.418337038374178	-8.79040826419346	-56.1574963523181	58.5553018711983	-55.8722149869782	51.5966127125256	-0.409297203375567	-8.48288349475923	
4495000	-0.289902315164005	-9.93259039627802	-52.0119115222104	65.4169591440644	-52.3940297325276	63.5424698713328	-0.261337907333969	-9.84949803498098	
4744500	-0.0124730417006484	-9.8256987525081	-42.7599250829382	21.7884738905728	-42.6114502390116	21.2975779093062	-0.139657514646042	-10.0785124572719	
4994000	0.112989499789224	-9.2015819599196	-41.3460842440366	-55.7584437663855	-41.2539479924455	-55.6012991191767	-0.0257610109343395	-8.26552760157536	
5243500	0.0124011187200225	-8.83412813734016	-43.1798010340279	-94.3467354360015	-43.0572149597752	-93.657201668577	-0.0366868391032757	-7.97863341979839	
5493000	-0.263257416129031	-9.30537378828961	-41.3153537626871	-122.736467917389	-41.2546008809672	-123.102147945407	-0.27374028944677	-8.57821366379921	
5742500	-0.519893072766114	-10.195202363617	-38.4181527985054	170.506102953819	-38.4280944853605	171.10493038147	-0.523118145348335	-9.60016084345862	
5992000	-0.402203868813723	-11.6529961949581	-43.8389361751954	115.254370384677	-44.0420406922645	115.763692920204	-0.411526622912658	-10.9190872855274	
6241500	-0.157637382047646	-12.7657697216597	-48.0469616256409	96.7742789511434	-47.7343659239588	96.4361452291874	-0.137974003722958	-12.057573195262	
6491000	0.0812008193250323	-12.8361246749034	-48.711216690949	86.8015586256939	-48.6686324117776	86.6486413372449	0.0582545734696436	-12.1180777807832	
6740500	0.116890682238017	-12.4004383417716	-48.2602191498716	76.5145856757471	-47.9714320987741	75.7417126395932	0.103728263811809	-11.7010291611564	
6990000	-0.0926502910736015	-12.4002137572742	-45.3444242318195	60.0998860466245	-45.2909693196641	58.7386843044828	-0.0659989925270551	-11.5863146896439	
7239500	-0.506738356323537	-13.2091305443151	-40.2827287687049	22.1803438638293	-40.1596892348155	22.3752432119823	-0.337174978270992	-12.3994643962268	
7489000	-0.61463215439005	-13.4410050681127	-40.796969427188	-62.4607139022487	-40.6696449193625	-61.7442454672873	-0.478894316881087	-13.7396803861777	
7738500	-0.413171418565781	-14.9306977288681	-45.6251910767243	-72.0342964679005	-45.4156800111566	-73.0349645381387	-0.341803129568904	-15.4071089848843	
7988000	-0.111655714955919	-15.9195622371686	-46.589261808062	-88.5595833843827	-46.260518615593	-87.2998611075436	-0.0926689575014883	-16.2462703420989	
8237500	0.0829209299525645	-15.8356992401218	-45.3771300405161	-101.033906628621	-45.2339514803238	-102.600471319132	0.0787973737310874	-16.1652430065199	
8487000	0.0375007628110417	-15.4392838404013	-42.2503567985645	-120.099627364645	-42.138529813156	-120.411868268021	0.0256242041934445	-15.8800417413912	
8736500	-0.249979426264053	-15.4256573054279	-37.6377393390633	-154.735773028481	-37.5601128824822	-155.1441947237	-0.287454718444543	-16.2054720593156	
8986000	-0.530850633262076	-15.7811726993871	-34.7176314373252	142.476829529753	-34.6644174772032	141.92627865962	-0.692302473521705	-16.3278399633263	
9235500	-0.515163706047152	-17.5068653774192	-36.5464062093083	88.5075334096608	-36.4254824482404	88.5489393361259	-0.672371403159407	-17.2303399657024	
9485000	-0.335623735660923	-19.2727763476165	-37.3927592209947	52.546309066934	-37.2727584494647	51.6935633834964	-0.481993297810339	-18.6172579952303	
9734500	-0.116097779230162	-19.7534643507102	-36.9172146618228	11.4739565997471	-36.8364672576424	10.8337443131339	-0.241947747288137	-18.6591292089126	
9984000	-0.0183351531287003	-18.9721568732534	-37.1823645716321	-36.9574143077928	-37.1854057993361	-38.0080157886076	-0.0521066230202365	-17.5855549821284	
10233500	-0.121428977878229	-18.2591051232486	-38.5581470921124	-80.5468100994792	-38.5804958699137	-80.6633148955386	-0.0539793039652748	-17.0796618086622	
10483000	-0.426352519477519	-18.5644719188556	-38.9624836002442	-118.077153279376	-39.0185945363297	-118.774361200228	-0.268259080335335	-17.6299226462982	
10732500	-0.748269304575006	-19.4598031547738	-38.6603649330299	-163.841548984576	-38.7556646571862	-163.54898776651	-0.489844539920398	-19.1931056272103	
10982000	-0.669593014454436	-20.17601544703	-39.8896490202676	148.219533078525	-39.9730368754775	148.240364109874	-0.519550524830592	-21.0844669764202	
11231500	-0.317592378733776	-21.3785990454474	-40.5241784301402	101.999836951214	-40.5554215752612	101.48539640028	-0.321469907665338	-22.3415801706872	
11481000	-0.0162845413857825	-21.680268258421	-40.8501203669888	51.424385857048	-40.7933837781118	50.7157054696333	-0.218242000420787	-22.4256464429383	
11730500	0.0806337795038542	-21.2693980478934	-45.7982863035276	35.7144855420491	-46.0101845117436	36.8068151694176	-0.0286380033655561	-20.9878654769864	
11980000	-0.107767326149741	-21.0612617697599	-39.0824866820926	-29.9125802684936	-39.1401072197918	-30.4170476561684	-0.38566001483216	-20.1458200225813	
12229500	-0.381104677280774	-22.0757586160089	-44.9405543707044	-96.6077445658459	-45.1235057463204	-97.8547302321951	-0.387964395510074	-20.411973700976	
12479000	-0.636953264377084	-24.3508287374073	-49.7224166675754	-105.959692717023	-49.640521228898	-105.345581456889	-0.540294626336542	-23.2694504059712	
12728500	-0.761519873343382	-26.2407888991767	-42.2251246512821	-113.934064230516	-42.4412205124474	-114.271217715597	-0.701676250985688	-26.3694722041131	
12978000	-0.620326252425384	-25.1187427216938	-36.8185953451331	152.67801219536	-36.8372106196551	151.351566470823	-0.872365370626129	-24.2811486252813	
13227500	-0.173797775311635	-23.9759086946311	-40.9036335984991	72.9997436834271	-40.982530939818	72.5921562719262	-0.252924446341835	-22.2875124492849	
13477000	-0.0906547892876215	-23.7175063462523	-44.6264334034627	25.7707000150958	-44.6288604414699	26.2963854074782	-0.0658551846850867	-22.0349161015397	
13726500	-0.400244399033458	-23.9178714983453	-46.3970190819963	-19.3454739685925	-46.4117758385064	-19.8646503284873	-0.200014007724514	-22.1970997854364	
13976000	-0.795379114101795	-23.6843112667975	-49.4132355598831	-76.0461220855359	-49.1470073010736	-79.4270473849883	-0.429393911379851	-23.4190211702662	
14225500	-0.728480135645918	-24.8635415861002	-55.7016708170663	-122.62203311599	-55.247843388307	-116.794192352651	-0.519570402576763	-25.4721433128929	
14475000	-0.467912661477073	-26.9034369020418	-63.2532016808888	-139.056385895507	-61.8156621625894	-138.073368351669	-0.379507300094672	-27.2968332421979	
14724500	-0.146144710040687	-27.8718846872459	-68.1393215798008	-150.339728813725	-67.0169249978617	-155.27866729135	-0.112049874226778	-28.0887408108329	
14974000	0.0380076252223614	-27.7452151773215	-69.7022703904133	-143.226450074372	-70.8918282899559	-142.540880876143	0.0445168455369816	-27.8533437365757	
15223500	-0.0465836316406744	-27.4679891644245	-63.7208940196445	-134.909185501478	-64.1137673040578	-130.667147520397	-0.0400131636234245	-27.4734339260937	
15473000	-0.35885760794168	-28.0966459388397	-51.6027402327065	151.509369004308	-51.4575251331689	150.703295512394	-0.370846698563436	-27.7495416483225	
15722500	-0.698588527257873	-30.0902506495985	-52.0981520523556	36.1377074985979	-52.7964396891046	34.5484296374651	-0.591964539671504	-29.0886810229391	
15972000	-0.972585859326446	-32.7088143784001	-48.7242686588406	-14.4952426552031	-49.1149393842456	-15.9115429636605	-0.692712632153491	-31.4905966327628	
16221500	-1.13764985503742	-32.3230667952836	-42.7491481646338	-72.6637382265679	-42.5637699367758	-73.6114363869894	-0.623811893430162	-33.2006053158172	
16471000	-0.651243367125741	-29.4197274578241	-38.7218349345092	-143.551363990931	-38.6501111702913	-144.71679009074	-0.555307576132062	-33.1581234406375	
16720500	-0.317061239591117	-28.796168684183	-36.2518609857628	149.425253146823	-36.3183016228718	148.555549269048	-0.637400577564829	-31.2087248175291	
16970000	-0.469670534342411	-27.9819996949971	-35.5112832378822	75.9860193251831	-35.5105474352205	74.9455597208922	-0.821496005212633	-28.9773164098062	
17219500	-0.647215607762279	-27.5782749550423	-38.3529758845321	2.01749076691629	-38.4103931501338	0.347384438385663	-1.08373654503789	-27.5467197214923	
17469000	-0.703818586895662	-29.5307515024443	-44.4179188746523	-57.7560018779319	-44.3083659924197	-59.275459679781	-1.09157686475958	-27.7962576595527	
17718500	-0.646869698657764	-32.2493845034544	-67.4812352101804	-89.2715351799716	-65.2094298713848	-80.604471058419	-0.84543012280337	-29.6088476128428	
17968000	-0.379274918534692	-33.1402591028794	-48.0173102751151	-37.5047343081116	-48.0269080400937	-37.5934230238672	-0.482357277884285	-31.1838894063573	
18217500	-0.0702452672067651	-33.2891734923296	-47.6375002491311	-81.7619183090499	-47.67264410089	-82.374570112501	-0.16670769115364	-31.3724700971291	
18467000	-0.0321655309746057	-32.9495298216071	-47.3274915646785	-111.876138192147	-47.3729992949001	-113.813513735288	-0.0678231279952815	-30.8415616562101	
18716500	-0.286893259226914	-33.0745840113033	-46.3474848711724	-140.410589284354	-45.9556953087153	-141.167446116343	-0.227421024128632	-30.6722516212249	
18966000	-0.694259990411786	-34.2967880536744	-43.5800176133622	-171.459250017472	-43.6692973069279	-174.212246709789	-0.501395449728268	-31.6056577712949	
19215500	-1.01772111653095	-35.9792357430394	-40.4747513996252	146.055420881247	-40.6276221894586	141.733084316294	-0.658927217478522	-33.5858738616595	
19465000	-0.948983162218515	-36.7931391951873	-38.3993796145977	91.882264810999	-38.6246180177695	89.9764818332292	-0.561511282255778	-35.4994691234168	
19714500	-0.634104738721861	-37.188345913239	-37.5156312389172	40.7341872940093	-37.8474435159381	37.9525014084108	-0.281947953480279	-36.4401390802176	
19964000	-0.508981800428482	-36.1868698258102	-37.2921313696726	-7.90429447594816	-37.8266018850924	-9.74254614381642	-0.0756262792143766	-36.1970071810002	
20213500	-0.554775431345128	-34.0694490421758	-37.727924473117	-51.9799775620218	-38.201578935094	-53.4140106493991	-0.09089689239646	-35.612552391771	
20463000	-0.70037970959832	-33.2021398731537	-38.2243394363473	-88.9289404797314	-38.6618861306132	-89.9059754723624	-0.332582732601381	-35.8309331063508	
20712500	-0.874023159844929	-34.3963123286454	-38.3544623363115	-120.178652228868	-38.5560935746798	-120.002332012625	-0.633435041427092	-37.445006130852	
20962000	-0.888250584132381	-36.8704365616591	-37.5466648344539	-148.7374844947	-37.6124999446815	-150.411351770335	-0.792523041472877	-40.0691481166174	
21211500	-0.684647136869425	-38.8860301259395	-35.7047318103208	177.319283573645	-35.9712707955666	176.223679937418	-0.77565647870466	-42.189749421604	
21461000	-0.395153356921897	-39.2222657600698	-34.0115979239465	137.056847349293	-34.4101748112829	134.332394171919	-0.732183559114605	-42.2838834897147	
21710500	-0.214846990062124	-38.3783651171937	-33.2112771212011	92.0174292855541	-33.8091039233784	89.8037666252732	-0.783130100702416	-40.1956656504976	
21960000	-0.310538184147745	-37.8119465621937	-33.341749278481	48.2631311862628	-34.0581754943218	46.5984286258647	-0.953673647197448	-37.226183958491	
22209500	-0.644813885838511	-38.3811748270639	-33.9994518566014	5.63823738902081	-34.8452002924694	4.98488048961769	-1.07994603802051	-35.2522588954253	
22459000	-0.969503497575444	-40.2384199253338	-35.2210354806904	-34.4435464186251	-36.0850490373984	-32.2977908176468	-1.04607875613623	-35.9476116883532	
22708500	-1.08173634393504	-42.5928078130334	-36.6384676099917	-69.9625325149164	-37.3430721746625	-65.7245029089009	-0.833875342159935	-38.5131723521911	
22958000	-1.02769336995161	-43.5584351508423	-38.306901874009	-101.983731745004	-38.6768069122595	-97.6973942291594	-0.479949774735584	-40.853513004095	
23207500	-0.813802013860451	-41.3036083149373	-39.3628591846621	-123.520564076726	-39.6068071085122	-121.235551673869	-0.165499440818214	-42.0338430508329	
23457000	-0.593061951540287	-39.5926845180596	-38.1832719513715	-157.321835739295	-38.8567728690903	-153.832188435376	-0.138141761498021	-42.3700694727671	
23706500	-0.680300555466731	-38.092740068901	-38.6889594982181	163.413517254897	-39.2502998655737	168.865534635719	-0.523447586168718	-42.672129267645	
23956000	-0.840085626709036	-38.4924140426937	-39.9178643979128	125.256370115677	-40.0789249266312	132.318511861901	-1.20889020867114	-42.5794825652208	
24205500	-0.937315472975181	-40.8099143654333	-41.7099976362881	88.7144205119448	-41.7023693397769	96.1248288155624	-1.566707623029	-41.3752810001511	
24455000	-0.821230523244137	-43.440797854715	-43.8679382478953	57.6413103907132	-43.6650124278111	62.9446966208292	-1.27681170218496	-41.3928728914104	
24704500	-0.552445118634878	-44.7188662227968	-45.9872251890161	30.3013683562752	-45.9311544497116	34.2931055574451	-0.741075988321638	-41.8190175390683	
24954000	-0.33242871255414	-44.1521061890571	-48.0575510393005	11.8561505820653	-47.7490942050413	13.0305402790753	-0.320026508338128	-41.8706938506351	
25203500	-0.316795222976891	-42.8505804632578	-48.8388342443342	-6.55977207253586	-48.5200902725554	-3.1930368279257	-0.203110614929194	-41.4318041190512	
25453000	-0.506508892389969	-42.4004276706699	-49.3476211357719	-35.2950288348436	-49.4431502812325	-29.2269993675078	-0.371120346907354	-41.4215532572632	
25702500	-0.791731419786953	-43.6922953319778	-49.9666573162234	-57.5789527199455	-49.7217204718889	-51.6672642924301	-0.640194120127905	-42.7149310558428	
25952000	-0.941031708104683	-46.3130514718553	-50.1350528877273	-76.9881453697789	-49.0900393188191	-76.5419765030887	-0.761073163908541	-45.1167527615643	
26201500	-0.881130182236221	-48.5383931589837	-49.5774785266928	-96.0864774031813	-48.7684882803333	-96.0368090173915	-0.623887196793298	-47.5199159051279	
26451000	-0.71487302515503	-48.4370652992142	-47.6422186137621	-129.475752040122	-47.0794928295306	-124.066772225358	-0.346863331058345	-48.6770075153429	
26700500	-0.50769223982395	-46.4273207891207	-46.9634319764939	-167.373832024545	-46.3986984335796	-160.941596390755	-0.193102123874168	-48.5733645889765	
26950000	-0.46599913614199	-44.8601683372673	-47.240980281827	156.937938909663	-46.8844316476157	164.825018951457	-0.321752498041961	-48.0897164439309	
27199500	-0.656282640545303	-45.0082181739516	-47.4837901903776	126.35525287605	-46.4423118472678	133.454627272682	-0.692405084545791	-48.3629823355459	
27449000	-0.915991737670127	-47.0193404578012	-46.9843185981506	95.6620642489529	-46.5120609138537	99.4238873617568	-1.11833052077076	-49.8652643701974	
27698500	-1.01799655256617	-50.0129755893645	-46.9910506036149	53.9911699848654	-46.0035325546801	58.9879784259333	-1.3364474055438	-51.710947889451	
27948000	-0.920896837677166	-51.8209664551345	-50.6737997943697	-0.743129403384285	-47.6227003732328	15.9304555893976	-1.16334108844526	-52.8671290185631	
28197500	-0.72406469282384	-51.3726528905271	-54.4110251550856	16.5924091003313	-49.1853850629319	-9.02018569616619	-1.01708614288909	-53.3460380727676	
28447000	-0.671105097888098	-49.3720273773716	-48.7809087662231	-11.0628304934908	-48.5590984430265	-37.5662604895802	-1.17922790137597	-51.0043281401479	
28696500	-0.792858771872211	-47.3053464379397	-47.0766043301929	-58.2369522855196	-47.2624920382717	-72.1198366709017	-1.3790868831859	-47.1612164317064	
28946000	-0.995122868569126	-46.9596219492183	-46.8843908475672	-100.625634400703	-47.6391027976632	-110.003514377797	-1.47918182255015	-45.096399748703	
29195500	-1.1327027670867	-48.7805639320083	-47.646312147199	-139.809473540029	-47.9284542809285	-146.509719888981	-1.46806959912548	-45.8548638450268	
29445000	-1.03176049313906	-51.3838516901828	-47.9384285474122	-170.443962996197	-48.6925907816189	-172.864338196803	-1.2372533757267	-48.0985810967416	
29694500	-0.721579293576648	-52.8473906848882	-47.1805957229714	159.400438791278	-47.844889741051	163.072601298677	-0.835524202361506	-49.9562779693614	
29944000	-0.416184060124121	-52.5590005018385	-46.1306677277593	113.642496491571	-46.1642028967559	115.990989457996	-0.464034250275775	-50.0450240568694	
30193500	-0.336784672269534	-51.5108913586836	-47.4209154072918	80.4537427125163	-47.6011882002215	79.7873969664216	-0.284846566508832	-49.3875187170844	
30443000	-0.533352288868237	-51.0038584820837	-48.2631547924492	55.0757593138812	-48.2357827099268	54.8128840459081	-0.41119067929586	-49.078794029355	
30692500	-0.867115831635006	-52.0622674907215	-47.8122234126477	29.2691540078997	-48.1028779675973	27.7588908439103	-0.68241989259551	-50.0509659594393	
30942000	-1.08810856999944	-54.4408213863848	-47.3967906274328	3.38950772818922	-47.7267640006291	5.00193343293512	-0.850201265187768	-52.3721468920214	
31191500	-1.04891051194945	-56.7277576769685	-46.2947163050739	-18.4487924707122	-46.713222312627	-18.0697322545189	-0.754559958096	-54.9798957590082	
31441000	-0.843005386281465	-57.1863429868848	-45.3554561511864	-43.4617946716941	-45.6593679289743	-44.2490875731118	-0.474641367512199	-56.4797290527475	
31690500	-0.677259496351953	-55.6807343522459	-44.5851496278634	-74.158675994882	-44.7404873141731	-73.4475366879498	-0.258713797228706	-56.5187407860242	
31940000	-0.691509167823261	-53.6171985709415	-43.780110201018	-103.266492315929	-44.1005306250521	-102.042882372909	-0.32837584760631	-55.974119838074	
32189500	-0.886066299876662	-52.8314119927528	-43.3224606672838	-133.233951989573	-43.3739969274162	-131.36512068235	-0.669208064943793	-56.0710882217989	
32439000	-1.12279989914097	-54.1479637701053	-42.4228945902043	-161.673817158639	-42.3469709821032	-157.246590943929	-1.11463508580042	-57.5679866153142	
32688500	-1.17186876584508	-56.8237194298945	-41.802501892905	170.96322428069	-41.3603369578394	174.155308805118	-1.43747579667905	-60.01621654676	
32938000	-0.93884229253476	-59.0613052614601	-40.5522350190175	140.700410837386	-39.9034091611467	142.751535575784	-1.5190921398667	-61.5252538142241	
33187500	-0.611404330452392	-59.5734702360487	-39.4648613354033	107.856627818922	-38.6566113882336	108.902043715232	-1.40287721271769	-60.3894164106508	
33437000	-0.456383500734009	-58.7284607706066	-38.6296865049946	72.9347053746019	-37.9255848788866	71.5112342025714	-1.20382994895364	-57.2609970749009	
