!Keysight Technologies N9923A: A.12.45
!Date: Saturday, 02 August 2025 18:35:35
!Timezone: (UTC+08:00) Kuala Lumpur, Singapore
!Model: N9923A
!Serial: MY61181427
!GPS Latitude: 
!GPS Longitude: 
!GPS TimeStamp: 0001-01-01 00:00:00Z
!GPS Seconds Since Last Read: 0
!CHECKSUM:1904368068
!Correction: S11(ON U)S21(ON U)S12(ON U)S22(ON U)
!S2P File: Measurements:S11,S21,S12,S22:
# Hz S DB R 50
2000000	-0.0577417085773312	-2.98653287781756	-57.0335901204513	-88.6697844693078	-56.7403022445739	-86.5232509019441	-0.0741773929254422	-2.83705462914995	
2249500	-0.235305351303975	-3.60214409852274	-68.9286309847679	-84.1387593965277	-69.2099228918662	-79.5277511693615	-0.241830161972402	-3.49079289940304	
2499000	-0.313684594490765	-4.78665456089867	-69.0880985350086	-97.3943869024553	-68.8617931877016	-86.0569483913033	-0.312266318589069	-4.62235275022627	
2748500	-0.222750132608447	-5.92414941342679	-68.6812821609016	-88.9948118921217	-70.8199233942197	-90.1339586249183	-0.222411684849948	-5.71972998580072	
2998000	-0.0358720037111167	-6.44966911471197	-67.330079683356	-95.1506664108123	-67.1546590704476	-84.3739966570018	-0.0487629661174472	-6.22389603296172	
3247500	0.0858404104836278	-6.37039233230771	-63.3818742135107	-102.191455193469	-64.2248309430063	-110.09147569106	0.0641169643922955	-6.12584371011372	
3497000	0.0469625821702595	-6.19297821372114	-58.186024743573	-116.540266577274	-58.3182039808184	-116.268672664807	0.0295146056471521	-5.90461296828254	
3746500	-0.163241736192021	-6.10414035364438	-52.8397150161946	169.442494885651	-52.7878970512987	170.992612774257	-0.137810498891416	-6.05413514225383	
3996000	-0.288809220661386	-6.95960155197743	-59.6426889043757	141.864428970272	-59.9972689784683	144.66892156621	-0.298871696466959	-6.93849830960975	
4245500	-0.313807799365017	-8.29559461047128	-64.368234371251	96.0192264178488	-64.39117824989	87.1365427061675	-0.313291411451053	-8.05269492657492	
4495000	-0.179544665032577	-9.38396348157916	-68.587705056278	168.857413076003	-69.9967773841161	161.017793377669	-0.179083214863218	-9.0916215822108	
4744500	-0.0230828344878208	-9.74027153994539	-55.3410596987796	176.172851671032	-55.556070614564	176.826979177393	-0.00697417654635639	-9.39979941496108	
4994000	0.0754180506930163	-9.21043465891723	-52.8030394031834	105.312064167073	-52.8646217870803	105.658862986726	0.0725105040759378	-9.13499958854386	
5243500	0.00201245990660428	-9.09108775030389	-53.8302398568074	86.6527855610472	-53.947766671639	85.4028458715853	-0.0143402429161739	-9.01546812905299	
5493000	-0.187143074664377	-9.56877557476265	-51.0712796791039	74.0664359459018	-51.0457558690231	75.437296957361	-0.203459380884074	-9.56793640553115	
5742500	-0.333151262735483	-10.7964551771764	-57.3649587191751	58.8039394040316	-57.7006914143436	57.9909001379014	-0.331621616618842	-9.95013018993905	
5992000	-0.361285922397968	-12.6228959204545	-44.7300606834218	56.4672584758363	-44.7076906089387	55.8823554375244	-0.297932104249189	-11.5918942477615	
6241500	-0.298258792770276	-11.3097326454893	-38.3228298500394	-53.5693471357685	-38.2862439634316	-53.880476051704	-0.163087990595935	-12.2151854259582	
6491000	0.0349512782379289	-12.0640738677376	-45.4751798240916	-89.0419267721017	-45.3970365629651	-89.7103840334379	0.0259118580712579	-12.420046054643	
6740500	0.0806957969135525	-12.0367039394016	-46.7832101888492	-99.7403825591434	-46.7685564651066	-100.063692121225	0.056184721895891	-12.241439886837	
6990000	-0.0546074520830077	-12.176544651007	-44.7975275467534	-110.198451462422	-44.5313339760202	-109.362453591719	-0.0800682617386232	-12.3682968813517	
7239500	-0.326994598660185	-13.201581762108	-34.2116131696873	-154.72263197069	-34.1950983969529	-155.144124652682	-0.504569759038736	-13.6935687413327	
7489000	-0.379967739445012	-14.2715273980655	-50.3612603111676	104.184187641681	-50.0076673111957	104.476633103846	-0.363757677041701	-13.3427675174863	
7738500	-0.383121703828712	-15.5926544929366	-37.130316937622	103.435974955315	-36.9164558490857	103.235643781646	-0.462042921329103	-13.929500426205	
7988000	-0.332888196919895	-15.6308992279035	-52.233596896057	18.2558385401102	-52.3672038149395	16.2356253850995	-0.079543845497296	-15.0282394767689	
8237500	-0.0485026897404669	-14.7856327400577	-61.3266320249709	77.3176217562331	-61.3416014772218	77.4981374971196	0.0619384962143197	-15.1364955152527	
8487000	-0.00813620492812409	-14.6176465480441	-58.2449562589706	85.1500091053477	-58.0717959149857	83.6963041383044	0.0426732019818381	-14.8930565277834	
8736500	-0.159624787520143	-14.8208440349184	-56.6670220570397	78.7915332062789	-56.6273493750573	79.5529683249602	-0.116842805759842	-14.9918813564993	
8986000	-0.346677050036884	-15.7855079071325	-54.6897000882986	68.4253575022017	-54.5878978007542	67.1691587010865	-0.291845577076962	-15.8497929402617	
9235500	-0.406100891461177	-17.2671050707753	-52.2706345803744	53.8603542709572	-52.0269634985491	53.6378037085776	-0.338859489881356	-17.2062623966487	
9485000	-0.305927277848988	-18.4970468398708	-48.647703533514	32.6048847886223	-48.5718577963535	31.8489474220575	-0.222079989028561	-18.392505487433	
9734500	-0.141475411488388	-18.5816066532263	-45.9378227745987	-6.28811228425933	-45.8463003749525	-6.10608244156946	-0.0429346217941573	-18.8055331565776	
9984000	0.0110014361345726	-17.9621951050655	-46.5037957230855	-48.8589549744298	-46.3599039931636	-48.4587389049886	0.0523754884000684	-18.5025634493177	
10233500	-0.0159220237287196	-17.7431916803029	-48.2633623758568	-74.1817138144626	-48.0689924966709	-74.0994904410409	-0.0129627295761002	-18.2169117914267	
10483000	-0.190983634654643	-18.231768946872	-49.1413057425072	-89.2190745897582	-49.1215943924823	-88.0503014768378	-0.195172910642305	-18.523020777673	
10732500	-0.345356144516618	-19.5808627384537	-48.8434056511251	-98.2787392665627	-48.6105105955103	-98.505358387788	-0.34664567216781	-19.6429644619049	
10982000	-0.344707079706525	-21.3503088067852	-47.0440718203952	-108.184025941416	-46.9227544543135	-107.915396611326	-0.345976905432258	-21.1234865170075	
11231500	-0.211352310296466	-22.9843578301017	-44.0394744551684	-121.286832401059	-44.0064282269027	-121.15537545876	-0.193862613137647	-22.2384467936656	
11481000	-0.144739717022856	-23.5146836763435	-40.3118003018268	-140.668054433902	-40.1850134363721	-140.664973509553	-0.0301363296244366	-22.6464945296974	
11730500	-0.59191230526819	-22.0412100458584	-32.0904755582073	158.962768183911	-32.0093663468935	158.830688633695	-0.0676139525602988	-22.4405681560524	
11980000	-0.442034584031002	-19.3801978286054	-36.4332401389365	97.0130203188373	-36.303635306181	96.9366640682361	-0.178019096341027	-22.3825337192698	
12229500	-0.414753162401346	-19.9409649872128	-38.4682347267662	33.0999792093964	-38.2079018893438	33.2963587427108	-0.817524455663335	-22.8108937413503	
12479000	-0.458392905485377	-21.8210020640917	-44.5962264907484	84.7907770901213	-44.5073125602063	84.1148455357644	-0.421784005753998	-22.4273749207857	
12728500	-0.37356078867428	-23.7589825895929	-40.7515224581713	68.896022293267	-40.7671947854923	68.9361669082905	-0.34431136301162	-24.8797204681483	
12978000	-0.194740398475318	-25.0569092665939	-36.4697898848814	51.4384646112424	-36.4120266050451	51.5316460703359	-0.211361195813972	-26.513445514309	
13227500	-0.199768095502189	-25.3363036510074	-29.4480233768538	7.22215302845192	-29.3532645880677	7.22665661865282	-0.354806593541454	-27.1728056284444	
13477000	-0.120016794460878	-23.2941003643106	-31.0557118512404	-76.2386435644839	-30.9401095307575	-76.7201397385234	-0.270628624153506	-24.1349099531171	
13726500	-0.196365177268927	-23.7499938317547	-35.2518488820317	-105.808839053775	-35.1788705969688	-105.96260899116	-0.31813781983227	-24.9010158299255	
13976000	-0.398251727558035	-25.0091701202106	-36.5832744054922	-122.361642943874	-36.5537951237833	-122.396975218052	-0.554166094114696	-26.4342052225259	
14225500	-0.500602832996316	-26.9424483839986	-35.8869918746949	-139.07000119811	-35.8365450609938	-139.249015425881	-0.743361362988543	-28.5184996701251	
14475000	-0.46201155123129	-28.7749590059019	-33.477551938999	-162.988254817034	-33.4385750519081	-162.542849869936	-0.87297473548541	-30.1911645505889	
14724500	-0.42422999202965	-29.5243257438697	-30.1898798636578	155.638972115975	-30.0840748523698	156.163448972765	-0.993456915629336	-29.2583723569638	
14974000	-0.437053580963434	-28.5105048190339	-32.6281821051705	92.564158555965	-32.4920145453269	92.995189526385	-0.619017344075726	-28.2984223150249	
15223500	-0.751964412651893	-26.3659290474491	-28.3891148179428	85.5845487908698	-28.2222346073788	86.1414510616806	-1.28382299840583	-25.5188848714525	
15473000	-0.710304108981818	-24.1283339168791	-28.4443975814628	17.3183984814551	-28.2611339990898	17.385193703552	-1.13220223282652	-22.8496431147352	
15722500	-0.615618277564042	-25.1704954352467	-31.2451143533977	-32.2515073343587	-31.0929717732588	-32.1335677010176	-0.999635789947044	-22.7644865230699	
15972000	-0.505167639953023	-27.4516262714228	-33.8832509339829	-65.7190189146515	-33.7358978433552	-65.8204516465564	-0.766315193115359	-24.6138689349649	
16221500	-0.304340787921624	-29.3137578400205	-35.1756072066266	-92.4018716200967	-35.03515448044	-92.2436098245823	-0.47728686141632	-26.6259840235308	
16471000	-0.106069420091469	-30.1335263848843	-34.9210734277145	-120.061209217061	-34.7943305534766	-119.528967349592	-0.228555320066556	-27.8457144696252	
16720500	-0.0836678756174846	-30.0595318291995	-33.4664325661671	-155.349110012837	-33.3443307986898	-154.414065139763	-0.20144619501121	-28.2448795698249	
16970000	-0.257617647231218	-29.5261883389203	-32.3473556158243	156.149647915803	-32.1029609653195	156.932623648834	-0.440479810044647	-27.5586782846667	
17219500	-0.44750658468087	-29.9194252082061	-33.0355074371233	104.029147834597	-32.7611650104776	104.286677539939	-0.603056590013514	-26.8631100636458	
17469000	-0.682693576099923	-31.8309712855272	-33.7297716907131	47.4202107674721	-33.5505769138856	47.5230436510586	-0.695390020199074	-27.8342303337495	
17718500	-0.682690790072454	-32.4834245475336	-44.3033044147672	-34.3922013729206	-44.2318147796114	-33.0707396178659	-0.535204654351409	-28.6530543112465	
17968000	-0.52840783026104	-34.4418131387364	-44.5888405130438	48.2411864791444	-44.2327406014575	48.0194204753702	-0.24666964665061	-30.3291033287938	
18217500	-0.705352359740253	-33.3459092856191	-39.0075497068113	-2.049880797247	-38.5859745760302	-1.97429027084757	-0.0427908788340756	-30.9147641579169	
18467000	-0.441464212168611	-29.7013451497474	-40.0334888855191	-59.6005298478787	-39.6172014514929	-60.3314811809508	0.0140184708968356	-30.7334984274375	
18716500	-0.286658809951855	-29.8707087058864	-43.0906730712946	-94.4763752549307	-42.632462012882	-95.5194202434803	-0.0966769065057539	-30.8581458412758	
18966000	-0.403155341458512	-31.3525774837281	-45.0808253593048	-116.368135372225	-44.6745400507461	-117.556435596821	-0.295993088348405	-31.7883469415891	
19215500	-0.489086604161101	-33.5199682698486	-45.7961861943836	-135.879797662196	-45.403409138991	-137.726713455368	-0.404500359354028	-33.539931206227	
19465000	-0.42575492688999	-35.547254776523	-45.0164174199037	-158.175300549604	-44.8680275906067	-159.234836911188	-0.346955475204652	-35.3550039932188	
19714500	-0.275574062075022	-36.450619864663	-43.9102383977291	164.591172720231	-43.7725878185525	163.349116936952	-0.165400642575022	-36.4881836263738	
19964000	-0.126326428219891	-36.0576747906758	-47.1922966591095	120.48978289668	-47.3191557504929	118.349763050382	-0.0369409717428664	-37.0221758337669	
20213500	-0.140213981536626	-35.9711419203981	-53.26079202559	152.102051366676	-53.3576627135213	154.800575320187	-0.174884275657432	-37.7399123337927	
20463000	-0.39061102772202	-36.692501442085	-41.3092450067585	161.873089383422	-41.1652651832416	161.462349689616	-0.759379700818878	-38.7040372207057	
20712500	-0.727880073553883	-38.1742292717232	-33.2179959182229	98.5757219181178	-33.112488712887	98.2840724031521	-1.40166987910232	-35.2170025455471	
20962000	-0.933190215214345	-40.27100488178	-31.5403978475103	34.6545255121631	-31.4433103541815	34.4207433471805	-0.862206379021793	-35.4060526052118	
21211500	-1.08068516650385	-41.5247420797733	-29.9054168045957	-14.3540444894572	-29.7755841871575	-14.4358521173402	-0.604599960510927	-38.9114453228779	
21461000	-1.08684966679638	-39.9669263860386	-27.5994121533428	-69.7626260333976	-27.4636366444921	-69.9122188441752	-0.650415020335747	-41.2307654962851	
21710500	-1.00428128765577	-37.6215308936368	-25.9460655413138	-136.466818612023	-25.800416352023	-136.50801397949	-1.1944591099736	-40.5056984802445	
21960000	-1.04536780657606	-34.2668000947053	-27.6684670842384	147.050113027931	-27.5029817809774	146.910500759645	-1.40487348491014	-33.4205545433232	
22209500	-0.890952256517144	-33.0810565161743	-32.4349533677192	89.4637659826865	-32.2860981354854	88.8323452780158	-0.991970513205467	-31.8990401470573	
22459000	-0.811656737365498	-34.547558773444	-36.8834812536171	48.3109841158127	-36.7434231996503	47.5114268981999	-0.888691698280399	-33.5892022496514	
22708500	-0.6659270946515	-36.7861569065699	-40.4942423296828	13.2507003478534	-40.3078682789087	12.4581543969771	-0.774588344582779	-35.8035389494195	
22958000	-0.39866913042239	-38.4983415584611	-43.3206786995047	-22.6064166286097	-43.1602447716953	-23.4195454067038	-0.54223827054333	-37.4915191518728	
23207500	-0.13172745062747	-39.1523751019926	-46.3461351147014	-74.9902390359771	-46.2225539594314	-75.8586658421977	-0.334923024050779	-38.1534841977608	
23457000	-0.0459649084776276	-38.9973634069756	-60.9219981339316	160.729344214965	-60.2585803817593	160.826513808446	-0.22756677145391	-37.0697644625039	
23706500	-0.153841285827774	-38.9974114998902	-57.3800290624365	-7.60484684966541	-56.9949898498648	-5.87801418193885	-0.206587050276016	-36.9646627039605	
23956000	-0.367711773883581	-39.9226448714015	-55.5813889098877	-43.7045879006725	-55.166906335359	-42.5037295382436	-0.357316035651151	-37.8213882646385	
24205500	-0.51355614475266	-41.7537468634882	-54.995671668344	-69.6313576649691	-54.7094214875403	-69.5520318644289	-0.465401212418317	-39.4918736740764	
24455000	-0.475086248094599	-43.6793626179642	-55.0545400534419	-100.787123625273	-54.682806382001	-101.647228860043	-0.398455223794031	-41.4481847835711	
24704500	-0.2901080958371	-44.7237439133942	-55.5815745085577	-147.007448612113	-55.4941835543937	-148.48300459812	-0.183415121553581	-42.7352695444014	
24954000	-0.131663086365925	-44.6813491968927	-60.0049396126608	149.6402453942	-59.5725151431482	154.361873797028	-0.0139463383448668	-43.3768640373776	
25203500	-0.157720673580359	-44.3005101796433	-57.8047739507652	64.3874925360735	-58.3785226428538	64.904994135105	-0.0241687269844436	-43.955546685343	
25453000	-0.380719948047187	-44.4731308307563	-48.9960026865239	-16.9909632335609	-49.250380151028	-16.8995628980387	-0.43051668001173	-46.0834875305051	
25702500	-0.687637604086891	-45.6792167644186	-40.9527436720779	-113.213189647433	-40.8801037013476	-114.483000944667	-1.76801943061705	-42.8169664108105	
25952000	-0.92191535263834	-47.5396523079129	-43.1960691984187	167.581782803224	-43.0090324540351	167.299421101625	-0.966532199269826	-40.1617278427449	
26201500	-0.963295023849133	-48.3781539982032	-44.8182342338864	118.946337759719	-44.7940553551332	118.249946511191	-0.574554718815275	-42.7108541623018	
26451000	-0.751268842460969	-47.5752207385616	-46.4088125441663	74.0866288938984	-46.2832249763713	72.5442836267526	-0.250637018831917	-44.1453204062081	
26700500	-0.495425255593049	-46.757711655788	-48.7580284671816	37.9553719353672	-48.7748352148376	37.6957511811465	-0.0512776763509949	-44.4816093576962	
26950000	-0.564147688685982	-46.5703176242932	-50.7417820158766	15.1703197625293	-50.9215588579735	13.170861143729	-0.0603606998833507	-44.4063329588389	
27199500	-0.93790540400248	-46.7135144633055	-50.4077166370208	0.873084123999552	-50.5665432350679	0.263846360162876	-0.231910716224012	-44.8439472341176	
27449000	-1.32785498654405	-46.6364958419127	-47.1489694241033	-22.5742797007334	-47.1513639251243	-23.6799712657693	-0.422233579769634	-46.3336410635974	
27698500	-1.31496603980144	-46.4069771185303	-42.8010393629414	-67.5780942014053	-42.6632754304865	-67.1697381363268	-0.506682465148922	-48.4451171568641	
27948000	-0.897188593931154	-47.014126666701	-41.5730400012033	-135.706663340154	-41.2897189146354	-135.193646384588	-0.428244737773068	-49.710310051536	
28197500	-0.501687204975647	-47.3152281851046	-43.7931674455426	171.054726101833	-43.6678094488382	170.193017805503	-0.195794684655562	-50.0177948778942	
28447000	-0.275180364326871	-47.0127538262243	-45.5930824861748	134.238431208629	-45.4938855420739	132.685898105732	-0.0737556632657159	-49.9542336912001	
28696500	-0.309596303248636	-47.0355310483842	-46.2240819992359	101.043929649761	-46.3042148651051	99.8805727945015	-0.18679946650456	-50.1077663397827	
28946000	-0.515304148032406	-48.0352324091386	-45.5525893213686	63.2845405011039	-45.4984439646025	62.3586097392772	-0.446029703309843	-51.273809421048	
29195500	-0.725147629559806	-50.1131018944736	-43.6675616135741	17.5970452875227	-43.6677484713854	17.0648918413516	-0.737401493146656	-53.7438960615988	
29445000	-0.781420474730631	-52.3638451803001	-40.8678896489068	-41.5130396480762	-40.6794868323136	-41.6300413799075	-1.06502606886755	-56.5646021675655	
29694500	-0.668637056984438	-53.5589094658	-38.893679182603	-118.90240134159	-38.8605722586845	-118.322662251562	-1.35036894595212	-55.4264975850055	
29944000	-0.581424320914278	-53.4152161891297	-38.4872186570176	-177.557484568327	-38.2820710677573	-177.28687831767	-1.19278522905504	-55.9627068194379	
30193500	-0.697641504184311	-51.9083926662433	-35.3130327764849	100.797825681835	-35.1477152921471	101.365303178942	-1.90105589513636	-47.7461560897899	
30443000	-0.887461839878587	-49.8837995532907	-38.1571506833094	23.5750466145493	-37.9795928856579	23.9745336191698	-0.975937407837186	-44.1661733945209	
30692500	-0.96833585203251	-49.2366673129501	-42.0867950541386	-29.2869391959137	-41.9460751006113	-29.9754943781054	-0.795344285045499	-45.9742286599334	
30942000	-0.914625799156074	-50.6784882403563	-45.9674402163501	-68.0273602005357	-45.772293050777	-67.9062977406177	-0.718463747227788	-48.4555435086203	
31191500	-0.707790025456697	-52.696946593578	-49.348477739249	-93.6468977175975	-49.3388782214354	-93.9553383855609	-0.557991010092577	-51.0981187477071	
31441000	-0.412754891993389	-53.8787237374117	-51.785348319428	-113.700277419524	-51.9146530608597	-115.180805231219	-0.297928809011147	-52.728448348064	
31690500	-0.202371398047312	-54.0023041954613	-53.6017806968739	-132.967628835603	-53.7738448760456	-132.49681639316	-0.0808768157658045	-53.1785607708369	
31940000	-0.212789176669991	-53.7257993737901	-55.0279421192171	-152.204687499126	-54.7865038786154	-154.230691642817	-0.0685009997546492	-53.1000303009722	
32189500	-0.412690954712752	-54.0476136914222	-55.4801118300951	-172.6547274893	-55.0789125783599	-174.026177684791	-0.235824418128619	-53.4313213866792	
32439000	-0.644945466289501	-55.493812351347	-56.364601033168	162.12911145724	-56.0435349287069	155.975826739288	-0.451367853583291	-54.7113641521902	
32688500	-0.726408233297971	-57.6907083227865	-57.0595346830217	118.333493477342	-57.1542342218234	119.820940628069	-0.551868965809726	-56.7979878010748	
32938000	-0.602220040344877	-59.5815688480117	-57.673700696853	42.2340612923014	-57.3525405265952	42.1312239441247	-0.481490096327478	-58.673160259561	
33187500	-0.401678437457036	-60.262719555301	-54.8940385643101	-60.7336047569904	-54.3879474616315	-59.3953053421162	-0.317092983997842	-59.2536639066813	
33437000	-0.321841959406944	-59.9332029503759	-52.0056550966503	-143.642662782074	-51.8940399322102	-140.741578979995	-0.15193512554501	-58.885595716121	
