!Keysight Technologies N9923A: A.12.45
!Date: Saturday, 02 August 2025 20:05:00
!Timezone: (UTC+08:00) Kuala Lumpur, Singapore
!Model: N9923A
!Serial: MY61181427
!GPS Latitude: 
!GPS Longitude: 
!GPS TimeStamp: 0001-01-01 00:00:00Z
!GPS Seconds Since Last Read: 0
!CHECKSUM:0142283525
!Correction: S11(ON U)S21(ON U)S12(ON U)S22(ON U)
!S2P File: Measurements:S11,S21,S12,S22:
# Hz S DB R 50
2000000	-0.0642038231884318	-2.16577171550551	-65.8019686137033	90.0171617850248	-62.9608532615237	73.2531865418757	-0.0778676743535114	-1.58388871656287	
2249500	-0.387045767267118	-2.85083283829568	-62.7070635076724	48.2035394056424	-62.2995225621424	61.2194124453245	-0.415807567858337	-2.42712101926153	
2499000	-0.535296668266388	-4.55676997313542	-61.4000319857501	-45.9899627334072	-62.7064357479506	-41.5308748556228	-0.550049289379706	-3.87984594321211	
2748500	-0.373644867577055	-6.36284306999607	-70.3816262570666	-108.804797163286	-67.8284881860919	-77.115228622018	-0.373929981079158	-5.94864672413206	
2998000	-0.0885369692830584	-6.96640824781543	-68.81200128203	-74.7475667626353	-72.883503993397	8.06404841388806	-0.0550064182966697	-6.85198297946847	
3247500	0.163346443288722	-6.21944153260273	-67.967437755788	-95.4915415221473	-71.5121069216663	-133.048616688082	0.152518779882464	-6.49199354756643	
3497000	0.120728899658953	-5.62881765580179	-68.3053755800722	-108.512455578841	-68.7498754868862	-109.762813155509	0.105294199012601	-5.71406460738163	
3746500	-0.183504379404156	-5.71188440134538	-63.3414342577642	-122.142562497195	-63.5563285946067	-120.527738709726	-0.174261574842469	-5.48726758355496	
3996000	-0.509172945925852	-7.07393330576089	-54.5537659002608	-156.130944461995	-54.7150561692769	-156.930278322216	-0.481513078522976	-6.47526798132149	
4245500	-0.571450518861576	-8.71815359094016	-48.6619693210119	98.5040743684696	-48.7138670542731	100.91714317112	-0.57006192485571	-8.03687467282662	
4495000	-0.289299195544106	-10.1461562838098	-53.0032747856212	-3.16239777788728	-52.4720450138761	-5.08358269554482	-0.348753139885372	-8.76144217360739	
4744500	0.052379072485268	-10.3217296384748	-61.2855909689499	-59.9415111009371	-60.7971680891444	-59.5570116400584	0.0259072976547689	-8.90892910514036	
4994000	0.172290510113362	-9.59119491597463	-70.1878525123336	-124.427638687438	-75.6875880412838	-124.421917091574	0.182892363125666	-8.39674180733953	
5243500	-0.0347321150045677	-8.23652538403867	-67.4333617937898	-1.78837777858423	-64.0973090687952	-7.14670561561256	0.0361236804773887	-7.98141073827955	
5493000	-0.29505689078703	-8.37600329040545	-63.3361342156026	-56.2891695108839	-62.7532545464399	-74.4885777131488	-0.28836768149375	-8.51071078057115	
5742500	-0.535683649523384	-10.1162820040962	-63.3647777555387	-104.526217722028	-60.7966383399528	-93.1665358998706	-0.53381016795637	-10.3101834011421	
5992000	-0.490738181264654	-12.3520928546429	-58.0975678501515	-128.340263682657	-56.7643059938731	-133.487246881569	-0.511565156346443	-12.5037543379135	
6241500	-0.185157228759407	-13.7715869720119	-51.4920878631902	160.338539066808	-49.9960162181203	153.720409661706	-0.337426331687041	-13.2419167519672	
6491000	-0.0298770320298154	-13.0260079395849	-54.0501195874366	53.7482821111906	-51.7594365805467	45.936764337959	0.049512185841967	-12.0467471478779	
6740500	0.12899923523861	-11.6235511520787	-64.4208993764774	67.0761404003955	-68.6451036155748	38.5117988440433	0.174141247600107	-11.2686211497198	
6990000	-0.0678550144202639	-11.4355810696743	-54.1522609626769	64.2312491552727	-55.0023582741229	57.3173543246836	-0.0717852960588542	-11.1159939915461	
7239500	-0.419717879146092	-12.4563918618585	-48.0733734858158	-29.3552745515444	-48.306185226713	-28.7179272810779	-0.532449977016375	-10.8488388085792	
7489000	-0.604779950502497	-14.6782726552659	-51.3688043995536	-82.3205109264269	-51.6015217674257	-83.30483189144	-0.579653792961045	-12.8109341188381	
7738500	-0.507993388527048	-16.80823758345	-50.7822661301849	-116.869894318268	-50.7085343415314	-118.166634160401	-0.42465507627275	-15.1666313665721	
7988000	-0.237001631033815	-16.832169381361	-49.318567237204	-171.666435435406	-49.4281647186647	-174.197877586111	-0.0983582063280116	-16.256426604382	
8237500	0.0892252808720945	-15.6138693160711	-50.7681911211632	137.338982238233	-50.5820293106731	134.91365070145	0.126527390454807	-15.9554721619438	
8487000	0.0963453926378235	-14.6334215891031	-51.2439678286393	95.105159557997	-51.5899492887562	95.0545121310681	0.0435551010285701	-15.1224827443175	
8736500	-0.199358596312879	-14.4595572603318	-50.5699418302648	50.2416979289921	-50.3527108242532	46.667520679829	-0.345937790076495	-14.4672423193971	
8986000	-0.553981403332098	-15.6821941849556	-50.8850926758005	-7.03452577776099	-50.3295203681145	-10.7518715352548	-0.688369316710969	-14.4216818805652	
9235500	-0.66136448193759	-17.8976648787623	-52.4926045729408	-61.3192461271501	-51.9110123981445	-60.8876395736219	-0.68319151727885	-16.0389379199324	
9485000	-0.445114059836036	-19.6380060331216	-53.7815427192152	-99.8227312866067	-53.7662827395009	-102.093504717018	-0.402638273633706	-17.9199344114538	
9734500	-0.120174823446444	-19.8218849055374	-53.7102507311318	-146.233091738569	-53.1641073612192	-144.384716032771	-0.0410562640377073	-18.5791053783996	
9984000	0.0427236764976259	-18.6851993596479	-52.8022979661021	165.216714667602	-51.9112361203529	164.624223449341	0.134023280246795	-18.0852709378097	
10233500	-0.0618240108492844	-17.5577801053081	-52.2285892944206	118.297933702284	-52.1763329674193	113.458141448374	-0.00525994686962301	-17.4663028072873	
10483000	-0.378718084497422	-17.8591002534071	-51.2592835730279	62.3500922950453	-51.3375886956344	61.0927469825377	-0.384660561679045	-17.7235723671724	
10732500	-0.676942069203724	-19.7805539481197	-49.8891647793277	-6.38593373883558	-49.5708145743225	-5.5273916133613	-0.738995105345705	-19.0767311108633	
10982000	-0.684055612330044	-22.0216049363804	-51.6450324096447	-109.315639607377	-50.6403537364709	-104.345869041417	-0.773016864903776	-20.828805885013	
11231500	-0.383597766668559	-23.3838324476951	-56.7600176945632	133.281258103893	-55.5025292692753	138.16798530728	-0.4953546602296	-21.4523177741131	
11481000	-0.109390292084136	-22.8855688586943	-57.5806226359412	51.3788704616665	-56.9655556166774	57.2886340515399	-0.087222454061952	-20.8497240332493	
11730500	-0.0415672294253448	-21.055332024648	-58.0830163299282	-26.269534380443	-58.0010534996703	-27.3126199789264	0.0827811127784459	-19.8425412073611	
11980000	-0.192695137311005	-19.841292033325	-59.3032906994044	-77.7298884629661	-58.9576762363862	-74.3953007875835	-0.0861025570056952	-19.2380093913691	
12229500	-0.514611549656097	-20.5868097635722	-58.7499688251189	-116.836317272945	-59.0573726494129	-114.723984447181	-0.43641524135446	-19.9777515265787	
12479000	-0.730837520963321	-23.0252493760916	-61.2466666263977	-150.182132484621	-60.6717422595753	-145.500625565862	-0.696616676575278	-22.1799608082415	
12728500	-0.658967833656292	-25.6533945558368	-59.5501003634031	173.002008244596	-58.6381297025811	163.664537711091	-0.636129628928927	-24.6882655988872	
12978000	-0.393578290973838	-26.6446492153997	-57.7055290145383	114.599859621136	-58.9079206839334	117.193730127858	-0.389580884454942	-25.7414119582453	
13227500	-0.169563736563241	-25.3463635483115	-57.6737527948951	54.3329095780492	-60.0754522585664	51.5388693654269	-0.183530142753725	-24.7196841518053	
13477000	-0.110406652002466	-23.5372291737939	-64.6394694747617	-4.39947993972591	-65.1487395338594	-7.05914685877093	-0.153419020197733	-22.7338936192227	
13726500	-0.325008605543153	-23.0990756186101	-68.0444441561029	-65.5522516512216	-69.8441733029233	-72.1012896412901	-0.336640127567335	-21.741124554731	
13976000	-0.664911667752204	-24.5455163411932	-72.357621307214	-28.3754807866329	-75.2403427150146	-7.49524965898179	-0.620217454959429	-22.6447394780537	
14225500	-0.820844910248879	-27.237356035124	-64.2313757843368	-53.819863359314	-65.4074165712724	-28.7362003486042	-0.729432801346809	-24.9773772980649	
14475000	-0.694099499151592	-29.2632244520275	-60.112494480479	-85.6528868109463	-59.6597400469476	-80.7416159466476	-0.53894052394961	-27.2151217498467	
14724500	-0.399749534775602	-28.8428551690883	-54.7825483135992	-143.098906132904	-54.8886560987664	-134.905478501059	-0.210581176701796	-28.0580219847704	
14974000	-0.0964033606554944	-26.9944072971499	-51.1399951357323	158.416927064708	-50.712593763015	161.762736726254	-0.049041215889467	-27.4512620490144	
15223500	-0.124843371488062	-26.1767314758143	-48.7196738278174	86.5237229238775	-48.5442891197851	94.2168755211871	-0.221202159333907	-26.237479985592	
15473000	-0.538538713053039	-25.6819161274812	-56.9580532691717	16.5374299069113	-54.777270015303	22.9699338956015	-0.614517187732621	-25.4241864235351	
15722500	-0.803977983337606	-27.4515014254525	-56.008559864805	28.407812145735	-55.3467813727274	20.2798951203441	-0.923165988708017	-26.1637401643265	
15972000	-0.856668553679209	-30.4897162658025	-53.7799141382783	-10.1721635674698	-53.9108626204264	-13.7758419508507	-0.902678457583335	-28.1954707598922	
16221500	-0.63966663747935	-32.3447521116987	-52.7442066085327	-49.3633387797223	-53.1880021306197	-53.0691815112497	-0.56032331261676	-29.866996710436	
16471000	-0.350204399177062	-31.7620929967697	-53.9517292354552	-92.6253326861025	-52.9072347114906	-101.201443878864	-0.164711546104129	-30.0442643095091	
16720500	-0.1842649805018	-29.7783521954783	-54.3738163202516	-140.346757318406	-54.1189984697543	-138.197467532381	-0.000708653151133821	-29.0898639005382	
16970000	-0.298920736922137	-28.5007155765403	-55.8304716276875	-177.99486383029	-55.999078930527	-177.971877569318	-0.188054171372012	-28.1704603214437	
17219500	-0.636904092416883	-29.0361637370843	-57.3894971007592	149.505240250537	-57.6778551681739	153.463049997851	-0.602562979003555	-28.4011592832834	
17469000	-0.906591063931465	-31.365762427415	-56.1429789446588	122.953838589511	-56.3574691607448	114.531766836227	-0.952308083479832	-30.1197547437884	
17718500	-0.866058749421947	-34.0016944306099	-55.6393584081973	79.6480125641231	-55.1922163069594	76.146586994748	-0.960754687530967	-32.23217266091	
17968000	-0.561580851164863	-34.9761443755012	-54.098061898201	37.0503717262581	-53.642177138528	32.100207148033	-0.625466305972883	-33.1605639436056	
18217500	-0.247518069088969	-33.8350386530108	-53.135609761109	-14.275778959211	-52.9584680547789	-20.2762952371541	-0.245246255998326	-32.5633821689843	
18467000	-0.158564902401497	-32.0324044966454	-53.0968019700138	-66.0065194792634	-52.6671433446096	-71.2838839950538	-0.116757143252158	-31.2550949522146	
18716500	-0.384886621811996	-31.2827495537742	-52.488241162124	-115.250995251722	-52.3293660633858	-119.338010100298	-0.315178653085797	-30.485701804822	
18966000	-0.777973604958858	-32.4412404551721	-51.5720985219301	-155.902085220287	-51.3930988206237	-158.28713426903	-0.676444802768825	-31.1873606567968	
19215500	-1.01110188198869	-35.1807688129114	-50.7701630120094	166.574357188264	-50.0719276663262	162.488138298684	-0.890737406480675	-33.40719938671	
19465000	-0.89826932612193	-37.5635121047383	-49.4178047886905	119.707292408237	-49.2897237726075	119.433298920007	-0.789416832299737	-35.6969237314729	
19714500	-0.553040328986255	-37.9273876311712	-48.3845401688796	73.6402285698458	-48.1161355255063	70.4757078836906	-0.484125437363046	-36.512102983131	
19964000	-0.280069095489282	-36.507596277353	-48.2322825393876	25.6490497794563	-47.9373636759402	22.7478864016631	-0.268407959768235	-35.5173576157481	
20213500	-0.305349010484259	-34.873817062355	-48.8060513322634	-21.2474242744052	-48.7475485450943	-24.9470437595899	-0.313820859630465	-33.7991631567121	
20463000	-0.630020880029239	-34.4699795623746	-49.6905871934018	-65.4821287242827	-49.7375959927895	-69.1101517723501	-0.594616090717102	-32.9401800479613	
20712500	-1.01776877022716	-36.003241016925	-50.4213071421739	-108.212086403033	-50.4904270458257	-109.470516901373	-0.904270326931631	-34.0061599104269	
20962000	-1.14140465588852	-38.6668725078716	-51.4629630538165	-144.921332752481	-51.2248964036937	-146.814249869892	-0.970515156139271	-36.5257530591592	
21211500	-0.916116504883241	-40.3509604382989	-51.4806079570703	172.508197572531	-51.7505497456427	169.545906959142	-0.711207986793733	-38.6770723999603	
21461000	-0.529235526796178	-39.8105302763364	-51.2639202772996	125.717589011018	-51.0860581103326	128.643504045953	-0.343431507656626	-39.0895203023538	
21710500	-0.287993013563581	-37.9662321669436	-50.9945110810343	83.3735398178245	-50.8322970966495	82.0559460970915	-0.17102452244371	-37.9895386491637	
21960000	-0.385345473654463	-36.4881745702512	-50.3288642937899	39.8666218485287	-50.1280325127785	36.0974581632998	-0.345875789094531	-36.5553832035869	
22209500	-0.753779101871565	-36.6686069294076	-49.0388427472375	-8.73537427073137	-48.9183194242526	-9.74452640282357	-0.757535449167985	-36.1138812008921	
22459000	-1.09998273018131	-38.8262048673023	-47.9516010769024	-54.9769754973731	-47.6720672085994	-58.3762772012223	-1.09693473972071	-37.4452965126489	
22708500	-1.11801691148991	-41.549355632869	-46.6674136175556	-105.577971306354	-46.6805559744853	-110.786339489402	-1.08026649721086	-39.9139003976416	
22958000	-0.78436472193577	-42.7433293733636	-46.0713232212674	-159.279328665312	-46.1529579379007	-162.381015924091	-0.731197121921804	-41.630182387657	
23207500	-0.371894302816829	-41.9747217582267	-46.3038393476683	147.815762266124	-46.1520179913796	143.744321825902	-0.33980053693341	-41.5291815988227	
23457000	-0.222823811549471	-40.393945514882	-46.9888140533078	95.9120543143904	-46.7706896854544	91.3129584069611	-0.199707978095151	-40.1460319620171	
23706500	-0.462585878909761	-39.372551986822	-48.1922095282631	43.1550681301707	-48.4694259943929	38.2942473110956	-0.407840581416347	-38.9378491619868	
23956000	-0.891234030431591	-39.8658085772283	-51.0498359259551	-9.97800543050963	-51.1167119887619	-15.1215320022112	-0.811315619695266	-39.188816550139	
24205500	-1.13640477707504	-42.1976355028824	-53.8175099833851	-58.6097419787687	-54.6884215418768	-57.7605415216206	-1.10499147725397	-41.2175647693296	
24455000	-1.00042019074637	-44.8702636496193	-57.2061092656738	-101.675681073422	-58.6125702434578	-108.068949121706	-1.04846240952506	-43.726256948922	
24704500	-0.613767428552858	-45.7411733601029	-61.4771759654308	-150.18418660031	-61.2265144053303	-154.796872842319	-0.700001986939651	-44.549347128394	
24954000	-0.301693166460885	-44.5477353453213	-65.0244059983382	154.883485874353	-66.6993926502999	162.339719932165	-0.384091291823742	-43.7405736220894	
25203500	-0.281194404192467	-42.6624092057878	-66.0349703827442	121.821609388276	-66.0696221315391	131.575520674061	-0.335186960898347	-42.0799381263429	
25453000	-0.568309168243199	-41.8261858056976	-66.1245504251771	97.6724642198447	-75.2323040465546	66.6153618215348	-0.591672054341073	-41.1047700143282	
25702500	-0.96935939747161	-43.1520707765788	-72.1461784436074	46.8741571590712	-71.4324079641141	109.027791876306	-0.972716986640803	-41.9193644592777	
25952000	-1.13848349060922	-46.0917617223236	-66.6800286614494	43.9933342650975	-65.7327316565942	43.2949034829871	-1.15167836463128	-44.3817836482188	
26201500	-0.922768327761326	-48.4985774944237	-60.0857384960413	13.9418669217806	-61.2493156275161	12.5491262909428	-0.979143602963825	-46.7943145011529	
26451000	-0.525467427819651	-48.7180015401681	-57.8454890657078	-31.1234912549486	-58.1718782872429	-35.1742568436615	-0.614416982619392	-47.4868210411551	
26700500	-0.258624234286956	-47.1632656080766	-57.5034775078853	-82.7571948778331	-57.6432366653978	-84.8896412024614	-0.388080495886326	-46.3778912621338	
26950000	-0.332670477865534	-45.4531923406488	-56.1313740457764	-128.595235825606	-56.8314321127078	-127.664760820978	-0.477913710434779	-44.6475481886203	
27199500	-0.683756204773898	-45.2256629327705	-58.1035749553131	-179.509198896073	-56.1548723328237	177.612075877183	-0.827587552943449	-43.8921895523774	
27449000	-1.05226173199598	-47.1515146819308	-58.024769998102	144.087960656638	-56.7162006513214	136.137775730777	-1.18378869564214	-45.1357237660222	
27698500	-1.11250737375985	-50.2272674248939	-58.071559801923	92.6907968776963	-57.7940887215732	91.5235967577756	-1.24362134501623	-47.7439011231842	
27948000	-0.805186906126865	-52.1606589470402	-57.461082418966	38.7611255508743	-58.1441751195553	31.0006880315231	-0.936834187883457	-49.7895977813066	
28197500	-0.436038818033526	-51.7587057381959	-61.3321800158556	-26.7373110721527	-60.4912778108667	-27.776829239175	-0.538780364230827	-49.8553087610326	
28447000	-0.291418575269966	-49.8445406231021	-60.8841529052317	-103.548179396251	-60.4736234609873	-89.8516948149679	-0.35397975178973	-48.3897513555007	
28696500	-0.492746054753228	-48.268764737821	-61.4921529217441	-146.834389716892	-60.7616996689327	-158.692201383873	-0.538113948661987	-46.8306956832912	
28946000	-0.906046977346995	-48.5237798951578	-61.345444152057	146.617768330825	-60.6144990688449	145.2720134887	-0.953451254374477	-46.5996273422892	
29195500	-1.22701019316761	-51.0039713054484	-60.3854632276583	97.8092803368161	-60.9854446761056	89.4752022819212	-1.3036851693885	-48.3359294466309	
29445000	-1.17468656613485	-54.1166477696106	-59.7778299165254	38.1176592902185	-59.9691493318086	47.7670640300133	-1.28417429764727	-51.0000267618384	
29694500	-0.814235003408028	-55.4120387555885	-60.6665205425896	2.78434148807608	-61.8774056728033	-6.32016564640938	-0.917999471603731	-52.5708817118519	
29944000	-0.471332827355558	-54.3470898561739	-62.6904823521509	-28.8435351772377	-63.5979291399785	-37.1665727834783	-0.521288080030334	-52.1660065821548	
30193500	-0.412939442352637	-52.2033850741013	-66.3905768965285	-61.4833619382355	-66.1973995688552	-61.7654169022703	-0.4076893853803	-50.6142198925777	
30443000	-0.677755760801994	-50.8363492440389	-69.6661131419513	-75.9792909348882	-66.6638762836012	-127.064373564563	-0.651394389784652	-49.3961512958458	
30692500	-1.08632433721875	-51.6565908311919	-67.6473006721541	-127.222529290204	-65.0676119886449	-139.090053296691	-1.07049352553434	-49.8301971328101	
30942000	-1.31031443021752	-54.4676118886106	-67.2730826970868	-125.281869192104	-73.8350697296702	-179.528683913578	-1.33857624493558	-52.0325191070101	
31191500	-1.13165212271476	-57.2165199337591	-66.2440733770415	148.544729060383	-70.7065148555225	170.345349981124	-1.22654981822467	-54.4885504486886	
31441000	-0.728102786032018	-57.8088760857064	-66.2288870274746	79.0229910693262	-64.1078884061911	70.8583322905391	-0.840464343913094	-55.308544518782	
31690500	-0.448898107924386	-56.3084059096904	-62.6912328000638	39.777056278247	-61.2178331710587	16.5875239230726	-0.511960289210408	-54.1206561967141	
31940000	-0.505729333386717	-54.2831124604458	-62.6687494413021	-34.9237495967185	-61.2922753341251	-32.9782977926876	-0.513236631287766	-52.1779108238382	
32189500	-0.878176496859695	-53.6198902711652	-60.5224772312959	-88.8243596275071	-59.9628279194299	-91.7381090691	-0.835532568726405	-51.184215776848	
32439000	-1.31487639593251	-55.340952366631	-60.0670735530579	-132.5532345392	-60.3008666718542	-133.603112801167	-1.25976000840081	-52.2741351477825	
32688500	-1.45745405765502	-58.6533193860812	-59.2955654886838	170.854701613513	-58.6659669061017	174.617214931601	-1.44213694430354	-55.2634269064763	
32938000	-1.18588566670347	-61.0384080650459	-60.6675921144974	127.024373110544	-61.2256592829772	124.274523802009	-1.21109040923787	-57.9853659831547	
33187500	-0.764399365177408	-60.8556717781278	-59.8603022465979	57.9450859386372	-59.7561106227479	63.0436525242164	-0.78477394458226	-58.6115986427788	
33437000	-0.545608714708459	-58.7665951635764	-60.6861803788797	-2.00788661521216	-61.774307670477	14.8406857222459	-0.515447916075316	-57.2122856927119	
