!Keysight Technologies N9923A: A.12.45
!Date: Saturday, 02 August 2025 20:02:25
!Timezone: (UTC+08:00) Kuala Lumpur, Singapore
!Model: N9923A
!Serial: MY61181427
!GPS Latitude: 
!GPS Longitude: 
!GPS TimeStamp: 0001-01-01 00:00:00Z
!GPS Seconds Since Last Read: 0
!CHECKSUM:0039369910
!Correction: S11(ON U)S21(ON U)S12(ON U)S22(ON U)
!S2P File: Measurements:S11,S21,S12,S22:
# Hz S DB R 50
2000000	-0.0648893968414564	-2.16083064288788	-70.6487810045674	84.1777128300515	-69.594855232854	66.4547832550405	-0.0751106167906025	-1.60384257425869	
2249500	-0.385847501337316	-2.83471679431878	-65.7858064383086	73.7486250944265	-66.6544607128868	69.9468895115368	-0.39703316509267	-2.35324534056005	
2499000	-0.533168813429337	-4.5732164677855	-65.6867875197993	-5.71330252486739	-62.8501629038547	-8.4771409068843	-0.571492793218896	-3.77081281302749	
2748500	-0.37519744355526	-6.36363133846169	-68.5476495220727	-44.0969762022188	-72.6436041831206	-63.0608214605975	-0.369344656952638	-5.75507088955885	
2998000	-0.0980464645843323	-6.95708958746982	-68.7549878656714	-29.1073061510243	-62.7307667717819	-57.1239827578186	-0.0532200475877724	-6.7003181933907	
3247500	0.168193006044057	-6.24981351839676	-65.677761180609	-90.2736594524468	-66.4483624363336	-95.6190078328284	0.150175159733374	-6.41441851771228	
3497000	0.119930782108909	-5.65767892698421	-68.889353778712	-115.451772612625	-66.5153849623371	-98.247993965237	0.101054267811589	-5.7260078725048	
3746500	-0.183115574279264	-5.72502430811043	-65.1433025277038	-115.489473325433	-64.0715356777683	-109.367863301768	-0.178123352381464	-5.57041023490592	
3996000	-0.505874734028557	-7.08261760081798	-57.0834952739183	-141.763741746632	-58.6083804262896	-146.368242082024	-0.463752166497945	-6.56896875278923	
4245500	-0.577605057899903	-8.73395125378047	-51.4267866995693	123.842876849065	-50.9937782249737	126.428232978989	-0.526602026449076	-8.28083031421577	
4495000	-0.288006812649368	-10.1886882654521	-52.5651457808475	44.2553510525342	-52.0590790359526	45.9124113350932	-0.355272445528625	-9.49877009669691	
4744500	0.0473653059155803	-10.3675451266715	-56.711188814003	-51.1527791096658	-56.0670629282165	-46.1146030466332	-0.0228202343519442	-8.818286794763	
4994000	0.147505167867239	-9.52798526360915	-57.4610225482111	-146.994828352184	-57.1693535997777	-143.452084222268	0.173226895330961	-8.14864812127276	
5243500	0.0318785758019075	-8.29364979007173	-53.2822878233299	92.9696784985672	-53.047118776956	94.3199575533152	0.0370800358767296	-7.69567195809755	
5493000	-0.349415655330334	-8.35997464707241	-46.7792595371165	-23.7986024191835	-46.036836204984	-23.5168877208572	-0.3057161092692	-8.09969801650067	
5742500	-0.539047993059816	-10.0445083983891	-53.630078321672	-93.0033412063145	-53.2951789051147	-90.1354869575133	-0.523688924912755	-9.89715031679222	
5992000	-0.490349976927957	-12.30938872653	-54.2698985511282	-114.36518042448	-53.3425070524551	-117.676976851872	-0.472594031085545	-12.136351267548	
6241500	-0.214888762658448	-13.7312811026832	-49.755636902068	-147.521952958998	-49.4883921670922	-149.363459240605	-0.166549917988105	-13.45842949345	
6491000	-0.024972504429689	-13.0035606012003	-44.3149601058318	139.186287692268	-43.9918667169616	137.678492834914	0.064877961082747	-13.1822223412845	
6740500	0.123060971926301	-11.717356117771	-44.986074196254	62.590524483388	-44.6634945834815	61.2377764309374	0.0567829355447602	-12.1846280496715	
6990000	-0.0778539124389487	-11.4288484266681	-46.8762236193172	-4.04248447285496	-46.3429761633595	-6.28875973176884	-0.225216204002001	-10.6050526307299	
7239500	-0.418566560995059	-12.443822732822	-50.4308073997799	-50.9141737404024	-50.1804906292321	-52.0524313545298	-0.457368082615066	-10.6837249547499	
7489000	-0.604442110769881	-14.667455490065	-52.7176997953703	-80.2210560089823	-52.6067422163543	-84.4788723658717	-0.574992256846679	-12.6722163417536	
7738500	-0.509558675478835	-16.8066558854138	-51.4814586361903	-112.660832121866	-51.4054664200776	-112.769266470842	-0.422941230002691	-14.8371159538889	
7988000	-0.237880470605653	-16.8598359409775	-50.722970817511	-167.595997489242	-50.5266675885814	-168.608202326389	-0.0922483410768544	-15.8396958787908	
8237500	0.0830674597849343	-15.6280299698971	-52.725695976155	146.273899352451	-52.6236958112546	144.488401286122	0.142964122623198	-15.5513833686607	
8487000	0.0910722065231497	-14.6183317405883	-54.2338622144851	112.421779116828	-54.1150027883156	115.069767650315	0.0932773774723329	-14.8374748598919	
8736500	-0.201257115821996	-14.411453411474	-54.1852333135488	79.5629833360489	-53.908766220666	83.8968867289018	-0.241069231935238	-14.7336319331761	
8986000	-0.552556870243326	-15.6590838244525	-52.9346501204765	36.0557939306697	-52.6697701430193	36.9153240694421	-0.66818257672989	-15.7200552613921	
9235500	-0.661867494564398	-17.8751604798077	-51.7961695360833	-20.0111487900184	-51.4918119734539	-15.7448015808266	-0.819045067584824	-16.8114887473055	
9485000	-0.450234924828127	-19.6292643921412	-53.5186387615316	-76.2883408832949	-53.3223572277806	-73.824345842774	-0.502169419101071	-17.8438770724371	
9734500	-0.126031292681099	-19.8282840669629	-54.0205315662664	-121.858399328312	-53.7753343519613	-123.389196466858	-0.080474885771749	-18.1989100647171	
9984000	0.0371418686739864	-18.6871468367318	-54.5232738300318	-171.319352821283	-54.1874334718723	-170.793871545152	0.133160730515795	-17.5670948920241	
10233500	-0.067265118763226	-17.5702141929791	-55.1533692875683	142.727538924925	-55.0719998275029	138.642507146272	0.0311266717136378	-16.8665721140483	
10483000	-0.379817909190961	-17.8475919616524	-55.6708195151315	90.0622385893576	-55.3730683199041	91.3037699769607	-0.303487699987444	-17.1608531515059	
10732500	-0.668169144314177	-19.8086907641962	-54.5763983985169	37.005359405505	-53.6949255334521	39.8664121789216	-0.616050700413072	-18.9380142025649	
10982000	-0.692785082231112	-22.0654355854086	-53.1582623739867	-56.1853289360961	-53.3536510243809	-53.9116449645503	-0.655969260269356	-21.3033189344911	
11231500	-0.390282021959011	-23.3533759717753	-56.3079912783936	-170.206877813806	-55.4874382024794	-167.570188198043	-0.456773364957231	-22.8122950653937	
11481000	-0.112501091650834	-22.8418391487317	-55.2129059876707	103.829494599287	-54.4055033767999	104.936041320528	-0.239480433672377	-21.9641413673497	
11730500	-0.0426636587083288	-21.0222334475568	-54.6173190758488	24.1208904735164	-54.0851362959789	25.4990324300894	-0.0890007504355625	-19.8962853395773	
11980000	-0.193441848905629	-19.8172333589559	-56.4907931278498	-35.9514850096961	-55.8675498045006	-39.6914726805266	-0.178347799301237	-18.7878918874717	
12229500	-0.514584372036	-20.5666664619754	-58.3469631584458	-72.3227094900603	-57.685771452712	-81.707648557406	-0.464516881346776	-19.3335023362392	
12479000	-0.749964441627448	-23.0107920233235	-59.2759238556955	-105.16016062306	-58.8966430126607	-99.0342862349387	-0.65766119495274	-21.4328621211543	
12728500	-0.662722989335067	-25.6563605934887	-58.6829794632471	-132.006441704078	-58.2792719714308	-136.125102524037	-0.563009964891447	-23.8996976243933	
12978000	-0.403477553500977	-26.640516091612	-56.9837872580184	-170.217557949351	-57.0071193007921	-172.298871790647	-0.258953890278506	-25.2575940574314	
13227500	-0.176050516773755	-25.3323922405934	-56.1529518071	146.364112354011	-56.286937248446	141.147236020565	-0.0453762131327391	-25.0662494352071	
13477000	-0.112108368649129	-23.5405320365209	-56.9772929880145	96.2734033973261	-57.1065182038347	96.9595269471937	-0.140650384632296	-23.8625693262223	
13726500	-0.326803353202325	-23.1054411421228	-58.890492627763	57.2699459740468	-57.5803302411469	53.2423624177445	-0.480121498148386	-22.517954393307	
13976000	-0.666917269529498	-24.5252652051003	-58.7412744854777	7.0141457768127	-58.5043029584312	5.71673689610457	-0.77006659481176	-22.6365954432284	
14225500	-0.826376556973785	-27.2217404407135	-57.2731057759443	-31.0972040330102	-57.5733886138951	-28.445298414567	-0.808123958351546	-24.6329027222852	
14475000	-0.70270805087482	-29.2420597719777	-55.9137246494	-71.0329323348765	-55.2684007786701	-69.2827933026264	-0.557185995391335	-26.7738570357713	
14724500	-0.405743225986004	-28.793531275347	-52.8105653435342	-124.800040140942	-51.8480005503767	-127.49815951675	-0.177860667883881	-27.5991591733559	
14974000	-0.0907767818857522	-26.9866934861743	-51.0997273474384	170.443688363814	-50.8142853018893	166.463096801519	0.0247696803063617	-27.0842305300354	
15223500	-0.149676860136913	-26.2579672656068	-52.3434885710688	77.4040867826599	-52.7881501601843	73.9544045506846	-0.133792308983166	-26.1467491757496	
15473000	-0.52653935666296	-25.5893978001531	-58.7980728881989	-163.186737897608	-58.8616687635344	-179.137981512341	-0.563940951407369	-25.6946306853885	
15722500	-0.803159803046453	-27.4532890411604	-51.8346328842685	101.552081839681	-52.2171462021668	98.8279129574361	-0.95266252772271	-26.3363352130157	
15972000	-0.859781491534444	-30.4752851137452	-50.4392962454367	41.4957687158962	-50.9627707941955	38.1355880931241	-0.935230300863998	-28.0896761168011	
16221500	-0.648796483582327	-32.3257388990842	-50.1801619633017	-14.1371717071824	-50.2562543462345	-14.772569831224	-0.566277864326172	-29.8385984072106	
16471000	-0.359074650081006	-31.7324017035023	-50.9365364322064	-66.136572844419	-51.110252077711	-66.2173203675602	-0.158132044983093	-30.2475398168423	
16720500	-0.187392198690104	-29.7633927390254	-53.0163539240608	-116.238193267308	-53.0576778345384	-115.566129873225	-0.00228515507156564	-29.5164594506553	
16970000	-0.300372590108042	-28.5090921343929	-55.8138917444043	-162.913258401527	-55.6626273713696	-166.483568614727	-0.223298134377383	-28.6440276875441	
17219500	-0.636219960132175	-29.0325970562622	-58.8134193780948	144.700088703817	-59.4427453113985	140.077665221251	-0.681995985334979	-28.5591248934039	
17469000	-0.908917148087947	-31.3426160769044	-65.0084194395977	80.0832968406642	-64.6311575146058	66.2704523710869	-1.01318991341686	-29.5995652222371	
17718500	-0.871648752433247	-33.9728869242731	-70.2971424279076	-18.3308429669902	-69.3823410608732	-63.8156476955335	-0.9285431148102	-31.3305529497234	
17968000	-0.571823242790758	-34.9235005604888	-66.4834288266655	-154.020622722194	-65.1230605590411	-149.621100667732	-0.525780048883304	-32.5769547511599	
18217500	-0.2541476416407	-33.7824851434619	-61.8716622496055	134.370155044622	-60.7525917686492	138.10666790306	-0.150685252174016	-32.5406548251274	
18467000	-0.161484742569953	-32.0102308783623	-60.2378696981508	76.9598233680098	-59.8752052204265	72.6396081641626	-0.0714979243794422	-31.6855904299186	
18716500	-0.383288596411987	-31.2407727901547	-59.4718358035143	21.1445504277483	-59.1825944760531	19.5734431761504	-0.341996089834173	-31.1857154336615	
18966000	-0.780065857928573	-32.4044355414437	-56.4056803351896	-31.1442645774143	-56.2353445720612	-29.6021560338409	-0.771268153446653	-31.8893439419472	
19215500	-1.01435032553448	-35.1405548705471	-54.5998360006698	-81.6758022834538	-53.811379620586	-82.8868185075769	-1.03323788722302	-33.7749174782451	
19465000	-0.903705150687074	-37.5103696196672	-52.1912168501624	-133.169745186511	-51.7482957703655	-132.332216376542	-0.920631759911178	-35.4322419207031	
19714500	-0.562807939685197	-37.8879671356246	-51.4204711725537	170.289602963767	-51.3329238843662	172.360566678834	-0.528053873505544	-35.6762119221024	
19964000	-0.285251103581285	-36.4800415517264	-50.8254344019722	125.099398232112	-51.1511091987228	125.030820404649	-0.199169285189203	-34.6008467155315	
20213500	-0.30898429542525	-34.8749800006263	-51.7869842903454	84.7120509117962	-51.3209526884434	85.3006928677852	-0.171904948997107	-33.320361243431	
20463000	-0.634320426456396	-34.4770159708157	-52.1732848016853	45.2193039022394	-51.2000280769275	41.2301869821452	-0.457870897298539	-33.0238887442843	
20712500	-1.01659397018063	-35.9912929667666	-52.4138053413141	3.44247858934092	-51.9000815096787	6.48156926995828	-0.830230988285123	-34.4818306634952	
20962000	-1.1462307163067	-38.6227079202463	-52.0635369467335	-27.5217425411024	-51.7545430480418	-24.5163650483439	-0.977970402402726	-37.2062329433301	
21211500	-0.923194126799367	-40.259854625631	-52.2512038510304	-63.5496023558797	-51.3860742314015	-64.978212432671	-0.792058289660145	-39.3101730348533	
21461000	-0.536248787479547	-39.7324967553876	-51.1889625018118	-101.228176003776	-50.6905315678212	-103.998165395627	-0.465060336577894	-39.4094248488962	
21710500	-0.293947543755007	-37.90540418683	-49.9955001745853	-150.385242262599	-49.8862794928988	-150.968912548809	-0.281181115241879	-37.8244884429997	
21960000	-0.387381011146167	-36.4587827693561	-49.8314726053485	163.245811708953	-49.5234149219244	161.395450788161	-0.381090554108912	-36.0163764838276	
22209500	-0.756848803867166	-36.6545652693567	-49.7654884115808	115.518866874855	-49.1870182782429	113.836480832838	-0.697029511483911	-35.5670260913641	
22459000	-1.10285541439114	-38.8143264521198	-48.5719824125318	65.3997778210973	-48.7734727922033	63.0262561712148	-0.980931286575106	-37.1566540078499	
22708500	-1.12812132336425	-41.5179524419832	-47.6354848133654	12.1642038584312	-47.5176265905426	11.8263603027117	-0.980898661893349	-39.8941262604164	
22958000	-0.794604641392914	-42.6505532334492	-46.8547804632811	-40.8277612216378	-46.7484191170773	-42.5326946243554	-0.676862740548485	-41.715030091181	
23207500	-0.373408645669728	-41.9005494830521	-46.7485685881811	-96.1774132791253	-46.6732937742459	-99.0451580624129	-0.326748125351627	-41.6645402474302	
23457000	-0.227303962002	-40.3845062602863	-47.4286608921755	-151.797371580195	-47.1219146794155	-152.398774147953	-0.220359661152564	-40.3685050675116	
23706500	-0.47177127183126	-39.3415311859446	-48.2631670240059	159.527985605295	-48.4581708244592	155.774745192702	-0.460026593453185	-39.2259247531843	
23956000	-0.890161610796851	-39.8420891711712	-51.0742438412707	106.236034973564	-51.3860815338174	110.137918506741	-0.88733272795682	-39.4575317657978	
24205500	-1.1374200733415	-42.2003994704812	-54.3402819391489	67.1592485807333	-54.3150826714808	64.0057584409245	-1.18161133771469	-41.2624640884361	
24455000	-1.01099764933979	-44.8115302327754	-58.6208707676523	32.2460743421872	-57.3272085008778	34.7026724594857	-1.08777969026178	-43.4993704649406	
24704500	-0.626088454356993	-45.6480995562397	-62.9494312643981	19.9328875123067	-61.8404218316449	23.2597165844218	-0.675258269176305	-44.1707494235559	
24954000	-0.304878022854403	-44.4466292322094	-60.8762008814578	5.52278236420162	-61.4389560489977	12.5906263604993	-0.314488245106539	-43.4314433115438	
25203500	-0.282147415599514	-42.6138914424246	-62.0425629433584	-13.3270675486462	-59.4799436315606	-10.9010097422341	-0.259480635020333	-41.9525408357221	
25453000	-0.571437912472825	-41.7998117346794	-60.1311591869584	-65.4129091030902	-60.3658704219927	-57.9687585244048	-0.537172294730308	-41.1302048036973	
25702500	-0.975916221766273	-43.099471335114	-61.7764905751127	-104.072611929126	-59.3921087815587	-87.8241473673868	-0.957647588031565	-42.0184936779913	
25952000	-1.14552155991418	-46.0387087563355	-58.7070780030582	-134.339433365946	-59.9149020841532	-147.233320381832	-1.18298203107727	-44.538915394013	
26201500	-0.932082246577417	-48.4373709781751	-59.4909569991685	168.258426624368	-58.6410476788513	173.778897613709	-1.04204523430896	-46.9089334954429	
26451000	-0.531264623337803	-48.6626157500523	-57.7785062650305	107.919528440937	-57.1131445535398	106.960660479773	-0.677411277488696	-47.4956100481484	
26700500	-0.264090504865821	-47.1410212684202	-57.5235053369503	51.7152894653694	-55.6041388458574	54.5284445764961	-0.417251613340767	-46.2878422991895	
26950000	-0.336150602530034	-45.4474800604213	-56.2943919267325	0.182480342426742	-55.7268006497155	3.13700361763096	-0.459517050603285	-44.5872305015979	
27199500	-0.68929765136205	-45.2140964446948	-57.546733885585	-50.5630931428392	-56.1683350040453	-38.4556532811806	-0.769213814164532	-43.9111705856799	
27449000	-1.05795081531441	-47.0944177391387	-55.9073651811064	-91.2593287028908	-55.4095531881566	-83.3030323057985	-1.11072411675231	-45.2354001488585	
27698500	-1.11606043100002	-50.1460055476069	-55.4359106417924	-128.827014227222	-56.1082621395585	-132.387463170566	-1.18582792607204	-47.8022911297551	
27948000	-0.817375305896982	-52.0466265185533	-56.8138164245268	-177.109517906439	-55.8677138853012	-173.283487216911	-0.908907467127568	-49.7714989525673	
28197500	-0.444684289068474	-51.6694518726594	-57.6541326395405	139.140472966937	-57.0874692312582	141.039816128658	-0.534372119189571	-49.8207434529328	
28447000	-0.296929602779049	-49.802523281385	-58.8054426352419	95.5632056919718	-60.0248662291267	93.5743255640834	-0.378981400449386	-48.4071782848233	
28696500	-0.498476593275528	-48.2719380203863	-63.9817265184082	31.5813098281695	-65.2815677124265	56.3250287657779	-0.579579543692498	-46.8423572572787	
28946000	-0.912313734694475	-48.4891718276973	-65.7089072408584	-4.8823492392306	-65.9667051895662	-16.7540157638363	-0.994785950730829	-46.6509650309168	
29195500	-1.23310219975432	-50.9210502421186	-70.0161450935729	-72.0202911146488	-69.6170299989471	-79.7139407867328	-1.32181585384881	-48.4359138809718	
29445000	-1.17888855368544	-54.0131471467615	-66.459356267651	-129.964574741598	-67.1820350705304	-158.274174755317	-1.27060914987265	-51.1536877510779	
29694500	-0.821343123284817	-55.3100295514596	-67.2845401580342	176.916765037269	-67.2013218716794	175.723782383992	-0.884124783132389	-52.7566655694081	
29944000	-0.480690418761247	-54.2741906693344	-65.5870744855485	130.799264353776	-65.455007226991	140.47753929753	-0.487947658560696	-52.35249788442	
30193500	-0.424886503433937	-52.1570849703376	-61.4147599744576	104.431136210106	-62.6409776291823	104.240642549959	-0.385893222049417	-50.7261937959876	
30443000	-0.687012322484278	-50.7882166407689	-63.8776385965262	78.282885013805	-64.6522556968571	71.8336684242395	-0.647528915165821	-49.4066704823199	
30692500	-1.09196963721687	-51.6595950342397	-60.3833509882276	9.95202955294166	-63.0923696732201	19.8844673524175	-1.08826932060388	-49.7125297939817	
30942000	-1.31154744658133	-54.4343608028172	-60.2116710471462	-11.5189153004173	-60.5061807841433	0.210211976113542	-1.37743569669993	-51.8563575156672	
31191500	-1.13382992389301	-57.1258045682015	-58.8925224490686	-62.6407383157443	-59.3038401395949	-65.046414014076	-1.27407970522697	-54.3344661319953	
31441000	-0.733464733985441	-57.6879506019083	-58.9866783958581	-98.0309085053537	-58.4292278060167	-108.901062633659	-0.879822370225388	-55.216183777692	
31690500	-0.455875479524828	-56.1870161996052	-59.9083042053354	-158.056013799734	-59.5083071847217	-159.154237642586	-0.531294550349387	-54.1302548639639	
31940000	-0.514136231565959	-54.1574542930031	-59.1010039279361	146.647214894408	-60.4301294078719	139.715311439201	-0.510817380416339	-52.3013698689634	
32189500	-0.887138372393487	-53.5166296536682	-61.4929266179979	84.3007392415467	-60.5260052628564	72.2874881134171	-0.816784418224945	-51.3390678662659	
32439000	-1.32084666976566	-55.293443997661	-60.3505569266302	18.3376385645088	-61.2572005630784	23.2328913542075	-1.22901521791013	-52.4142628014924	
32688500	-1.46462439925242	-58.660138852855	-61.2387715413435	-32.9129319875977	-59.6052662386181	-47.9700272111793	-1.41469125697439	-55.2796276645687	
32938000	-1.19044426108851	-61.0130751213654	-60.598932820361	-74.6158877610369	-60.10767195606	-78.637585879383	-1.20564533053117	-57.88014038118	
33187500	-0.771513471694264	-60.7967589285203	-62.7383838287362	-115.799479337615	-60.4602608722284	-117.861538829355	-0.794863689512498	-58.4016220502121	
33437000	-0.549810963274508	-58.687426970278	-64.2089809230975	-157.235595483585	-65.1344982560978	-165.084823564511	-0.528364996421543	-56.9801380073777	
