!Keysight Technologies N9923A: A.12.45
!Date: Saturday, 02 August 2025 20:03:51
!Timezone: (UTC+08:00) Kuala Lumpur, Singapore
!Model: N9923A
!Serial: MY61181427
!GPS Latitude: 
!GPS Longitude: 
!GPS TimeStamp: 0001-01-01 00:00:00Z
!GPS Seconds Since Last Read: 0
!CHECKSUM:0293908248
!Correction: S11(ON U)S21(ON U)S12(ON U)S22(ON U)
!S2P File: Measurements:S11,S21,S12,S22:
# Hz S DB R 50
2000000	-0.0642531414781867	-2.16819845346876	-68.4653726519037	83.2625275518784	-66.6711873102869	82.9427391324455	-0.0789730267773607	-1.56329838037644	
2249500	-0.387750036948164	-2.82117865924062	-65.6087650607857	56.2815662993569	-69.1158890546049	25.3004669108139	-0.413289456684556	-2.36787682460636	
2499000	-0.533587757680788	-4.56764581867743	-65.5675701339113	-55.91818395929	-64.8846294828453	-40.1745100847271	-0.545958471405289	-3.82068041392059	
2748500	-0.375359033762857	-6.36700870568512	-72.2404969994404	-56.7118441648153	-72.4359093141191	-34.9166110697437	-0.37259384193512	-5.87503227360263	
2998000	-0.0922937028864348	-6.96226087988322	-71.0199939965046	-40.302155989443	-74.2960281831789	-28.0246114775392	-0.0535899696329996	-6.7664788333727	
3247500	0.16412785440195	-6.23631582692995	-70.2598449453334	-92.5889378944812	-69.9624712168979	-85.376120072841	0.151644562951654	-6.44608162909509	
3497000	0.11895628778074	-5.65686921748466	-67.3323647125819	-113.344156641021	-67.3890286380621	-105.926291892568	0.103986055662118	-5.69234032279136	
3746500	-0.184057635326293	-5.72705546895526	-65.3622705565985	-111.804715500656	-63.8971213032967	-130.422773540611	-0.17663819668386	-5.48097612062464	
3996000	-0.505125378573711	-7.07755989500432	-55.0819958246579	-153.047759046356	-53.8650629343231	-147.382331198892	-0.476146239995105	-6.48591822215062	
4245500	-0.574682574352604	-8.73051802906945	-49.1080188191689	104.111672511343	-48.3977742943974	96.0318055985329	-0.571089089989581	-8.02550247246349	
4495000	-0.290965666759931	-10.1814022448405	-52.3600056363443	-0.519077052407798	-53.0699874596324	-10.3644421594015	-0.341978476773417	-8.71178576246507	
4744500	0.0509611306105091	-10.3505926721303	-61.4870754153029	-69.2977698666623	-61.632681412011	-72.017325769921	0.0298077138197398	-8.85857040678735	
4994000	0.164828941097268	-9.58907878120407	-65.3116502595171	-124.113623029876	-67.390654154377	-134.613780186408	0.185310709583699	-8.30177320863112	
5243500	-0.0162107141392324	-8.16931981845338	-69.1702891536652	98.2310014077278	-66.7184122257927	89.0875994616907	0.0395150744371547	-7.85117212679612	
5493000	-0.29114497152977	-8.43972511450732	-65.747923760051	33.989301345012	-65.4032699904094	59.6150305438	-0.286845211895223	-8.40293264268867	
5742500	-0.548636451689888	-10.1986199032279	-50.5202612178593	15.9960054258102	-49.9947701549837	9.5583952389951	-0.573935846342403	-10.3179589245239	
5992000	-0.493047980319566	-12.3074358441909	-49.0691961480266	-111.05407165231	-49.2699097631874	-116.196773292061	-0.477551681432919	-12.0040456016583	
6241500	-0.18908069579963	-13.7488228213811	-46.5975902404566	-160.77316370625	-46.2208722820235	-160.849671610601	-0.196582714355368	-13.3229658839762	
6491000	-0.00480056286527649	-12.9538158200036	-41.6863034490756	117.009535145544	-41.4949042613963	111.800355308497	0.0273823813210892	-12.8770252689736	
6740500	0.113966235877212	-11.7479414409101	-42.9619944416439	25.5643117091805	-43.1962760652041	15.8794311660035	0.0275015887365888	-11.2513883888533	
6990000	-0.0756421128054624	-11.3992872396094	-48.7244356042839	-41.9994444503483	-49.1983130444207	-47.2289846559532	-0.102208091170052	-10.1063299507267	
7239500	-0.416205908203482	-12.4501845241414	-52.8523297893684	-76.3095063358801	-53.3057845059075	-78.6915502138941	-0.393699621619055	-10.8525626086829	
7489000	-0.603586003215421	-14.6967452051945	-53.3126123775361	-95.0296569163598	-54.5158597219799	-102.449835585273	-0.555088688903249	-12.9525064945444	
7738500	-0.509206263178441	-16.8106426244308	-52.1869688750901	-124.341124371752	-53.2493341658157	-126.640354765655	-0.41669429349268	-15.1589237229849	
7988000	-0.237120073854686	-16.8413317048441	-50.4088184339279	-179.430803083436	-50.6599591447378	179.631767933071	-0.0984888486528868	-16.2063963730239	
8237500	0.0874099927176231	-15.6231651787124	-51.2790911934561	131.576322716143	-51.52634864467	128.423350886158	0.118998171365247	-15.9150123117436	
8487000	0.0944638421976607	-14.6367368890339	-51.9094876212781	91.4316476824879	-51.7005071588601	86.79690630326	0.0201957478265827	-15.06314906859	
8736500	-0.202163955523933	-14.4424846106849	-50.8138353645719	40.9610042216552	-50.931978208033	33.6497018508747	-0.370883701473463	-14.1637106511459	
8986000	-0.554032109014958	-15.6739229328242	-51.973970268059	-17.1516356945746	-52.3369294833737	-24.3517457641545	-0.648439931101412	-14.1519173892883	
9235500	-0.662146754777424	-17.875192001131	-54.7572112245814	-65.7570833117416	-54.3789820085969	-71.8279098068219	-0.641597237586848	-16.0487020709458	
9485000	-0.446414968704818	-19.6374153046671	-55.7208471301759	-106.89952176425	-55.9321838835691	-114.282535234908	-0.376371615599026	-17.9731297182993	
9734500	-0.121514316060633	-19.8378395172906	-56.0790020538098	-140.880262130273	-56.2960224277368	-153.631172252882	-0.0242279756206384	-18.6028018502797	
9984000	0.0391986024113028	-18.6953701437332	-54.8722397737207	169.991674948631	-55.3018868976673	165.97847336781	0.146135359373038	-18.1015631116384	
10233500	-0.0660159497201996	-17.5660599707231	-54.7703581882509	120.632514941451	-54.6381886388475	119.929799795095	0.00277042620746857	-17.5157907626393	
10483000	-0.378769716317695	-17.8401017290244	-53.820312220087	75.1129238595653	-53.0647289242058	69.060711220734	-0.389114081087665	-17.834040056225	
10732500	-0.667251113103317	-19.7974027407135	-52.5290702698665	14.2015183032427	-51.7346940152268	2.55117018147893	-0.783792487617078	-19.2794487899379	
10982000	-0.69335952983077	-22.0707924321884	-54.7353362932004	-88.9372067442895	-53.9269560854308	-99.5326941817118	-0.866102714583606	-20.653028326364	
11231500	-0.387495806315323	-23.3524857828368	-62.759617656675	108.643958482063	-63.2569289299413	108.052749322378	-0.51720242812693	-20.9636709321687	
11481000	-0.106435323665731	-22.8631755443127	-62.9909533758851	12.0970746790667	-65.7096966006981	8.06467435615365	-0.0750401739752835	-20.6095959713172	
11730500	-0.0413805161595528	-21.0569908741909	-64.0527180922629	-54.597182621653	-63.4043499031027	-33.2663232856261	0.0940166274115077	-19.7086589019418	
11980000	-0.196709644848144	-19.8446995844589	-63.8538629819922	-79.8279494196714	-67.0426008922609	-84.1619002633309	-0.0780197628450723	-19.1304705945526	
12229500	-0.515339163996858	-20.5815828004437	-63.0780566616699	-117.409569394491	-62.9955529674777	-107.995681559622	-0.430467528599291	-19.866720747564	
12479000	-0.750299478400823	-22.9925693819325	-65.2998889038657	-121.456702418367	-67.3324845743201	-121.479755646591	-0.692247841873983	-22.0789305315521	
12728500	-0.660585230929716	-25.6384491565317	-66.0593901877203	-173.573769994302	-67.29244313641	-164.677554447802	-0.649021078896181	-24.5693161299254	
12978000	-0.395046206851609	-26.6404458430691	-65.2004403683443	152.81712752376	-68.2583172828598	138.182826708025	-0.426786349714151	-25.552394747939	
13227500	-0.172293777189694	-25.3624424455133	-69.8022505053355	83.5087552464517	-74.689888665879	90.8606362355279	-0.217046478688246	-24.2559476838347	
13477000	-0.111999990134871	-23.5496456442001	-74.2109031865324	163.628032156409	-70.3149375867498	128.344930720309	-0.136073788628003	-22.2545730554322	
13726500	-0.3275603979423	-23.0996064644438	-68.8012143656294	98.4659433585743	-67.1342555013094	80.9529174741111	-0.298507252767928	-21.4871400897091	
13976000	-0.667365442596778	-24.5288676892801	-67.2982558259979	53.6321907517963	-66.9069907432009	36.818771122752	-0.584383333337309	-22.5621121203943	
14225500	-0.824016853999881	-27.238221353545	-61.0587576800052	-6.40672823849011	-62.5162129222714	-12.4789199669499	-0.703443949711049	-24.9889162070067	
14475000	-0.698066905245101	-29.2523108036504	-57.7944530811318	-45.4552013176548	-57.2302365971745	-58.045687881345	-0.524784379033772	-27.2536984389214	
14724500	-0.401003187318678	-28.7890781445374	-53.6252642286322	-111.834593663939	-52.8669099540535	-122.853753399492	-0.214148018601243	-28.1057377476886	
14974000	-0.0824600691477932	-27.0213358960778	-50.8430156139241	-179.180373866198	-50.8978233002248	157.780696380309	-0.0821309330836068	-27.426154866881	
15223500	-0.158617230097997	-26.322424942507	-52.0994534596762	95.7503618596404	-59.6605826989699	68.5231230745333	-0.282787013348383	-25.8503750002925	
15473000	-0.524671119710139	-25.5709796392144	-59.6344215831169	106.096195519213	-55.8583785816737	106.405970224472	-0.640865671149628	-24.6888989168267	
15722500	-0.801318137030509	-27.4584089731155	-53.7239196841999	65.4728338275015	-52.3627636661595	58.1818927918104	-0.89195561123665	-25.4331299744222	
15972000	-0.856900689268699	-30.481579100625	-51.9261761859243	15.7071197114385	-51.8231382970275	12.9631625807329	-0.845661255821542	-27.7465147428043	
16221500	-0.643592473644771	-32.3415743041134	-51.8319075946716	-27.2221657831821	-51.7947690932681	-26.9455318446742	-0.509630713294246	-29.7048701358179	
16471000	-0.354344549991182	-31.7613376566398	-51.7066098487725	-71.4026534961533	-52.083374244448	-70.7549071218347	-0.125719364693613	-30.0509530247512	
16720500	-0.18852987865597	-29.7801368716754	-52.7316327792457	-115.815209601896	-52.1254916681615	-118.880541995932	0.0204827347820496	-29.2059230808615	
16970000	-0.302095269662675	-28.5012603196724	-53.9868114237735	-155.331392663161	-53.4959700431547	-156.084691389855	-0.19231669010068	-28.3199672651842	
17219500	-0.63608020197296	-29.0263417438178	-54.3140717185463	172.12526238717	-53.9133329427584	163.356620663901	-0.645914865751231	-28.4285451638919	
17469000	-0.907736769823268	-31.3312712612459	-54.7139952501854	130.354621038784	-53.7723642054105	121.133163899547	-1.02497194581367	-29.7462386669584	
17718500	-0.867773814031345	-33.9977861605535	-53.9551422461801	88.1330624381593	-53.4230916861268	76.416736367713	-1.00156680794612	-31.3627780560397	
17968000	-0.56374477579981	-34.9752994676838	-52.6057607321407	39.1267500576604	-53.3074094082788	24.4937053155781	-0.600359933357603	-32.2506377836011	
18217500	-0.251209566225042	-33.824860374061	-52.3212024280832	-10.6655937176809	-53.1638249705532	-26.2438756646754	-0.182496777487421	-31.9308547377168	
18467000	-0.164261452277435	-32.0247166230661	-52.3720721599688	-59.89902390832	-53.0867123981848	-69.8779186552499	-0.048799024562228	-30.9262562777811	
18716500	-0.391763853379994	-31.2515792335507	-51.9815540647109	-104.983189556409	-52.8121377360622	-112.56354577836	-0.258098021483934	-30.3996255978033	
18966000	-0.779055292470851	-32.4176398642895	-51.4798700202958	-144.90440023764	-51.5336710695268	-149.700957066039	-0.639479351114713	-31.2499435514561	
19215500	-1.01174423611727	-35.1599317980388	-50.3103946044635	176.69138084807	-50.5526884013449	169.741966310642	-0.880070626414517	-33.5307049670708	
19465000	-0.898909984121233	-37.5506948970709	-48.9362037637549	131.711459694927	-48.9936617805001	123.546234578986	-0.809335184587297	-35.7271132268685	
19714500	-0.557732506681998	-37.9184151638164	-47.9528677264582	84.1981583042782	-47.6982354467769	72.9629314146965	-0.522584305609432	-36.2010739236997	
19964000	-0.283962880877793	-36.5022450620547	-47.575721343437	33.1425571295145	-47.8250510269473	20.4050843570981	-0.278642527759622	-34.7925948239598	
20213500	-0.30957175927898	-34.8740870652298	-48.6711960739066	-17.7826494293267	-49.3337110811692	-26.8995204379758	-0.254617946873383	-32.9756449673745	
20463000	-0.6341492429646	-34.4645362814648	-49.8955524256044	-60.3098125394317	-51.0186767763138	-73.7791970889471	-0.491568829619299	-32.3709487331079	
20712500	-1.01595187517186	-35.9873883673747	-51.179498144735	-103.920694031587	-52.0301152265547	-115.737458482182	-0.802794609946758	-33.7606613152379	
20962000	-1.14106702076472	-38.6425955851984	-51.849327466917	-153.248948994336	-53.7482155295888	-161.71270115807	-0.898715565230868	-36.5781726865862	
21211500	-0.916989263890348	-40.3320607558971	-52.5312729688899	165.337877573252	-53.2888690687376	149.329803749361	-0.68009123901855	-38.9159823537968	
21461000	-0.534678935281575	-39.7978782116465	-53.5065764161457	114.6947857103	-53.0433634639225	92.8977789451339	-0.357957774404454	-39.3170267780488	
21710500	-0.296457781196263	-37.9398313771138	-53.3975630804357	61.8225092334062	-53.943838528616	41.7338567551719	-0.227500674995132	-37.9062904654709	
21960000	-0.390198056688835	-36.4567443379856	-53.3262460388227	16.1452036092008	-54.1092453435867	-11.8105408705841	-0.379591823906959	-35.9048976525528	
22209500	-0.754542787601247	-36.6354952103784	-54.1205358564364	-36.3980146175549	-54.8439790196664	-56.1472985062777	-0.698902375693273	-35.1659680705986	
22459000	-1.09621289228076	-38.8108267093535	-53.2686353396147	-75.8421725407497	-55.1634733125721	-99.9728614735871	-0.957416725736429	-36.6823778519371	
22708500	-1.11970439760395	-41.5779495773978	-52.0952486920015	-124.21974155304	-54.1822709289416	-143.662484517796	-0.930241720973503	-39.561751812632	
22958000	-0.794937092227339	-42.7562566130462	-52.0333294204985	-177.769307794767	-54.2279168272398	170.863637889783	-0.611940006859384	-41.6284938641285	
23207500	-0.380078231535527	-41.9261366103255	-52.4241728803136	132.242669412185	-54.5612708750396	112.977129218299	-0.276749632284223	-41.7765270057385	
23457000	-0.222254205549969	-40.3449363141999	-54.1451135140663	73.4710600458779	-55.4695530529374	44.2406427999986	-0.20315411273018	-40.4200920620304	
23706500	-0.462208484007285	-39.3677135349133	-57.2890800261792	-3.48399400495777	-56.9623587167947	-45.2120650524896	-0.451073809541003	-38.9523567200566	
23956000	-0.890168965414181	-39.8747793972885	-59.3874638096752	-97.9414159376217	-57.4860808263921	-139.480395755753	-0.837658460692448	-38.8667280685155	
24205500	-1.13666504802288	-42.2000733156893	-58.5930017169186	176.107219146692	-57.2549874526329	151.384765921401	-1.07491116380632	-40.6438972078179	
24455000	-1.00479255972097	-44.8422187381725	-58.0294723623534	116.785030146415	-57.1181522440973	96.6237466602422	-0.949021371459285	-43.192254694601	
24704500	-0.618915023657868	-45.7175315216035	-56.9062931855928	70.3277680339693	-56.2982521181574	55.1222090224613	-0.554109461629533	-44.3037414876488	
24954000	-0.306446471478405	-44.4997521457769	-55.9115742603509	24.0863170978717	-55.4004347428553	14.2932314500343	-0.247317043723573	-43.9145897222644	
25203500	-0.282961865115918	-42.6309174830236	-56.4364329935881	-17.9778647328539	-54.9954734481319	-30.7511688989763	-0.254364138826668	-42.5073316772559	
25453000	-0.568737226039738	-41.800433972809	-56.5948754529868	-69.5735002342517	-55.4982705674417	-80.1895181591664	-0.583163369082174	-41.540342059202	
25702500	-0.970272021268222	-43.116755101391	-55.420767236936	-112.013795762045	-56.6835770661935	-124.561862973712	-1.02435841665104	-42.1388756158901	
25952000	-1.14086485643062	-46.086648649064	-55.4419834388452	-161.961396189824	-56.9050373328325	-176.707594823913	-1.21873984544239	-44.2696000095796	
26201500	-0.927725774261762	-48.4941260272205	-57.1476577233839	139.527553224842	-56.5561212389686	131.234544522811	-1.02487742829092	-46.4354644816413	
26451000	-0.530270277744833	-48.7093888333263	-57.5171268932437	89.4000366300489	-56.3730370407835	65.5090168166082	-0.605954590810352	-47.0648950406443	
26700500	-0.265237298173261	-47.1551562404031	-57.1015622760501	36.7800420047097	-56.3697899282091	21.0976590110866	-0.322160685268559	-46.1022428095666	
26950000	-0.335683402124286	-45.4279518626623	-57.0293122985068	-28.1472394978244	-56.7818040314725	-30.842197745952	-0.382575138871846	-44.7103867992413	
27199500	-0.684263013636217	-45.2127514296145	-56.5401560530411	-71.5724526117471	-56.8227299170536	-76.9415831116057	-0.743532197361563	-44.2095601055579	
27449000	-1.05169583385153	-47.119306719456	-57.5949357344469	-106.69023156107	-56.2287517780231	-123.220910320524	-1.13904288739738	-45.4992230173883	
27698500	-1.11444986031459	-50.2202819440082	-57.5520112562262	-150.725658050083	-57.5277913415451	-161.109911469785	-1.2467289685803	-47.9380403626397	
27948000	-0.813444918591027	-52.1317267986386	-59.3198187314261	162.968924484963	-59.2546652044034	154.939203993367	-0.973978619502629	-49.7170035306643	
28197500	-0.442800786824989	-51.7269408831145	-59.7937503124049	141.99003759789	-61.7159860965739	133.75033609206	-0.575715590685532	-49.5163376050226	
28447000	-0.296177343731892	-49.792169646924	-60.5140414428507	113.501700516489	-63.1592315973471	97.2116276522291	-0.360012007430504	-47.9622699390797	
28696500	-0.495767791968468	-48.2332429967972	-64.829316415693	72.9054325433753	-63.9056487634146	76.8098846217274	-0.50257347179209	-46.5129128397272	
28946000	-0.905404188457954	-48.4967532096129	-63.0132685071517	38.528803131112	-66.1505698994441	25.1544703001454	-0.888505583739774	-46.5692301968816	
29195500	-1.22547022639945	-51.0052063690586	-65.1273029786603	-4.2179983052503	-68.6048744239977	0.670467944890517	-1.22641480172273	-48.6415513705086	
29445000	-1.17727303793288	-54.1116278063189	-63.8451884471143	-44.9435339418215	-68.9487208969332	-17.7224633051672	-1.22852975233762	-51.523146616449	
29694500	-0.825735246507362	-55.3982982143142	-64.5743242823996	-91.4045946347961	-80.5863088718224	3.62623798298943	-0.906419819372839	-53.083854087623	
29944000	-0.478926414266806	-54.3123516104071	-69.5617302969372	-140.224432771477	-75.2664292995689	154.347012035024	-0.557889941934227	-52.4607611920877	
30193500	-0.417406060108792	-52.1571237956922	-66.2753709423617	133.743172210088	-71.1200174605928	148.989161301449	-0.465866462473184	-50.541102141964	
30443000	-0.676659243698429	-50.8082985117267	-65.7115283734262	73.7324391710736	-77.1278000614947	10.2112227142837	-0.706624837674061	-48.9868517082894	
30692500	-1.08858756190435	-51.6667370158515	-65.3854311652962	19.8602997536517	-67.1463837363892	-24.9855838794467	-1.1041633374763	-49.2603531695548	
30942000	-1.31053576515281	-54.4799094209514	-65.0590570860162	-47.8020292657165	-64.7989820096723	-105.331273124845	-1.34608217271663	-51.528190324778	
31191500	-1.13434649034588	-57.2018552429197	-66.5997552691674	-106.522994323551	-73.591202655364	-155.633854872616	-1.20896794378991	-54.2239101690442	
31441000	-0.73413968486055	-57.7474366963707	-72.4362689525077	149.767208238772	-70.6099478393043	104.481298447656	-0.813765264078016	-55.2993512004095	
31690500	-0.450770898831732	-56.2334213140043	-68.9679638101628	96.0626261922445	-62.7372783294367	49.5056983488959	-0.49478226827799	-54.3155694124134	
31940000	-0.50895265595131	-54.2101229941648	-65.7748320562636	20.0920356680902	-60.8507088001229	-2.13770296387908	-0.518681623455399	-52.4177610885811	
32189500	-0.881803988404886	-53.578842951043	-62.2066342872068	-45.5656163115137	-60.5925145480078	-54.3032843944613	-0.856862182017487	-51.2289939921245	
32439000	-1.31924517937499	-55.3360352150478	-60.1747451046439	-97.5480127612848	-57.0254447399943	-109.593440897518	-1.29137494503283	-52.058534595619	
32688500	-1.46246272833347	-58.6811765590655	-60.3154177948274	-137.511562507758	-57.1185406114072	-151.117127794288	-1.46507865451933	-54.7936350984084	
32938000	-1.1887640130864	-61.0371822654546	-61.2973246003161	168.168959421901	-59.0614086887013	153.01135819282	-1.22298226518862	-57.4645594366553	
33187500	-0.769229039634714	-60.8397164878325	-60.5555536168361	116.117607397438	-58.134084595028	107.573933740626	-0.779491495491559	-58.2631463975749	
33437000	-0.54817529861726	-58.719604399762	-64.437868240848	76.1400114594232	-62.2380723745298	65.9275058503557	-0.517796579997995	-57.0965283240702	
