!Keysight Technologies N9923A: A.12.45
!Date: Saturday, 02 August 2025 19:16:05
!Timezone: (UTC+08:00) Kuala Lumpur, Singapore
!Model: N9923A
!Serial: MY61181427
!GPS Latitude: 
!GPS Longitude: 
!GPS TimeStamp: 0001-01-01 00:00:00Z
!GPS Seconds Since Last Read: 0
!CHECKSUM:0630107796
!Correction: S11(ON U)S21(ON U)S12(ON U)S22(ON U)
!S2P File: Measurements:S11,S21,S12,S22:
# Hz S DB R 50
2000000	-0.0616435811447948	-2.82512915643223	-74.0630694821147	-115.003748069083	-87.5431238214812	-144.818239764954	-0.09065321356563	-2.78609664438396	
2249500	-0.319269398484548	-3.50515378322459	-77.4728817919072	-113.022801682239	-72.8872802128126	-73.1765728678943	-0.329977196924335	-3.40679831442228	
2499000	-0.435078587533884	-4.9851528741732	-66.3721863191876	-114.767946469342	-65.0411076529757	-124.813664558105	-0.432290332222232	-4.76675879347357	
2748500	-0.307469607289902	-6.46701292129878	-53.8209626904682	-126.621016366002	-53.8979742392707	-131.374636641044	-0.308354286652941	-6.17047296480104	
2998000	-0.0413301563210329	-6.72808174379821	-46.3108799908534	100.196388822118	-46.0745677390433	101.558712286584	-0.0648915359813697	-6.20314547347517	
3247500	0.128776560208558	-6.51226502578603	-47.9979638241326	56.7601063090226	-47.8955816599583	55.0489193258987	0.104768818823391	-5.97850842134107	
3497000	0.0746880012501298	-5.64435999486732	-49.4400747879633	-36.134764495276	-49.223244340111	-37.6000788715693	0.0602004184396151	-5.25630909327419	
3746500	-0.140762077733018	-5.73677776020286	-59.3182502158841	-56.5318293803761	-60.0404899491047	-54.9144155408292	-0.160853212143322	-5.44134168850393	
3996000	-0.388165385371364	-6.86830812042626	-52.0153749608858	-24.4132639053583	-52.0512991448564	-23.4337106475393	-0.476957545582803	-6.59275102005337	
4245500	-0.448531379873601	-8.58765498346435	-52.0773580868169	-109.59265123354	-52.1177953354367	-111.721195616905	-0.444831426240228	-7.66073919646569	
4495000	-0.255185727608449	-9.55308638517084	-57.6603052205363	-113.758404271714	-59.043772952273	-100.960239178173	-0.231073973880037	-9.17989521400542	
4744500	0.0334654625068303	-9.87063182314119	-50.9282545998879	-111.965212454128	-50.9220743989015	-113.54340139169	0.0197845619413705	-9.71607739966433	
4994000	0.107946970100803	-9.39384073245545	-39.4985519542492	-176.304456676343	-39.5506039676726	-177.411654170674	-0.00956708214574125	-9.44310106841544	
5243500	0.0216260444648203	-8.8555688965346	-44.2854540847138	86.4532353317613	-44.3461592463401	86.4200551526459	-0.0218831578979855	-8.26089840391577	
5493000	-0.315615794186408	-9.38903763874246	-44.766727515901	36.7943587368014	-44.951053363615	36.3330623416568	-0.271174339059501	-8.81010697286279	
5742500	-0.49100063494813	-10.1620493919782	-51.6686422615558	-44.6215424616748	-52.1933312952534	-43.0657465865749	-0.447161508800826	-10.1732968512893	
5992000	-0.407482684218729	-12.0961309136347	-61.6448956137708	-65.4314209050474	-60.4171833914532	-64.2952014813835	-0.396313458836816	-11.9721861544877	
6241500	-0.139165360994292	-13.2769772285733	-71.7720607049519	-50.5804333409457	-71.0475774203062	-18.6968733362573	-0.125929550245229	-13.0671675351279	
6491000	0.0822231095040245	-13.3792283584231	-65.9556785748378	44.726060910278	-67.7579957198322	37.9300938108391	0.0753649499876308	-13.0125295802436	
6740500	0.0428755080391646	-13.0579878731069	-54.8769923253074	31.5102191014346	-54.506256511463	29.3372913846623	0.11110668697502	-12.4676865657797	
6990000	-0.234876012293306	-11.2041452250466	-47.3835594437788	-47.6413684092646	-47.1167607856152	-47.2634803687432	-0.0906512420558711	-12.2449356103375	
7239500	-0.360144603242549	-12.0337543359619	-48.0966142840945	-96.7536276819011	-48.2496335772032	-97.1459162299989	-0.39715396365382	-13.1003145190405	
7489000	-0.481190979853354	-14.0343604309912	-46.2767309216152	-141.879445061418	-46.395204009614	-140.156433163681	-0.669845029772958	-14.6360664850706	
7738500	-0.367355462745815	-15.9170004699826	-44.4643158940032	-170.059172912995	-44.5194160397578	-170.785652116209	-0.647378625926387	-15.897964465771	
7988000	-0.103272595070668	-16.6593120681164	-43.7736297146872	122.241857043672	-43.7694645065844	123.707783484477	-0.327478489552446	-14.807068884918	
8237500	0.0629514503778056	-16.3217689597118	-44.8082185588962	76.7818887803407	-44.9377139219028	77.3895263678179	0.00916434171220664	-14.3821026676691	
8487000	-0.0345995644230535	-15.3773262192234	-45.5288741113351	32.0349891993179	-45.7848669908219	31.0035257813223	0.0363300732924307	-13.8877907205806	
8736500	-0.280576945271655	-14.7170291258832	-47.4939677206506	-11.8821045016467	-47.5199030522822	-12.0832995107708	-0.171381087095365	-13.9067240765145	
8986000	-0.511220270652938	-15.5563144945946	-49.7122935241104	-44.1084237685532	-49.9125159533046	-46.2662925278656	-0.413496579084179	-15.0721036575459	
9235500	-0.548495055222602	-17.421572965551	-50.8068680102283	-68.2050669951104	-51.2187675442583	-68.1937832929363	-0.4735419912935	-17.0259684560631	
9485000	-0.340497009450733	-19.0206912000783	-51.9968283810731	-87.1968212281705	-51.4216109473817	-82.9825563828628	-0.292504718280167	-18.692255787546	
9734500	-0.052019534614777	-19.5095869922854	-50.6875684517552	-106.731951828576	-50.8564983266776	-103.613026877894	-0.0219995982510368	-19.2566010279962	
9984000	0.0620885275397337	-19.0886075727967	-48.1101979227629	-129.494096342329	-47.9177673676098	-129.545808156947	0.10921474688736	-18.9169820389566	
10233500	-0.141619765972934	-18.4334488296605	-44.4480956239846	-163.684259448475	-44.4568061735083	-163.640742892257	-0.0171165895491046	-18.5685637605105	
10483000	-0.478174059262769	-17.7557973919092	-41.892547590224	142.671953084979	-41.6639744236363	143.927878046525	-0.333252028954972	-18.9984033481925	
10732500	-0.601714037631308	-18.8923439112741	-41.6200395749837	92.9899865541745	-41.8164417144174	92.8274846971169	-0.622571655302554	-20.6237536769776	
10982000	-0.549621561786873	-21.1696461175941	-42.0009464174096	46.015337147438	-42.2249319634206	44.7924674511242	-0.749618478987832	-22.5662095607052	
11231500	-0.296792867896746	-22.5730338040047	-43.073496908318	13.8751498071767	-43.4366126589715	14.0010067995038	-0.720920161908575	-22.9977997183461	
11481000	-0.0398395103622135	-22.7254951357854	-42.3602821588963	-34.4688702621124	-42.5536761810448	-31.7289572447071	-0.431059418326845	-20.6712898728454	
11730500	-0.0176855218989907	-22.1660294526756	-42.8556061433609	-75.7247941091298	-42.8787865367097	-74.5572345891486	-0.132160697617945	-19.2665345117179	
11980000	-0.313952504942872	-21.5096984905842	-42.8356234976552	-119.20626359391	-42.8716268427755	-118.498948295436	-0.169135584794482	-18.9163479504795	
12229500	-0.680202111904631	-21.0147773343008	-43.4978637899642	-167.975126261705	-43.5206530789776	-167.358395321299	-0.402160355946259	-19.7037495693202	
12479000	-0.742100303073621	-22.061692461981	-45.9217559023652	145.073223572462	-46.1469789438184	145.860374235711	-0.560425474164591	-21.5465905913887	
12728500	-0.539051796033281	-24.1742944462841	-47.9499641381831	111.389788566322	-48.0762647829943	113.573909320715	-0.45216481129976	-23.6244567889724	
12978000	-0.21138237628558	-25.4730917788927	-48.6490153815008	85.2519747350657	-48.6340929394128	84.5969265112226	-0.172735958169451	-24.7518654125759	
13227500	0.00316569869274106	-25.5543937226682	-47.5756322132574	57.8140763376053	-47.6351175863023	57.8364431884706	0.0550325666570632	-24.700653013077	
13477000	-0.108409971315623	-25.0259808817054	-45.5735355161423	24.0634441092519	-45.7279250195568	23.1615306950176	0.050310297264938	-24.1688608374015	
13726500	-0.514033067408974	-23.9673520344484	-43.3380475153735	-24.4802575502344	-43.521936893503	-25.0936411877632	-0.193766986754002	-24.1807883529842	
13976000	-0.737129310924584	-23.7002682540203	-43.1487678227853	-74.4804227318472	-43.2355969253813	-74.5509923699565	-0.511459764242221	-25.5016590999346	
14225500	-0.715337093580422	-25.72621261404	-43.5298785439375	-112.182023136079	-43.6041501618481	-112.089669006666	-0.691968137779741	-27.8936526319272	
14475000	-0.492554053710125	-27.9451907884988	-42.3437332854298	-148.422654007312	-42.4401703291478	-147.917788897452	-0.694082450731721	-29.9827475121017	
14724500	-0.199418503032905	-28.9338313010974	-39.9089424617104	168.925122015177	-39.8915661170127	170.149333492125	-0.665531160454662	-29.8896810232657	
14974000	-0.096707655997253	-28.7191312460145	-37.5758643336598	116.969287627018	-37.6349199844712	117.606911215222	-0.575260982651488	-26.877786074004	
15223500	-0.373959511377362	-27.8549777469273	-36.2608216439557	57.9367105945848	-36.256919252771	58.8210937104582	-0.428731493272663	-24.5938190230928	
15473000	-0.741506316410679	-26.467247937486	-38.7179875449563	-4.52745428207075	-38.7429088718274	-4.48632199217768	-0.530132587641345	-24.2663469124338	
15722500	-0.925817204126574	-26.3053836580542	-39.101282277053	-47.4687820238721	-39.1334534773513	-47.8918694083357	-0.669495931284077	-25.7270651839327	
15972000	-0.749345397495584	-28.6144999276534	-40.7818545810305	-86.2613026649103	-41.058133486117	-86.9235116710804	-0.635354847367566	-28.0544143950507	
16221500	-0.434631389810485	-30.7780470218748	-41.5705068795301	-116.692249065844	-41.5583746475738	-115.332352048078	-0.380911023679737	-29.8722600864747	
16471000	-0.149998697597888	-31.515257569009	-40.6249840867246	-145.33213299305	-40.6181128009641	-144.010888096964	-0.0851698458458691	-30.3413619841351	
16720500	-0.158143445794826	-30.9716508582249	-38.1948920763666	-179.04681418395	-38.2976459022703	-179.314916846768	0.0226266466353749	-29.8443146660491	
16970000	-0.458331046458885	-29.2757402148258	-36.0217530878092	132.658628445787	-36.1693739794762	133.570719082336	-0.140128341511492	-29.3005599815716	
17219500	-0.649734323104052	-28.7500585176265	-35.8617719382397	82.369526256828	-36.0668148464795	82.5002169944794	-0.438120234431209	-29.9128032236077	
17469000	-0.807268146972986	-31.2110247046178	-36.3653294276155	38.6389128671177	-36.5807602653876	38.9590667980687	-0.697336579786685	-32.1206791978081	
17718500	-0.878579929174633	-32.9089435578587	-38.3276124463658	2.36963173270693	-38.6360021662072	3.20557922197128	-0.774105200764908	-34.8251912217136	
17968000	-0.446104608905677	-33.7746382394307	-36.411401143047	-16.6185819855183	-36.4980114207418	-14.5333786970316	-0.780867680523796	-35.9467014289264	
18217500	-0.146564312072792	-34.0171598028302	-33.8594911328008	-60.7798727612978	-33.8806084759621	-58.8261863910875	-0.697513646083908	-33.5826562812718	
18467000	-0.176473889435508	-33.6222521545403	-32.7057118556931	-109.234597115883	-32.6643714627425	-107.452950104548	-0.476358028747787	-30.8996047157547	
18716500	-0.631780265582478	-32.964528759184	-31.8559319846057	-161.631170976854	-31.8675109181427	-160.130858227895	-0.521353416903961	-30.0895844987641	
18966000	-0.983622160559281	-31.7518820928461	-33.3702146566	140.506909696469	-33.217971703861	142.075163465271	-0.721750424899416	-30.5500041755872	
19215500	-0.930935287221756	-33.4210070080109	-36.503813154353	98.052312936014	-36.3504182648536	99.241560549538	-0.758702808653159	-32.7599180938009	
19465000	-0.702783982562038	-35.9700807997813	-38.4681502254749	68.0009096755466	-38.3486167112855	68.586816395944	-0.58445922919495	-35.2682900351472	
19714500	-0.400909849936072	-37.2208691035784	-38.8638635612211	38.7512408423883	-38.9917049620391	40.8399638279069	-0.270561216301481	-36.5805236381787	
19964000	-0.269020389018854	-36.6950737938527	-38.609458843926	4.21765580820002	-38.6063441504535	5.97882561458798	-0.0713480203232738	-36.4656127975508	
20213500	-0.39292821162692	-35.1381112285398	-38.60018479405	-36.5308617510653	-38.5489546638127	-34.2798832830307	-0.136684084829782	-35.7738911507268	
20463000	-0.663732321526642	-34.3491871755555	-39.2934568807529	-75.5160608636036	-39.2579469110209	-73.4507871278372	-0.448098148991971	-35.738713248858	
20712500	-0.927835978986085	-35.5416300741387	-40.0487144243518	-111.283370912649	-40.0532946577207	-108.826107811971	-0.830248008657749	-37.0553512156337	
20962000	-1.01006947103231	-38.0182024130476	-40.0529578838595	-144.724538983707	-40.1884985976413	-142.392519506953	-1.05738240342993	-39.1121071085472	
21211500	-0.834053479805191	-39.7119309106093	-39.6869336090274	175.778787020956	-39.5853041328961	179.102536630583	-1.01136808184279	-40.05562309828	
21461000	-0.51304647673137	-39.5099507306254	-39.8278600426565	131.460135004188	-39.7571853086189	134.11677907488	-0.740482925108901	-38.9530919650593	
21710500	-0.309446540444897	-38.2599876238634	-41.1546349673844	87.752454722859	-41.062651443642	89.9179837040476	-0.461650263370449	-37.0004975110786	
21960000	-0.404380730039434	-37.2278405922788	-42.9642593795003	49.2028908928342	-42.7628088738024	51.4098847398776	-0.421892040823416	-35.6740248538699	
22209500	-0.729586033801832	-37.352003956482	-44.9500475809519	15.1794536107373	-44.3966548026496	15.6794160814484	-0.609561570246665	-35.7955542528198	
22459000	-1.02431663972533	-38.9727129840287	-46.7136584514571	-18.801748436627	-46.1094102744737	-17.2718401254173	-0.80246959171664	-37.6047804655486	
22708500	-1.04932018437549	-41.0374949838215	-48.475633292014	-52.8944262571865	-47.7066840552561	-49.2713352771776	-0.771985583899835	-40.2769678133671	
22958000	-0.772131658293022	-41.9127135949271	-50.9185019342982	-82.7382190912553	-50.8198817339884	-81.418845510266	-0.509946414728399	-42.2209466730666	
23207500	-0.386857918593906	-41.6703233682551	-52.9044308408102	-84.7038355106513	-52.6481936231454	-84.8670543789178	-0.225055867578082	-42.6642198762665	
23457000	-0.332678921429848	-40.6097798944308	-50.0568382505359	-120.445700508844	-49.5498213598508	-116.388150302344	-0.155562115257538	-42.088450458322	
23706500	-0.540857063043107	-39.6341176921165	-50.6172680341605	-163.548397426266	-49.7838961651135	-160.155866635927	-0.399257327721265	-41.7241311268866	
23956000	-0.894553825689528	-40.2116074272883	-51.2681221411676	166.471235991395	-51.2150886478216	164.635278726784	-0.821668562561661	-42.4237054379273	
24205500	-1.14415614693521	-42.1526841221957	-52.6614921099254	122.164162328907	-51.7204838059321	123.027870587747	-1.16943832333097	-44.1511626786604	
24455000	-1.06234508740749	-44.0014519950733	-54.8521153495827	68.431803792877	-53.1038629725056	75.1758023566606	-1.23685855933997	-45.6014371182313	
24704500	-0.690914683496625	-44.4711512449039	-60.0672338353302	40.3448536561327	-59.0821598564688	37.2209486818689	-0.983484207152379	-44.9740394201115	
24954000	-0.342686010528032	-43.6336541704483	-59.7397110387171	61.1909871307122	-60.4520934662273	53.0401667369628	-0.617749559854507	-43.2666835420021	
25203500	-0.274670985946229	-42.4839113612214	-56.6972150052531	23.8782128374135	-56.6604587996528	15.8087128130687	-0.453085926357862	-41.6673695927521	
25453000	-0.496587716297939	-42.101515173749	-55.8614828436247	-23.6683980077852	-55.8520123269232	-24.7299815214804	-0.584373166143856	-41.051451225217	
25702500	-0.828411343078356	-43.3145545832264	-54.7419649978625	-60.9316533519953	-54.4418395742902	-66.807280201036	-0.830282653855648	-42.1043532440738	
25952000	-0.971084423498058	-45.7117364601598	-54.8380156102363	-96.9543399088203	-56.2744830417994	-97.3244790209612	-0.92502610252747	-44.5333813131989	
26201500	-0.794608774764642	-47.6603419194521	-54.6587877312537	-130.625930901783	-54.8497102513645	-132.485991014626	-0.746860828456992	-46.9884109608483	
26451000	-0.457265607382064	-48.0984271375683	-53.5522515556465	-157.676144538806	-52.8168935171279	-165.294017373924	-0.428021983858553	-48.120885350882	
26700500	-0.257036702681782	-47.2950418696886	-51.7511543668514	168.434532137757	-51.4812993510762	162.82889741444	-0.244019914701613	-47.8224070320429	
26950000	-0.389818107868131	-46.2235351286924	-50.404488151269	135.44330514786	-50.0736234451561	133.962342591644	-0.363758148489716	-47.1153696572507	
27199500	-0.779691659603074	-46.0675992921757	-48.5510385410845	100.208262615203	-48.3907631800961	101.226003324842	-0.743903205166827	-47.1591393098006	
27449000	-1.17103342705679	-47.18286057684	-47.2946325448761	63.6687124131047	-46.6781667842848	61.9135941966452	-1.16723180682357	-48.6001119254764	
27698500	-1.2276593605329	-49.0072193604322	-45.4615668225957	23.079326897355	-45.3840917516997	24.9974132449872	-1.3667112906446	-50.6209415921904	
27948000	-0.88195926287125	-50.2630324828861	-44.6957274012688	-20.9682821032048	-44.5256781050908	-18.4695564874061	-1.23806723236522	-51.6391020446737	
28197500	-0.453365974846806	-50.2522146796218	-44.8589999257844	-67.2510112480179	-44.6514896281428	-65.0410048655876	-0.962757983805978	-50.6450664494867	
28447000	-0.255137874297996	-49.3082770135692	-46.1409558626415	-104.728398972381	-45.8746198718377	-105.650209092811	-0.745910061141042	-48.252632400522	
28696500	-0.409762544602193	-48.6434997279153	-46.9749981502468	-138.960177698916	-46.8592225847957	-138.221510609441	-0.737921042828403	-46.3848534280018	
28946000	-0.782434936259849	-49.2712420684564	-47.6143542810133	-169.159561039734	-47.6385139517436	-169.084841626751	-0.920400941784774	-46.2973336466476	
29195500	-1.10316771983926	-51.3636244092664	-47.9128013553135	159.998007689718	-47.6070887897781	160.425560576008	-1.0753136916802	-48.1339007109445	
29445000	-1.11570792170536	-53.7135475833128	-47.8935572771056	128.508147499978	-47.5238420024234	127.493670170117	-0.980661983443346	-50.8100826556716	
29694500	-0.836060815749103	-54.4553872780807	-46.8165988160082	92.5620570841402	-46.6246489560904	94.6133738250903	-0.660766383419779	-52.6636975897717	
29944000	-0.511309646326248	-53.5826585153754	-46.2069684509052	53.0895210647539	-46.0877475655148	57.7006328099347	-0.342667179931902	-52.9027372149359	
30193500	-0.449722506195035	-51.9665331583234	-46.5123146741204	18.5624312961915	-46.7005281010274	19.0313365979329	-0.279274346353754	-52.1689146346242	
30443000	-0.690420353069065	-50.8631031611637	-46.1545140312467	-17.1036263104613	-46.1362018288895	-17.5493044419384	-0.529561186754644	-51.7309474987498	
30692500	-1.0528132692618	-51.320320667347	-45.7146732245092	-53.0122016117026	-45.704291049861	-52.5389008354362	-0.927504605924107	-52.6666787714839	
30942000	-1.22234847997845	-53.375859494261	-45.5771574115745	-91.3551655653079	-45.365427120018	-90.2523463433414	-1.21441891365178	-54.9753029238236	
31191500	-1.03561137107789	-55.796161993502	-45.3828127377842	-125.821442500062	-45.331094925121	-126.480878005769	-1.22093486371131	-57.3231489047639	
31441000	-0.661621997087243	-56.8913818816544	-45.378076134422	-165.080264370467	-45.6112449428483	-164.143522634989	-1.02536127386274	-57.9803161616249	
31690500	-0.419473528031167	-56.4792846812558	-45.6064270523481	158.421047424081	-45.2492216502682	160.715581353571	-0.860666858323872	-56.4470075308487	
31940000	-0.518880837762714	-55.4632418935547	-45.8612149736839	123.255594447496	-45.6934732268633	125.740757443656	-0.894352866884756	-53.9053093872581	
32189500	-0.911698421002124	-55.1395791593659	-46.5231897688918	86.0843233754054	-46.6039645786894	89.1024889421984	-1.0949918317958	-52.1794759926976	
32439000	-1.36139451425417	-56.2937271861098	-47.7067968542958	50.8628998494907	-47.5271102484813	55.1288820991126	-1.31888199972289	-52.5390634924998	
32688500	-1.54726090178551	-58.2813791637463	-49.0360268879447	22.3295638767338	-49.062665962844	21.6842265298771	-1.34410463776103	-54.7051659539781	
32938000	-1.32861738907013	-59.3313214118537	-49.4228799689604	-3.54285881086729	-49.5838503652466	-0.861356602554316	-1.07107764603532	-56.9582974016284	
33187500	-0.876026089039395	-58.6178175634413	-49.8684240107893	-31.6102897154512	-49.7860700982247	-27.0194211435947	-0.659141842335011	-57.8655221368533	
33437000	-0.5534980361279	-57.0040944157193	-50.5372762503345	-61.8165621357489	-50.2397527077214	-60.3003634110615	-0.40776881961206	-57.3374959720485	
