!Keysight Technologies N9923A: A.12.45
!Date: Tuesday, 05 August 2025 18:08:18
!Timezone: (UTC+08:00) Kuala Lumpur, Singapore
!Model: N9923A
!Serial: MY61181427
!GPS Latitude: 
!GPS Longitude: 
!GPS TimeStamp: 0001-01-01 00:00:00Z
!GPS Seconds Since Last Read: 0
!CHECKSUM:1737073735
!Correction: S11(ON U)S21(ON U)S12(ON U)S22(ON U)
!S2P File: Measurements:S11,S21,S12,S22:
# Hz S DB R 50
2000000	-0.0709333831248272	-4.86136293336719	-80.0566040460175	159.450583247789	-85.6024045719706	84.5310663331999	-0.0810718301307493	-4.85784129655211	
2249500	-0.262203031221273	-5.78698830785076	-77.997941754488	102.021631831265	-78.176571466091	40.8687882805288	-0.266569122330314	-5.7806523089888	
2499000	-0.34595198996718	-7.28421859932129	-62.7778331919648	-25.8021180938241	-63.265897099721	-26.2104683517027	-0.364836131486182	-7.12553984318038	
2748500	-0.244666218499526	-8.71788484402621	-70.5730484235933	-75.3296020696838	-71.8760274047179	-75.4159274654766	-0.252187862169386	-8.54640609223344	
2998000	-0.0468154434727253	-9.48508006605444	-67.413239904514	-152.33984732426	-67.662035064776	-162.804976383117	-0.065451866853225	-9.2023703203982	
3247500	0.081295421131673	-9.54615117543563	-78.0425775309875	-115.421846886694	-78.6213692218332	-115.897436771444	0.0698476489580986	-9.28791816525349	
3497000	0.0423006236955403	-9.4560292304544	-71.822668267772	-109.803631347816	-73.9057952289564	-127.575169639988	0.026983826029873	-9.2562535230946	
3746500	-0.145076533133463	-9.82588877375842	-68.2150322797224	-125.076681541719	-68.6883997230236	-130.478214081636	-0.156077535342449	-9.64776105878422	
3996000	-0.33453245626651	-10.9032437650659	-69.1590506285391	144.65261359507	-68.0356253765504	141.167204846644	-0.323233575915177	-10.7891124867847	
4245500	-0.345578083960177	-12.4989957766739	-89.7186097808763	27.6865118138104	-92.6444103541654	122.004331221524	-0.340130069100708	-12.4034762940235	
4495000	-0.191299603447771	-13.8256553121728	-78.2986593717563	-54.9847326069256	-80.6252060384058	-66.2210526625347	-0.189047245853146	-13.6337613678942	
4744500	0.00293236251948099	-14.3371615930795	-70.6378292133176	-94.4057922193278	-71.3287133810209	-96.8881307104424	0.00394885046581964	-14.1280481655036	
4994000	0.0760231706740613	-14.3439576386342	-54.3912332283633	-76.4202595255292	-54.1954802118187	-76.1770542699991	-0.00715286368792051	-13.6562983127224	
5243500	-0.0746597404661594	-14.5973672445365	-50.4613089008026	-141.767314708389	-50.4933437066548	-142.391479786023	-0.021437817917264	-13.9259999472854	
5493000	-0.336375879757391	-14.0678336838711	-46.4084004069386	122.739038156099	-46.2158262808498	122.570553052424	-0.2340613541227	-14.5043942996077	
5742500	-0.383022446397879	-15.6860327307436	-51.1526173526988	81.8171023946615	-51.0857722964428	80.4896848192148	-0.359595318627232	-15.9232486519737	
5992000	-0.328095510743327	-17.5335287115388	-52.38442210011	65.4857767118863	-52.2750227660334	66.6653317121592	-0.31963468708658	-17.6116973792774	
6241500	-0.130463506081952	-18.8311921639791	-51.4282476822297	54.7110262940219	-51.4661177035337	54.4863604775565	-0.13730288894081	-18.7315369740006	
6491000	0.00844361668433426	-19.3880325405197	-48.9776530098657	33.8752837695126	-48.8815040352609	34.0029261671916	0.00794909238833876	-19.1924424253131	
6740500	-0.0687030637924572	-19.9520345866823	-53.5694572567906	27.4802973062478	-53.7626922261857	24.3120731249965	-0.0316781534454612	-18.8864979769625	
6990000	-0.610679857333768	-17.9012028349327	-39.8645783554289	-8.7592249146975	-39.846470790401	-9.05799530530815	-0.192142660811596	-19.2521716956263	
7239500	-0.439884465025018	-17.728779688797	-41.1430104721667	-63.250153479664	-41.0668958484348	-63.661513545588	-0.485359336256678	-20.3694414983462	
7489000	-0.444871954162809	-19.8679646668681	-39.9328985443528	-98.3004688271316	-39.9190095148385	-98.200452339949	-0.754219961844882	-21.3025403563572	
7738500	-0.339980987884626	-21.6040294561158	-38.9269839706377	-127.171759234323	-38.814310263739	-127.443956369553	-0.658658852326364	-22.3023357562355	
7988000	-0.127258030604469	-22.3626955057915	-39.2349038379136	169.477059583377	-39.2002288069531	169.103047054873	-0.429519148193494	-21.5240751904025	
8237500	0.0497735305192112	-22.3697611673418	-43.0468983569908	128.693409804542	-43.0134101982516	128.331098929998	-0.116437842255072	-21.015329381741	
8487000	0.0326200099290467	-22.2743428334805	-46.4758785405887	105.998342104771	-46.3801304218729	105.710359225504	-0.0527785848632376	-20.9892198292686	
8736500	-0.150875362846353	-22.6470674087236	-48.7128770604776	91.8791469198537	-48.712246341746	91.3917252785019	-0.191177640238165	-21.4801729457557	
8986000	-0.342972487831474	-23.9236453629288	-49.6263919203727	80.0031183499741	-49.5246772296488	79.8523453404199	-0.363496598718117	-22.8133917893847	
9235500	-0.387488429942515	-25.8254056540912	-49.1255500434987	69.0918569533227	-49.03847836188	69.330653911573	-0.387079991450126	-24.5986445829076	
9485000	-0.255073192033069	-27.4347303567629	-47.2187093730096	55.6361088909447	-47.1983008112092	55.2056081215121	-0.238444608555123	-26.1501620017264	
9734500	-0.108319242546452	-28.0940124512457	-43.7159670450798	28.6150518549503	-43.6294521148807	28.5368656148595	-0.0343973035816623	-26.7730988098669	
9984000	-0.075631577376452	-27.195590269324	-42.2318781021003	-27.9690237371856	-42.2091953092351	-28.3857934544049	0.0463552004998399	-26.5746111552184	
10233500	-0.0797849533490549	-26.8479982799284	-45.81410916599	-69.9610289886277	-45.6983187042262	-70.3460155674276	-0.0248252553628341	-26.3920295675865	
10483000	-0.265631388942393	-27.6592863087532	-48.3626427670561	-89.6594127542625	-48.3409458634125	-90.626042328517	-0.226179901089002	-26.9408951111094	
10732500	-0.432036344552395	-29.3865497280711	-49.0980847825931	-105.27736933587	-49.1069010844826	-105.391534203359	-0.374421245239178	-28.4318832286326	
10982000	-0.457832529043264	-31.5059339501172	-47.9488617288356	-124.26050873044	-47.9436999782034	-124.34567614833	-0.351866150386754	-30.2468020705488	
11231500	-0.44261128114239	-32.3225303324914	-45.7633883853166	-169.129867908473	-45.6769690764976	-168.396225456636	-0.173723497939675	-31.5381548102952	
11481000	-0.158843389311683	-30.9901797212048	-48.6602284986086	130.333227480184	-48.4751807777786	130.139885904846	0.0207823457140108	-31.8496454422509	
11730500	0.0110781420275612	-30.8744328356217	-55.275919135218	87.4494112421358	-55.4143385665096	89.7747485454729	0.0281359000102151	-31.7898143990795	
11980000	-0.0962642001198704	-31.12093550333	-59.9563436970209	71.9553290365694	-60.036951121859	73.4149092138085	-0.0846210929494799	-31.5846477438258	
12229500	-0.301367737697708	-32.2729500903877	-68.6299094947043	65.2783668567454	-68.6662927838066	58.6546995126178	-0.29598596528612	-32.5917513872472	
12479000	-0.417671650420797	-34.18989673154	-77.2530409734669	76.0905755424443	-74.2422947636424	92.1887143056068	-0.411675961072887	-34.4207775664821	
12728500	-0.32214151334642	-36.1966100417742	-82.7157710626348	-169.126925569143	-89.4366970072767	-170.317939488693	-0.368533265302899	-36.2680935682746	
12978000	-0.114444575229961	-37.392930904432	-65.7592553885121	-160.536007951826	-65.9619537140974	-158.785431376601	-0.153860692988222	-37.4506978978283	
13227500	0.00250497662603994	-37.7030657012791	-64.1831035303446	-159.155262253618	-63.7670354802559	-155.439872927041	-0.151136204903307	-38.2757484887219	
13477000	-0.100755328623825	-37.5747902706454	-44.8123568956397	138.537261747084	-44.8969230123917	138.730385584633	-0.10336734195291	-37.268753152432	
13726500	-0.330905962744579	-37.9470225096667	-42.0334289853887	75.512505151088	-42.0581014728087	75.6666126736248	-0.380791345959784	-38.2991314551531	
13976000	-0.626725486568738	-39.7982614536608	-39.5567365223772	18.6406199155612	-39.4759886328386	19.0242025445498	-0.826918862563501	-40.1700608013788	
14225500	-0.982849796554565	-42.2188935886582	-35.5584802654242	-55.8874877005353	-35.4500723207716	-56.1394996116308	-1.40762062269952	-40.6925010488975	
14475000	-1.20611557138362	-40.6002989980209	-36.3508293025956	-177.278020741407	-36.2182909182071	-177.69108412454	-1.20457795709316	-37.0917617289492	
14724500	-0.6209563001295	-39.2980357968259	-45.5802135581162	69.01381241216	-45.5591445038275	67.5066837810908	-0.445527101435631	-36.8188678410399	
14974000	-0.427741399028585	-38.5803799167932	-53.7120118910024	-12.401283955675	-53.5611070848482	-14.4972266117637	-0.101514692484854	-37.5781817322224	
15223500	-0.351179952705039	-37.728827525791	-58.4859298419196	-57.7202909481134	-58.0952630249247	-60.6161109420558	-0.101268781698447	-38.0378347594996	
15473000	-0.435953141294014	-38.3402047262966	-59.1967534264447	-76.9148506237936	-59.190154467239	-76.4931020684703	-0.277183276992451	-39.0994290034616	
15722500	-0.548661682359444	-40.2887784580403	-58.6734187431924	-88.3635223352871	-58.1963794563817	-88.4294235714805	-0.433405211983648	-41.0643824426621	
15972000	-0.502597319976069	-42.6161205775148	-55.6537977753297	-102.161181451173	-55.844239780787	-104.160614156801	-0.43628507584135	-43.5663361812673	
16221500	-0.28968725068603	-44.3204268383644	-50.6774608601686	-132.26299922104	-50.5967948646038	-132.413702770923	-0.397573771046741	-46.2695643892421	
16471000	-0.0740595078971088	-44.9944168637161	-50.5038728456118	119.905221056155	-50.4469895160498	119.009867647298	-0.512187769264278	-42.066965574101	
16720500	-0.0213683586094244	-45.1461734044922	-67.9262778829383	105.36931788343	-67.4806267147385	101.461138896499	-0.0305852911119841	-42.816948699715	
16970000	-0.232446340192565	-45.9663167104553	-68.3475847180812	131.36457480314	-68.1889285770228	130.398758183563	-0.118030617617504	-43.4615210772626	
17219500	-0.899028798972393	-46.2249698574712	-52.2729143834967	-116.275492390245	-51.9642336695739	-116.588857939668	-0.337708801866962	-44.8068107694634	
17469000	-0.934929562019558	-45.2803443592516	-46.7649253055039	161.933245951538	-46.6543989728461	161.542834367997	-0.498780290761633	-46.9514131558667	
17718500	-0.632442492951013	-46.8336011425482	-45.3960889019101	107.505933832003	-45.2300436209958	106.997388904601	-0.510483733295545	-49.2871770329541	
17968000	-0.305268841399444	-48.3816881564622	-42.3919236178649	50.9343567875503	-42.367001753944	51.1376621607273	-0.554836291906597	-50.6439048095173	
18217500	-0.0938741284816992	-48.8095462564253	-46.1503035948525	-58.2969113748777	-46.0090529704657	-58.8060127808116	-0.221111688328321	-47.4053705053472	
18467000	-0.0862284777438134	-48.6956792860066	-56.11207510427	-150.856447515564	-56.2735035502783	-150.639275270613	-0.0413035226325603	-48.4521561331863	
18716500	-0.284590514594127	-49.1974953348164	-54.1852078054259	117.09436134088	-54.2075263617949	118.488873792499	-0.268939085234914	-49.5315003821884	
18966000	-0.551653086689549	-50.6557911836621	-49.3908102957855	68.0883213881691	-49.3560091061652	67.557009696862	-0.597505324551751	-51.2775208060418	
19215500	-0.711272737327006	-52.8055341465154	-44.6013090057445	26.435429573308	-44.5376018687212	25.9966614680148	-0.897547341999884	-53.6556203121378	
19465000	-0.711160785660651	-54.2785425015576	-40.4749759007887	-29.2743631960582	-40.428553550505	-29.9477007324258	-1.15924188532379	-54.330646965385	
19714500	-0.524492752879966	-53.9285470565388	-40.0327925640206	-98.456292784422	-39.9291416012485	-98.9413843590903	-0.939898816847703	-51.7608261257041	
19964000	-0.284163199251429	-52.8952820897276	-43.3112256938013	-157.660804945948	-43.1425257162823	-158.646314658519	-0.491104850679965	-50.2791926046623	
20213500	-0.260818733160913	-52.5242954913801	-47.8889865958696	158.479389358362	-47.6422307593121	157.656111171025	-0.338483891427641	-49.9357750883202	
20463000	-0.450091761669841	-53.2412105974136	-52.6496098428433	121.726176646733	-52.5884139008256	121.757883784395	-0.429260452298922	-50.4591961458903	
20712500	-0.666982898947623	-55.0112888281057	-57.9215532889278	76.5133549163921	-58.4306709899779	77.6292399712224	-0.558089338729922	-52.0949911170965	
20962000	-0.729227752866838	-57.1283661044459	-64.8436221930755	-15.2251031669492	-63.5175909073152	-6.81687906261848	-0.536703553977026	-54.1734819979382	
21211500	-0.561678997463306	-58.5638780830511	-60.6577587336747	-117.960105418358	-61.1963475798644	-118.65085202246	-0.348723761574236	-55.9555055131403	
21461000	-0.299338018633386	-59.1019986838304	-59.1751164769284	-171.918501733114	-58.9720007976071	-170.041028111636	-0.105417706364994	-56.7626214655474	
21710500	-0.27783679821911	-59.8932857032701	-61.4803381345311	140.434682101183	-61.9969809633753	141.876748539525	-0.0236225553577949	-57.0847475354461	
21960000	-0.842435600763878	-60.2035776819942	-50.3889282520813	-135.412156131769	-50.261334915163	-136.715608549297	-0.321674455977048	-57.5993432403995	
22209500	-1.42819036795742	-57.5554272795813	-46.8859725774599	97.415272155543	-46.8817631617458	96.005656563252	-0.505181107725218	-56.5004474462869	
22459000	-1.36495648849045	-56.5188961244217	-51.8573929078506	34.2095482612221	-51.7413076587275	33.3468991536353	-0.558930763770835	-58.4907475271822	
22708500	-1.03698380837088	-57.8799503117173	-56.5406586845944	-16.1373468917206	-56.6289087473635	-17.9089882662123	-0.498544662379618	-60.6612382418335	
22958000	-0.633077012510302	-59.1765615641817	-60.2499598072072	-91.0508190693516	-59.4638547844171	-89.3612786642251	-0.308344589519178	-62.1508939266436	
23207500	-0.317085304115087	-59.4698322366298	-55.8864190981222	-179.299235466832	-55.6983761275888	179.845575471137	-0.159732769636266	-62.3633705812426	
23457000	-0.227812737514762	-59.1515188462795	-51.8693802009449	108.234183195968	-52.0747926663229	107.945620630582	-0.146908200291938	-61.8237417096329	
23706500	-0.357756853350924	-59.2354384986257	-52.7809594412317	54.937815292987	-52.9060064352606	55.55048611482	-0.279468499269364	-62.1970130540763	
23956000	-0.5621396812549	-60.4171120256163	-55.4212286589374	26.1472954398972	-55.1647915677797	28.2279051964146	-0.533786842912165	-63.8191738126818	
24205500	-0.650420813854854	-62.5907786350444	-56.4453952698433	30.2356718287145	-55.8115578678389	30.7938041684351	-0.704689151312023	-66.3609761143093	
24455000	-0.520965541484874	-64.6854051106146	-52.6822490004351	1.52498973181057	-52.4287876097989	0.456833334920592	-0.679821931302629	-68.5628189000372	
24704500	-0.277981846059974	-65.8771139772619	-52.4171491082634	-25.4924799450651	-52.5050480382501	-25.6890569160199	-0.591226572252098	-69.8456340685523	
24954000	-0.120825014942377	-66.1189319072508	-55.7433470405323	-64.9363846672332	-55.4025870580901	-65.4390654044344	-0.718257192368307	-69.889617963212	
25203500	-0.204190105337108	-66.4556958423528	-60.2997301585184	75.2751409323473	-59.80678568387	70.5026468815571	-1.15477688867249	-68.7849932833692	
25453000	-0.68554161782755	-67.1512274196945	-41.888278116578	5.00767687390304	-41.8196766789427	4.71943746970792	-1.74607032242435	-66.4348150475643	
25702500	-0.954151102274054	-66.0893153415743	-38.6898730558473	-82.9850466502431	-38.4916113471609	-84.3194609832014	-2.03652624729213	-63.4226338902556	
25952000	-0.806056118841318	-68.2085365382926	-41.4173781539858	-133.587161738348	-41.3012306350865	-135.077287255475	-1.65867217877075	-62.6398738494691	
26201500	-0.587248711427095	-70.2937143062068	-43.8168653619317	-161.731631253931	-43.7928173259427	-162.647614725765	-1.07192263026484	-64.1155628360213	
26451000	-0.341206623268836	-71.0603776974256	-44.9532138084266	179.146692770301	-45.0426387289967	178.671367944687	-0.581087402083761	-65.3333049520131	
26700500	-0.280257115724717	-70.9229859235646	-45.1719564903598	161.394889605343	-45.2405594348312	160.67367464062	-0.317684712617963	-65.4634788979776	
26950000	-0.474825114996113	-70.6110649906441	-44.9726520648321	143.809876159885	-44.7828113248664	142.360197135983	-0.308005894845806	-65.5458538047383	
27199500	-0.836574984285831	-71.0471866663668	-44.1731302570107	123.703610333728	-44.1334797706662	122.196268510574	-0.486482733137731	-66.2978888408863	
27449000	-1.11640911977809	-72.2146500203063	-43.5629755658324	100.240032313246	-43.5039898534709	98.0969974173125	-0.625345822263393	-68.2549989652687	
27698500	-1.131821547328	-73.6112685307198	-43.2105067178337	73.5162339582924	-43.1524615904668	73.1247090610671	-0.588580666490716	-70.5651964572085	
27948000	-0.891128442167339	-74.548115216003	-43.1236664628036	48.4114295894726	-43.1421130484808	47.4006839431249	-0.376033250298033	-72.3764769776001	
28197500	-0.660528101822177	-74.4395991911386	-43.2175282848413	24.2380766358935	-43.288613379263	23.0306634520075	-0.147582260928191	-72.9149648608562	
28447000	-0.668560949115196	-73.6542631735175	-43.5984066749734	0.208829744116106	-43.6172253595931	-0.922146582798955	-0.0928787763451075	-72.9127950818914	
28696500	-0.909022862641922	-72.8601499641452	-44.1523988857858	-23.8472615407539	-44.093751987469	-25.3974847705676	-0.249809469063649	-73.0721166388361	
28946000	-1.18122945746181	-72.7341914321668	-45.310936846168	-45.0067499261604	-45.1970867524207	-45.7633674408646	-0.548008294284405	-74.5302987194024	
29195500	-1.25022936362143	-73.7566128913559	-44.2056959653641	-49.3989172795116	-44.3542403491075	-50.3594621465545	-1.03930464091629	-76.2534886728346	
29445000	-1.04187767161509	-75.3750940005689	-43.8355101684513	-91.0312299396594	-43.9364114160683	-92.9239799024594	-0.584276972115953	-76.3379395269308	
29694500	-0.654866009398789	-76.2144538193055	-45.5106449076662	-111.336069336109	-45.5194847290481	-113.342504930609	-0.327012805126286	-78.4280143711003	
29944000	-0.369345437497699	-76.0421931983945	-46.4771093366273	-126.510910480026	-46.5133062165969	-127.371064539705	-0.177858606547384	-79.0325386719794	
30193500	-0.32387541408373	-75.6359173721308	-46.2960052497354	-140.297609911555	-46.3315721750697	-140.972909299426	-0.302362504540753	-79.2772381807641	
30443000	-0.490426293959917	-75.9319638390899	-45.1774565079234	-152.841250376173	-45.3958994803453	-153.020637828105	-0.718295753163854	-79.6978964451971	
30692500	-0.742037569842483	-77.570045047749	-42.4893469041092	-173.752586073748	-42.5180569005592	-173.646262549489	-1.25131319998938	-79.7021084229561	
30942000	-0.966824573265857	-80.1104561524384	-40.6732618871367	140.652912741983	-40.6242221241189	140.140672794632	-1.11927302770113	-78.9002995046105	
31191500	-0.982850708294907	-80.9093194035663	-43.669303336847	90.9296567823848	-43.563214143943	89.5632187487882	-0.648876748000561	-81.9714840296274	
31441000	-0.583418546567285	-80.4165920718412	-49.5157318551723	76.7669297557385	-49.5259824888249	76.9875581585855	-0.46363952872385	-84.4445164449316	
31690500	-0.305501614925199	-80.0412825717353	-49.6384949236894	87.1783485142819	-49.6195550166598	88.5178869187401	-0.625400099694278	-85.0635250508925	
31940000	-0.310500875503356	-79.7744592800604	-47.2207649431681	70.0497678570937	-47.269117872011	70.9648212752799	-1.15176286720977	-83.44282315391	
32189500	-0.512055449007372	-80.2144524589288	-46.818396542923	42.6685054329325	-46.8346920489132	41.7194364077487	-1.46486729412917	-80.1659328968633	
32439000	-0.697382186587539	-81.9333895321761	-47.9564704037002	21.3433200970176	-47.8945972517467	21.4806918251208	-1.20848903625518	-82.4398666555364	
32688500	-0.675686938604666	-84.1957379920587	-47.7071035966741	-4.85945334687811	-47.5066533441058	-5.64227896602264	-1.72979472045247	-82.4414497263577	
32938000	-0.470387335995198	-85.8107356094396	-48.9828120293472	-26.3227352848513	-49.0764291592288	-27.16785685741	-1.1832564264876	-82.3002353227912	
33187500	-0.234818386094086	-86.2415589304216	-50.063472597076	-41.9724854113833	-49.833572328328	-41.7244171006252	-0.690249900455455	-82.5268613855011	
33437000	-0.161858691294103	-85.9014617387364	-50.6296256821752	-57.2509349478685	-50.357667870493	-57.3579903034377	-0.449047288216175	-82.2443377868751	
