!Keysight Technologies N9923A: A.12.45
!Date: Tuesday, 05 August 2025 18:30:09
!Timezone: (UTC+08:00) Kuala Lumpur, Singapore
!Model: N9923A
!Serial: MY61181427
!GPS Latitude: 
!GPS Longitude: 
!GPS TimeStamp: 0001-01-01 00:00:00Z
!GPS Seconds Since Last Read: 0
!CHECKSUM:0072507570
!Correction: S11(ON U)S21(ON U)S12(ON U)S22(ON U)
!S2P File: Measurements:S11,S21,S12,S22:
# Hz S DB R 50
2000000	-0.0754184922617627	-4.81968117866813	-70.7951986741315	-104.564348543743	-71.2058268961542	-98.951897748012	-0.0894975675445219	-4.78573276558597	
2249500	-0.302136009874763	-5.7159254215875	-69.7132063226383	-105.004205952479	-68.3828956071295	-108.604011812555	-0.307604661603787	-5.64622579589349	
2499000	-0.399350112705629	-7.34578331431594	-62.4792727708846	-109.751646682803	-62.7658463691206	-109.064078433494	-0.399192761680179	-7.19366638749663	
2748500	-0.278332390951654	-8.74229678439207	-52.0990113980216	99.4994910061389	-51.9292379219946	99.7806388707355	-0.291419434370908	-8.42402509321112	
2998000	-0.0435341293940541	-9.54900810963751	-62.8565302327045	68.6009728654873	-62.5441428887619	66.6944115809515	-0.0398750553359103	-9.25744768612331	
3247500	0.115977726419633	-9.37602486057968	-64.5900684049118	73.747464870253	-64.8197978432551	70.1348331990988	0.106656636341474	-9.18101734659107	
3497000	0.0731368943046147	-9.13100085685886	-62.4260629670133	58.293238403357	-62.9369244071277	58.5077601219259	0.0520256225481257	-8.99621507177049	
3746500	-0.153271146032221	-9.43366566636102	-57.8252364326143	32.450639168313	-58.0286086074374	34.5103535262526	-0.178711965959714	-9.37376772950736	
3996000	-0.400328969396132	-10.7532663753894	-51.0041096323787	-42.5944759689885	-51.1120975177006	-44.7978441760315	-0.473540456696398	-10.3211395719718	
4245500	-0.463899467940169	-11.9923720506085	-50.8369118896198	-92.0562962912076	-50.9095384917304	-91.6417225814949	-0.483346260435529	-12.4725822983584	
4495000	-0.262246096589091	-13.6928755019263	-50.1716578204366	-130.222184573601	-50.308619883063	-130.402523034292	-0.326859548379853	-12.7017254896079	
4744500	-0.0846811795193805	-13.4520307397189	-50.7653117384688	125.958434977704	-50.4210992779347	124.610223261159	-0.0127500833328012	-13.0955775711911	
4994000	0.0996987193831575	-13.2183083628543	-59.7297626778773	71.6536146635781	-59.6101207045116	68.8071081810185	0.106134293442751	-13.0396083796481	
5243500	0.00204589466683381	-13.1902213891225	-66.7791904199714	43.9553163651891	-66.2194375557795	43.9038537627894	-0.00262348951460647	-13.0075665736356	
5493000	-0.238318691106613	-13.8698715838302	-69.80848719047	23.0255202510848	-70.3197448442769	23.7159593221768	-0.245315104913213	-13.7072005054088	
5742500	-0.409623328984433	-15.5045239563023	-74.5089131699843	10.8823022258542	-74.4866727884833	2.51671789916339	-0.404321311541474	-15.3019680779924	
5992000	-0.35839128791396	-17.3923424348752	-75.7234846753939	-5.15899201770503	-75.6442697443121	-9.19838833101759	-0.355460755928067	-17.2037898653818	
6241500	-0.112619471732965	-18.6420207778818	-75.2418100828866	-6.80257303494697	-78.556554602915	-55.6804443745054	-0.153339397531224	-18.3833862496126	
6491000	0.076226127503814	-18.8769385835203	-79.575830974534	-146.811068122782	-75.5681185375189	-115.328907961206	0.0634012173728792	-18.6808919414749	
6740500	0.0994109331638359	-18.6830564317142	-75.2872348393816	148.837158538578	-76.075359893703	143.122162150471	0.0839846248363836	-18.4314351225775	
6990000	-0.0882309897423676	-18.8584179749181	-77.7198557540322	128.217078419977	-82.915326505021	123.119660970377	-0.0946298904488548	-18.5385044758717	
7239500	-0.36497706041941	-20.079439497314	-70.1665851245178	153.80981063141	-71.069283703628	150.707073660084	-0.337247192716234	-19.6005257860125	
7489000	-0.548625865447741	-22.2452758806263	-59.2833611218442	122.578123889298	-59.1026410991953	119.690225790492	-0.46170390380535	-21.5438187146131	
7738500	-0.62582324135506	-23.8510078528739	-48.5662773529196	56.38679168084	-48.6254913744693	56.1344716280892	-0.386615671493424	-23.3837106552759	
7988000	-0.466701064434109	-22.4530067406194	-43.4675535851711	-36.0047604727735	-43.4508481723755	-36.3481572930603	-0.256561773541261	-24.2916079336196	
8237500	-0.0383445830118503	-21.7211361765518	-45.4316734876714	-135.435800832128	-45.4046351177294	-135.592432627069	-0.216807549450435	-22.6113951815925	
8487000	0.0181481295347399	-21.6838651408291	-47.9053757767882	-151.175945528403	-47.8877261919174	-151.214512448296	-0.306994924626514	-22.2841002909567	
8736500	-0.174679549497372	-22.1197600829296	-51.1269442064408	152.452415643132	-51.1182624253998	152.795846441679	-0.351344939145572	-21.1256018125842	
8986000	-0.391606973392007	-23.5598333266089	-54.2411634428323	123.94602248963	-54.2588950886651	123.184187413553	-0.471822594818969	-22.4971022553231	
9235500	-0.431428437710279	-25.6832420206627	-55.3248530029658	103.630193933894	-55.7109365572001	100.736292889648	-0.467430432118725	-24.561292399762	
9485000	-0.252072521366704	-27.4209279229855	-54.7249367123119	83.3006553821941	-54.4168744929574	84.5013289430367	-0.273648154555488	-26.3076671694342	
9734500	-0.0205857363048992	-28.1092136055228	-51.9681567709092	55.8359852678012	-52.1008620775634	55.2447145534596	-0.0164899550225982	-26.9564483006638	
9984000	0.0283541891250814	-27.7875936442295	-48.9593877420703	4.85396637178789	-48.8469317229563	4.28215760303343	0.0928759259040922	-26.7935996215292	
10233500	-0.0752998092199777	-27.2301950857297	-50.3832420736519	-56.2069806690073	-50.2335297943443	-55.8369073639736	-0.00990067499202015	-26.5728558728922	
10483000	-0.325138315738186	-28.0140878845674	-52.2458452267267	-91.6462375811112	-52.2692696246378	-94.0077598769455	-0.256461282895303	-27.1856968399465	
10732500	-0.562847118436548	-29.9584064457432	-52.5821143076246	-120.314930317386	-52.4826503617212	-122.547502121029	-0.441301825240313	-28.9353653931369	
10982000	-0.65616170283526	-32.226585580865	-51.0782914359221	-154.495716408904	-51.1305051785435	-153.150858323268	-0.420730781957127	-31.096333064041	
11231500	-0.607702449898402	-32.3133823581179	-48.799769216467	153.495445531981	-48.6679785158372	154.033981184102	-0.217704768034711	-32.6520913428494	
11481000	-0.234436238630451	-31.0547844606942	-49.3169379031369	101.741690979831	-49.3589770303164	102.48792789109	-0.0171658452929417	-33.1460543795968	
11730500	-0.0578276025065424	-30.6488092983637	-50.3943459754445	53.9632770288884	-50.428739740699	54.0434121466133	-0.0541005823804817	-33.1060933917951	
11980000	-0.18415761775239	-30.6338604874654	-53.253641864646	4.30852128309042	-52.986919790022	4.57067953335612	-0.377365409592255	-33.1619790856072	
12229500	-0.41396276039511	-31.7334147517143	-57.4579898221487	-17.9465148981475	-57.4244460984541	-19.6460327261125	-0.880566468721879	-33.1915639257948	
12479000	-0.540203348427305	-33.8614208526057	-56.113376582358	-36.0197509341118	-55.7364348018644	-36.6265208955126	-1.00730506211057	-32.5294741228219	
12728500	-0.430534016647948	-36.0827376094116	-55.8393063060476	-73.9496051160073	-55.562365630963	-74.5477731898313	-0.650357039822635	-33.6375017756499	
12978000	-0.194389164440223	-37.2471169765728	-56.2713933528573	-113.345872261143	-56.1538617456847	-112.034609255756	-0.242816400991782	-34.9658787011419	
13227500	-0.0617075765875231	-37.1475289755901	-60.2460450527197	-162.346252894789	-60.2205455880822	-162.560470475794	-0.0186494298400698	-35.5227055643788	
13477000	-0.150897948695442	-36.4060240101797	-52.8574245784574	176.470506162653	-52.8058983190459	176.235782983748	-0.0136503948322957	-34.8529669051332	
13726500	-0.389451467309574	-36.2108215143318	-52.5849191835218	111.923007885512	-52.1154179331539	110.685725329192	-0.197903296319806	-35.2202923757557	
13976000	-0.640454644857917	-37.4872720129321	-51.6990217558937	46.7186178526201	-51.7833151189369	45.4152328499249	-0.428555589466605	-36.6931098283383	
14225500	-0.785309814974351	-39.6348010515589	-49.6448546763239	-17.7134196743224	-49.5615592960027	-17.7736675626243	-0.495185400377585	-38.9553802516959	
14475000	-0.691226875815645	-40.3480820520551	-48.2762466733947	-89.256446763947	-48.3526348736787	-89.4508270091721	-0.35708949160874	-41.0537684065613	
14724500	-0.298666778233058	-40.0981880440891	-50.0472280895842	-144.25043583941	-50.0754024124327	-145.341617152743	-0.21884454024324	-42.1963868619384	
14974000	-0.106141276577625	-39.7181038568692	-46.8816133247581	176.854211730044	-46.8991647871799	177.482192491649	-0.378083808253536	-41.5321078674226	
15223500	-0.162728271559925	-39.123761910272	-46.0718321261418	100.941978945062	-46.0729106917005	101.692113564264	-0.481517155685518	-38.2412686991356	
15473000	-0.372983859615162	-39.5828073325651	-50.1836453466284	45.6492272945574	-50.0637551805825	45.3696134328001	-0.471796165044088	-38.3501073890735	
15722500	-0.563805755879788	-41.5017218969783	-53.5375709106043	11.2976811797768	-53.3895399687814	10.3499746107533	-0.572438181993866	-40.3915403324367	
15972000	-0.540766350977128	-43.908948305263	-55.585154974559	-14.6174497596941	-55.5481165521964	-15.4934665670099	-0.526987976615226	-42.8748151939001	
16221500	-0.311912383281017	-45.6255370763196	-56.8031177140919	-36.6919426911702	-56.5350025194947	-37.3084013983624	-0.295416976392749	-44.6509703266376	
16471000	-0.0875988787875615	-46.1448197512854	-57.0123628211464	-62.0168859004337	-56.7368090423859	-61.8775147542865	-0.0583366030043828	-45.2430490868131	
16720500	-0.0743711960881691	-45.9230868505668	-55.9605065083274	-91.465431782408	-56.0072630918888	-91.9792415616791	-0.0152997186665155	-45.1684586396856	
16970000	-0.336834527805866	-45.7540666999577	-54.5629880668443	-125.898737327835	-54.2756934394956	-125.897132683303	-0.235337420891104	-45.3194989279255	
17219500	-0.73067637215991	-46.374150284218	-53.0384173334007	-169.055050372711	-53.0314127037666	-168.239597204133	-0.610846628948403	-46.5388652563869	
17469000	-0.966633040677218	-47.9209908651843	-52.9079793736542	136.375632371023	-52.7320250425171	136.688415476504	-0.959208231008216	-48.3182191444097	
17718500	-0.956484993951551	-49.6159663716029	-54.3192909867116	86.3390845867416	-53.7179979737796	87.8964367316288	-1.05110668749456	-49.2607655814859	
17968000	-0.794662997534554	-49.7140901420314	-55.919459713008	32.018414298496	-55.9750508099682	30.0265677525894	-0.793862036024894	-48.540950234778	
18217500	-0.506530642114585	-48.0024551807686	-61.2933226195756	-20.6534113100508	-61.5458790752021	-23.5757345234898	-0.3984554135779	-47.3361436843238	
18467000	-0.328878685224524	-46.6836576559931	-62.5086692959792	-25.1049390298423	-62.4056740246667	-25.0196544254863	-0.26183798509567	-46.5561819225391	
18716500	-0.412084450986422	-46.7381424382	-68.5841787783107	-118.345377649353	-68.5488244876525	-110.023212519	-0.36217552285115	-46.5517068192336	
18966000	-0.601967162912896	-48.1858069539527	-73.1146986159914	160.518948131609	-70.8668482776445	148.058198593218	-0.556052934494885	-47.8780473482001	
19215500	-0.649759880855828	-50.6288499775413	-69.5410470722417	81.888192769574	-68.3170902263321	84.4793113829662	-0.616098565072958	-50.1994844553189	
19465000	-0.471516825687536	-52.834342285086	-63.3182345925803	49.6707040456077	-63.5681085436066	49.901976473157	-0.458984776373675	-52.4363804247187	
19714500	-0.179661284591385	-53.8346651745391	-59.8922739886797	23.8912445108039	-59.1804785707841	23.1742367619571	-0.187703863005868	-53.5884360081692	
19964000	-0.0166700736669697	-53.6659523031861	-54.9805543289425	-5.3262658840635	-55.129353424391	-6.19804383874722	-0.0472327551142882	-53.629089768955	
20213500	-0.126905909059204	-53.3436086855479	-50.2569809825489	-40.3070663040227	-50.2014216081006	-40.1522059742364	-0.166030647613208	-53.3942544414991	
20463000	-0.428844009722116	-53.8715830081369	-45.8256790705304	-83.3912603013406	-45.7721072896929	-83.3496789755149	-0.495857081199771	-53.7337575104592	
20712500	-0.70306777370924	-55.7139576521004	-42.721720690019	-132.633871477876	-42.6641030605312	-132.184011925234	-0.812160401014563	-55.0810653263813	
20962000	-0.789084182878072	-58.4079904805202	-40.5534974829697	177.694299796832	-40.5339901269482	178.257112694862	-0.923944519444675	-56.8842608493627	
21211500	-0.702945890094609	-60.3968096526302	-38.7744322002241	124.912003669321	-38.7726508748364	125.621427866092	-0.798102361684723	-57.5537538515885	
21461000	-0.620816975572237	-60.456877252468	-38.0853508129071	65.5793682768808	-38.0943503132611	66.3628811805229	-0.4315405650542	-57.0473708418529	
21710500	-0.753354977981458	-58.7299322232347	-39.8799930098367	3.74968636987943	-39.7691974366815	3.87007793019916	-0.208716369300674	-57.0995386494507	
21960000	-1.002953169559	-55.9030528844535	-44.581720261144	-54.765875142745	-44.6178163625997	-54.6776091140719	-0.479710405325072	-57.7168272035289	
22209500	-1.10496357776801	-54.5781893500289	-53.9959753395694	-72.5990220631916	-53.6656861881856	-72.4660463792891	-1.0386368010066	-57.0126455531834	
22459000	-1.06887894080299	-56.0459303613354	-52.5821940803582	-60.9432671742073	-52.266747452332	-59.9256172141183	-1.08048998221191	-56.8113559643036	
22708500	-0.84197451039457	-58.532532566905	-51.4744818877079	-85.6607285535922	-51.4110591973866	-84.1255896661499	-0.811451792536693	-58.6685608113604	
22958000	-0.47386847398634	-60.2039608887112	-51.0517975729253	-112.926545734691	-50.9304149013786	-112.95902603575	-0.439890440754385	-60.363500319952	
23207500	-0.173474714341448	-60.4839840248508	-50.0795773024239	-145.269853041482	-49.9398372522016	-144.575404283258	-0.155438394071639	-60.8522077476279	
23457000	-0.114111420311996	-60.0289558365273	-49.0188092869437	171.019010595701	-48.827895521464	172.658219365842	-0.140887229688432	-60.7118887546288	
23706500	-0.302154039992533	-60.0288802414331	-50.1527130068471	113.320186082808	-50.1755937720962	114.892000306444	-0.371365259362824	-60.6111599421525	
23956000	-0.572812165092476	-61.3680406377385	-55.3520867742447	59.4324324707227	-55.0730692075522	62.5182150418345	-0.63870842032019	-61.7344418416381	
24205500	-0.710246882155102	-63.9206523762425	-62.5186690839607	4.67842824369283	-62.3336574376586	7.2997864943541	-0.784390492814011	-64.2555757174699	
24455000	-0.601617668430191	-66.3330881501152	-68.1142244022464	-151.536849161899	-70.0809408108486	-150.027203240631	-0.74398008868629	-66.5544006438427	
24704500	-0.374433990608154	-67.5649789166761	-56.8995234267968	120.937980452988	-57.1799081087498	121.36526209587	-0.617277220335756	-67.012999014399	
24954000	-0.283240403146842	-67.5243481775929	-53.2463664353277	53.5954215668485	-53.3679991379067	52.464580723827	-0.525716561073195	-65.1943942041055	
25203500	-0.514961905001383	-67.0244793843627	-54.8672812762365	-15.7041946840621	-55.2333293661378	-13.5148437549349	-0.414329298549616	-63.5873538297449	
25453000	-1.02236965971232	-66.0876821673153	-66.0653800858699	-65.4194019513625	-66.3744786871268	-78.195025460743	-0.512164321864675	-64.5204809722902	
25702500	-1.34797405935641	-65.3184772071618	-59.2302031870579	3.84730682483902	-59.0022461147811	5.888708380382	-0.959655266658231	-67.2169161455854	
25952000	-1.18766410130284	-66.3440922057087	-55.639976036998	-45.3338884281656	-55.1703961376708	-46.9737216467	-1.25774767428368	-68.1462219491975	
26201500	-0.773003285027707	-68.1248324985738	-55.3245459822449	-79.7850609330989	-55.3157425377183	-84.7872200375165	-0.971497481031605	-68.4183995815935	
26451000	-0.348363499319858	-68.9533088708249	-54.7814573491606	-105.8789032139	-54.7377082186475	-109.964092835213	-0.534546466591522	-68.5272666046935	
26700500	-0.169556232628033	-68.936390112786	-53.2439379537958	-134.87369893611	-53.302185221308	-136.418640693075	-0.286677934096501	-67.9537274275394	
26950000	-0.330267818467582	-68.8556069414779	-50.9802750573137	-167.406746665571	-50.9802439374693	-168.622103779664	-0.320674117915321	-67.6609647499024	
27199500	-0.745291881153345	-69.5212190537869	-49.1186416535516	155.765518914345	-49.3642167073852	155.914730694268	-0.571763392184715	-68.3155150447656	
27449000	-1.07887693740712	-70.586184540605	-48.1319018279886	111.981233934046	-48.0390127152152	111.210813903193	-0.773038187612686	-70.4429825355066	
27698500	-1.01956426838689	-71.9586582152906	-48.4285544961625	66.9219490413886	-48.3991077195701	67.2823983616766	-0.761026194720996	-73.0170742509727	
27948000	-0.673405424637411	-73.1092173520083	-49.4135178535048	25.6954491874647	-49.3126235229285	26.8061803768513	-0.552573643457081	-74.9076813157068	
28197500	-0.334017107309543	-72.9672641101389	-50.8764247257716	-12.5075167251165	-50.7935279256074	-9.98285282118696	-0.353983797481093	-75.202577346079	
28447000	-0.221672247258899	-72.2358273944994	-52.8232532320153	-45.9585177412578	-52.8040991018278	-45.0992991162781	-0.385312513865821	-74.642153520349	
28696500	-0.372111976910564	-72.0677096053968	-55.1768692382403	-78.1748839894186	-55.1021622346838	-76.033576525161	-0.676658877688794	-74.0073779018879	
28946000	-0.64066240844133	-73.2248952004413	-57.421392007729	-103.007952016757	-57.656138886525	-103.741960406022	-1.07353643606007	-74.2093973565099	
29195500	-0.793330446505313	-75.6950881832015	-59.9529344137829	-125.876739776854	-59.8322241676452	-124.007986528195	-1.28112573696761	-75.3813454139279	
29445000	-0.688984044705448	-78.3211666434414	-62.7040625826248	-140.916923976838	-62.3146890319901	-138.711528076537	-1.13317134901004	-76.6390402345501	
29694500	-0.406908177769298	-79.5940753359112	-66.810836472434	-148.675509122682	-65.3747672099696	-154.481928111255	-0.801199750079415	-77.0111258154109	
29944000	-0.250630971062721	-79.3731053310766	-67.4462494021116	-152.166356552216	-67.7357897612178	-158.587026624932	-0.47460621358302	-76.358089462213	
30193500	-0.385316228211094	-78.5653818585789	-66.1018155568166	-142.568189041588	-64.8977479194352	-149.274601571889	-0.415331908443124	-75.6241556404761	
30443000	-0.757589286418546	-78.0618272425799	-61.6886056963219	-154.693351215346	-61.1494550293666	-153.680869620313	-0.608169249841009	-75.5483818849089	
30692500	-1.13271580830956	-78.4594990432882	-58.2659487765816	-175.192163712681	-58.6082101416981	-179.642605742244	-0.839864506510125	-76.9812863259159	
30942000	-1.23130770477791	-79.9501019417887	-56.3475093137736	148.75548721859	-55.8323390622275	153.311427712987	-0.920516504257636	-79.5259169003233	
31191500	-0.97826388320062	-81.6144640413261	-54.1657472161884	96.4057586407523	-54.3939776818543	95.5584851343327	-0.801051359949969	-81.7242342156722	
31441000	-0.616332408662071	-82.0927940495504	-56.5936207497818	72.662247379536	-56.1376775431733	72.5570081813091	-0.446844855482549	-82.1700761140319	
31690500	-0.413621389498255	-81.229011295636	-56.2064412474982	40.8702743536079	-56.0981637756207	41.0677212391304	-0.277221880761517	-81.8511730707383	
31940000	-0.450288271288967	-80.2994848053946	-56.2181582244333	9.06887190057504	-56.7331748804212	8.05517753529429	-0.39882489122355	-81.4273917946923	
32189500	-0.685754199440752	-80.4895214585367	-56.807762209578	-21.7893605641868	-56.7915447549481	-22.0266872139655	-0.736263300981193	-81.8972333356032	
32439000	-0.901409787689271	-82.4074002872197	-56.6323269944141	-51.6043490176073	-56.7541569945479	-55.3202691181142	-1.04535113068072	-83.6653479683093	
32688500	-0.879618029497194	-85.0804033960689	-56.5285765804847	-81.1892062833086	-56.0144275977767	-83.7016242434174	-1.14729952673846	-85.8293543391541	
32938000	-0.648039442717881	-86.9379753229236	-55.6919687661335	-113.556708000341	-55.3608730476874	-114.274251487013	-0.98600346430059	-87.2356171131828	
33187500	-0.403406047306689	-87.2487707087004	-54.5582175214935	-153.792442133636	-54.5413998050554	-154.242771430497	-0.75394200284828	-86.7519495761533	
33437000	-0.369940983096831	-86.4405486862338	-53.9615133029893	163.195047847175	-53.5969372660959	162.457766295601	-0.671082887511665	-85.1717093794479	
