!Keysight Technologies N9923A: A.12.45
!Date: Tuesday, 05 August 2025 18:21:30
!Timezone: (UTC+08:00) Kuala Lumpur, Singapore
!Model: N9923A
!Serial: MY61181427
!GPS Latitude: 
!GPS Longitude: 
!GPS TimeStamp: 0001-01-01 00:00:00Z
!GPS Seconds Since Last Read: 0
!CHECKSUM:1550653870
!Correction: S11(ON U)S21(ON U)S12(ON U)S22(ON U)
!S2P File: Measurements:S11,S21,S12,S22:
# Hz S DB R 50
2000000	-0.0782935274444808	-4.88979607533003	-71.392266704194	-110.473388360447	-72.7847048752167	-94.6618121333075	-0.0896794025403052	-4.86423530989103	
2249500	-0.293805029502877	-5.81666884225628	-69.8160349716984	-102.818348891222	-68.3459027264616	-93.1785041238579	-0.296533932401953	-5.76367987573234	
2499000	-0.384901207497386	-7.41548518134104	-61.2695646793615	-111.252282434376	-61.7065438413236	-114.94827935776	-0.384038353047778	-7.3157384751947	
2748500	-0.266888943501626	-8.85713729086758	-58.6298751923822	87.7313753621327	-59.0120137359297	85.1490193007482	-0.274327742296263	-8.59389723309162	
2998000	-0.0462107809517385	-9.6070594260705	-68.5876930947394	75.8790924184873	-68.4379286148627	64.700919225027	-0.0459924114211692	-9.36910875373904	
3247500	0.102346607607753	-9.53519652585022	-70.0638692896534	78.0789415982487	-70.8021841337067	81.0383056057264	0.0886739288358075	-9.32686709847515	
3497000	0.0629551811418217	-9.32153840907558	-72.893629424148	45.7560338987716	-71.1094568903691	39.6100783617691	0.028155914712987	-9.06739502425645	
3746500	-0.145993865076553	-9.62089853462937	-68.4641945861421	60.7478929548803	-70.5604355888679	55.271177065374	-0.161558738589016	-9.47450123380736	
3996000	-0.354943841296406	-10.8350244497756	-67.6178237629076	35.2508467864043	-67.2740371076385	33.8871023367986	-0.354066925056841	-10.6797460503751	
4245500	-0.393701068533058	-12.5527781017028	-64.3282666547689	8.09422623619484	-64.3833961373365	8.95381337390864	-0.379266557520651	-12.4439049618592	
4495000	-0.225209838270434	-13.9982816621569	-59.5401116212859	-8.2772181017582	-59.3622969436975	-10.2324623480252	-0.226119485752184	-13.866589984362	
4744500	-0.0545459609787552	-14.6449135877771	-51.2311209794651	-60.9752969666278	-51.12627806076	-60.6066963794419	-0.077788171163084	-14.5144988685386	
4994000	-0.13292720075281	-13.8492220625995	-43.6614124249876	179.001592639718	-43.5332089596038	178.997510395258	-0.153999777294757	-13.3440926254644	
5243500	-0.100207769341379	-12.6504557917543	-51.8565118266678	62.8921171532546	-51.5112372201429	61.0458141228517	-0.102940369981104	-12.4155776008476	
5493000	-0.263438876809929	-13.4113221477656	-59.5405134266012	5.05755250175668	-59.3777366367606	3.01447095728823	-0.271326903964457	-13.1820303137953	
5742500	-0.407150369056412	-15.0447139223096	-64.692414843739	-32.6407828058507	-65.2321494076583	-37.0454792823391	-0.400787963666779	-14.7771074182173	
5992000	-0.351154949698285	-16.8744947448465	-68.4977983884104	-57.4684216745025	-67.6291800927635	-66.4289778652536	-0.347967612898368	-16.6274004287162	
6241500	-0.134630721665767	-18.0630422803486	-68.6250246131617	-99.9790273122252	-68.4254897080015	-100.029783081617	-0.144396401146871	-17.79964146317	
6491000	0.068835611465503	-18.3183593900591	-69.1206386969582	-165.490962739482	-68.414123614156	-160.397014536208	0.0507776529838996	-18.0733288280616	
6740500	0.0979155574790228	-18.1345541348663	-72.4345679979674	144.863540508904	-72.6760303720701	141.742430270096	0.0791945592085525	-17.8325416572795	
6990000	-0.070761700078476	-18.292837158744	-77.0510166626717	129.133798536801	-78.4219423426293	134.023139401725	-0.0833635211249762	-17.952391907314	
7239500	-0.313549851139689	-19.41007428105	-80.6365714965694	134.476860742164	-78.1079299582664	99.7497465658317	-0.305016281064143	-18.9610043286079	
7489000	-0.45985494850527	-21.4703868341699	-71.9021448235081	127.742550980891	-74.8371112768603	128.134018797063	-0.408616268830037	-20.7758531807974	
7738500	-0.612987922462311	-21.9588599727692	-59.129880754989	11.4796299244675	-58.9024497874507	13.7489188819284	-0.304030939406822	-22.4827817664685	
7988000	-0.0829576845180385	-22.926417968886	-78.1598183448782	-73.4749772877842	-78.567681829043	-68.8025111331992	-0.0881413665208742	-23.3521109716441	
8237500	0.0924379879878855	-23.1914332817982	-78.9900138872813	80.7347560570041	-79.4043410343582	74.059126771214	0.0669607560161062	-23.5525180069872	
8487000	0.0488476063238615	-23.1307462515522	-67.8100248726454	58.9820043294768	-68.2753533517394	61.5844840330804	-0.0230486383484306	-23.7005708222602	
8736500	-0.179031269747223	-23.6417092387467	-57.9391903941944	23.3480961010397	-58.0954303203019	22.4296873800757	-0.442820896146793	-24.4609753012986	
8986000	-0.430940427938031	-25.2874003876848	-52.6243240165948	-55.5060213475841	-52.1322432721509	-60.3728676822367	-0.79365282187208	-22.5058491228259	
9235500	-0.570804001564276	-27.799083383752	-51.6492119141093	-103.202577007529	-52.5300583732209	-112.89330469677	-0.540545994499535	-24.3454470774648	
9485000	-0.703092110636383	-29.2994144593457	-49.165678496431	-173.597554322965	-49.965997770126	-175.610279791669	-0.293788155656566	-26.2312916738279	
9734500	-0.486882062846189	-26.6912362533672	-51.0666914504811	99.2219969549509	-51.5747059814151	95.5711112497888	-0.0248097454800738	-27.0530238410221	
9984000	-0.148369228989463	-26.2769782181682	-56.0935028639486	17.8513864648111	-56.0266808009997	12.8870104425676	0.0903295779124389	-27.0759353423894	
10233500	-0.239565499424018	-25.7530835070529	-59.4361871697406	-88.3665356070628	-59.4117552428308	-95.9927306715766	-0.0112927396000568	-27.1039835067657	
10483000	-0.36238601145172	-26.0470811757222	-61.6661135348677	-169.714770004277	-60.9037537200854	-174.653933947486	-0.265879932395302	-27.8965081025073	
10732500	-0.477291049283617	-27.856264803851	-62.2278098951189	143.346997183985	-61.7926082586027	146.596553156875	-0.477920889631925	-29.8156460745471	
10982000	-0.418139836764667	-30.0372568823452	-60.7237917680932	111.783761752898	-60.0330683737274	114.21816969897	-0.552484117364721	-32.177486826334	
11231500	-0.191782656104464	-31.4487194348888	-58.0532589530409	79.6095480799812	-58.0949544486117	78.0155954190986	-0.584093707733217	-33.3077676419691	
11481000	0.0375808750018217	-31.7518241533531	-56.9250635686949	29.6644980222148	-56.7564075378469	30.2105191583646	-0.477286687971393	-31.2418054720798	
11730500	0.0849177496484457	-31.4930795971301	-59.0082236358724	-14.84510317179	-58.6305798750089	-11.8121228734355	-0.220292005222472	-29.6875687786546	
11980000	-0.0831008891759196	-31.471512997303	-61.939455035841	-44.0673240594633	-61.4509284863779	-46.1093056495299	-0.231249283333381	-29.6547196850427	
12229500	-0.335770130323129	-32.5139289163354	-63.4853095577182	-63.0874909363811	-62.8325284228854	-59.4784492843738	-0.40929738118399	-30.7160093470356	
12479000	-0.474469125233136	-34.5065026368968	-63.1698136975354	-58.2109993545313	-63.400473380622	-64.6662901169204	-0.498652670098893	-32.6707818953616	
12728500	-0.383260989553577	-36.6336716516336	-60.2111876194508	-77.9256522227764	-60.221386723799	-78.4462980784112	-0.401512322755648	-34.6058769690195	
12978000	-0.171944830901048	-37.8606403659345	-58.610735031582	-105.69093567157	-58.3835786079494	-107.242565528994	-0.135631433955984	-35.7609184606304	
13227500	-0.0753660624697892	-37.9944373934117	-54.8685358345849	-142.190966596759	-54.755480756072	-144.497164132679	0.0446926410432186	-35.8862633202119	
13477000	-0.224424567894756	-37.4737648319155	-51.5943075052096	164.726938457584	-51.6274225997066	164.307438552259	0.0245663203203877	-35.7723960958581	
13726500	-0.524106945635339	-37.4520961159451	-50.0464115440439	106.546782028188	-50.0719446680391	105.024195430428	-0.187815721942408	-36.0923576469311	
13976000	-0.946045868706823	-38.5568893778782	-48.4069103857855	43.9405809419434	-48.4342537846354	42.2277948957358	-0.429481555511797	-37.5233959128747	
14225500	-1.19149136451138	-38.4551422858576	-46.4122752286921	-33.0922567890062	-46.4253499026855	-34.4242566289589	-0.519035509088509	-39.6988337519086	
14475000	-0.760028491301866	-38.3601073278294	-45.0027950541919	-118.391038555419	-44.9875647142453	-120.472308814393	-0.431829313124618	-41.6642188941154	
14724500	-0.329811329515764	-39.0501076526743	-42.3265513791903	146.424974007969	-42.3708286301751	144.309541699049	-0.398891982833831	-42.3254314390581	
14974000	-0.10933238774302	-38.8388873829298	-43.5514439023969	28.2465882056768	-43.4416806918015	26.5761844281114	-0.340881460626838	-39.0447014927782	
15223500	-0.136770699698467	-38.593377202137	-50.8420536203015	-40.7242063475675	-50.8176637412427	-43.0311337185482	-0.106000987293677	-39.2319079414455	
15473000	-0.339879398377557	-39.2357902015362	-54.6541378394154	-73.934748074837	-54.1804258677052	-76.5625501007027	-0.321539729563268	-40.6957364685275	
15722500	-0.524433687988639	-41.1454722058914	-55.0349222444426	-99.3379431647249	-55.1763834721648	-99.8213223984679	-0.572513774967535	-43.0128418975852	
15972000	-0.501627265945842	-43.4641390883784	-54.2855475293153	-126.990934993607	-54.1616554495105	-128.285231883425	-0.708988681468257	-45.5873920715389	
16221500	-0.280189463904092	-45.0973263545511	-52.4416668005973	-162.324664466286	-52.2755510075406	-164.676267961209	-0.760844678069935	-46.7241741311874	
16471000	-0.0511498767012015	-45.5745999637913	-50.8571997211791	152.796725725914	-50.9171448821324	151.882292474613	-0.711201571682138	-44.8668510205157	
16720500	-0.0063536874005418	-45.3410249828298	-50.9273596346359	108.098472815095	-51.0393303302607	107.30712019691	-0.49429970889154	-42.4133785201208	
16970000	-0.200840434582259	-45.242031059713	-51.747748812705	66.5467163230101	-51.7787599868118	65.5688564611779	-0.432751062727516	-41.6419006985994	
17219500	-0.506763771986065	-46.1453607816304	-53.6096013258738	23.3333829194245	-53.3117336028747	21.6900088181086	-0.54528987669159	-42.5914986282974	
17469000	-0.693382614960344	-48.1590288668929	-56.0655887226749	-18.1102372641062	-56.2812736792789	-19.0413703010835	-0.620187820285606	-44.6628985820985	
17718500	-0.669660235249439	-50.387757507892	-59.2702647608247	-60.4890626584309	-59.6305287394246	-57.553018868232	-0.497358058700312	-46.9905429667955	
17968000	-0.548782252197336	-51.6524984292766	-62.6909298760027	-129.53117931491	-62.9328531008432	-129.348513070061	-0.228737525236415	-48.5343498488689	
18217500	-0.532784368334061	-51.0320408337935	-55.361009966377	132.975520095098	-55.4557493056233	132.099502408744	-0.0159707375675646	-49.1718692383183	
18467000	-0.659816164175092	-48.8775411509201	-43.3591550327604	24.5454887454461	-43.5972701937754	22.9450143344023	-0.37596167477134	-49.0418616001683	
18716500	-0.804827345693724	-47.1502174447189	-49.8472209636841	-85.2384152184536	-49.9913465916297	-86.7204797697766	-0.299393815075878	-47.3374778436256	
18966000	-0.893656328901554	-47.5611330815112	-56.2014860725954	-122.305780564203	-56.3515085095951	-124.56254687907	-0.479896778591247	-49.0477134986391	
19215500	-0.848879402200289	-49.5841831848628	-63.3731855043222	-129.207178892447	-63.5182861445351	-133.313127524041	-0.564919502859498	-51.5585677559319	
19465000	-0.615899567933756	-51.6378079066936	-65.0665016962437	-90.9754162293511	-65.76088192414	-88.4189233747579	-0.465111919938429	-54.0662100147846	
19714500	-0.291289115335987	-52.6082734843029	-57.5315661587179	-83.596807151117	-57.3918446632266	-84.6917493286671	-0.334213098693142	-55.7709919469438	
19964000	-0.0976659621910169	-52.4599345665835	-49.7294985203598	-128.404049338854	-49.5878772636504	-129.383248647904	-0.628852284417867	-55.2475541604881	
20213500	-0.167904513073884	-52.1263989636088	-48.3712434891174	157.269530631218	-48.5101186907586	156.841780716751	-0.55802211888556	-50.4890043797772	
20463000	-0.421911557857268	-52.5253555345369	-52.6311456464035	106.892249375291	-52.9179180142037	105.49557529973	-0.440696012490679	-51.2542679184256	
20712500	-0.638100878740636	-54.1077771552871	-59.0577036559959	84.1490297169609	-59.571724659539	82.8981134565598	-0.588966323152097	-53.6207748699039	
20962000	-0.647340463134293	-56.4825369575729	-61.2879231837711	102.65459147482	-62.1275993973133	109.432203886479	-0.611855990397588	-56.2573304710987	
21211500	-0.448050644099802	-58.423576548014	-57.6013588258399	93.8768607911935	-57.8680093178518	96.6761426290151	-0.471183376965065	-58.384143353244	
21461000	-0.217145923843058	-59.0755627743723	-57.2713386463489	76.2137636201847	-57.4341497028793	77.7382605929316	-0.31256662223296	-59.2665801220302	
21710500	-0.19149122908917	-58.8696910721143	-55.734041288018	70.0191706938011	-55.4070842500976	71.1106035855616	-0.392604848834798	-59.0760961884656	
21960000	-0.449736554111606	-58.8097839129882	-52.06953477489	55.5254963781861	-51.7829858581102	55.7145555683851	-0.741990332366674	-58.0520967976581	
22209500	-0.892266727985672	-59.4397325049845	-47.8141853986678	27.2435912069669	-47.7501584178562	25.3016399009137	-1.12125216457466	-56.928231782871	
22459000	-1.26526400421815	-60.524938936869	-44.2554596609214	-14.543011163745	-44.3278580280348	-14.8362705431724	-1.18771368963985	-57.1111586049767	
22708500	-1.26659620816229	-61.1197359102589	-41.6226978643692	-62.1462112211019	-41.5830955283929	-62.3678720611092	-0.96118301700565	-58.6862452401842	
22958000	-0.922252643703917	-61.1065998020726	-39.6367935849506	-123.963386234919	-39.5048600001116	-124.23007485641	-0.679461309945595	-60.291926862104	
23207500	-0.573838442668348	-60.0756445234885	-45.9160938992314	157.30211754463	-46.1160603783559	156.600294312823	-0.433988670974631	-59.2811154108453	
23457000	-0.40235869081235	-59.2348046093551	-49.0221570835592	177.080350209756	-48.8891216988051	178.632455402976	-0.253296379638667	-58.8020854363715	
23706500	-0.537651328822019	-58.8521527305543	-46.3404806290817	129.665054817691	-46.2073370770445	129.957050980125	-0.385144724071472	-58.8659070503268	
23956000	-0.709072251749669	-59.8297824497451	-49.615546136797	83.9904713817945	-49.5163584822225	85.3256445457566	-0.597225346127582	-59.9560831929022	
24205500	-0.774926118977768	-62.2369607337634	-53.2464097698516	60.5091807085424	-53.2920164617144	62.2094635838226	-0.675705918677465	-62.2139162058463	
24455000	-0.63000512881252	-64.5079711745866	-55.1112679122933	53.6738717074918	-54.6572923582275	51.3707471599206	-0.532656767238676	-64.3545640454591	
24704500	-0.36441805979454	-65.5766177101723	-53.8643975351978	37.2388553546919	-53.8635384358639	35.7218615094653	-0.250195026278206	-65.3490671925188	
24954000	-0.182048237252529	-65.3091116345127	-53.1651624810377	9.94181415824789	-53.2644073632613	8.58871416125965	-0.0838543251807888	-65.3482732301726	
25203500	-0.207512408015847	-64.9967209519211	-53.3090657740216	-20.3649221306832	-53.2579272269366	-21.6870920655983	-0.152419328698155	-65.1679152494886	
25453000	-0.49624700422436	-65.7415920262932	-52.7412481146405	-51.7407375561381	-52.8812302306543	-52.807150983001	-0.408803381464873	-65.5509482189872	
25702500	-0.958072109157015	-65.357118817659	-55.0270513078589	-124.799483909014	-55.0960740853297	-123.60984595267	-0.682498093475718	-67.3589101034259	
25952000	-0.728805050706446	-68.1471748961327	-62.8651619275838	-97.8066282566192	-62.5009061100854	-98.1725404347542	-0.794232957696317	-69.8217104066592	
26201500	-0.526179939874331	-70.5673621804893	-61.4651822176759	-93.525727160324	-60.7102680658436	-89.1076078031835	-0.672942463861085	-71.8980218682009	
26451000	-0.27671232184974	-71.4092015639841	-59.6712662040586	-102.690827768367	-59.1145854977168	-101.112401159158	-0.538006570782102	-72.6958766822851	
26700500	-0.226126694858516	-71.2503756753977	-56.9668392829687	-119.61240220937	-56.5482153672119	-118.335773821717	-0.603710683748513	-71.9596749690274	
26950000	-0.469406404077376	-70.9297652265758	-53.7773507052488	-140.932346392981	-53.4205552327121	-139.346956000801	-0.919537130373383	-70.572612197207	
27199500	-0.91748104713822	-71.3954180989643	-50.5529905701145	-171.413608505351	-50.5440965025271	-171.535403025341	-1.32472970897175	-69.1888530948311	
27449000	-1.30244760073137	-72.5260913565909	-48.6935178501958	151.379368282301	-48.2815894025245	150.81258722584	-1.48700977341944	-69.0802295149215	
27698500	-1.39305558044946	-73.4244367549922	-47.9805713879281	108.057628928004	-47.7641571257275	106.215843226442	-1.30614091578909	-70.0895733428584	
27948000	-1.1163797188453	-73.3012497037745	-48.6588634220338	64.3303523639842	-48.3349811874438	64.3185806809241	-0.897534679854302	-71.2309146057693	
28197500	-0.720078572655855	-72.0864215235242	-50.4088192294721	25.7313444932706	-50.1573276407451	25.6670627187033	-0.499178087161604	-71.3300783190425	
28447000	-0.497115849407155	-70.8402903007077	-53.3184148130829	-3.8123275887169	-53.3891561863086	-6.14445374955012	-0.323108289423426	-70.9683230083577	
28696500	-0.543152146741654	-70.5310579096405	-56.0424293137823	-25.0476266471806	-56.3938052916444	-27.9405397757397	-0.407303150297467	-71.0035762610855	
28946000	-0.728595535116217	-71.653668093566	-56.5261566679206	-42.6983745892637	-56.6443608691458	-44.2985445426899	-0.769041584007196	-72.3773307190651	
29195500	-0.824261255996104	-74.0788414407287	-61.4944797384052	-60.2461592384039	-60.319190183782	-69.8686017719771	-0.817836670825792	-73.6957780970701	
29445000	-0.689271704904369	-76.6934028882405	-61.7228720829503	-55.6551588366883	-61.6980287367945	-61.0334633834607	-0.659162220387986	-76.0636677333733	
29694500	-0.381121577641558	-77.9771939342315	-62.0271926959858	-58.3310085441789	-62.7478865857546	-59.2770314981643	-0.394582252093271	-77.4192538183602	
29944000	-0.171518804711557	-77.8298206404132	-61.0303197806492	-68.6083176854543	-61.34217111651	-72.6760514613611	-0.169901231396487	-77.4843218354424	
30193500	-0.205537436177767	-77.2940167079053	-60.4661648230201	-78.2274529097734	-61.4697220521799	-81.3345519877701	-0.192785805023901	-77.2683191720979	
30443000	-0.46030374453993	-77.481451542108	-60.1740102260662	-83.5124207717823	-59.8457844708706	-79.0237015815851	-0.451815733996134	-77.5976990179658	
30692500	-0.791127654761638	-79.0839554979567	-54.706039638985	-82.9517816010686	-54.6259110996062	-80.4911682738012	-0.756371561993622	-79.2812175071554	
30942000	-1.0232882997444	-81.5920959484263	-49.3374719917089	-114.671857290245	-49.0829351356753	-110.72780608057	-0.951694145164662	-81.753350414318	
31191500	-1.00997631227184	-83.1992294319547	-46.0617496255639	-167.284047633385	-45.7713862575183	-168.113827600117	-0.974802452624369	-83.2437636151487	
31441000	-0.786002222056603	-82.4588373701504	-47.9774047821036	163.873830568755	-47.7467871829866	163.536327694567	-0.485785400933985	-82.7894510763724	
31690500	-0.499961490140974	-80.7401334304192	-46.0332366481123	125.727780834975	-45.871945010532	125.572388251851	-0.380925267656817	-83.3202872362828	
31940000	-0.427855677775568	-80.0273068544266	-46.1028571095588	89.1393442998358	-46.2154812936862	88.5302125266691	-0.635867388771361	-82.9495875324955	
32189500	-0.624495602916633	-80.6822391060618	-46.7209501515283	57.3653281896927	-46.5377098731438	57.0008837848498	-1.09244240230364	-82.8405977830496	
32439000	-0.847879180142257	-82.8889500669407	-46.9301702267968	26.8133259670079	-46.830094228053	25.7474708175243	-1.46087279597299	-83.4040070445261	
32688500	-0.867591428738016	-85.6891934613773	-47.1011794299293	-4.31536620513943	-46.9524026494429	-4.84266428756144	-1.51047454954238	-84.1533336418903	
32938000	-0.709703231404011	-87.5717945364991	-47.1425166455526	-34.5404151121587	-47.0621271947011	-34.8280761428876	-1.19501447951898	-84.6348250932569	
33187500	-0.548297469104544	-87.7472961728482	-47.3979625885277	-66.2341656340751	-47.3252693186242	-67.1451420338047	-0.775624414417374	-84.1048767039474	
33437000	-0.565239581618421	-86.5386223671778	-47.9607011924693	-99.8287542375959	-47.8552621372887	-100.816859334238	-0.537832585442282	-83.1449302114975	
