!Keysight Technologies N9923A: A.12.45
!Date: Tuesday, 05 August 2025 19:50:41
!Timezone: (UTC+08:00) Kuala Lumpur, Singapore
!Model: N9923A
!Serial: MY61181427
!GPS Latitude: 
!GPS Longitude: 
!GPS TimeStamp: 0001-01-01 00:00:00Z
!GPS Seconds Since Last Read: 0
!CHECKSUM:0831561037
!Correction: S11(ON U)S21(ON U)S12(ON U)S22(ON U)
!S2P File: Measurements:S11,S21,S12,S22:
# Hz S DB R 50
2000000	-0.105540305572932	-4.27889427161251	-78.3815065833981	77.115836050324	-77.9805093415785	79.2089314670058	-0.13944646818655	-4.14544402900804	
2249500	-0.421469783874819	-5.28894446274832	-62.7273725691742	51.8899313460088	-63.0335546901054	48.1103285529168	-0.453909110230207	-5.20288466576824	
2499000	-0.555233160714593	-7.2880001206909	-62.1312805400075	-80.8477092222615	-62.3693230927585	-80.3025835234534	-0.584845992340586	-6.9635817250133	
2748500	-0.390710930881184	-9.20031324299288	-70.9567706872362	-124.093409497323	-70.2170922213329	-124.528309126732	-0.416732882241672	-8.97153184676633	
2998000	-0.0633983920282276	-9.96067224327412	-76.6785665626749	-98.8740119148778	-74.4405200947212	-86.5173105974282	-0.09314713671196	-9.78021384007883	
3247500	0.142751159861566	-9.60665149892263	-68.5301686382114	-116.5775694103	-69.8059063397769	-118.090567915061	0.094102063571959	-9.28958294175312	
3497000	0.0787665966367305	-8.99922346872529	-71.1551039483741	-112.632381465904	-70.5949174191983	-109.382320333476	0.0355686044063608	-8.7955997891861	
3746500	-0.223643877175865	-9.11907786487156	-69.8763032776191	-122.523437962099	-69.3470165163185	-123.446120992475	-0.258249891726009	-8.88028994780928	
3996000	-0.524020148033281	-10.4034548146999	-85.8436874036587	-108.937737595062	-76.8944256197947	-137.895894424713	-0.541082049271687	-10.2360106129689	
4245500	-0.547429009556029	-12.568305511983	-73.2735207090039	-97.1209281136018	-74.7350980766144	-93.2724932197659	-0.573769374002499	-12.4210074749982	
4495000	-0.293105005367377	-14.2080171578052	-70.8077249224891	-101.161711420256	-70.6614642616412	-91.9800653063212	-0.324903805127667	-14.0216970407797	
4744500	0.0217520651522921	-14.4922574172808	-64.6019441924059	-108.10690306572	-64.4274879808197	-108.739732513219	-0.00978432037385401	-14.3577981413433	
4994000	0.128938228248559	-14.0217130064805	-56.6946679076128	-127.135372962611	-56.4237096563525	-129.266996722672	0.115630856747786	-13.7888176082527	
5243500	-0.0185157241934538	-12.9049520409844	-63.4722074831361	110.155294519361	-64.4319898316001	115.183940609701	-0.0418312422487325	-13.2671323802602	
5493000	-0.343957903758598	-13.6550253852449	-63.4428935454703	-130.660936883114	-64.3285041142265	-125.569303352996	-0.373222648106035	-13.7839509464005	
5742500	-0.616621013712724	-15.5453553466274	-54.5731001637055	-170.228572739314	-54.5500077272605	-171.913763086261	-0.601886640351755	-15.5455665887089	
5992000	-0.572395665274702	-17.6771959039219	-46.6673849956746	149.123454212708	-46.8444741391838	149.209105470181	-0.550951229786681	-17.6235961030835	
6241500	-0.189193565290292	-18.8128153049656	-49.7634816182151	98.1998889007166	-49.8116211170402	98.6932512284021	-0.254999892928237	-18.7191668457558	
6491000	0.0858972530787658	-18.7718272554627	-51.2026510112948	84.1158809956875	-51.2864594395685	83.6062303376149	0.0498834628112316	-18.6992240721658	
6740500	0.120886401862316	-18.1168238244409	-50.710662195607	75.695260128557	-50.6990608462001	75.3516492431994	0.0828324775023474	-18.0795327048034	
6990000	-0.138857347758267	-17.9319629606903	-48.3138169992502	66.3883358993474	-48.3149585355266	65.9184106487987	-0.164330130889622	-17.9590398794779	
7239500	-0.533986883003352	-18.9594985923548	-44.4173213780315	48.2850631434235	-44.3950708873509	48.236791338076	-0.510137541736468	-19.26717228693	
7489000	-0.717692892820382	-20.7999615494747	-40.6021116194671	20.3698580611209	-40.5928840135677	20.0794586634639	-0.723696632076748	-22.0572474526725	
7738500	-0.564735182732063	-22.6590061721757	-34.4596220409221	-15.766461139774	-34.4400320014571	-16.1867245389356	-0.89314483631553	-24.711188804738	
7988000	-0.168064506224572	-23.203718741157	-32.4770457061469	-101.65964027464	-32.4737080337346	-102.206432060204	-0.544175021401281	-21.2627819123235	
8237500	-0.0169067543778228	-22.7418790299545	-33.7865000518293	-167.318332971118	-33.8133323666439	-168.835562040754	-0.134170701475601	-20.9420755560683	
8487000	0.0242893940858774	-21.1432750449255	-41.831271002829	114.917265477098	-42.023018035475	113.843009032945	-0.00580524048120006	-19.8380176171903	
8736500	-0.230891925721414	-21.4515306171623	-52.1021591121593	89.5458931650607	-52.4241950199606	87.988380360667	-0.244321807926091	-20.2827133290432	
8986000	-0.54255737404188	-23.1734615563305	-61.3759171835394	78.3239025913305	-62.2138789054668	75.2840723180676	-0.550863966072088	-21.9667598193219	
9235500	-0.603721422788214	-25.8673977098952	-76.3935847825307	75.9256251564058	-76.9191579564566	82.634163219911	-0.61031765832689	-24.4693422000808	
9485000	-0.357353395919313	-28.0178402515175	-87.6841052891002	-124.788144239143	-87.7608584935055	-0.431892055933641	-0.370997257486091	-26.5276955414446	
9734500	-0.0554807365572708	-28.3085406300828	-54.9175615046059	-85.5434155097441	-54.8983836467923	-83.9139194932453	-0.037726398938463	-27.0585039231696	
9984000	0.104112537336401	-27.8386788079326	-52.2889820055648	-127.642124308809	-52.1533086164144	-128.215220939376	0.109236643903278	-26.5365862009459	
10233500	-0.0881889179015577	-27.657941637664	-47.1784807055216	-136.011479826127	-47.2861057756076	-135.800985062102	-0.0469874061806118	-26.1032943509153	
10483000	-0.623592110555287	-28.7835747065185	-38.801005771681	-170.068010369026	-38.912249910507	-168.898918951069	-0.461066243922799	-26.9335025982167	
10732500	-1.03829125060832	-30.2005227911581	-36.2179351352596	102.307740740123	-36.2733387220256	102.624549147546	-0.840599075859592	-28.4361761991414	
10982000	-1.54603935238034	-32.148315636229	-40.7789195704012	65.2110293331875	-40.8588740954354	65.689810660919	-0.897414083750537	-31.1068175147665	
11231500	-0.904101012900744	-28.4308567415416	-38.5302777411228	37.8471195535858	-38.5759172063085	39.9615520329022	-0.840595450171032	-31.2263110660872	
11481000	-0.209175741163353	-28.7457748016007	-41.222733135694	-18.9544144471493	-40.9173826372651	-17.9750482996976	-0.264346625982114	-29.0366360667205	
11730500	-0.00405293586417361	-28.274383324772	-49.1553330973216	-63.826337806715	-48.9143041430824	-64.6243054895801	0.0412963028513901	-28.9076886950167	
11980000	-0.154904430214118	-28.1818474030945	-44.7604505024894	51.2562513151149	-44.6338181380086	50.8469193092653	-0.26587986884528	-29.9724934671943	
12229500	-0.525171463706555	-29.3423157088172	-39.0189194517683	-46.5674148475551	-38.9888191606312	-47.4483886271599	-0.782206515630656	-28.6610219096464	
12479000	-0.69752892299492	-31.8131543502318	-43.0485108563231	-86.3700287521048	-42.9963254609049	-87.0655550539691	-0.754769664789377	-30.9588612048801	
12728500	-0.54181108118331	-34.4562709004374	-44.5775486262462	-104.727655189418	-44.5713085386002	-104.46481336831	-0.577084510217144	-33.7828451115321	
12978000	-0.184127261995481	-35.6628846607033	-43.9449091062936	-124.551018557822	-43.856776476991	-124.872141484831	-0.220445245516179	-35.2427245664589	
13227500	0.0506966568843422	-35.271391694415	-41.1169615512725	-167.43801448504	-41.0381913762057	-167.860691059828	-0.0181577289225166	-35.0781736099834	
13477000	0.034434629519575	-34.0034265427368	-46.6728010275038	103.573334413312	-46.9056482324726	102.687308236819	0.0143674948020637	-33.7274851094042	
13726500	-0.249901313772496	-34.021382178626	-67.2772152522726	124.660450973416	-67.3312500792682	133.005715594216	-0.23122885427896	-34.1039622899229	
13976000	-0.60935005266468	-35.48937486032	-56.0478600074035	-179.731294217271	-55.7531297325367	-178.619573945172	-0.578638607243006	-36.0239882489181	
14225500	-0.720296594339743	-37.9823642452183	-50.962608418206	151.153708418468	-50.85749620357	149.407172764655	-0.737007566665921	-39.1904999635297	
14475000	-0.477530508601721	-39.9192006075784	-47.7579109673338	92.2346929390651	-47.6012343363771	90.4861357613294	-0.750118461969691	-41.8758208040983	
14724500	-0.10479816027499	-40.2013174597036	-50.4345282068733	-26.0166012750771	-50.2841160229938	-27.6245823856371	-0.765800630814788	-39.108905315372	
14974000	0.0990370304733451	-39.3581357944322	-56.496473279909	-175.237820436613	-56.8481556305321	-172.77898651804	-0.0950698925404956	-37.0547972224803	
15223500	-0.0211295763019313	-38.5753028681197	-55.3347515893039	114.419245195127	-55.4417814180999	116.845303546721	-0.0712380248929292	-37.0039415144538	
15473000	-0.383571085426006	-38.9574460933978	-54.5336056915878	69.905504290691	-54.5074145350625	69.9156784728264	-0.372850069957502	-38.0807757713943	
15722500	-0.703275158265006	-40.9417902999202	-53.9344076444574	-5.03168969235276	-53.8074643234553	-5.99507595280516	-0.685738899888506	-41.1006725503237	
15972000	-0.638641495069199	-43.9508070399518	-58.2186223900504	-59.7041612677295	-58.3875026700268	-58.9744455424785	-1.06925862944648	-45.4389409795439	
16221500	-0.335497286969076	-46.0245384144728	-53.7810241594013	176.523745946227	-54.0454166783295	178.127276624022	-0.851289153517538	-42.2127467013142	
16471000	-0.0373976713561536	-46.3465076159858	-52.4156783722895	120.168114542261	-52.589585794964	120.65422763683	-0.19717790788396	-42.3028041879623	
16720500	-0.0286495975766786	-45.6581276322268	-50.117865258825	85.698582546438	-50.2747708167452	85.6333825708846	0.0115771792172984	-41.8322550842822	
16970000	-0.415611435980764	-44.9612274465526	-47.3583731693474	51.6977321356517	-47.370562030475	52.2046317922242	-0.155844896058406	-41.4338731708066	
17219500	-0.978400947760369	-44.6556497840376	-45.0462286666454	10.0170086887448	-45.0785104229975	9.73988404925666	-0.497925314620599	-42.4087715182878	
17469000	-1.14012494985411	-45.5840383761437	-44.837285124871	-34.0865805273584	-44.8311993884555	-34.4036166798095	-0.718365562836177	-44.7794353082839	
17718500	-0.876158239017678	-48.0211776092825	-45.4940849862837	-67.8389354021015	-45.683167593325	-67.2670883139533	-0.602603542908836	-47.4264926579201	
17968000	-0.469548487738354	-49.6718091362971	-45.8406145634949	-94.76187241536	-45.9334804169942	-95.3033760741874	-0.251467755563562	-48.7760541423983	
18217500	-0.234049575479566	-49.5226251474517	-45.3701467721767	-123.187649015255	-45.3702755032885	-123.889363623671	0.0505166730599958	-48.489134706104	
18467000	-0.395688060329025	-47.950774375952	-44.4601678950033	-158.867654558824	-44.5559415724665	-159.462445978616	0.0390662909493367	-47.6525637702793	
18716500	-0.752088659881876	-45.8899941370778	-44.7967522275635	155.92723696812	-44.8445196396926	155.544505896849	-0.271850948971224	-47.6850591957593	
18966000	-0.944089514798583	-46.0593150895655	-47.6343024964749	144.196278951214	-47.8786141129421	142.292771783479	-0.695596763824696	-48.3422231969805	
19215500	-0.911201620929159	-48.8952922366277	-47.9118737640394	102.263815006411	-48.0566537960232	102.587312947333	-0.770319281504323	-51.6717847308001	
19465000	-0.602620117854607	-51.7409307444118	-49.1579517778752	77.2036092843421	-49.3391976213242	77.3374797687083	-0.585330358415875	-54.6908269052387	
19714500	-0.164434133315921	-52.9060602752152	-49.7916209879831	54.2514577754982	-49.8780991688082	54.4835319828342	-0.270820155451655	-56.2797590125982	
19964000	0.091811235230994	-52.4923706944833	-50.1264102672532	31.380102898544	-50.2199991720741	35.0747799736805	-0.231542184389988	-56.6401824976381	
20213500	-0.00982402292923027	-51.8939398535934	-51.5233828720884	6.31990534555645	-50.6164722629516	12.9770112685729	-0.843490303876058	-55.6749282310587	
20463000	-0.389306638215582	-52.6291186790052	-48.1184195825278	42.0883076015338	-47.773279273811	33.3267322972044	-1.81536550250551	-54.302124849501	
20712500	-0.839630121908664	-55.4103379927531	-38.0592200100647	-4.96257856374981	-38.340632590789	-6.63621044245159	-2.17755771410558	-48.800218153011	
20962000	-1.13174981064548	-57.9117138497339	-34.2692063812636	-88.1281971159811	-34.3688076692204	-87.6291056037747	-1.55489558004792	-48.920593407972	
21211500	-0.91013770261268	-59.1212332080945	-36.0501279593442	-153.292596636078	-35.9292265973269	-152.630423578285	-0.837782242116588	-52.0597518601817	
21461000	-0.651440477722123	-57.9772305818554	-37.4151592127067	150.273678704273	-37.3312272832187	150.659556298439	-0.301114198652395	-53.3578641016024	
21710500	-0.376619080604405	-54.6740688547738	-41.074704433411	92.1113522499733	-41.0075076182787	92.5543200219703	-0.0504012764185833	-53.1835623756472	
21960000	-0.307625531554277	-53.7412521236835	-46.8268427759636	55.2249811025256	-46.8298825718096	54.7494678253454	-0.172242043460295	-52.9690289154852	
22209500	-0.582047653721257	-54.9600358679734	-51.9384984718808	36.8825107378153	-52.2198979995984	37.323553794186	-0.530069406024032	-53.9373046078685	
22459000	-0.823419056110867	-58.0044067688136	-54.5949324397876	34.8942614176754	-54.8162813616835	35.6515122879072	-0.779029804643033	-56.5221338119647	
22708500	-0.744489131362994	-61.3400993029148	-53.4011066184411	30.3897760902014	-53.6792325960045	28.7885930359201	-0.705365677059845	-59.506725839923	
22958000	-0.383883107880138	-63.1165155223682	-51.7949883112886	1.50918673438222	-52.2955953756322	3.47615914254457	-0.369158115792416	-61.3417457400706	
23207500	-0.0652993474255113	-63.2538212575828	-52.3952592860594	-29.6092581290975	-52.5623196668461	-27.7131731402502	-0.0689705793687883	-61.3996944262595	
23457000	-0.0842063243064505	-62.859158277617	-53.0536975373676	-56.7561864323494	-53.0798018788945	-53.8411040354457	-0.0616645387585741	-60.7773024901483	
23706500	-0.513782530578633	-63.5390660170076	-52.7911393282799	-79.2084942533171	-52.8625779540789	-79.3154606775222	-0.394236197527764	-60.9899474283814	
23956000	-1.2496376774512	-66.298684786624	-51.3347023314561	-106.389646694898	-51.4002144836504	-105.105550386642	-0.910071926129271	-63.1461322339986	
24205500	-2.1820095886077	-69.2911997392461	-48.4958760826744	-140.344145750539	-48.5887208941635	-140.864846665933	-1.36693952324444	-67.3299742437153	
24455000	-2.56134704831305	-65.5159049234506	-45.7326943610836	163.881756100693	-45.4886844507442	162.446735811552	-1.86419719193171	-70.2220484950756	
24704500	-1.54971651436966	-61.193890012234	-45.9573281085238	92.744100493641	-45.784888819348	90.43325348252	-2.04006027080525	-64.7447616927427	
24954000	-0.726892380724283	-59.8809465797737	-49.4068610630378	35.3368224671077	-49.081180842737	33.0477266262664	-1.25654200962772	-58.6040880652296	
25203500	-0.500551533088536	-59.074561963286	-52.8362845377338	-4.62067887671161	-52.5900862654598	-7.80926387256629	-0.768829736408597	-56.4349898112429	
25453000	-0.698044446946619	-59.1264800629353	-56.3034077915537	-38.4492478108092	-55.3090396067909	-37.5164786654829	-0.784811971925617	-56.4430604072276	
25702500	-0.992711958919323	-61.1255424981856	-58.9011493000022	-60.3619071771219	-58.0455767652346	-66.9413798593039	-0.988188779042075	-58.7665913044206	
25952000	-1.03065220011843	-64.4686743979999	-60.7089835689221	-75.9213629037056	-60.2796216819973	-77.4887949736041	-1.01074273800384	-62.4396815219439	
26201500	-0.722198228876854	-67.0455710828438	-60.4615786511339	-82.244913591122	-60.1312264288558	-88.9467177150589	-0.696247356132077	-65.1421962785641	
26451000	-0.287599002359105	-67.570335064737	-61.1687524969644	-100.3728494856	-60.6814994779028	-106.165127698234	-0.252404614081014	-66.1331387206617	
26700500	-0.0737067854997168	-66.6863280391511	-60.1960709090836	-119.80469027959	-60.384799278349	-121.703324171993	-0.0191486091345073	-65.3419887034136	
26950000	-0.204221057499062	-65.749837863793	-59.8118393984845	-135.053456369062	-59.8795985052219	-139.671559842705	-0.120465967455801	-64.4371997648767	
27199500	-0.579731478716845	-66.3942431552874	-59.9268762394517	-148.890131866378	-59.6848165835835	-156.061953007907	-0.485408750869986	-64.6420907354396	
27449000	-0.900989901023097	-69.1211480289066	-60.6043010985712	-153.205568556161	-60.4198903686858	-160.706461009328	-0.78638768483057	-66.8358026358535	
27698500	-0.9795506028239	-73.1438622015485	-58.9329469036621	-123.075361543185	-58.9766900808481	-129.691855631551	-0.773305378588076	-69.8484680090281	
27948000	-0.883934576420379	-72.5539267625913	-47.2091756614717	167.360264907935	-47.1089743268915	166.952704306984	-0.445418292284273	-71.950187100372	
28197500	-0.370125504016451	-71.9393086073718	-48.2721821624467	108.537522258962	-48.2868291348551	109.573432863173	-0.0876719786898638	-72.013879908357	
28447000	-0.174607510460808	-70.369668343583	-53.4990255810506	59.0174148607738	-53.5316886815594	61.1189294294275	0.0141918079715552	-71.0599861473458	
28696500	-0.359853426348705	-69.9944850549131	-57.7454059247786	102.575233437641	-57.7249705144668	103.369053913132	-0.218980391838418	-70.3480520579836	
28946000	-0.76684726848794	-71.1090825637195	-51.9141764694714	76.8961570202007	-51.4003248055295	79.371167839104	-0.619635649451556	-71.1645965605658	
29195500	-0.993324089208627	-73.8159010350267	-50.9127842127199	45.2037413593658	-50.5621198918402	46.1643613749431	-0.850392094708346	-73.7979646523909	
29445000	-0.834743644099194	-76.8048067296893	-50.7344769169924	19.5945253403043	-50.459794120225	23.8915178113899	-0.713311859427039	-76.6668499487986	
29694500	-0.427210103974871	-78.0251224272685	-50.4910988912031	2.93397829542415	-50.3083026504578	3.96394969210051	-0.375697524828348	-78.0947609472328	
29944000	-0.163221361792927	-77.3676671903554	-50.1044138608533	-12.5198410908019	-49.8068266855843	-12.6342881546451	-0.105323134765846	-77.6917279843217	
30193500	-0.256444297196797	-76.1397234004444	-49.0354687896943	-30.785047414612	-48.7972194442268	-30.7895511165081	-0.171953839768581	-76.9799946820667	
30443000	-0.670512119059558	-75.7743562535665	-47.2122949892313	-50.9958402128411	-47.2313406149874	-49.6984997136624	-0.595445070249082	-77.0964389873801	
30692500	-1.16378104453035	-77.2867909997278	-45.2257486376538	-76.981233265262	-45.0782392972036	-73.8529611293631	-1.11508122176082	-79.15688108889	
30942000	-1.40756009146465	-80.1961664734963	-43.0048015216775	-108.312608263758	-42.8564596344537	-105.500900952698	-1.47393429971167	-82.2934576144083	
31191500	-1.21435401412295	-82.3478112623053	-41.9857048391855	-155.320864539579	-41.6649563023346	-150.361983716525	-1.43403554571784	-83.3383465048396	
31441000	-0.823496310480549	-82.0863125775396	-45.7837067904215	158.563104265403	-45.0043981903279	162.900712985537	-0.802129717532756	-81.9663389921672	
31690500	-0.571022163149715	-79.9644991707662	-52.3030526038904	134.980835467184	-51.167719797469	136.171432449301	-0.394100230161648	-81.3089765885298	
31940000	-0.627078264778049	-77.9756928385581	-48.729143309126	176.20660609317	-48.233123326175	173.911652275684	-0.59777113184366	-81.5822651989363	
32189500	-0.973483291735412	-77.5404932303455	-44.0806848477217	145.001595363727	-44.0070794361139	144.300213226908	-1.31487841529167	-82.34700755435	
32439000	-1.29901044847199	-79.3703847930417	-42.2415383184257	103.994084840579	-42.2370681062491	103.901567847748	-2.12357292416398	-83.8046269333266	
32688500	-1.2556898612885	-82.2988023012756	-42.0251943845563	60.3894878409991	-42.1958007493651	60.343955129739	-2.51234540993078	-84.0615396533258	
32938000	-0.86192918392295	-84.1229979622964	-43.452594201774	16.0610291183791	-43.6473279879329	17.8865216991645	-2.06709341826525	-82.4431712600557	
33187500	-0.41720780096946	-83.9045922239611	-46.5788589848175	-21.7249596132842	-46.8831166568189	-19.6579246747895	-1.18869891999464	-80.3683683347899	
33437000	-0.232125370667566	-82.4474772429445	-50.9404803138784	-53.437280217708	-51.281581488283	-48.7527380232432	-0.571499662211558	-79.1164584958171	
