!Keysight Technologies N9923A: A.12.45
!Date: Tuesday, 05 August 2025 18:15:23
!Timezone: (UTC+08:00) Kuala Lumpur, Singapore
!Model: N9923A
!Serial: MY61181427
!GPS Latitude: 
!GPS Longitude: 
!GPS TimeStamp: 0001-01-01 00:00:00Z
!GPS Seconds Since Last Read: 0
!CHECKSUM:1050222487
!Correction: S11(ON U)S21(ON U)S12(ON U)S22(ON U)
!S2P File: Measurements:S11,S21,S12,S22:
# Hz S DB R 50
2000000	-0.0759121137609688	-4.88812022238251	-79.8995435637257	-100.302968448225	-76.4580156644046	-132.250203998405	-0.0872736066847528	-4.88445701215419	
2249500	-0.280984482692347	-5.81625528668907	-75.8546454253685	-117.01556219298	-78.2028402209623	-105.612649251308	-0.286961409698444	-5.80870010770686	
2499000	-0.36947120603143	-7.37744413240075	-66.6408246095262	157.022697678537	-66.4175675645589	160.500813957591	-0.403331732182644	-7.27949043228742	
2748500	-0.260032509638298	-8.86163657128722	-81.7795340093887	89.243398944214	-86.8592041380588	102.571061817438	-0.266775622661949	-8.67412439619286	
2998000	-0.0462445980272471	-9.6218425397959	-83.1121156266422	141.741214220251	-88.8888867148779	-126.610930663179	-0.0498265157949572	-9.41232036124478	
3247500	0.0905673113415162	-9.62224219575218	-85.3750191854094	-173.68463795783	-84.4760301043709	-159.605357543715	0.076299368898156	-9.33224292728236	
3497000	0.0515777259664293	-9.46294139881496	-82.4119002236286	-97.1454029032924	-77.1805792402191	-90.1533408813991	0.0343376425823763	-9.28383140155376	
3746500	-0.148565192527988	-9.7877339225442	-77.4660133561015	-134.612736774595	-73.5512487281035	-112.115353340033	-0.161676689001126	-9.64152164310327	
3996000	-0.352588116901696	-10.9389434197091	-68.4186050666169	157.762909747863	-69.0309901756892	157.578177322278	-0.344656349103331	-10.8028560990254	
4245500	-0.366979873908934	-12.6046725184805	-79.4396442870182	32.0192009863366	-81.4058467826658	25.6391958938767	-0.361232814182762	-12.4888550427604	
4495000	-0.204547411805324	-14.0110328252586	-72.0834715330093	-68.1769831777048	-71.5503002911599	-71.7630056518506	-0.199093764924022	-13.7685656580553	
4744500	-0.00903258598749624	-14.607659171662	-60.6693237945768	-105.764666735861	-60.1412330528073	-106.932476422692	0.00433914553209461	-14.275473623853	
4994000	-0.0608896460715199	-14.6745250264856	-45.0340698679559	-166.761786355247	-44.7918033186191	-167.894997525097	0.0564249848933087	-14.2623675975863	
5243500	-0.0481991127708244	-13.4765505269186	-44.2055764943867	69.3659311630268	-44.3121532431484	67.6902121072852	-0.0813385307638514	-14.1954458597436	
5493000	-0.263548547041813	-14.5015947247353	-43.9302942024306	6.36744399074342	-43.883836145399	4.42537783164501	-0.444912781941244	-14.8540933268368	
5742500	-0.476626605781515	-16.4562950116517	-45.4431995811706	-89.2069032496013	-45.5271739477646	-90.2279439807664	-0.604428752350849	-14.3991860366676	
5992000	-0.6698157248255	-16.9459731184874	-62.3592155370324	141.363940878659	-62.6812435021026	138.182567214488	-0.389477189601003	-16.1175264306114	
6241500	-0.235416058045258	-17.2975756718291	-59.3278915192347	-87.5995046410225	-59.5369727253562	-83.5957119048003	-0.17861609668383	-17.4293897340787	
6491000	7.2019351545803E-05	-17.6726578528803	-58.701008310555	-136.122592518615	-58.5683855569204	-134.568380953512	0.0450989399808594	-17.8543363185225	
6740500	0.0569380126408057	-17.5503044435706	-60.4084758544937	164.667704055729	-60.5381104617464	162.492495551521	0.0718614138070274	-17.7223193812402	
6990000	-0.0849351598453035	-17.7201475609988	-69.533074479535	111.387988753579	-69.4062644016084	109.459000122558	-0.083334369652825	-17.9527900416841	
7239500	-0.305645516540625	-18.7192257664505	-89.674905091715	-8.02245880444036	-80.4715411111106	-12.5019234429562	-0.312223640278945	-19.0419231097077	
7489000	-0.40497270100307	-20.4317476547768	-67.9778323790082	-39.7342166789635	-68.1752080520949	-44.6696563789916	-0.433195680032732	-21.1217252637341	
7738500	-0.299943230351272	-22.0466795180305	-57.2645710861131	-100.254256153591	-56.715560576697	-100.645592951965	-0.502623151424407	-23.1028469072968	
7988000	-0.0727543530688629	-22.8632398108635	-55.1568587027863	148.422571843433	-55.3785187273694	150.531830236607	-0.27268375907145	-21.3734856978045	
8237500	0.0880161244171705	-22.8534778708756	-59.4033181800814	116.437493325424	-59.377343666633	117.96221800322	0.0214771033263453	-21.6305566088174	
8487000	0.0526610108785438	-22.6551164095146	-61.1007744287164	104.442487200315	-61.2322653403904	102.220901052883	0.0215823336053799	-21.6424992166693	
8736500	-0.150403520600367	-22.9853137987428	-61.6044840869297	88.1300475778998	-62.1322922099931	88.6881364406574	-0.165097580322031	-22.085933718491	
8986000	-0.360537069925675	-24.3130024834965	-60.733458010798	80.2777312550133	-60.4652872861614	81.0875589624638	-0.366218309048207	-23.3755828528666	
9235500	-0.409009894733231	-26.3239704914844	-57.9160124169609	66.8102861343569	-57.795925913038	67.5603461141018	-0.396652320810065	-25.2389656492417	
9485000	-0.269271801760177	-28.0221866668121	-53.6724948754042	50.264087634098	-53.9779402330107	49.2500173593852	-0.239621362057078	-26.8585597145342	
9734500	-0.115112333375997	-28.6271641486251	-48.4612442441529	13.9255734594716	-48.6079572790831	14.0263718998938	-0.0220860795693449	-27.4895951444576	
9984000	-0.030881119166405	-27.8408917618273	-47.0015392880355	-47.4334325153017	-47.0703090766363	-47.2889873250571	0.0694036914432446	-27.3356436814241	
10233500	-0.0861563589417272	-27.859335881737	-49.0157977045686	-85.6995942506889	-49.1294056227465	-85.6461833668048	-0.0247500430431348	-27.2364956984985	
10483000	-0.338181845744012	-28.9292963661932	-49.7119252242487	-107.294199699225	-49.8293058293834	-106.249070454027	-0.25583346859365	-27.8838185285392	
10732500	-0.601669286271041	-31.1048646177428	-48.4290332701821	-127.122762588215	-48.3749352660185	-126.639541737308	-0.427699893857175	-29.5764991636586	
10982000	-0.835710580042644	-33.3453741701425	-45.391842363126	-157.296414581047	-45.3518899563575	-157.685224152108	-0.417930305919894	-31.6446273662895	
11231500	-0.913146588378428	-31.9754726250814	-43.1131397839199	149.763101765302	-43.0086718188283	148.36217554355	-0.253108094285021	-33.1578810458873	
11481000	-0.422765064149378	-30.0523699694733	-43.8043635899399	99.9023152645198	-43.7688171047282	98.1012333865296	-0.101282840189987	-33.716291420362	
11730500	-0.188085736703437	-29.7356868172943	-45.4196632714044	48.9039186041273	-45.5103035942034	46.5721944182805	-0.215565626615022	-33.699560221818	
11980000	-0.258562384339982	-29.6845982696228	-50.3532733608323	-7.47483670303821	-50.899199160283	-10.189429709116	-0.680010045073242	-32.3108042675542	
12229500	-0.423906174664607	-30.7673181005694	-64.0261391099905	3.43406458494705	-65.0402103570828	-3.04529134923646	-0.613644365763973	-33.4706592913602	
12479000	-0.51781401056389	-32.8230429153671	-53.2248332233089	24.524886247737	-53.6864511920153	28.738064406218	-1.11596935793684	-33.7613534939998	
12728500	-0.401783008330086	-34.912805473245	-51.1349200856002	-18.2606685458917	-51.376564948338	-16.5439227489301	-0.842978277845011	-33.1910590760939	
12978000	-0.163920166697883	-36.0329884700451	-51.2696866836278	-55.1616974643615	-51.3553769497934	-54.5906959815992	-0.372653867557209	-33.9641471880835	
13227500	-0.00405558263422505	-36.0723715179495	-51.3534445284741	-94.1012897344447	-51.476804851063	-92.211818085827	-0.0785142103452664	-34.2673385761266	
13477000	-0.0553352977972898	-35.6769639222941	-51.2788227150104	-139.084323045067	-51.5824852331899	-138.902559379536	-0.0305239823966544	-34.3809750871048	
13726500	-0.251748300393545	-35.6698031669558	-52.4300511545164	161.170049340316	-52.6712549181662	161.583571181496	-0.197937186522454	-34.8909539329148	
13976000	-0.442196894980693	-36.8966910996705	-53.6545690534022	88.2272812731213	-53.3281695695499	86.5107768359249	-0.419690356996464	-36.5238415059707	
14225500	-0.486767120775297	-39.0069778874185	-46.5656988710409	-20.7792804460192	-46.2427101661784	-21.808586616555	-0.737047166302672	-38.7124656701299	
14475000	-0.319999667140385	-40.8923347065234	-52.0056593179224	-125.166867059174	-51.3014252086229	-123.64035833637	-0.386529207037421	-38.6855878647623	
14724500	-0.12944928973237	-41.5223460563813	-53.4627924373467	-172.061826853354	-52.7789814847465	-175.192114885912	-0.092901480644038	-39.6441448087243	
14974000	-0.0266826282355744	-41.1655938644434	-55.9252348509331	141.247367736527	-55.584059295513	136.878172796383	0.0552429296703207	-39.7214241341553	
15223500	-0.134180753588686	-41.0075493309433	-58.5643794197656	108.978356703569	-58.8639204802511	107.014475976722	-0.0274841578723744	-39.6846074595538	
15473000	-0.435532323563663	-41.850176871888	-61.3307824498152	74.7247021990286	-61.7531511347062	76.8428795691864	-0.257484234761083	-40.5001791521947	
15722500	-0.866873244624713	-43.4269023584578	-63.2589744002717	13.4994433206042	-62.8484715294828	14.0267429663746	-0.455459585138772	-42.4356182448873	
15972000	-0.605134391551456	-42.9822323368312	-70.5871527731471	-19.4970608067754	-71.3452112482628	-30.638294510579	-0.497094960993831	-44.9397575115902	
16221500	-0.36068023957729	-46.5278451982791	-54.3611744916086	-76.9706354928892	-54.2221303783783	-75.816280232585	-0.448410966321038	-47.1872397045285	
16471000	-0.395927341396245	-47.1451354696048	-42.9577777344129	-167.270880217603	-42.9517646784522	-168.389816312097	-0.752571256806396	-46.8535659567735	
16720500	-0.473874479496707	-44.9974639873137	-40.7870391045484	90.288937654255	-40.8481093781923	89.3803812159094	-0.525352321563743	-41.8990188702254	
16970000	-0.515859421820871	-43.8107539899275	-43.1935636025922	25.7811389493472	-43.3129587286012	25.7676393897753	-0.319883773113876	-41.7571247335606	
17219500	-0.716532849362336	-44.5898180155354	-45.0986699511615	-19.1315873254742	-45.299868670223	-18.6220808464506	-0.436142965458879	-43.2295122312557	
17469000	-0.895539039807402	-46.3479497021768	-46.3702688762938	-57.6498368003054	-46.4522166523304	-57.3684652170115	-0.537686153482885	-45.4617603811369	
17718500	-0.838071815017375	-47.6335951160021	-47.8271933004975	-96.6970931516272	-47.7721043589624	-95.7641093627852	-0.448406949237375	-47.800625169026	
17968000	-0.52357106910619	-48.120811081206	-50.2060302627876	-132.675398275185	-50.0271871225235	-132.001686196705	-0.219770398513351	-49.2760640221955	
18217500	-0.219572868136251	-47.9444197596512	-52.5157484242084	-161.2954940621	-52.3533168113688	-159.904823846061	-0.0286512435050695	-49.6158339305541	
18467000	-0.149720702035039	-47.5983351873209	-52.3906650448975	176.716355112455	-52.7588927829561	178.502897991136	-0.0782739107678366	-49.5120851968019	
18716500	-0.307290565952478	-47.9585557704652	-54.4783896364848	149.805044859318	-54.4321091337637	153.44560168472	-0.312561705450968	-49.9722773670155	
18966000	-0.532224911496674	-49.4397210594729	-55.3787998712493	125.956048367597	-54.9783648057607	127.352348597921	-0.624841210908752	-51.5283968676386	
19215500	-0.617266636149264	-51.8067892283352	-55.1279035778624	98.9123098597507	-55.1690615596247	101.948429245897	-0.84865490780372	-53.9422354617366	
19465000	-0.501465235065856	-54.0064629741788	-54.1661992568904	64.1736318419108	-54.0071399886664	66.727978134091	-0.957823545874535	-55.7866774158276	
19714500	-0.302994190867403	-55.1346866607099	-53.4154725712594	17.7792226830025	-53.0805178573146	21.3328907078552	-0.979976709613108	-55.2221919728948	
19964000	-0.271999799630541	-55.0612594653971	-53.0450998257792	-54.3195495348542	-53.1566688439652	-53.6771844289008	-0.883576619210853	-52.275908440623	
20213500	-0.522984168357632	-54.337043570721	-54.8135123283907	-148.621377130967	-55.0904542943898	-145.7590029022	-0.724681445819927	-49.9289475514079	
20463000	-0.931496778696376	-53.7689899896119	-54.2402108133445	116.318549129122	-54.7739695033281	113.282268278567	-0.715730257124747	-49.629477952281	
20712500	-1.26654629977844	-53.6028928062738	-53.3522398586631	20.8366136685494	-53.6262717940894	16.5228381747218	-0.772215829391903	-51.1024550348736	
20962000	-1.11724440718668	-53.4587552721922	-56.5079484443756	-68.4572312576057	-56.1980906784391	-73.1120636454206	-0.691610920464544	-53.2811185000058	
21211500	-0.617732613434879	-54.953893040077	-63.1521667717598	-148.270533858295	-62.8600825732669	-153.479829549173	-0.452142301445991	-55.1696099934581	
21461000	-0.218503263798298	-55.9228255468705	-68.4795812692246	114.751868207509	-67.3047621722632	122.219563238858	-0.165644310395249	-55.9446808356982	
21710500	-0.0626452930080913	-55.9807493625869	-64.1315264026418	45.1112316826271	-63.9619191265344	53.3300775863844	-0.0476386077457821	-56.0156423099068	
21960000	-0.167547452368899	-56.1221873381745	-66.879540681667	-9.03478429259468	-65.697942447903	12.2547974619881	-0.174918746897155	-56.092061380728	
22209500	-0.416239979264878	-57.1839013814835	-54.6101741552002	-30.966539895143	-54.3300985745018	-31.4015200059826	-0.530888207249053	-56.7708387642227	
22459000	-0.598528216967382	-59.3618489493512	-59.6643822069792	-96.2016932467253	-59.1173964695651	-95.948418359947	-0.572216877374846	-58.1831124787619	
22708500	-0.555822971103629	-61.7953528621456	-62.0585728620672	-75.1545915243894	-61.8310432597629	-72.9646519171597	-0.501427597927432	-60.5946752418549	
22958000	-0.358580196840292	-63.4080719959223	-55.7666408356131	-66.3971276722678	-55.9329353168616	-64.777951040822	-0.296248387424005	-62.3242914794543	
23207500	-0.233938692579248	-63.6678793279058	-47.7441839528397	-92.0349339706695	-47.5726209655671	-92.3562326702261	-0.146946780481613	-62.9089886270445	
23457000	-0.308914624043627	-63.104106407332	-41.8538870389555	-143.357252662825	-41.8580290261734	-143.98633047568	-0.245228062321989	-62.9989466719337	
23706500	-0.654894038563591	-63.1411959929512	-38.3538705287308	160.720319583985	-38.3778862747286	160.232180921781	-0.68305923713899	-63.4094343371002	
23956000	-1.12744256661336	-63.4349387538849	-36.8295848456348	96.6137764230061	-36.972254981539	96.6646233236855	-1.3410347812771	-62.4432947159458	
24205500	-1.30654766901642	-64.1398009506806	-39.2366109764722	35.5808803547865	-39.3365537208531	35.9493675628618	-1.25442160822976	-61.1140483797539	
24455000	-1.1641156329972	-65.228877312	-43.1481785516077	-2.25576788746286	-43.2332192900458	-2.59065940127212	-0.800197387445297	-62.7033069017219	
24704500	-0.894388577311675	-65.1156524243839	-46.341607014111	-24.4306993458269	-46.5080615535609	-22.9961472794138	-0.366520190408432	-64.2097428120701	
24954000	-0.612073349918922	-63.8103986148829	-47.5655200356646	-42.4275645581524	-47.548791661197	-40.0023539641456	-0.164237516756545	-64.6144997411707	
25203500	-0.508829826714131	-62.8776778781814	-48.5729016073468	-64.5904477847047	-48.4278564431827	-60.9391764800352	-0.208414031337945	-64.7042544429567	
25453000	-0.629975433274718	-62.9598185818843	-49.7688415460106	-83.0656078820015	-49.456070392385	-79.2201220899115	-0.449384575476346	-65.3376033961823	
25702500	-0.798628320316087	-64.5595412892179	-50.4772307473477	-94.8772101151833	-49.9582782883351	-94.4310127332608	-0.729692252901558	-67.3544224271047	
25952000	-0.802255305556663	-67.0757252350131	-49.9569912934719	-106.683389041169	-49.8020209681827	-105.27008768571	-0.883971049659409	-70.0123763524076	
26201500	-0.606142907808459	-69.0683446899013	-48.3509775481708	-117.262993354666	-48.2808809844642	-118.16042954924	-0.863755162198187	-72.1242687178737	
26451000	-0.357404393034206	-69.6365318117411	-45.08055247691	-139.118764669402	-44.9906901756299	-139.957403752709	-0.876826670676137	-72.3337544724883	
26700500	-0.276572867636852	-68.6465645980623	-41.654890547001	171.901280130705	-41.615422143714	171.416903607564	-0.991277218189273	-69.7857340516665	
26950000	-0.266241172000425	-67.8300886827752	-44.4047962121869	112.946991208254	-44.3339793076605	112.685848336055	-1.02708249337677	-66.4972679869171	
27199500	-0.480915776701129	-68.8138114515307	-49.6432802306794	83.8236478571257	-49.8423997630724	84.9515358321301	-1.00679581705305	-65.4988902917037	
27449000	-0.675896933944383	-70.9142467303405	-54.3952796188837	80.088076956598	-54.1597326815386	78.1197957942989	-0.97480779746135	-67.1740674885027	
27698500	-0.680239636779888	-73.4071282639881	-55.9417765347272	89.7702690290687	-55.6359074279819	89.700117642789	-0.822420483246593	-69.7032479557414	
27948000	-0.484415762550958	-75.0731897354527	-53.4262356634266	92.6715522796993	-52.8795511890292	91.104214534468	-0.526736369329296	-71.7324690658697	
28197500	-0.289078322221572	-75.2491305684534	-49.9638424410878	74.3922936443446	-49.8148757765572	73.8479619286951	-0.240396108955041	-72.3247038764849	
28447000	-0.299819704607547	-74.7515252032938	-48.4640024673609	49.2161107135479	-48.4301006380415	47.5394944941739	-0.150263339688004	-72.2474595991459	
28696500	-0.556854934019137	-74.6545687957902	-47.769303790199	24.1409463381612	-47.504554257833	22.5530644572591	-0.292118442186788	-72.3562168621001	
28946000	-0.925627552098242	-75.5763397513557	-46.8939112303992	-1.22277570653283	-46.8199501640445	-1.64421067422932	-0.55776601668175	-73.6296918013621	
29195500	-1.18649073425844	-77.3340922813535	-45.6993959328227	-26.8182013271693	-45.6645626287856	-27.9748792342033	-0.744563612580166	-76.2020316509533	
29445000	-1.17772994084519	-78.7964985032634	-44.5686759033852	-61.2567952388845	-44.3649645010539	-62.1561518728497	-0.836724684730366	-78.7697009702481	
29694500	-0.916258522389584	-78.6788590008401	-47.4317904451686	-106.337182838295	-47.3850547615676	-108.634203744007	-0.778459786115588	-77.1571330054951	
29944000	-0.659734473913969	-77.3032374302006	-50.460132212582	-97.7512999079816	-49.7522944698341	-101.079650114059	-0.246405878973026	-76.9235201084368	
30193500	-0.601901704669773	-75.8631259309048	-48.0482479670262	-116.214367879211	-47.9815383001306	-118.398402757814	-0.201252801588212	-77.2679769132141	
30443000	-0.730147421211707	-75.3832112451785	-47.6180329067058	-137.381515507236	-47.3121558530731	-139.592339954561	-0.453727532844027	-78.0849742018626	
30692500	-0.914387097072461	-76.502697990466	-46.0386245881385	-157.312165496822	-45.9285121064879	-159.663653014574	-0.779734371706082	-79.9990256469786	
30942000	-0.973500997182009	-78.8199616363599	-44.3416117409404	173.97015002836	-44.5306955307736	171.55970480926	-1.01701823099015	-82.6500736449889	
31191500	-0.773085122455867	-80.9305740406879	-43.4293164394273	133.481866110869	-43.399699364037	131.332707255709	-1.11037319981513	-84.4074604493981	
31441000	-0.444165873180357	-81.7833644213935	-45.4034207741626	84.3634743327807	-45.2357367931302	81.8619340068422	-0.999066793957251	-82.2838808063742	
31690500	-0.247913071252326	-81.6680909178865	-50.6323997513902	74.0304992733763	-51.0362259905317	72.0027266533922	-0.438973262642103	-82.0242654126154	
31940000	-0.321952991554836	-81.8964218365259	-52.1339651898596	62.0802163029869	-52.4827831180205	61.0196824558329	-0.824380011882624	-82.9400356143009	
32189500	-0.785821262787576	-83.4060469953121	-50.1146327919224	103.996184848945	-49.7977029121623	105.499864167934	-1.40101270739178	-81.5364807369057	
32439000	-1.39052506494059	-82.7109079813892	-42.0508961399537	45.0683548699165	-41.916493873526	44.1032334808087	-1.59865330807757	-80.6510362879784	
32688500	-1.10503174788579	-83.4133551853705	-43.563341400844	-10.027185364146	-43.373977040003	-9.64661414454838	-1.41215028129317	-81.5430392537492	
32938000	-0.741382743181988	-85.2055733714917	-45.9231874915738	-41.9774879643229	-45.7522569256964	-42.3609089738021	-0.999893445591714	-82.9746389020377	
33187500	-0.434734645630046	-85.7668583335333	-47.732792062819	-65.3778752982931	-47.4503279723662	-66.3191127825128	-0.590635130299026	-83.3638290505592	
33437000	-0.341435895803884	-85.3944013096225	-49.1244020162562	-84.6529923864578	-48.8024557755103	-87.0534959091214	-0.412381960724641	-82.9807384377744	
