!Keysight Technologies N9923A: A.12.45
!Date: Tuesday, 05 August 2025 17:53:53
!Timezone: (UTC+08:00) Kuala Lumpur, Singapore
!Model: N9923A
!Serial: MY61181427
!GPS Latitude: 
!GPS Longitude: 
!GPS TimeStamp: 0001-01-01 00:00:00Z
!GPS Seconds Since Last Read: 0
!CHECKSUM:2124821950
!Correction: S11(ON U)S21(ON U)S12(ON U)S22(ON U)
!S2P File: Measurements:S11,S21,S12,S22:
# Hz S DB R 50
2000000	-0.064926126993192	-4.80897840158338	-81.279168309741	102.274709520166	-77.8924513278326	89.3051321858824	-0.065946521180731	-4.8120011302142	
2249500	-0.222143192024944	-5.68963032070111	-76.8800242161729	51.2997335757045	-77.7029117322675	73.7662706271541	-0.218799018236106	-5.68381087694319	
2499000	-0.292511495898281	-7.06933445401117	-61.7167564145738	35.04444826517	-61.1609030191439	35.3938071914613	-0.290438447470582	-7.02597656170551	
2748500	-0.209235496165371	-8.3272804743509	-59.7930376445965	-59.6792588245298	-60.7406502701465	-64.1880288633248	-0.217779480178455	-8.24948441073195	
2998000	-0.0453536521022294	-9.09343158718639	-63.2454384242123	-178.114322492894	-63.7404746976213	-162.22605938044	-0.0848114310368659	-8.47139403023169	
3247500	0.0587477905508621	-9.25717649434723	-72.490431456416	-123.838405124877	-70.4195641297736	-117.0144017382	0.0593138840197539	-8.85655945247363	
3497000	0.0282337956471308	-9.29939439526976	-68.859433719069	-125.017967925704	-70.002189364499	-118.873011402666	0.021855477742213	-8.97259204724311	
3746500	-0.133841702296801	-9.697204177069	-61.5509247601551	176.308168205395	-61.8301845884205	173.257997117731	-0.134173834286913	-9.394402961116	
3996000	-0.292455345637118	-10.7760317597537	-63.8038139560065	-174.01259458252	-64.3769584829998	-170.958588217834	-0.265565366058905	-10.4611839550296	
4245500	-0.296481478603081	-12.1115877125756	-76.1964381245793	111.950197833628	-74.0551595294456	90.9720703128869	-0.280222094964449	-11.8917947560981	
4495000	-0.167260903387942	-13.3152554875443	-82.1265758961614	114.744021398679	-84.4549600789621	79.544698119837	-0.155251888989006	-13.0062168946668	
4744500	-0.00436361353214198	-13.8161032820257	-97.6622614099387	126.904166181679	-79.6661558514674	-131.145865749989	0.00595944693200681	-13.5027628868032	
4994000	0.0632465083056788	-13.8657525866813	-80.5366529902727	-143.072577144063	-72.5973388544882	-118.041438322171	0.0677107283677564	-13.5358783441921	
5243500	-0.0214965944439019	-14.0000852560276	-69.3643356959967	-124.86981429722	-69.2646761525881	-121.367770971022	-0.0142019066680173	-13.6357663295216	
5493000	-0.207991046689047	-14.7318376816281	-63.1566954152299	-137.866703325913	-62.8002696860948	-138.66221030105	-0.185449415654879	-14.2657658514073	
5742500	-0.393109095543252	-16.2690464046305	-57.4159435005242	-156.064030566956	-57.3297338591672	-157.680842692727	-0.292042206443178	-15.504646978737	
5992000	-0.333628856079087	-16.6296666615312	-55.9332000556741	103.648085486753	-55.9808763598098	102.74489982929	-0.259143600130941	-16.9432295801233	
6241500	-0.132052519163456	-17.8561651011864	-59.3865735457272	82.0232404038586	-59.4662436408015	81.8734515922795	-0.131837543495476	-17.9457720659272	
6491000	0.0160930551081923	-18.2849124916501	-62.5245683458094	-20.9861536235108	-62.3859378223242	-21.2739430961894	-0.112674234765605	-17.0337132354667	
6740500	0.0290914614585907	-18.351726047048	-61.5704751677134	55.1933202605861	-61.043738909186	54.8151953590072	0.0536556861685008	-17.9962540916476	
6990000	-0.114122064591067	-18.4105867605046	-59.1450876562781	-1.56161451360425	-59.1268360550559	-5.93449556410159	-0.0719832916976249	-18.2940829047201	
7239500	-0.25453385767837	-19.2390497648829	-66.590820196944	-42.8517958807021	-66.1653494339602	-54.5976534040309	-0.232405045184939	-19.1786379290605	
7489000	-0.32303571415045	-20.7384688346694	-71.2804959475579	-33.6406894393336	-72.0403505130295	-50.1992492436638	-0.305043472373573	-20.6370418001014	
7738500	-0.240587658148685	-22.1517566646369	-81.1177085084265	-14.3328602958578	-80.2855051914386	-37.2300165539062	-0.229517521824322	-22.011654474799	
7988000	-0.0696863031327586	-22.9412711835248	-74.5233835047783	65.1281643302889	-76.0093433168422	77.9131971707295	-0.119548949723972	-23.2872746660937	
8237500	0.0516377332329241	-23.0747608574221	-74.1406504494728	75.7154387996405	-74.3237340621343	83.4884812893324	0.0546466540736429	-22.5840792149096	
8487000	0.0222489557562721	-23.0650124963876	-69.4802771246944	76.3556874309005	-70.5430860793491	68.3569472432034	0.0275188017198276	-22.6766040749075	
8736500	-0.136139814734213	-23.4830898991749	-65.629370264122	61.4614161501294	-66.3423552578205	56.2733900550172	-0.120854190928553	-23.0942402390945	
8986000	-0.299217764497957	-24.714185878006	-61.008260755309	55.5201272640385	-60.6400458240113	54.4038671619464	-0.276651542092774	-24.2265574532114	
9235500	-0.348774565157994	-26.5540030015589	-55.575428894149	42.6872046784807	-55.6828395101776	42.1885836487702	-0.303656669249758	-25.7207444073255	
9485000	-0.310151802941044	-28.2085933828071	-48.6415201974957	15.4896611642749	-48.6628172443709	15.0600241385833	-0.188697009394251	-27.0530508006188	
9734500	-0.236496037407902	-27.6550882347121	-45.0318548920411	-50.3853307050006	-44.9962017767903	-50.9572051039972	-0.022906215831545	-27.5759052020087	
9984000	-0.036827979170012	-27.4508775703412	-47.5311433191409	-89.9436972934023	-47.4853664255073	-90.286606457442	0.0559170670547953	-27.6277069121175	
10233500	-0.0863478244332325	-27.8006848112176	-48.2880091436234	-105.92425841111	-48.3014922769025	-106.493074046788	-0.0175990120333318	-27.7445680936331	
10483000	-0.277037740352997	-28.8488031093952	-47.0774060224828	-117.14004607135	-46.9769692279799	-117.640147739303	-0.193318625803608	-28.4291158978722	
10732500	-0.492775132098689	-30.928604887921	-43.6368599791948	-131.845879533163	-43.6431263809588	-132.135836927844	-0.318951658479394	-29.9453815396922	
10982000	-0.915691360639346	-32.6683318921897	-37.9136455021523	-172.020476354385	-37.889449186432	-172.762588941496	-0.316201414974593	-31.8066915513979	
11231500	-0.574886595183036	-29.3968826992154	-38.8297198845196	118.921749894089	-38.885576552406	118.113632997056	-0.183657648852629	-33.3435336029461	
11481000	-0.144436767091906	-30.2195668777688	-40.6755684616859	101.066452648603	-40.7514622716718	101.105069722393	-0.0980543779660737	-35.3798746868808	
11730500	-0.0476893716332793	-30.6105605044018	-32.1001064397337	21.5941832501996	-32.0583318538567	21.6476994031458	-1.9532199010224	-26.2105527088256	
11980000	-0.141801480426771	-30.6947393731353	-43.920275310314	-53.5573623607627	-43.8678702230086	-54.5286586084341	-0.156676261975799	-28.784528983007	
12229500	-0.28852829494867	-31.7751068391442	-52.7142561185609	-83.7690634244457	-52.4847066690861	-85.4441876307624	-0.255548597681691	-31.0568841875349	
12479000	-0.373844212254311	-33.4949706884809	-61.2958325385843	-107.276892479723	-61.1076189591308	-105.936553753785	-0.330020092391549	-33.1060745048621	
12728500	-0.294393012718842	-35.239167131857	-73.2496758631065	-146.057075582901	-74.0777889599237	-168.222577415489	-0.264940943477071	-34.9083969275647	
12978000	-0.110404219563368	-36.2490690677116	-66.9643178955237	79.0126121862869	-66.7153209985868	75.2937365772566	-0.0891851840163148	-36.0442514910934	
13227500	0.0213724272643408	-36.4386527421629	-59.2164832148656	49.3232428094055	-59.6597301786194	46.7464970421353	0.0302111113007074	-36.4451216512855	
13477000	-0.00740923163100062	-36.3758754525649	-50.4636610878805	-8.37965875550286	-50.5319369771811	-9.74474909649152	-0.0779426357157465	-37.0977683572454	
13726500	-0.151185459558034	-36.7585131760393	-61.2756200840819	-175.728534606355	-60.8916782801008	-175.047301386349	-0.162236017208737	-35.8399047459596	
13976000	-0.315636131223022	-38.0298543133292	-97.1869393145617	73.4191961332345	-82.8731469816287	-104.479217507056	-0.292625796937262	-37.4213198971137	
14225500	-0.361948764436151	-39.9240338210233	-95.8803670551318	-5.56938826775796	-85.6008167160294	127.004216509655	-0.331241362487164	-39.1650933339858	
14475000	-0.258245364222079	-41.7746493653727	-70.656340572042	130.653505928725	-70.0776457160409	120.177167219584	-0.216862102063245	-40.6616503804696	
14724500	-0.19644851860687	-42.5179785980649	-54.8462043728899	82.4328077758641	-54.7049938998517	84.1101315535992	-0.0470560997638046	-41.3836394314905	
14974000	-0.232966865689931	-42.3046570662139	-48.8289889068304	27.9548768206921	-48.7626177642382	28.0617651152053	0.0453659729111832	-41.5673509396507	
15223500	-0.327341171771864	-40.6320287593884	-46.6195652867681	-37.1965357839957	-46.5587560243476	-37.4467279346811	-0.0407034540499511	-41.6741793783327	
15473000	-0.333665579306514	-41.3261007204047	-49.0494652135414	-77.7283688331022	-48.896240161111	-78.3488694665983	-0.22116738364829	-42.4270627260797	
15722500	-0.441696774013254	-43.6663281750171	-50.4361540970907	-96.8141715878444	-50.7174061779824	-95.879150045302	-0.357480157993993	-43.9837910620705	
15972000	-0.455129263613449	-46.7075933282518	-50.7547588886944	-105.875254063523	-50.6740382242659	-106.583947736133	-0.354542302223747	-45.8591376393959	
16221500	-0.519750362974186	-51.0314623798816	-49.4745491966768	-116.564185981501	-49.4279338458975	-117.131591651133	-0.222893600718331	-47.3861480085862	
16471000	-2.87523254428119	-40.6859284891722	-47.0385416733786	-164.113196586513	-47.1223414844773	-164.667400363952	-0.0628019646491118	-48.0079075048679	
16720500	-0.209084758788743	-39.8369749113899	-50.1283938854851	-157.577594934753	-50.0957563234986	-157.023890063283	-0.0507477908883534	-48.493552593513	
16970000	-0.158106836330828	-42.2660101653492	-46.9407143630036	-164.365187667705	-46.8832524129954	-164.063268815142	-0.220004602613938	-49.3637413080459	
17219500	-0.328881713259064	-43.9788314968442	-43.4147666531414	173.238572896453	-43.4041339142795	172.365971568034	-0.496010520368754	-51.3825532333656	
17469000	-0.432085646684841	-45.9511624270099	-40.9025624494662	137.460411307232	-40.9491228912339	137.436626774635	-0.794523953432966	-54.2163564826433	
17718500	-0.351502800421187	-47.8809263995227	-40.3104890657612	99.8755695857358	-40.3115242328012	99.7539255646231	-1.02884514027328	-57.1780031846677	
17968000	-0.157008076737714	-49.2865911024715	-39.6525828001818	63.9552720094088	-39.7059403430012	63.7391990982945	-1.52679992885793	-59.5791983200342	
18217500	-0.00318938261457383	-49.8030748555232	-43.2782119418427	-14.1160839870677	-43.3604540714924	-13.9471948477392	-1.58116180205267	-49.365765204223	
18467000	-0.00734905986213928	-49.8959098984167	-44.6858706108023	42.3149247606781	-44.6182790987555	42.3380596810222	-2.18923247649701	-59.9492796932631	
18716500	-0.166445396964871	-50.5631567549907	-42.7437957010257	-4.16651424314822	-42.7315515680943	-4.47393860861191	-4.17598227556885	-44.2863204457978	
18966000	-0.354495865132831	-52.0821503183069	-45.6773361024615	-39.7544712263444	-45.6010339527571	-40.228497324762	-2.54935935631754	-34.5088358459853	
19215500	-0.423556837481506	-54.3895645645146	-50.885456512383	-54.0538424750243	-50.85148254431	-53.1433217261156	-1.39881811828213	-37.8060403208977	
19465000	-0.3523755762261	-56.8496623572268	-53.5975813123372	-1.30425162602307	-53.3975138588544	0.435387225720619	-0.814466689278288	-42.1596973207896	
19714500	-0.314375221163287	-59.1314391092492	-41.7159739478143	9.95648560583795	-41.6898853481174	9.36958083377313	-0.394970588161565	-45.1054438828533	
19964000	-0.776417699488545	-58.1415082080057	-33.176117079953	-53.8580336743401	-33.1603026292599	-54.7061158119294	-0.19835332224488	-46.4372250369807	
20213500	-0.673623569555467	-56.1977174040573	-33.6539069010835	-115.401253454432	-33.6145381865992	-115.985947369892	-0.141400893986795	-46.9623514971094	
20463000	-0.973405643882614	-57.4031347660464	-33.813199564293	-153.632398486317	-33.7678545335786	-154.227719987222	-0.260049915092387	-48.0302570039441	
20712500	-1.39220260084784	-57.8547269899305	-33.5750822905555	164.192026969403	-33.5864374399436	163.121335758217	-0.419181930570494	-49.7547291857998	
20962000	-1.33222048610023	-58.5394172351616	-34.9809086480597	122.57438465407	-35.0068196716419	122.025646659427	-0.431040823178354	-51.5818937262032	
21211500	-1.18167752590065	-61.1084951592939	-36.1168720022115	93.2861885801932	-36.0712513040616	92.1711958042749	-0.287165287544384	-53.2281198919971	
21461000	-1.41305889732714	-63.0615965397682	-35.3491133595163	59.4653977374618	-35.342714571276	58.2666441784692	-0.0874930772887046	-54.0113622351797	
21710500	-2.59757527583457	-57.6020872281553	-36.2781438548266	0.347416227744165	-36.4407327294148	-1.33851436724752	-0.00743071376139267	-54.1224518466911	
21960000	-1.94472212551782	-46.7627700869189	-37.8980268874836	-35.0692558324751	-38.108947710308	-36.000297136468	-0.0757009009598122	-54.2800993278789	
22209500	-0.959985261858891	-47.9660896335856	-41.8229979932901	-76.3434820160655	-41.961929713941	-76.6150064166111	-0.260867127742799	-55.0472829250446	
22459000	-0.710438810801889	-52.2022505855627	-44.6429335391384	-103.598610195967	-44.8647429419455	-102.94585097371	-0.374980395371141	-56.6189111477575	
22708500	-0.543308475447358	-56.1506712506465	-45.6149605992347	-129.701505527739	-45.7728057796382	-131.016884802406	-0.346739039093674	-58.3782598517009	
22958000	-0.379077635239191	-59.5320800459112	-43.8999469658188	-172.435744353928	-43.8301645410843	-172.852301603775	-0.196360640014558	-59.6405794098276	
23207500	-0.74813850458351	-61.1717513903778	-40.0359865416494	98.7955533905949	-40.0846901842201	97.7673447380204	-0.0424366678747884	-59.7917862074692	
23457000	-0.635887880282614	-54.6282111048155	-50.4635508854411	-16.0380194819968	-50.3713520200952	-17.6094859484394	0.00869320357468419	-59.791134963202	
23706500	-0.313749590855931	-56.1505676190738	-48.5351526871148	-6.97200466618978	-48.5958521542024	-8.38721538762248	-0.151528929469185	-60.4651570730135	
23956000	-0.431102356452196	-57.8971319829609	-44.067867562576	-79.0825577010182	-44.1587967653006	-79.1487835973596	-0.518095149507849	-61.1541364324254	
24205500	-0.482667319664969	-60.2025643017432	-47.1319675466139	-151.422239994665	-47.1924603942009	-151.716566855094	-0.520641397791146	-61.7092620485806	
24455000	-0.388760750672481	-62.2897437205756	-51.1536928176238	166.237717764785	-51.2548334066089	165.307755111082	-0.362213511848087	-63.3320775639451	
24704500	-0.190386694087865	-63.5255016282109	-54.4217020236159	130.63947335534	-54.8991002865834	130.350891233334	-0.137289217534379	-64.223609114471	
24954000	-0.0446155074709562	-63.8136840103946	-58.9110238830248	101.568982806044	-58.8560935521156	101.082073605067	0.00709248207084736	-64.3738665738807	
25203500	-0.0595292839881039	-63.9023553216198	-63.0777859936066	84.3009250182561	-63.6995645337974	89.5045448039842	-0.0187418613431741	-64.4847885551875	
25453000	-0.229149131791259	-64.3587607230344	-68.0311124930415	91.1077547662273	-68.8730566482013	87.9534308751867	-0.18199759959334	-64.9980592087857	
25702500	-0.41027406044338	-65.7616055289786	-71.6808444924255	115.60904584832	-70.8370181740878	79.5698668259932	-0.361508796870615	-66.5863345927402	
25952000	-0.4439817570178	-67.7691412130732	-69.7019949390358	103.438045070545	-71.6378962184978	126.129346714719	-0.436390064260972	-68.7854975534237	
26201500	-0.314670167813542	-69.3670206249594	-64.910807034796	101.222164629402	-64.6113455198188	103.166572670386	-0.452965763391552	-71.3931641745453	
26451000	-0.112025544533673	-69.9784173838723	-60.6835271140397	2.73297014428066	-60.5465024621351	4.63478729106555	-0.730782480781572	-66.9474258970102	
26700500	-0.0290488065610759	-69.9338144943254	-75.4394502150188	-124.088321206205	-75.3172796760444	-147.384729606949	-0.0294506113324428	-67.9746780574809	
26950000	-0.129477026580998	-69.8457766238585	-68.0397270098718	169.852119467458	-68.370999796676	160.201675705248	-0.0646649496494514	-68.9146208718227	
27199500	-0.34571683835689	-70.6029341839499	-64.257383344668	124.669993428127	-63.9177903429126	129.145713539969	-0.286961913821195	-70.2537371778956	
27449000	-0.507933690029365	-72.2800677990864	-58.0802253042403	75.734307197099	-58.0457731932503	69.1551884054217	-0.61868886439188	-73.308411394801	
27698500	-0.52642779407888	-74.310590768451	-56.4091216614955	-84.3706825814951	-55.6768379828175	-82.0144852685972	-1.06199246402375	-68.7409802598668	
27948000	-0.380656950371883	-75.8250126842901	-59.5296408583953	142.241890712588	-59.407774666331	144.452778681253	-0.271060993327896	-71.6701529801174	
28197500	-0.229260052570935	-76.3496966958367	-56.6414432635956	89.6543677119523	-57.0322949149369	90.3280604658594	-0.040051457551349	-72.8743071408715	
28447000	-0.249973132822764	-76.5353813220228	-55.3712932580269	59.7755296679527	-55.3916143923275	58.373796597222	0.0126167494382813	-73.1584360447632	
28696500	-0.472490652047324	-77.2521897126958	-54.0510023708459	34.1209593970783	-54.2885242996715	34.564390160732	-0.107185873592779	-73.4338291043289	
28946000	-0.809363535534584	-79.0472016702407	-52.4496412578227	11.4256848238483	-52.1105820947916	12.7175763715952	-0.30721327348291	-74.5033413534042	
29195500	-1.1654658666274	-81.9224144017377	-49.9607355796749	-7.98052667118021	-49.9366309011338	-7.41250362520948	-0.415294342626067	-76.4109020628584	
29445000	-1.60778386663629	-84.6295722952252	-46.9760902887251	-32.1835406515718	-46.8979614280317	-33.1272708712843	-0.352301364653609	-78.2850079876578	
29694500	-2.30318203937654	-82.4134708858773	-43.5144166657288	-66.3262851021101	-43.5633297226266	-66.7992853929511	-0.197589404581692	-79.4807190905547	
29944000	-2.04904280422655	-72.2567543844316	-41.561950134204	-112.071643708546	-41.7315564257815	-113.570320793434	-0.0760551941525506	-79.8828779699526	
30193500	-0.971391431426922	-69.5997730084587	-41.3460267732593	-157.323699398834	-41.3778897045954	-157.841991342321	-0.167421670118194	-80.2210672891537	
30443000	-0.626639307814051	-71.5591531797706	-40.8375090711919	162.233061519785	-40.9510845311434	161.693879229869	-0.509870263887544	-81.1795944377015	
30692500	-0.664828939198343	-74.4289848167994	-40.0980487013952	99.090514333955	-40.1636528129791	98.5727886065667	-1.27237261289062	-81.1731738754132	
30942000	-0.763030837199673	-77.7644094087711	-51.1904357253137	85.1868484800434	-51.1477797266028	85.6261818820271	-0.692176459119505	-79.6409260412114	
31191500	-0.749860685200329	-80.3739786760828	-42.7749599907561	66.6005720744198	-42.8522301648641	65.4122355511114	-0.479553417966801	-83.6927706777494	
31441000	-0.697494691079399	-81.5536622326533	-38.434781820467	6.20926757587968	-38.4319091005559	5.7104032071006	-0.499528645616851	-86.1573804712348	
31690500	-0.833442876124726	-80.1714192102031	-35.3573960521298	-86.6246521374424	-35.3735596946056	-87.4093405134029	-1.21439783162959	-84.2728363487805	
31940000	-0.726784455767913	-77.1680985299897	-42.4679688492153	-128.165234545897	-42.5069313513631	-128.542470442217	-0.485223326602784	-81.6633679522026	
32189500	-0.569437975554906	-77.5825565123965	-36.768699499916	155.806237365615	-36.7310610638664	155.927586218462	-1.6794521677693	-82.9481956979661	
32439000	-0.594355255545071	-79.8247896067752	-43.60745859744	63.4594679237501	-43.6799263859835	63.4118422341589	-0.964544899310187	-77.4753807137278	
32688500	-0.539671775446176	-82.5175456777533	-52.3666710729908	17.3176751464286	-52.1726815592837	15.2291887519812	-0.555941173751352	-81.4725966006886	
32938000	-0.385603163164829	-84.5986068020628	-61.874123093801	-31.9340073909286	-60.9334559235233	-29.7865497432207	-0.302316310943018	-84.4088399032157	
33187500	-0.240316806420332	-85.63741169462	-63.4860601141703	-146.020219572256	-63.2513360397071	-146.78944126894	-0.0782524278897618	-85.7621361309243	
33437000	-0.279344599638767	-85.8359022176837	-54.8410080040783	164.499918836089	-54.8571377803667	162.715037572221	-0.0160960765766731	-86.2771973708584	
