!Keysight Technologies N9923A: A.12.45
!Date: Tuesday, 05 August 2025 19:04:59
!Timezone: (UTC+08:00) Kuala Lumpur, Singapore
!Model: N9923A
!Serial: MY61181427
!GPS Latitude: 
!GPS Longitude: 
!GPS TimeStamp: 0001-01-01 00:00:00Z
!GPS Seconds Since Last Read: 0
!CHECKSUM:0980365549
!Correction: S11(ON U)S21(ON U)S12(ON U)S22(ON U)
!S2P File: Measurements:S11,S21,S12,S22:
# Hz S DB R 50
2000000	-0.0622474014782036	-4.17283435672407	-93.2327284510854	-104.39416161184	-80.9611644746268	-90.909137749002	-0.0759097427872638	-4.15002429588809	
2249500	-0.329877159624886	-5.05820292924421	-73.5761462035254	-141.382176147735	-70.7151193811056	-115.270465422396	-0.331315883076589	-5.00491224110654	
2499000	-0.449793174274707	-6.88175948514002	-60.9477297099071	-157.369114697409	-61.160931522678	-158.382371494127	-0.462992701803318	-6.79252219690291	
2748500	-0.320459949142424	-8.65649353595814	-50.6226956024448	90.3675091588557	-50.7718554785748	90.9329855549728	-0.349290817999816	-8.08424898040461	
2998000	-0.0463410367096861	-9.23921551236301	-53.5812471134065	-28.9602621253138	-53.3953788415452	-27.8162893255982	-0.0520234454480369	-8.91611035684031	
3247500	0.149993864343961	-9.21685371536713	-61.8684489366909	-43.2685596693388	-62.1919049047813	-49.6722647478369	0.12885217344029	-8.97289160418416	
3497000	0.0997312314620592	-8.95735191813287	-57.3591708141707	-93.7358461243413	-57.2641662113338	-95.364763030823	0.0679846146269907	-8.75835771907651	
3746500	-0.189348853227998	-9.44046464497852	-55.4079080149384	-132.285367028033	-54.9834604378937	-133.247406843114	-0.18006535773106	-9.1827634072016	
3996000	-0.435097720664543	-10.410155937915	-61.2247841444382	121.935536184264	-62.6731659483628	119.441807894028	-0.411170270275944	-10.5722393825347	
4245500	-0.446687895266977	-12.6133505066332	-79.4291842307237	110.503993544943	-77.1002365985555	108.59666931291	-0.431924921584751	-12.6091523708064	
4495000	-0.228040408203678	-14.2802569135919	-69.2106367347924	-120.320998632433	-69.7541685266507	-124.449361773001	-0.220480978382407	-14.074064129941	
4744500	0.0171130337633472	-14.7919785025475	-54.5174882261349	-143.169404885516	-54.601212444694	-143.965726309269	0.0330837580850025	-14.4948890520069	
4994000	0.0807627584789875	-13.4683391424492	-44.0726722102877	106.536650743433	-44.1749463849314	107.217642275034	0.0938785288720812	-13.9959551201467	
5243500	0.0118509986529173	-13.1071332785089	-45.5269316145592	22.9515036922486	-45.4604085471404	23.5678418292867	-0.121351315493481	-13.3644289290854	
5493000	-0.265004268647748	-13.5940900467725	-49.1943153022393	-46.235363368391	-49.0129410702633	-47.0646045969409	-0.356014779493922	-13.0306992196636	
5742500	-0.467327969900261	-15.3508372807809	-52.65546379416	-82.1704268979773	-52.6578845673186	-83.2892410603016	-0.477427289239591	-14.6696410320553	
5992000	-0.42472583518082	-17.5604550485342	-53.3005921349458	-110.558115003673	-53.2582027463388	-109.009052529553	-0.402016147474084	-16.8001174469355	
6241500	-0.227578556623604	-18.8990525247218	-50.7490528872289	-152.817334537048	-50.634596060309	-151.857305758392	-0.151277902819241	-18.1194320206272	
6491000	0.0110419623181372	-18.2217450058745	-51.3524341878743	139.392214616755	-51.646651547192	138.528470504624	0.096374519968889	-18.3837660569557	
6740500	0.110652125194264	-17.8379665520383	-55.5232026380673	101.812901803031	-55.3289942189128	101.989279991667	0.12533147899443	-18.1532460632936	
6990000	-0.0922429008134811	-17.9864296255615	-57.0988090039583	79.996507411437	-57.0038776108255	80.256475498735	-0.0871456434250596	-18.3015928539021	
7239500	-0.413776530342262	-19.1641630549948	-55.7464765998358	59.3240882033729	-55.7981165896399	58.1193661912318	-0.379758111039774	-19.5448444335544	
7489000	-0.559794545182566	-21.1116160532212	-52.8998680204582	33.7790341288832	-52.8769003834269	33.8872236535101	-0.549861566121825	-21.7922301392195	
7738500	-0.409289505646565	-23.1064243732915	-48.3641698354328	-4.71724095612206	-48.3473330625917	-4.47365972944934	-0.549134022160096	-23.5260958451509	
7988000	-0.14698314556866	-24.0544121968719	-44.9485615320569	-68.2376792624207	-44.8053032599244	-67.6838827381925	-0.303621849038869	-22.7995356512621	
8237500	-0.0268457174728497	-23.2875514890121	-44.3077341908073	-139.792249579917	-44.230441786388	-139.889381647206	0.0317045345900317	-22.0787141418192	
8487000	-0.000175352868347318	-21.8882994572657	-47.7518772026407	154.632159619187	-47.6564142897903	154.415316816564	0.0445905051829499	-21.5839371605829	
8736500	-0.196290327520565	-22.0296805253786	-51.8122322357574	117.324613466263	-51.7157985107959	118.152218857222	-0.175991177375981	-21.8038008918333	
8986000	-0.457447676121959	-23.5931678104873	-53.6711623200575	92.4044683053085	-53.7262127109508	91.7284063921881	-0.430111403897341	-23.300121584761	
9235500	-0.535205442804147	-26.1061548062366	-52.9788355951766	64.1927954633576	-52.9122174953746	63.3135897752497	-0.476352780200372	-25.5452408402546	
9485000	-0.405600080108206	-28.0965285549287	-50.1921816850772	27.0277946900634	-50.1260576968361	25.9712046140006	-0.281527316833903	-27.5018376472448	
9734500	-0.206043601369361	-27.7718658780273	-47.7375172535131	-35.8136905857909	-47.6906101500607	-36.2958615627129	-0.0187851997429883	-28.2260410699154	
9984000	0.03245877896618	-26.711397128717	-48.159308381748	-99.2253458794654	-48.2090495455702	-98.9145730423727	0.0619873886093413	-28.0929698791971	
10233500	-0.0348186702893272	-26.4899746942049	-47.6001295552525	-151.666372161585	-47.6799956850077	-151.763204896873	-0.168756260924177	-27.8749384379279	
10483000	-0.327228168138869	-27.3044969876484	-46.3085285752511	148.656104691093	-46.3896579774491	147.618587951017	-0.602474822336553	-27.59091822974	
10732500	-0.577127701024297	-29.3912103486398	-46.0810540116357	83.529973440852	-46.1702015322192	82.7898670850242	-0.746574986448113	-28.1046956593469	
10982000	-0.613143567153378	-31.8362213990321	-45.7166689180144	20.8172019555032	-45.8676682906656	20.9272590042582	-0.586853234041857	-30.0965146825681	
11231500	-0.408438562107586	-32.5855923079073	-45.9962475939486	-47.6175820836353	-46.0784073594902	-48.0031087494953	-0.26242618441672	-31.5760764453943	
11481000	-0.0845205819248738	-32.1412664939981	-48.1373001888923	-110.515038811077	-48.0437209654214	-110.054232162603	0.0428700823751406	-31.8353978270873	
11730500	-0.00509568222651255	-31.2531680492897	-49.7436342147617	-173.146867465928	-49.8040160509073	-171.938189474627	0.0923825397925597	-31.4915435755486	
11980000	-0.166313632153245	-30.6921299657148	-52.4962150101106	134.684347903237	-52.6099142755362	135.039529583093	-0.143000058401786	-31.5694253571864	
12229500	-0.453715377998942	-31.7123193793496	-52.5191460513445	93.5055590954661	-52.4064549273831	96.8194133888766	-0.600541815859386	-32.6147296302821	
12479000	-0.637575495497362	-33.9711083108585	-52.3469365295108	25.347642061319	-52.0519865529626	24.3318247778171	-0.751493292112587	-32.8161770713264	
12728500	-0.559186391751488	-36.2690960927785	-54.7337685007843	-23.3738253245677	-54.3427369880318	-23.8065496662007	-0.483418843607571	-35.2440902053817	
12978000	-0.308504728459296	-37.028306001787	-56.9950401036131	-69.0674016313943	-56.5933693822657	-69.4183835919516	-0.175219663317375	-36.8789035762579	
13227500	-0.0794120847215368	-36.2534195947014	-60.2094460223961	-110.134653679899	-60.1386094099816	-114.264136045268	-0.0297249168263997	-37.1477388860688	
13477000	-0.0613572077291589	-35.4214781211592	-65.1310463862939	-120.645101812932	-64.8963995914929	-118.15344084196	-0.210244954556059	-36.5765351806823	
13726500	-0.288374756167934	-35.6181202914111	-59.2508156757986	-115.519591614331	-59.7328914663869	-113.391423537639	-0.551505363064189	-35.3123076927674	
13976000	-0.593341730640015	-37.2902815149001	-56.0133860116947	-151.98124149093	-55.9921097145114	-152.312920699525	-0.711188069467773	-35.7273669399584	
14225500	-0.747102837823552	-39.8223342419933	-53.8613668107899	157.862281850794	-53.7961567100821	157.324191032119	-0.668207819237837	-37.891114612885	
14475000	-0.608417824143104	-40.9018425443388	-55.0701730825841	84.5283255623197	-54.8323643017531	84.0728000649445	-0.406888642413977	-39.9163974124923	
14724500	-0.198196172907583	-41.2018154067355	-73.190086444452	102.744551285875	-72.33431351082	99.6055928674488	-0.0884472856453699	-40.671442028557	
14974000	-0.0812636098576503	-40.6066231795927	-56.065922062216	109.720211315313	-56.1478587698442	109.639284324092	0.0676038764491197	-40.4364274105863	
15223500	-0.189963591403396	-39.4623503986688	-52.2496721517892	56.8259472946166	-52.6404066473215	56.4299799669449	-0.0762440603368284	-40.1162584842014	
15473000	-0.451436309688528	-39.628712240847	-50.443606342993	8.78111537850626	-50.734879437735	7.34066613800079	-0.436493841549333	-40.8407991331099	
15722500	-0.694497506784425	-41.6105731555711	-48.5534735697756	-38.9859776790098	-48.6540934678731	-38.0536791263391	-0.795808773102748	-42.693687228264	
15972000	-0.701283937504813	-44.2069207111209	-46.5880740973437	-92.4954107039858	-46.5486525306349	-91.4066862022464	-0.922982803020154	-44.3559563057993	
16221500	-0.483120394418217	-45.8193183546102	-45.6313087401027	-151.185799862978	-45.5595751870247	-150.706421798698	-0.660578653763133	-44.6181645869025	
16471000	-0.241698789042151	-45.6003957319676	-45.7402064847023	149.805481472201	-45.7913060362825	150.737147439723	-0.248979333910557	-44.1064682463816	
16720500	-0.14331294944042	-44.409605371949	-46.8319619421579	100.251239705349	-46.7795066989505	100.246057970407	-0.0572082736648799	-43.5186937072949	
16970000	-0.289288987531207	-43.7809989898103	-47.7241308199021	58.659532391562	-47.6664407502212	59.0379407903817	-0.190217821419746	-43.4340751264595	
17219500	-0.594583954546697	-44.7057273133564	-47.7227597534429	21.9443579473711	-47.6318650467215	21.4862223913486	-0.492333255066942	-44.6856328250092	
17469000	-0.800770255921623	-47.0052070954255	-46.1579390429096	-16.4885078062016	-46.1653581199834	-16.0419703705159	-0.723339917046692	-47.0986523406523	
17718500	-0.738101683445995	-49.2382269377701	-44.3293608593929	-63.7427511435794	-44.2433006103199	-62.6185094060328	-0.727912761654628	-49.4399600783506	
17968000	-0.462866669922878	-50.086506626059	-43.3740187997736	-123.731605198513	-43.2645151286024	-123.08712027634	-0.535424296971635	-49.8536101497618	
18217500	-0.202829304087993	-49.3315047382478	-44.9905605499926	171.757455782557	-44.7808870663357	172.783438808244	-0.228669166092573	-48.5682970570911	
18467000	-0.15762524767453	-48.1825892902513	-48.5981298729389	118.686818091488	-48.3199408635956	120.033462592399	-0.130373050452624	-47.6190533087481	
18716500	-0.377476040494758	-48.1585635317486	-52.3899091827997	77.1065070823774	-52.1902071625388	77.0933141028567	-0.331295369150895	-47.8040858439921	
18966000	-0.695128311396907	-49.6344872666324	-56.3833347930409	40.766453042822	-55.8963615675499	38.1537383774519	-0.654646890552296	-49.4359487545839	
19215500	-0.843767511586791	-52.2022883679557	-59.2118342379749	15.4734635437114	-59.4299603202128	10.4492566267599	-0.841327721509478	-52.0054915917329	
19465000	-0.721716669204711	-54.2527965036399	-61.4213495923696	-8.0636703434774	-61.579703241652	-8.58928518971892	-0.777268350672268	-53.8718982490759	
19714500	-0.44128468927474	-54.5244658925495	-60.7760317175248	-23.1731130868452	-61.1321570945686	-24.1643096726029	-0.495888722286428	-53.788004540104	
19964000	-0.241409956107595	-53.3771099567491	-59.1911933451699	-55.4410425946368	-59.128294889031	-54.434826127631	-0.234379876023315	-52.5772861995938	
20213500	-0.309468517035339	-52.3635848404596	-57.7061137529862	-95.2583280588409	-57.6014557801857	-93.8574508057268	-0.225145451926005	-51.6578868569861	
20463000	-0.619083615535689	-52.6678887056028	-56.0453002708682	-129.657029734587	-55.8354109163028	-129.583829656832	-0.455721369766936	-51.9037168699426	
20712500	-0.944324110665891	-54.4879754863448	-54.2830273905761	-165.81256194025	-54.2574497111417	-165.412350986759	-0.703973917603184	-53.7728223653367	
20962000	-1.0277795778131	-56.8013253871935	-52.3429084820045	154.821671069576	-52.0248275341306	155.414973488177	-0.733609840441037	-56.3628258513935	
21211500	-0.779074432492557	-58.0270639518173	-49.6449216663694	112.008523330949	-49.9504629322784	112.29473278884	-0.547002489186465	-58.366325886463	
21461000	-0.41214892193549	-57.6575589637509	-47.7569487399641	62.9862442851888	-47.7788753828883	63.9210259801191	-0.32962777298915	-58.6582349359536	
21710500	-0.233684178600914	-56.494359390097	-46.8284269194363	11.5723573222729	-46.6246570867494	13.2600513292585	-0.315876360331087	-57.5206380946953	
21960000	-0.370142110678304	-55.8599642551924	-46.568513919849	-40.7410591707258	-46.4205174545777	-39.5022901877841	-0.503743094887795	-56.0609264300243	
22209500	-0.70801052028055	-56.560255945666	-46.7225513063865	-91.5757773639226	-46.4579327497488	-90.5110916272846	-0.764630308530249	-56.0302446898508	
22459000	-0.975949148518761	-58.7353543782573	-46.8640162783773	-141.296319443496	-46.6542492322255	-140.564855507545	-0.890059856104506	-57.962383046313	
22708500	-0.934506315538437	-61.0189885948093	-47.1218377344447	166.222198352529	-46.9636558690281	166.880673375635	-0.769343805121069	-60.4773937799833	
22958000	-0.611349821733995	-61.9921743316931	-47.4287924249377	110.489459719196	-47.3775804610193	110.937840231575	-0.459097917226462	-62.0569866292847	
23207500	-0.300392538300933	-61.5509795128797	-47.651380456076	53.1106558362918	-47.6183101512895	53.8373065179552	-0.200397983783815	-62.0348280646792	
23457000	-0.274411229202322	-60.4192760859015	-47.9822749878768	-9.26852425890307	-48.0840319108267	-7.87156010979539	-0.204828107633643	-61.2639689775724	
23706500	-0.530422498230855	-59.6199122099535	-49.1029642824726	-75.5447316745484	-49.3366361472515	-72.0013654422697	-0.479582588237624	-60.9302140295495	
23956000	-0.834743653760761	-60.4036701938993	-51.5836137088598	-135.678896132523	-51.7171482699236	-132.952373217984	-0.865382802214721	-61.8253167926361	
24205500	-0.967266989226262	-62.8681283489581	-55.7835658816863	173.160537685628	-55.432189914441	175.998895341674	-1.05486593189443	-63.7271983957813	
24455000	-0.804248031578472	-65.1677807100055	-60.2300706698883	133.933114318838	-60.0240673955879	140.155066545056	-0.878568849400371	-65.3104859978359	
24704500	-0.463308831887319	-65.8933604656826	-61.2313988843533	114.730801344973	-61.3469422762378	114.883332888389	-0.480298651619492	-65.6862327570586	
24954000	-0.201907757767129	-65.1185021462628	-59.9103280524673	78.925345030471	-60.2788107292868	81.0010847499577	-0.228152851373935	-65.1361396848736	
25203500	-0.213167148006885	-64.2196012611589	-61.5108915743444	34.0311513359346	-60.4210881379869	33.8909999186106	-0.291746015485691	-64.5106508285156	
25453000	-0.49196161108732	-64.1775214176059	-63.381431927554	-16.6946851969121	-61.8273912404898	-21.1022748572914	-0.620888451474021	-64.5384916385571	
25702500	-0.80785888304272	-65.8671314985612	-62.1233300532452	-83.7314118059872	-62.1201873493891	-86.5082460614975	-0.982058523114903	-66.0014512618372	
25952000	-0.887055964704551	-68.6181576433987	-61.5967430094385	-161.78651342106	-61.5052950820942	-155.951329249529	-1.07491691094756	-68.0208166454263	
26201500	-0.682622162287769	-70.5883324694562	-61.0636338799962	120.107330624361	-60.5063315403513	114.30611815995	-0.777514428413137	-69.612573534259	
26451000	-0.369951780619368	-70.6580969226195	-59.1955636096235	47.6379986150939	-59.3636044026012	45.4376250340318	-0.38445753718232	-70.1226692087287	
26700500	-0.22806286347404	-69.490112582618	-60.429092662176	-13.5884858444909	-59.7890386342318	-20.3263369961184	-0.207863373723361	-69.5089193991806	
26950000	-0.366795570449049	-68.3911040035971	-61.271713828997	-94.9982073430917	-60.2505378955635	-90.8964399802072	-0.359773023410792	-68.9796884268137	
27199500	-0.708228296486132	-68.7810412579241	-59.9114612788696	-161.155273312719	-59.1603657449373	-165.694261906928	-0.755710022032756	-69.2786480609062	
27449000	-0.982680490983071	-70.8065389157206	-58.8550259948278	118.199580454091	-58.1999008526103	123.854819729272	-1.06490183220239	-70.9420148586821	
27698500	-0.974062743437792	-73.375649012496	-56.638124553554	57.746588938668	-56.3578617430987	58.7592875251235	-1.05203600050147	-72.9173073435016	
27948000	-0.667665464306722	-74.7952032895962	-54.637575617061	1.83689372702775	-55.5479838575173	2.30040933889951	-0.730881261007538	-74.1156500332212	
28197500	-0.335801524156359	-74.3793463779195	-55.0611570684074	-48.3793832964469	-54.61164732966	-48.9853091515588	-0.379340416658229	-73.8020972559509	
28447000	-0.249141988985284	-73.187803577523	-55.3500141706677	-98.1870777186969	-55.4660581698807	-96.7978513580056	-0.273029700240182	-72.8968702747164	
28696500	-0.45931375618108	-72.5560350485537	-55.624977553367	-140.247362643	-55.3137260086938	-136.696288313025	-0.469091426276767	-72.3888585193574	
28946000	-0.808015026183896	-73.4172114157423	-56.0432396695269	-179.662255791837	-56.0171277827528	-179.87300318127	-0.823320541127935	-73.361538565614	
29195500	-1.02046083362996	-75.7822627853103	-57.0244352165659	137.74969060563	-56.493498489207	140.197705377484	-1.03936099009307	-75.8065796004741	
29445000	-0.917930768726012	-78.2692017146782	-57.9366985637881	89.3518810202724	-58.3716181349443	91.879625650664	-0.94197578010411	-78.1867857650298	
29694500	-0.580832573328855	-79.0646303004015	-58.2813546005265	33.5420872845794	-58.5155815530739	40.5006231222585	-0.670111780422019	-79.0512854322452	
29944000	-0.332412469640733	-78.1316365977344	-59.9913181379986	-19.4708842095159	-60.2042265857811	-15.8854654590731	-0.424060226789458	-78.1823071740914	
30193500	-0.35941580506482	-76.7461228319037	-60.371450625426	-74.0605541555843	-60.8763099916702	-74.7662309936722	-0.440061610138665	-76.8889981949372	
30443000	-0.633858148563277	-76.2461702056009	-59.5265656428563	-127.923620785649	-59.5610876550847	-126.299942150219	-0.707482686384811	-76.3318499368301	
30692500	-0.96494794739271	-77.4883559889053	-59.6984446144765	-172.693471264973	-58.9714402195137	-170.732204582621	-0.997261189882101	-77.5472929778036	
30942000	-1.09134134008968	-80.1094697932535	-58.9404171059802	147.419771635233	-59.1058734063216	149.886134405729	-1.08769365822586	-80.0373078255378	
31191500	-0.861396043901236	-82.3778687603975	-58.9511294854404	110.340572892885	-58.618293045089	110.539568230238	-0.852647889516663	-82.2297701598621	
31441000	-0.480914077141279	-82.9326464530892	-58.2531195125198	74.5867790031462	-58.3256176325507	71.9411414387592	-0.518369483128329	-82.7276630221003	
31690500	-0.272492647413523	-82.002239331003	-58.1432359714794	40.9600371832319	-58.2009287205811	40.077592821903	-0.343609519691359	-81.7601449667077	
31940000	-0.367336611629295	-80.9691795725112	-58.885185278115	10.2008612643959	-58.8841380948375	8.29166093687324	-0.479964286757922	-80.6181348887832	
32189500	-0.711372081640969	-81.0049939701074	-59.7849957956601	-30.6458475615107	-60.2930612602504	-31.9150771454395	-0.833055894044917	-80.5588194437357	
32439000	-1.03335653347401	-82.7783913457153	-60.4370023440978	-62.2053701358433	-60.6541370728701	-65.6731404295153	-1.12116826185928	-82.1983611826999	
32688500	-1.05947685156335	-85.3046592658224	-62.4485994198893	-96.5814147732019	-63.0035463821016	-98.5302286772055	-1.12875285574695	-84.6598908149983	
32938000	-0.803431156511958	-86.7934790362891	-65.4129149624079	-133.326632954999	-67.1791698003321	-135.72729756535	-0.824358481419818	-86.5503302362533	
33187500	-0.484313852012055	-86.5198998953984	-72.7830521035743	-165.498394507866	-72.3682790299185	-152.267682018933	-0.47133984471679	-86.6246306228896	
33437000	-0.364501819373852	-85.2074372413448	-86.5809190131346	-179.686797326907	-80.4762439544283	-118.72957731546	-0.353210595729201	-85.6164478829984	
