!Keysight Technologies N9923A: A.12.45
!Date: Tuesday, 05 August 2025 18:37:03
!Timezone: (UTC+08:00) Kuala Lumpur, Singapore
!Model: N9923A
!Serial: MY61181427
!GPS Latitude: 
!GPS Longitude: 
!GPS TimeStamp: 0001-01-01 00:00:00Z
!GPS Seconds Since Last Read: 0
!CHECKSUM:1721737261
!Correction: S11(ON U)S21(ON U)S12(ON U)S22(ON U)
!S2P File: Measurements:S11,S21,S12,S22:
# Hz S DB R 50
2000000	-0.0740696069340887	-4.67213421223371	-71.9616946276626	-109.866466694963	-71.6310252229105	-110.232367645112	-0.0850352198224866	-4.64445249786459	
2249500	-0.309077565668247	-5.53636850716151	-67.544479828509	-116.394557122213	-69.6725159533972	-113.184389006454	-0.311968174487966	-5.47839391123207	
2499000	-0.411667359778755	-7.19252770889607	-60.844352774234	-121.281637430899	-61.3936356006163	-122.21838876572	-0.407850490929229	-7.04852165141972	
2748500	-0.293818616146187	-8.59850326598596	-48.1957314454562	112.150060864343	-48.2808235025661	111.167105434317	-0.310552505323578	-8.23442971843799	
2998000	-0.0450396539119668	-9.44889681441676	-56.2823793757599	54.4189346097629	-56.5484264684802	54.1236398445894	-0.0351068808051775	-9.11831698774037	
3247500	0.120931868508306	-9.21676412777355	-59.0072111974205	55.8802697882253	-58.5512571828515	56.8924929148813	0.111495564297519	-9.10733285563299	
3497000	0.071707138147467	-8.97321641118516	-51.3851168660366	20.2873383141542	-51.2996316187235	20.4427546858415	0.012713534739026	-9.00542689712042	
3746500	-0.172405532833447	-9.24755641613113	-46.7294150495989	-71.7316441563657	-46.5399918610968	-72.0256493406977	-0.246875098378374	-8.63180560202679	
3996000	-0.475839169664823	-10.1446006814729	-49.1077500667302	177.041081476309	-48.9831274091996	177.280570811331	-0.406231571689794	-9.78137563978126	
4245500	-0.422188601740448	-11.9617919112108	-71.1636984144455	131.473570323432	-71.2067889413483	136.017706363732	-0.403748645692409	-11.7646548834035	
4495000	-0.240442894720676	-13.729484097594	-62.2044454470467	-145.333345382912	-62.1873140405921	-144.4601737288	-0.211843287650497	-13.2710898180374	
4744500	-0.0445596548833021	-13.8370401900396	-55.7802518251836	132.781509047804	-55.5587863670698	133.576508686771	0.0283504221365552	-13.8000034395499	
4994000	0.115786990806722	-13.5908948851226	-61.7412714131755	84.3249670545609	-61.6881759873754	85.1084636247977	0.125488702678905	-13.6464963566999	
5243500	0.00414103450191942	-13.503911599024	-64.5948659615372	68.6754349806323	-65.5952902032862	69.3876626316239	0.00148486034137884	-13.5715112883183	
5493000	-0.249915860474548	-14.1524842951253	-66.8914330207439	52.8792911914918	-67.0284775225404	53.5961055914882	-0.254186671137382	-14.2739262289309	
5742500	-0.430483186791254	-15.8044556890293	-66.3767268236582	43.82737235417	-66.4611747191208	42.7475498704066	-0.425122551580919	-15.9294522147642	
5992000	-0.378297059392503	-17.7533011563457	-64.6480526876447	26.6827544352096	-64.3324887736938	29.73873725835	-0.38034222552008	-17.8809621788267	
6241500	-0.150769458223291	-19.0023173422949	-59.7277628997699	12.9629711869279	-59.6829912083616	12.3268689545817	-0.186359525614383	-19.2131000485064	
6491000	0.0574222141806394	-19.2548980409164	-52.4944685530029	-39.8381531619272	-52.1625332012856	-39.8533148329596	-0.103864658343868	-19.3180689989165	
6740500	0.0506344267028647	-19.0599168080791	-50.2431672346404	-141.502937008197	-49.9838718718362	-141.423486287533	-0.0753041663494504	-17.7348446200438	
6990000	-0.238562906906046	-19.130759862925	-55.6673774985125	121.06858076826	-55.3631057040731	120.855468208578	-0.140231938902301	-17.376001581373	
7239500	-0.66861620294737	-18.9033046397376	-68.9496433365336	94.793703042952	-69.645110892368	80.0376898660522	-0.341159039550592	-18.7295065296555	
7489000	-0.625091530904423	-19.5309214199432	-56.1158628213792	59.3397525292792	-56.7675436468963	57.6647692505759	-0.55938856426224	-21.151359011972	
7738500	-0.398450875958148	-21.4601843592296	-58.64185167779	-66.7900241585074	-58.451511516999	-68.0006259498497	-0.454836616674926	-21.3823872585762	
7988000	-0.0998751663961377	-22.5211930844608	-65.2542459194511	-134.639834910043	-65.3649803193577	-130.387986197235	-0.111008453362849	-22.2527235800439	
8237500	0.0983604532962803	-22.5533802477653	-69.2063000828195	-161.155881900247	-68.8547069705305	-168.688059777052	0.0976115133847806	-22.2868356886391	
8487000	0.0659450388413401	-22.2981825651021	-70.0863600831354	175.88577368746	-70.9773648577	169.118828346587	0.0662180619347287	-22.0885176342733	
8736500	-0.163643035405066	-22.6133446620499	-72.3491935686997	156.483569506457	-71.9210102641566	157.366863999055	-0.158223005704612	-22.4753559383292	
8986000	-0.404076251608183	-24.0624716978883	-70.5299395719948	130.446929351252	-71.3027790341154	130.899528058808	-0.399044720038723	-23.9923119412452	
9235500	-0.457573754667201	-26.2982786138292	-68.1448207896345	88.4752210373739	-67.1370984761626	99.5799255899722	-0.451561696908878	-26.1737175393789	
9485000	-0.286627629500834	-28.1791838111204	-61.5960896094597	57.9009863742773	-61.9184637221907	60.8584164578275	-0.300241456811008	-28.1473175269965	
9734500	-0.080516622536552	-28.9968943529026	-53.7526098625881	3.80873913215813	-53.971457261901	3.89399392825937	-0.133868102619491	-28.9636654622041	
9984000	-0.088251018363623	-28.5817822089319	-45.1122972158898	-100.507748996931	-45.174970400797	-97.603195920775	-0.21697612038733	-28.1499182265254	
10233500	-0.277039828891898	-27.80745047923	-44.0366090639659	132.41401275435	-43.9468985198348	135.039448642529	-0.323473535740003	-25.8948903179508	
10483000	-0.682291498199088	-27.7317790119988	-49.1088420749301	29.9671941188464	-49.0359318795049	31.4739343524243	-0.368721041140962	-26.1160930464281	
10732500	-0.824935619085815	-27.571596593078	-57.0256217356982	-50.2645719178949	-56.6714965308568	-48.7118007044203	-0.488231166134218	-28.2092073172772	
10982000	-0.6012643452631	-29.4153279274895	-65.2929236000645	-108.459265382209	-66.1163748628849	-102.661373670552	-0.448341667621676	-30.5989067839495	
11231500	-0.277202818519751	-31.0066208375927	-74.1109189980834	176.684799046187	-74.17559089086	-173.193690327275	-0.24058416692976	-32.3609632812769	
11481000	0.00702281747818934	-31.3823705987293	-68.6058012035822	57.7297472020773	-69.6872588998338	56.5348734369135	-0.150247674883725	-32.8806051920611	
11730500	0.0745923381017168	-31.0983342787517	-65.2033947281648	-74.1000685266356	-65.4933300665625	-73.6604047497003	-0.209290213891778	-30.6161632436736	
11980000	-0.100942394660426	-31.0303503246248	-65.4126282514525	177.799082173762	-65.7286414933396	-178.149204707807	-0.200063957300582	-29.9884752998523	
12229500	-0.372985256437872	-32.1059175025341	-68.6745609337959	112.342700812433	-69.9695365793108	112.352131512022	-0.3918706420948	-31.1082003218231	
12479000	-0.524568141126803	-34.22560710485	-69.1447294370841	58.2861540557135	-69.9348698685105	61.2616120514303	-0.502271518812708	-33.2482003042698	
12728500	-0.422362797855765	-36.4918455703179	-71.8151741171308	26.2923063218052	-70.4043526776022	17.2163883184934	-0.396365405900057	-35.4429787237075	
12978000	-0.193063376314397	-37.730371702889	-75.4745403435209	-13.3360840677596	-76.6961877880886	-25.3250634962308	-0.137382770191871	-36.7348102450914	
13227500	-0.090033093929249	-37.676356603453	-68.6310992207145	129.680999313708	-69.4542086489603	128.054806331872	0.0279590594454403	-36.952373953784	
13477000	-0.233339441472912	-36.786315229334	-56.3528991308948	66.0077551805115	-56.1544569541463	67.5669177933533	-0.0556409150403256	-36.9499525985988	
13726500	-0.517170848396067	-36.4342257557151	-48.1076645067404	-1.41803183387426	-48.0611889422367	-1.17254922323484	-0.419892133159687	-37.3300946616004	
13976000	-0.861591546092086	-37.3020025727892	-42.3288057235655	-77.913659349592	-42.4481720739235	-77.8056018159007	-0.879707586665536	-37.8215309145001	
14225500	-0.971714989736512	-38.3030051878551	-40.5445089913357	-164.238336857179	-40.5868700615105	-163.37093849159	-0.933808594845939	-38.0038880386204	
14475000	-0.629073516284114	-39.1354832721086	-42.6964982335918	119.045737338838	-42.6210407168037	119.673060935362	-0.56353383775956	-39.0691725689509	
14724500	-0.216430766668725	-39.8748655106662	-45.3012725037948	56.8737616737531	-45.3512223237056	56.3932908753668	-0.180429032275489	-39.8892602726162	
14974000	-0.0402112953656336	-39.6252346981517	-48.8827636274121	-6.17963937688352	-48.9490617804833	-6.02517450002538	0.0119501416643234	-39.9910671002916	
15223500	-0.101562673506543	-39.2210429265686	-52.3591788560834	-67.169082677442	-52.2937882243508	-66.3037574294237	-0.133148913332515	-40.2068929928534	
15473000	-0.346835389947437	-39.7841032250946	-54.2475889836588	-156.084710176635	-54.3908836979323	-155.554293843098	-0.629261883613087	-40.2605688910311	
15722500	-0.564732900031156	-41.7399232767584	-58.5894255880364	103.534672767366	-58.3954836399409	103.761229881277	-0.724454068183094	-40.246701182849	
15972000	-0.555793283525021	-44.2013631109411	-59.6343280259883	43.5503487654831	-59.5717793116487	41.2438492167339	-0.579698186987995	-42.5483337804521	
16221500	-0.338421501465808	-45.9511271000925	-58.0260033959439	1.99363616207096	-58.133651563819	2.90370461700031	-0.304796861075488	-44.387601203294	
16471000	-0.13496713602304	-46.3996209373329	-55.7383495335102	-30.6394782744646	-55.6737265110478	-31.3675235759943	-0.0439396213569071	-44.9819327154655	
16720500	-0.159807897945649	-45.892401811138	-51.9303794513089	-70.7739027640352	-52.1690402604107	-71.2247854368443	0.00988690840692252	-44.8984107864391	
16970000	-0.435341039233701	-45.1689600902019	-47.842143895574	-118.537483393012	-48.0275468059641	-118.126960721678	-0.212814094365882	-45.0618777894659	
17219500	-0.781512949315695	-45.4600331636998	-44.4180576272463	-171.38636879926	-44.5462063598305	-170.848056244727	-0.60262197154522	-46.3551306884478	
17469000	-0.989791909924444	-47.035438153629	-41.3607682100852	128.445060057382	-41.5277389628427	129.484189660205	-0.976746462390817	-48.1906580061133	
17718500	-0.929535348308345	-48.5636325884175	-39.7539311297189	59.8839397413168	-39.804293397744	61.2859422847368	-1.0577153737651	-48.793130167579	
17968000	-0.641505573343528	-48.8891003996357	-40.7300813429602	-8.06111987547867	-40.7267002388001	-6.91479486012295	-0.678817384502217	-48.1027926313362	
18217500	-0.311210575767271	-48.0825284741284	-43.7194794481631	-63.0667095684391	-43.6302696238607	-62.5151545135835	-0.227345977766796	-47.5452802897565	
18467000	-0.205689304490695	-47.2919169690233	-46.8946794538217	-104.51421947208	-46.8449346582847	-104.049774918258	-0.111876630364874	-47.305650812352	
18716500	-0.368291901665654	-47.4950105475181	-49.2353400757067	-134.78568183987	-49.3058200508591	-134.770897239466	-0.2960915559175	-47.6285499750537	
18966000	-0.615780105245365	-49.0021790185012	-50.5744878647315	-161.418982956753	-50.5999645673064	-159.832906120421	-0.555469865888892	-49.1423734153099	
19215500	-0.705330091536763	-51.5325711687879	-50.9201246495188	171.883045949331	-50.8890774853384	171.097513118923	-0.68919708718474	-51.714705655084	
19465000	-0.559623172359794	-53.7963945970044	-50.5897683913327	138.38114141134	-50.6628120497533	138.816553540596	-0.653631081050939	-54.0120909869276	
19714500	-0.307635866150327	-54.7163143638309	-50.9005485380657	90.9946390687241	-50.8956078654356	93.2616106578544	-0.533161641623148	-54.1351664248027	
19964000	-0.203354331561607	-54.2227256845487	-55.3774219624683	48.1131541551675	-55.4854130290956	49.9716199812	-0.314429739791596	-52.3116267440313	
20213500	-0.359447748363919	-53.232915921018	-60.1675462891378	62.072034066287	-60.6355234899039	66.4118939978318	-0.227255684475483	-51.4876970555914	
20463000	-0.660034347991296	-53.1298931057607	-54.7827877734093	59.0724119476079	-54.8828262312743	61.0615573505058	-0.406227799874639	-52.0586001437789	
20712500	-0.932640302379982	-54.6207819232042	-50.8824148768665	23.0098759808142	-50.8771381553767	24.5281566467155	-0.634087338717117	-54.0932548781227	
20962000	-1.02908533280524	-56.7851654962013	-47.859666628843	-16.4550511728975	-47.7611970254396	-16.0473613607484	-0.690285172187744	-56.754647338652	
21211500	-0.862455492239791	-57.8074861001924	-45.0850460847388	-61.3546735721833	-45.1050860749327	-61.319422680309	-0.585011524592549	-58.8775332961532	
21461000	-0.549694812529527	-57.1565234601006	-42.8129555626932	-115.733291334847	-42.9259912260105	-114.131289797006	-0.483426764813963	-59.1606470008985	
21710500	-0.356406986142947	-55.892860654161	-42.2248989747509	-174.584783032139	-42.2970108335952	-172.201496793447	-0.543374769652778	-57.5034998089881	
21960000	-0.424286929480641	-55.2953446270337	-43.4536457675558	131.76170279593	-43.2962685330072	134.348295799005	-0.642411514720203	-55.3641123358809	
22209500	-0.66329570371245	-56.0771096410104	-45.4670503532913	89.5645491464558	-45.3407063423116	91.3511223615653	-0.758583988440258	-55.2990786449899	
22459000	-0.848800657632605	-58.357115141861	-47.3154990613507	55.4915491059703	-47.1816466821246	57.0206265592189	-0.813248823022863	-57.336319442847	
22708500	-0.797403667986212	-60.9302116253597	-48.7940094717486	31.0121142489217	-48.6008034852655	30.7134358508719	-0.695174777981816	-59.8799996981934	
22958000	-0.557018700835565	-62.1906142103445	-47.5502949675836	25.5863437736829	-47.311363042375	25.4664504036956	-0.427758420576363	-61.5645828547781	
23207500	-0.31865211346948	-61.9932523080585	-42.3262491953577	-15.7648536691181	-42.3193440340226	-15.1802284514144	-0.21242840309967	-61.6835118242426	
23457000	-0.342521192094178	-60.9643077584329	-40.5046497175262	-71.3752657522926	-40.4607698036128	-70.4989275643261	-0.229550431960817	-61.0687705251466	
23706500	-0.581737010782023	-60.2812836023111	-39.9743787610857	-131.445844365894	-40.011313752426	-130.119648198701	-0.485063018055126	-60.6415699185245	
23956000	-0.899389103540418	-60.9480311805048	-41.7957774316789	164.746360944954	-41.8573000974803	166.757137932281	-0.763150795055787	-61.2635949810135	
24205500	-1.01522900716313	-62.6949701348042	-46.6201814164166	104.460888737475	-46.6304821490311	108.203592687313	-0.845044360109121	-63.5878187871819	
24455000	-0.822465435325796	-64.6309370774909	-54.8726244640291	49.336872753809	-54.7149794323382	55.8798851773124	-0.731831554946364	-66.0253777076433	
24704500	-0.502103366834309	-65.4793794135667	-66.3811850099431	-158.740899518849	-65.759404760433	178.747623739868	-0.525885055542064	-66.8772257090945	
24954000	-0.292897777548694	-64.8822214025614	-52.3940871841539	131.89604656317	-52.6297735711133	129.229912485929	-0.452204362227125	-65.9988297378547	
25203500	-0.305370742479162	-64.0077048170483	-49.4704489149787	74.4732885207707	-49.6129339659184	74.5805208257234	-0.558309811047685	-64.4112833207551	
25453000	-0.534181190398854	-64.0302628539549	-49.3819732296895	23.5802226694359	-49.3760336955503	24.4420150232427	-0.764604752073019	-63.6007679984091	
25702500	-0.793899538788325	-65.7478162601607	-50.1841723464306	-20.7754064654037	-50.2367734564725	-20.1725695406277	-0.955800787802885	-64.7665938043006	
25952000	-0.850244868140134	-68.476479682027	-51.324891599542	-58.8948957026786	-50.9952926192369	-59.4977432382861	-0.949715812949043	-67.013163471967	
26201500	-0.6688601626311	-70.5898133809823	-51.6575532885776	-93.0682660505724	-51.6156017247241	-94.6233568727593	-0.672268496745467	-69.0041871586334	
26451000	-0.419745199037104	-71.0185024148076	-52.2921631845411	-128.29791085853	-52.0243553382247	-126.899016914762	-0.343019648836668	-69.7968569853208	
26700500	-0.372917322590482	-70.101181357883	-51.8056507739987	-167.576798372093	-51.8939220730242	-162.853978926666	-0.193899413384899	-69.3419485565503	
26950000	-0.574520939455519	-68.6804652766397	-51.7219655571292	155.436411970752	-51.5970547152838	158.14481849738	-0.317320710752578	-68.950499781388	
27199500	-0.876815667638182	-68.2698638207432	-51.9621039678591	118.853433811865	-52.0026073784311	120.705273292788	-0.64934032277228	-69.4279883540125	
27449000	-1.03812464951396	-69.5357230308586	-52.6530748130194	82.2806035905531	-52.4676604510748	83.0392483196617	-0.922521270024057	-71.3471591133387	
27698500	-0.936922702938026	-71.7357162334167	-52.6307429584264	43.0762891163819	-52.8415140023275	46.6493976458768	-0.965682164667559	-73.6102188566451	
27948000	-0.602211668789295	-73.2782139410424	-53.7161150456705	9.14526336472422	-53.3809721125353	10.1755838205451	-0.785368498545909	-74.9363594669208	
28197500	-0.275711326271849	-73.3287877383604	-54.6757474307007	-24.4594587185612	-54.1225698645441	-22.9799813306586	-0.570454036933544	-74.422015991252	
28447000	-0.192553515423358	-72.7021470206005	-56.1947590633226	-58.6964739422572	-55.9649055999815	-59.667029474559	-0.523613158402187	-73.0336302856851	
28696500	-0.389668865077894	-72.6049369735929	-57.4916457388198	-90.2581252034596	-57.4134533493152	-89.199432595121	-0.679174751307942	-71.930262461084	
28946000	-0.715929737174004	-73.8377552884368	-58.7761075704023	-119.127798499039	-57.6692438953513	-118.118263176849	-0.929692324859298	-72.3402718482709	
29195500	-0.929777656313601	-76.3804146880593	-60.0691104483787	-145.120817195701	-59.8190411656451	-143.187142574466	-1.03481132363165	-74.3582383003425	
29445000	-0.890138577526568	-78.9567971344467	-62.2308317950123	-172.720167176865	-61.6839069332675	-169.443062126423	-0.86356830573421	-76.6022827904927	
29694500	-0.6706434800856	-79.7787063373461	-64.3304132904722	151.290829375158	-63.4093465425964	149.897891414485	-0.553245217283292	-77.8219694187455	
29944000	-0.534900657155565	-78.565244894482	-67.5614149203206	125.846317862167	-66.3344846387464	126.537020493704	-0.297063030900943	-77.6867741054419	
30193500	-0.581147185885607	-76.6084605245653	-71.6148013275786	101.494293922405	-69.6612613172587	94.2559887032074	-0.327629808919291	-77.1891613719211	
30443000	-0.770316012272835	-75.6009238610391	-76.6182907477856	-141.654996611005	-78.045535640858	-134.25848642659	-0.643163756812174	-77.107047543293	
30692500	-0.981133798502299	-76.5260270261306	-75.4373690426781	172.752449486221	-82.8795597300742	110.970483329012	-0.904042254341041	-78.2517475822192	
30942000	-1.02470076336992	-78.9889898779766	-71.5199728223132	-178.038896361773	-80.7944515696944	-172.821743671428	-1.04484072978899	-80.7219807738893	
31191500	-0.78062000314097	-81.3078433400572	-67.9102243387032	147.801343442696	-69.6824590180733	155.833767444683	-0.899273488329628	-82.6990210685226	
31441000	-0.427915236995315	-82.155189100796	-64.7763096400737	114.002401301614	-64.6288595491135	112.568263703505	-0.649685850710008	-82.9923244727231	
31690500	-0.248091236074461	-81.6381830681892	-62.0959556338608	80.5293232457918	-61.812309492278	83.134740581936	-0.514574074335655	-81.8238241352835	
31940000	-0.349618650926415	-81.0169170610783	-61.1944486360233	48.9856377667895	-61.1112571901587	49.5301200317098	-0.627423917556298	-80.4539013302125	
32189500	-0.680056587446667	-81.3416156411513	-61.3011763207698	7.31289498282273	-61.5523603191494	6.80457351624977	-0.905165082825382	-80.1402564277014	
32439000	-0.990795701567489	-83.2264158174711	-60.928433608567	-23.361334927297	-62.4675254022492	-25.6378972732415	-1.11451243681485	-81.4908880097963	
32688500	-1.04225428877072	-85.7088782682632	-61.6580650362367	-56.7512744844058	-61.0527435119286	-63.8004952452975	-1.08527659808118	-83.690437481312	
32938000	-0.845172530423836	-87.1333005030649	-62.2425201377761	-100.638851674719	-61.7965543757619	-100.803848918771	-0.789951064811085	-85.5374595146938	
33187500	-0.593075028939365	-86.8234531044766	-63.056771568229	-138.770736336103	-63.3056855074574	-139.772879561491	-0.453178320328425	-85.8281867090521	
33437000	-0.507384446206321	-85.4412364810415	-63.6848386102197	-179.527595313823	-63.424642158431	179.28277043087	-0.333570085275342	-85.1864796496762	
