!Keysight Technologies N9923A: A.12.45
!Date: Tuesday, 05 August 2025 19:13:33
!Timezone: (UTC+08:00) Kuala Lumpur, Singapore
!Model: N9923A
!Serial: MY61181427
!GPS Latitude: 
!GPS Longitude: 
!GPS TimeStamp: 0001-01-01 00:00:00Z
!GPS Seconds Since Last Read: 0
!CHECKSUM:1815702957
!Correction: S11(ON U)S21(ON U)S12(ON U)S22(ON U)
!S2P File: Measurements:S11,S21,S12,S22:
# Hz S DB R 50
2000000	-0.0639520956210495	-4.08256858551727	-69.8155255011703	82.3600921372352	-69.2650380452847	79.6400418447551	-0.0711576905912169	-3.96230801335705	
2249500	-0.341202101808121	-4.96341079399469	-66.5279380045355	69.9304358488445	-65.1956856473117	51.7546081391357	-0.353263666154388	-4.98087890885217	
2499000	-0.464046113712345	-6.82006584229839	-65.2744589763745	-18.7823378724018	-64.2800691919798	-16.0573286380803	-0.498098178518266	-6.40790223964278	
2748500	-0.331478193493577	-8.70992848110482	-68.91257689746	-7.07827808709476	-70.2740569050207	-23.8118056132975	-0.321949086271358	-8.3729655870298	
2998000	-0.047954823109647	-9.28512282306527	-65.1288951714064	-69.4895815441632	-66.4601235285764	-64.604462153976	-0.0349759908222749	-9.35652259785075	
3247500	0.150875480040246	-9.25742470231929	-68.09331721317	-102.151456471326	-67.3997664484686	-100.566912981546	0.140459595551019	-9.31216455160249	
3497000	0.0925870116409254	-9.02482006707136	-64.8877432921471	-121.709414003587	-64.0866641854458	-119.412558339561	0.0813229127261958	-9.02410982862799	
3746500	-0.22617132938877	-9.17323014125751	-59.2298721699557	172.426135032032	-59.1893439984648	176.08831751813	-0.17532199731994	-9.26538022014644	
3996000	-0.440410199151747	-10.4964088469222	-69.5682634834967	111.554776688857	-68.8336051122459	109.411709193377	-0.418653972051439	-10.5682049460602	
4245500	-0.462691312778803	-12.6910864898246	-81.2421117019497	-168.746892715049	-76.992167453044	-132.793603562938	-0.46829805362374	-12.5976065722007	
4495000	-0.239988197315271	-14.3811847789784	-58.5550876932752	175.464111073136	-58.2987088792658	174.128386173926	-0.347810224953735	-13.6165975320652	
4744500	0.00792391938836345	-14.8202978551789	-51.7212647786269	94.6967721530994	-51.688397814125	93.8007528812768	0.0132758992747423	-13.3759655586171	
4994000	0.0766179082903638	-13.4707415787533	-50.1881066201154	-10.0455910736044	-50.0033864721767	-10.1604473156471	0.151403264925192	-13.1109753924006	
5243500	0.0196156158302068	-12.9798084539893	-56.9169970407275	-68.0776037832097	-56.7012333476676	-68.7702840374122	0.0220522342300226	-12.9396727319084	
5493000	-0.267826444462685	-13.5371609536079	-60.0755176118105	-94.7455811146926	-60.3302840911614	-89.3453433575104	-0.269296600549236	-13.7180361703979	
5742500	-0.484026954028468	-15.3241448581465	-57.8502244440893	-100.493102217855	-58.2820528690927	-107.602476690896	-0.466884019167734	-15.5973121542185	
5992000	-0.44447575152751	-17.5931063901948	-54.3417827035536	-141.247801922574	-54.2526316438682	-141.650935145939	-0.417547054093003	-17.8620074339348	
6241500	-0.24271920155382	-18.8695228136801	-47.6181371863532	156.698235106346	-47.5019419669731	156.020573272643	-0.208784119110713	-19.1883190629233	
6491000	0.0199330305830208	-18.2802058523466	-45.758379769373	51.3139452511584	-45.7414021171696	49.1488972511869	-0.0543949360073762	-18.8484834696555	
6740500	0.110528899841363	-17.8399989337597	-53.7851324717915	-37.15070250441	-53.7165731501348	-41.9780346511202	0.0644263796879359	-17.4534055123585	
6990000	-0.0972059627890167	-17.9631695181352	-61.5770377401353	-79.5984847363739	-62.27929081443	-88.9971408506619	-0.0902350536346416	-17.4337497316815	
7239500	-0.4273823961158	-19.1547566525046	-73.4372737300743	173.57729494951	-69.1239377712658	147.298387774806	-0.361271472981119	-18.6093125480711	
7489000	-0.576490586398283	-21.1849575052329	-54.1892201121081	34.9836054985091	-52.8424197346549	29.6696926237518	-0.558738817990754	-20.9821644354045	
7738500	-0.42375725787001	-23.1778366572874	-48.880446724149	-71.5103109061062	-48.7797671124164	-74.2831003361971	-0.450544822522551	-21.9024321534271	
7988000	-0.153292265389485	-24.1635088500931	-49.3347403266853	-127.308832469836	-49.047687453077	-126.667856350897	-0.0863022286308991	-22.9061994871613	
8237500	-0.0376560396911475	-23.18940037789	-47.1612542760127	175.789540451809	-47.0610172768577	173.463591382371	0.126848617755147	-22.9253135766313	
8487000	0.0171325576963872	-21.7917826135864	-48.569201701498	114.538971811322	-48.5456722643512	113.257395387405	0.0660053006833329	-22.6472391957541	
8736500	-0.194001439646026	-21.9757822318549	-49.5895924389108	74.8861991909899	-49.4753184290872	73.0531383869032	-0.233385721287692	-23.0376780625088	
8986000	-0.474293390034733	-23.5787388893556	-47.9209640570479	30.198807408876	-47.8416525710168	28.8502707154109	-0.601951281018479	-24.4200136822606	
9235500	-0.566019711416869	-26.1121948028451	-46.1737019918065	-31.133676603247	-45.9640862544924	-32.5450709196788	-0.71018284963995	-25.6205989674416	
9485000	-0.430686934553241	-28.0538541850648	-45.741002578803	-99.181758624571	-45.65001379637	-100.815612301886	-0.409564723818049	-26.7092393157757	
9734500	-0.199236521942593	-27.6919716526321	-46.8318909119324	-175.963595267681	-46.8164529978529	-177.570096815404	-0.0515884012427631	-27.0821750001779	
9984000	0.0487401043352263	-26.7481963519137	-50.8117219083447	121.888378137363	-50.7898922018301	120.642956073779	0.112952969968612	-26.6520957424791	
10233500	-0.0316588400278045	-26.5692407500497	-54.1940560785049	80.0383076545302	-54.1256391238527	76.9157217845014	-0.000652938659869112	-26.3586137178247	
10483000	-0.355603603965371	-27.4040845395255	-55.6667885710713	37.0348279477399	-55.5334578667582	33.8164231185507	-0.307355700422488	-27.0571349126804	
10732500	-0.628477097963264	-29.2285426118596	-57.7174881461509	-5.77053415702623	-57.7768060666687	-12.8982082747364	-0.551797461175319	-29.1310431469686	
10982000	-0.599343649061268	-31.6353100898887	-58.6966836995483	-33.8619622878213	-59.1807468838727	-40.6540258913902	-0.565377361633076	-31.6247030531062	
11231500	-0.388764847491813	-32.9378253648745	-57.9173533036975	-83.0577704575852	-58.9011242479057	-82.3456853874214	-0.386162257609642	-32.9503509633766	
11481000	-0.126612871074343	-32.2341470009348	-57.2026477817028	-154.717445194665	-58.2320942417983	-156.165999585069	-0.156049851263371	-32.2184724530067	
11730500	0.00239542561666898	-31.047424339727	-61.2589106476675	132.551016133248	-62.3222709468624	136.468544058578	-0.0354277637884717	-30.8986818002583	
11980000	-0.156787452108881	-30.6371377434033	-65.9667799863437	79.8667093672372	-66.9421953214051	75.6281104507294	-0.158651391322679	-30.4556582911943	
12229500	-0.467443698263443	-31.6721191837553	-68.8931333204411	45.4966185656003	-67.6048447237403	42.1262586155874	-0.424038991662347	-31.4217032429089	
12479000	-0.662989835758236	-33.9539776542733	-63.570554892642	17.3279338951347	-64.3759851880055	15.976817548436	-0.567469843922723	-33.66338669914	
12728500	-0.578112582395803	-36.2600037120944	-59.4455863377576	-16.5573214006928	-60.1184946941796	-17.467601000002	-0.47061013468549	-35.991886707338	
12978000	-0.311597045778016	-37.021534412504	-54.7687058778632	-62.528502542069	-54.9495828488444	-62.6678656439002	-0.215317792946116	-37.2623069118759	
13227500	-0.0721557482733165	-36.2619228318268	-50.9583732947616	-118.184478544898	-50.9390549846134	-118.509081284536	-0.0959593546383482	-37.0299127419438	
13477000	-0.0613210257086418	-35.4193591778565	-48.5339754972264	-176.97096516943	-48.5992503359695	-178.318132902628	-0.217346508934321	-35.8254055438928	
13726500	-0.303200608619969	-35.5638904530685	-47.7959083586208	126.643697340972	-47.8448031032853	125.984359360062	-0.444961084411199	-34.9833672058852	
13976000	-0.617242300027624	-37.2116762146962	-47.284642353877	76.4777714723248	-47.203718928577	74.7289390439102	-0.644799856465893	-36.112189671048	
14225500	-0.757753979974475	-39.7620227404304	-45.1469699634818	25.8611338205537	-45.1680139997915	24.9452021832299	-0.661979913572843	-38.5136354554012	
14475000	-0.612566229123437	-41.1562723465623	-42.5734399716201	-39.9506053882822	-42.608996771723	-40.4434518489064	-0.445708172338093	-40.4891075259405	
14724500	-0.213923282663573	-41.1748604358756	-43.0499268284862	-116.166134364854	-43.0763559632312	-116.515827330769	-0.128073105221896	-40.9827054521178	
14974000	-0.0697570119943761	-40.6054420759434	-44.9823382707191	-179.92358265874	-44.9834106866033	179.314196467559	0.0277218112104928	-40.6639015991028	
15223500	-0.193637816559693	-39.391489179607	-47.2705982991434	126.189432552969	-47.3106054777836	125.869287320771	-0.161199917086291	-40.2406798330143	
15473000	-0.459265921407554	-39.4862044750132	-49.0826360685704	81.7100808015105	-48.9916813527697	81.3578004065393	-0.594979918261115	-40.3931839358712	
15722500	-0.70723359493312	-41.5240530068447	-50.193380865862	37.3454663912174	-49.9993888004792	37.9989319030774	-0.884589191505028	-41.1755957544299	
15972000	-0.71893246815455	-44.2338171826056	-51.1396899418957	-2.90095900939456	-50.7981189597679	-3.98372510518702	-0.780114874669323	-42.9912688329058	
16221500	-0.49872011474339	-45.8823027579247	-51.2809441426807	-43.3410565327777	-51.2885114989009	-44.9857119690863	-0.427513275106292	-44.5991096156558	
16471000	-0.247563331900005	-45.6096404592464	-51.6718399148258	-89.1109989769542	-51.7942801626301	-89.9270963310172	-0.0928004312167855	-44.9672807091953	
16720500	-0.141932962983439	-44.3615089757202	-52.6717075470426	-137.953468975817	-52.9773247715599	-139.854490879151	-0.0134586690827246	-44.5822548189965	
16970000	-0.29002246555915	-43.6883912737027	-54.1133354564297	173.547644252621	-54.2365371256413	173.239890538875	-0.267136097941702	-44.3220378059336	
17219500	-0.603859268723499	-44.6231280637112	-56.1387246673796	122.490397391592	-56.524036902656	121.460944074463	-0.685913157713254	-44.9281809392149	
17469000	-0.817141452447102	-47.0129774977755	-60.026625633806	61.5822837848319	-60.1787675252185	57.0927936304939	-0.921732831391118	-46.2516241904262	
17718500	-0.758861454007349	-49.3446138698917	-66.0238690640648	-5.6017890289093	-64.4429301609702	-3.90606258548734	-0.765392193338786	-48.0272914799793	
17968000	-0.484292808224969	-50.1368342557428	-78.1680259159991	-71.8383379334922	-76.6451181357133	-77.3262983826263	-0.397261833805379	-49.1347017472389	
18217500	-0.199472153152845	-49.2712875748545	-74.3867383134199	44.3303312752189	-77.6135691981563	67.9782895160139	-0.101642720223361	-48.9497682065958	
18467000	-0.146261670990482	-48.1398202196303	-71.0142851108982	6.7546843817205	-73.0988938622948	-9.52372248733075	-0.108969998589953	-48.2504347799528	
18716500	-0.378521277072726	-48.093094548962	-69.1493415373934	-44.1389630402858	-69.9692027146734	-46.1214313465016	-0.383054633546652	-48.1692024983769	
18966000	-0.712032430628464	-49.5673576874486	-64.9909631069923	-77.3553235396175	-65.3572525198843	-73.2788112293949	-0.73762391978311	-49.4021644755509	
19215500	-0.870248531347732	-52.1682696302401	-61.7744196978876	-113.508973890258	-62.7166765465598	-117.833304832192	-0.900743315299	-51.512844997752	
19465000	-0.744862707016545	-54.2356776802639	-59.7158534696195	-167.610657338195	-60.3839272088263	-166.225488824684	-0.738741620514759	-53.2098751712519	
19714500	-0.448714462685405	-54.4961997858269	-58.3559469640489	143.943060533432	-59.125972907425	145.826987874645	-0.382499942490284	-53.5648634443711	
19964000	-0.236829598647114	-53.3364416947425	-58.0263080778127	104.563347283918	-58.926623951516	103.050216753473	-0.148327634510464	-52.8009527274527	
20213500	-0.306054794578262	-52.3156617378065	-58.9587741524605	71.1315054298153	-59.3648363581667	72.5636910920758	-0.205591479865753	-51.9585836626674	
20463000	-0.626680743988612	-52.6120794864798	-58.8350162609033	43.7614197333944	-58.9874013647871	49.1459593394428	-0.493546219699901	-52.1005443245549	
20712500	-0.964130147405181	-54.4560294448063	-57.3919258946036	12.4210057804583	-56.9553236046373	16.0676966505219	-0.782577262119331	-53.8771745585204	
20962000	-1.05102571140645	-56.8161025532567	-55.2016064808336	-29.6079120107481	-55.1204252895374	-27.6719543143676	-0.82909673977028	-56.3460789829325	
21211500	-0.793991651748522	-58.0913771936053	-55.57772706566	-72.3639045732041	-55.0521414251573	-72.5731105460194	-0.620046852552756	-58.1093302426189	
21461000	-0.418647666868953	-57.6765194345115	-55.0782700472953	-112.321030280535	-54.7444294322774	-110.498011601531	-0.338104220909663	-58.1341380827687	
21710500	-0.229945972987039	-56.4378963685919	-53.962647278344	-161.868091197496	-53.6984093580353	-158.807449099306	-0.237957893788146	-56.9926958723236	
21960000	-0.36377766880676	-55.7704290117193	-53.7934262150997	145.845926379778	-53.4687273705875	147.485417594442	-0.386641411959948	-55.9435615139669	
22209500	-0.714411887548229	-56.5001262741013	-53.866412934225	91.5674271403933	-53.764688223082	92.0733499779565	-0.691046507915453	-56.2660709310502	
22459000	-1.00389936152505	-58.7004721133555	-53.6037607912986	35.9792307570176	-53.4813467060154	33.8140245017477	-0.878811659455521	-58.2383900951736	
22708500	-0.968002947453575	-60.9450808240607	-53.4979812055883	-24.9680463593018	-53.0843980132989	-24.0072040850971	-0.791587949879386	-60.6437057047141	
22958000	-0.620700629549895	-61.8921659068162	-54.6014208011535	-83.8817206193089	-54.3010844303225	-83.0646022085181	-0.484735681285111	-62.0713791827482	
23207500	-0.292873245145223	-61.5468059927079	-56.922373864457	-138.693872180864	-56.7966725498686	-140.331317848426	-0.217906232553818	-61.9178837724687	
23457000	-0.27636930543257	-60.4306438974133	-62.5512050016332	174.500769969023	-61.4394136645159	174.681154656022	-0.214649986524815	-61.0601226375009	
23706500	-0.535915146372892	-59.5439453393384	-64.7562191346714	-163.806805992167	-63.7926665899125	-165.619220622454	-0.490778088289506	-60.6653340853624	
23956000	-0.84558534136536	-60.3664704018217	-60.2124049425996	172.83970996206	-59.651385976754	176.846172719316	-0.864043863082473	-61.5215458441861	
24205500	-0.989197744296242	-62.8868698764001	-58.6702320984833	132.72394865334	-58.6079558765146	133.128690325001	-1.02400274826137	-63.6367605369209	
24455000	-0.823990019452324	-65.2012125180856	-58.3840171094404	90.4947541909824	-58.7948831910764	89.4385485371981	-0.844718627737325	-65.49950428403	
24704500	-0.471424349347967	-65.8918133152591	-60.375143647634	61.4334837684205	-60.1948094956327	59.9372708788918	-0.462711313364491	-65.8658805789938	
24954000	-0.200832881368597	-65.0749747099198	-60.4856350138773	37.8693944599	-59.9731501989669	36.2631350601107	-0.216907782543055	-65.0989359903928	
25203500	-0.210005674452524	-64.1451287217055	-60.7582486669406	8.49426466917642	-59.6929741799709	9.05781452286709	-0.272000782309416	-64.2258216136064	
25453000	-0.498357973047652	-64.0856981621053	-60.6598749949672	-25.026701373833	-60.6313210386621	-20.929140041245	-0.579536441773229	-64.154452451415	
25702500	-0.827384401949224	-65.7636317728099	-60.97128675655	-64.3268150339369	-59.9637518315758	-59.9632123220306	-0.916795483276208	-65.8464938434783	
25952000	-0.909822264617901	-68.5283838159771	-60.5514157362445	-96.3924406024079	-60.3416723988431	-98.9570574171324	-1.01936124070345	-68.4327776028095	
26201500	-0.698742514691536	-70.5221576792323	-61.1549850887381	-152.06870553491	-60.8416042386788	-144.534984541606	-0.790135071559941	-70.3994872014916	
26451000	-0.375092526379961	-70.6019399367999	-61.1487881026097	139.936415000951	-61.0584839344857	136.521151129775	-0.470548730620377	-70.6674026815505	
26700500	-0.228623906834379	-69.4414801022419	-61.0942676436053	69.4475541493523	-61.0215067023696	70.0918637271494	-0.314773027632851	-69.4275863224268	
26950000	-0.371074602837328	-68.357906548997	-60.893860304185	8.12347136490347	-60.6212596555161	8.90741282564885	-0.42934396991985	-68.289842771624	
27199500	-0.72210019397569	-68.7689020302174	-59.983930271155	-45.669016926773	-60.4076349675612	-46.7054751929873	-0.74962535016961	-68.3418760265289	
27449000	-1.00021889553792	-70.8337073102822	-59.9831356197791	-84.5208999760517	-60.5173379061921	-86.9738909178612	-0.987926656062487	-70.2459587488065	
27698500	-0.990835712541078	-73.4243928150157	-60.3424610964663	-114.475406551203	-60.4216209462579	-112.826007200288	-0.946652654305743	-72.7886776973594	
27948000	-0.677472394324262	-74.8096983739367	-60.590828384281	-140.024867038384	-60.4533066270543	-138.311360611633	-0.652313789455104	-74.4690270800779	
28197500	-0.337906843821347	-74.3182324982828	-59.6440758739322	-171.442281343886	-59.716034400897	-171.499216397564	-0.355776488691258	-74.288762145433	
28447000	-0.248156208929486	-73.0641062877339	-59.2471162124837	161.440655612774	-58.9198836847755	160.084138774364	-0.3080606010203	-73.2092724044685	
28696500	-0.464389562985893	-72.4127521659404	-58.2760216645484	129.396334120307	-58.1517919346542	128.352675363799	-0.546058462272187	-72.3481548414615	
28946000	-0.823758642954555	-73.2988886777256	-58.0744918183831	95.8669882873794	-57.7414493653645	95.7601531715679	-0.910966862969611	-72.9300408149591	
29195500	-1.03980522081906	-75.7240874274808	-58.786682644373	55.1519452585129	-58.4268984151375	58.0482279024593	-1.09874404089268	-75.1219095500233	
29445000	-0.934509505412428	-78.2564429349756	-59.24883642448	17.5166746598395	-59.082160664745	16.1454961727261	-0.935915564589282	-77.4252641151129	
29694500	-0.588402794685505	-79.0430664841038	-61.1256093054438	-18.8716413646043	-62.0940533441394	-21.5030865605008	-0.591159246382282	-78.4187690226572	
29944000	-0.33377500842004	-78.0629796786753	-64.3555048736403	-55.4245152820903	-64.7343578313835	-56.4387177028968	-0.298812458257306	-77.8271670828675	
30193500	-0.358877952034011	-76.6624363917241	-72.5763233980007	-113.225534479666	-74.3169590584397	-106.431102800112	-0.315993978443193	-76.829863633702	
30443000	-0.64245937759442	-76.1849285897714	-88.720590474886	87.0884698571935	-84.7510132282558	-105.029027155716	-0.620083468786511	-76.4993318223312	
30692500	-0.98507752766907	-77.4866353759509	-73.2088308807162	-13.6547800644597	-74.8148308801306	2.71870677052194	-0.964230838554135	-77.8482772662708	
30942000	-1.11407134902977	-80.1540783287496	-69.0049433154055	-49.4090681219058	-70.4180518628629	-41.8142989764189	-1.09989352594802	-80.3603255595814	
31191500	-0.875084692029989	-82.4089678021922	-68.5667846131742	-85.1011350406785	-69.6182925242999	-92.5717393335997	-0.882538802894178	-82.4717400164696	
31441000	-0.482558846236465	-82.9017689243204	-73.9838237622457	-145.480363713058	-75.5674704487344	-113.214532518325	-0.538214483081437	-82.7838867787773	
31690500	-0.269776562963432	-81.9006553503917	-86.2777248758525	-147.750055189859	-83.3909479214664	-113.5713941404	-0.338063652462686	-81.6231087954631	
31940000	-0.370362297993228	-80.8209597400055	-75.4064064228266	-65.4369344383042	-75.1562467580976	-81.4383279248093	-0.445515041102442	-80.3939624986849	
32189500	-0.725715370116809	-80.861263401464	-67.0647183761918	-99.9869309021335	-66.4261989036296	-105.995254769169	-0.781813380586518	-80.4037642969453	
32439000	-1.05631373562052	-82.6965710574764	-63.1027922828918	-130.714311437115	-64.3037294271328	-141.435757575343	-1.07023443858481	-82.2309329837343	
32688500	-1.07894324053318	-85.289367530635	-61.6104508704127	-167.059896544217	-62.6241851978923	-168.757295154471	-1.08826459301124	-84.8903543185413	
32938000	-0.809329641728137	-86.7897159456585	-61.4151347858859	154.053848038212	-61.1105527781725	145.502947493284	-0.800189723874746	-86.8723690570992	
33187500	-0.482322471653408	-86.4715104903642	-61.3939328254724	102.200470448884	-60.767698449598	105.790374905477	-0.466187015877396	-86.8700949003031	
33437000	-0.362475500183898	-85.1163767514084	-61.7656475939992	62.4871234594853	-60.9959920215294	65.3115316622422	-0.36510318951387	-85.6663852888627	
