!Keysight Technologies N9923A: A.12.45
!Date: Tuesday, 05 August 2025 17:55:34
!Timezone: (UTC+08:00) Kuala Lumpur, Singapore
!Model: N9923A
!Serial: MY61181427
!GPS Latitude: 
!GPS Longitude: 
!GPS TimeStamp: 0001-01-01 00:00:00Z
!GPS Seconds Since Last Read: 0
!CHECKSUM:0766029363
!Correction: S11(ON U)S21(ON U)S12(ON U)S22(ON U)
!S2P File: Measurements:S11,S21,S12,S22:
# Hz S DB R 50
2000000	-0.0647134784866756	-4.80655310243695	-75.5304555209963	54.366542722035	-81.7201117333738	79.4390360705474	-0.067230130035528	-4.8186244364274	
2249500	-0.227290066614533	-5.68250093918229	-75.9921829556039	53.9915213315466	-75.1120599792494	41.7288119769501	-0.223685218998845	-5.69508065375667	
2499000	-0.299247607039616	-7.08055264830774	-61.1649317861912	41.5945179905183	-62.5709728502752	32.7904070081441	-0.300288328009535	-7.07007721091246	
2748500	-0.21323170882769	-8.36974287394437	-61.3382562876021	-66.8758320714189	-61.4985734951238	-59.9500225406485	-0.224884752053846	-8.23584313636952	
2998000	-0.0441392128760726	-9.12707391742951	-65.3265324704791	177.981921406959	-66.9620231226884	-174.749954046498	-0.0673574503460768	-8.5887570864066	
3247500	0.0651755811521054	-9.28665848244767	-77.1102518952407	-88.6661591540072	-76.9260102181883	-151.387077503114	0.0588385013710016	-8.91029096131296	
3497000	0.030856343732847	-9.29737131112676	-72.211060712108	-123.503897267151	-69.7645853732319	-118.346407105331	0.0215009437456809	-8.99891569658518	
3746500	-0.132644426563485	-9.68270518634434	-64.4228789234983	174.749680356201	-65.8485500375506	175.942879530228	-0.13633862126033	-9.41922934359295	
3996000	-0.294378582799365	-10.7764261023018	-63.751854387173	-171.640611925924	-65.3883903230288	-166.181010047057	-0.275305499963194	-10.4923165108404	
4245500	-0.302316107542273	-12.1511359769261	-83.7313807462905	80.9053744732528	-74.1071528131997	98.1778016844629	-0.286912901327604	-11.9442597371424	
4495000	-0.169229714882909	-13.363691317978	-94.6495631174591	115.652353840456	-92.4188895766985	-155.663695865246	-0.159832020781675	-13.0669361951474	
4744500	-0.00232532355423359	-13.8565385042109	-77.6061422478497	-57.4354104572863	-79.3846562636457	-116.506524601136	0.00474921689647853	-13.5616790054883	
4994000	0.0675013247840277	-13.8853480216505	-74.7030891684958	-140.509396506022	-72.9128224073744	-116.520684546512	0.0682045122514688	-13.5742599106851	
5243500	-0.0201571755697517	-14.0156799822872	-68.2186901036755	-117.095947518974	-66.7516203840566	-113.409626776546	-0.0161184115996047	-13.6596664160171	
5493000	-0.212815386110781	-14.7647389970772	-60.8155861494484	-144.207671641492	-61.1581710162713	-143.168082595081	-0.190379259602744	-14.2918989431223	
5742500	-0.437079221613395	-15.934379071685	-52.3573086854254	168.068576137766	-52.6862317292604	165.434490779019	-0.302642748360917	-15.5290601219845	
5992000	-0.349611163913427	-16.9722034526476	-54.9239466413595	85.2661233223845	-54.9980909095393	88.4657759890383	-0.265503937059113	-16.9720566167237	
6241500	-0.106332643472086	-17.9452244489177	-59.5346361715935	79.3484804272734	-59.6736633219675	76.7874478453884	-0.136364833446818	-17.9316849481072	
6491000	0.0244358071433079	-18.3393295104902	-58.8843002875158	67.7677070094889	-58.9813605989378	64.357755376738	0.0321928067629808	-18.3753312304284	
6740500	0.0370967014692546	-18.37391504106	-68.3901735577287	-7.50328394691853	-68.9944389513025	-4.2623322342267	0.0286931563413456	-17.5946148336328	
6990000	-0.111029583534622	-18.4470518336016	-58.4585622539291	-3.25197427244701	-58.4581022981503	-5.4580406342331	-0.0756971324363859	-18.3077141830791	
7239500	-0.261049653246511	-19.2775816520714	-65.0900754101362	-51.3545186534603	-64.1657442937336	-44.9594014318955	-0.239912324708113	-19.2207709046472	
7489000	-0.330677741847768	-20.7927564298958	-69.6623746695489	-64.0853830497626	-69.851140269389	-36.6368785051532	-0.313812632746116	-20.7252198088122	
7738500	-0.247001607663114	-22.2224629607657	-71.9600379763325	-38.9720401316931	-71.8588788878244	-44.0938406665532	-0.235862799324209	-22.1061438787591	
7988000	-0.0692965037457274	-23.0010003813693	-79.4295317000289	-94.1227134304239	-81.7748461447919	-63.1050502041612	-0.0745066771424001	-23.0626495033763	
8237500	0.0559249485495146	-23.105163480045	-82.5464640561681	99.4160574817929	-95.7872026980779	9.66681870280663	0.0448203422579104	-22.4306640250339	
8487000	0.0261276044264517	-23.0642727874714	-74.0676833291677	60.5420903377347	-79.1660128879612	79.3781802386804	0.0263243573747239	-22.7005504300411	
8736500	-0.136785214872843	-23.4466891892311	-70.7525066389912	66.7159868486444	-70.7042963813319	58.1374848782885	-0.12594433286859	-23.1377050217797	
8986000	-0.301446701097449	-24.6283834038681	-65.140847239674	68.1365731018393	-66.6030499575743	62.8436677720701	-0.285573754202329	-24.3069288590649	
9235500	-0.338988698861599	-26.3731610607603	-60.4529497690308	45.2434339627166	-60.27836908986	51.0319489402711	-0.312438691732532	-25.842424402305	
9485000	-0.226469408744978	-27.8834773777619	-53.8644665464746	33.6597435490707	-54.0491195766105	30.2768697562061	-0.193161613264826	-27.2157874717538	
9734500	-0.112045225223688	-28.513887736011	-47.5208650467597	-3.38607685271765	-47.4059462293223	-3.57322822047653	-0.0297029796910528	-27.8144292761665	
9984000	-0.033470819499726	-27.96358668605	-45.9131440674009	-64.097579594443	-45.8498720932518	-63.2348429170725	0.0420567365710649	-27.7769963426668	
10233500	-0.0725219709231809	-28.1197636020856	-47.4519734519198	-93.8821583574904	-47.3055417305859	-93.2616716614045	-0.0285437586617219	-27.891852116109	
10483000	-0.250756361591777	-29.0749899829257	-47.5295009782105	-107.2281365243	-47.3944935613143	-106.384663077018	-0.209673382822817	-28.6186918749753	
10732500	-0.403162558282852	-30.9625516789405	-45.4145113381987	-118.137676996064	-45.3385518749429	-117.457091726109	-0.339875314684608	-30.2339483522396	
10982000	-0.455351724383822	-33.5304945626283	-41.282592174027	-130.492910453766	-41.2717962326261	-129.857176543647	-0.333678217568343	-32.2845903259472	
11231500	-0.669051170996865	-35.8378046668496	-34.1338252686692	-161.453506427493	-34.1889358775536	-160.765908600028	-0.245591074319671	-34.4769314262034	
11481000	-0.926589545845847	-31.0588370102192	-27.0196583832257	126.363213336789	-26.949240390351	126.877634478092	-0.524889736019566	-37.1958187477159	
11730500	-0.506554151793625	-29.9402711347025	-31.7644182076117	-2.53118637879605	-31.6621607283194	-3.00832835376238	-0.692507382095092	-27.1990583206238	
11980000	-0.438289510766886	-29.2917953290807	-40.3545408469532	-54.8864434134072	-40.5002455562784	-55.0249927405534	-0.131759384644302	-28.5119846377409	
12229500	-0.436182261005858	-30.3988460455129	-49.1577622043802	-81.7002631903538	-49.2588681060791	-80.1762278667647	-0.248112760763453	-30.8155474275695	
12479000	-0.464434818198808	-32.5428045486408	-57.9246930014169	-102.163620442688	-58.0820954177357	-102.024310965152	-0.328807876965637	-32.9076833923008	
12728500	-0.358878997158062	-34.6151119762439	-71.9062156034238	-154.399875385197	-73.8200790480616	-134.453416789052	-0.266664401360628	-34.7995714658523	
12978000	-0.165289363266707	-35.8426635337386	-61.5255297252166	76.7045477145817	-61.5676870994667	77.4910429765538	-0.0887302272481804	-35.9792628568673	
13227500	-0.0362346442133095	-36.173985749363	-52.9520573297167	45.8228834386323	-53.0618830086966	45.5534002686308	0.0268946389329847	-36.4572903095848	
13477000	-0.0980456665681364	-36.1004814402798	-41.0244911205247	-17.8390691568346	-41.0212583461414	-18.3269843498144	-0.178710931906434	-37.2933023793669	
13726500	-0.224907510785647	-36.4036871927884	-49.6241436218737	-179.844281037056	-49.5795943558318	-177.363055792217	-0.173513226587727	-35.5155431824106	
13976000	-0.360526461170254	-37.905425131379	-67.1028403861568	106.915884835607	-68.1402322853666	98.3844787005935	-0.30124384501375	-37.1498716826219	
14225500	-0.419832742004304	-40.5745623079327	-85.3033859134766	-136.841905386715	-77.6650536892596	-165.249325588609	-0.34116652867018	-38.9701482758132	
14475000	-0.633928615862992	-44.354624630664	-54.4972041295553	132.819028976017	-54.1685916860427	134.908774832859	-0.224102009091463	-40.5026631092075	
14724500	-0.64883039210591	-40.2966545331646	-46.1045606040267	25.5082164485601	-46.4437192811452	25.7528966153797	-0.0511309096625803	-41.2404009731941	
14974000	-0.456331936429945	-38.9224173617834	-44.7027461926163	-33.6865366996313	-44.7799088213171	-33.0193141847267	0.0369583190507321	-41.4031159080366	
15223500	-0.275072239907812	-38.6393937705694	-45.8762138322926	-75.3765411290507	-45.7242436388789	-74.071447719721	-0.0495833688077214	-41.4810217583709	
15473000	-0.385293346502265	-40.0060600960801	-46.1826317966804	-97.9896305202432	-46.0920390630432	-97.5658277583986	-0.236661022530637	-42.2588971586027	
15722500	-0.624836051941796	-42.7495088809021	-44.0895913018015	-118.230026662553	-44.0497449121575	-117.24909604477	-0.381094064216542	-43.8547206537556	
15972000	-1.45705561950648	-42.3062837006544	-39.6990785015601	176.471403784094	-39.686903213547	177.12561604115	-0.393725630357807	-45.8082056373045	
16221500	-0.324993730676255	-41.46312581467	-53.8028081673415	111.249406997657	-53.5485477555425	112.001609015926	-0.284117482566162	-47.3448029162892	
16471000	-0.0536910266324779	-43.2590875359817	-58.2623210417657	-151.628717528581	-58.1316941953215	-149.962588446431	-0.109004961810233	-47.7774206237268	
16720500	0.00701248591259353	-43.6957933949599	-50.6591660732738	-151.333723631374	-50.6617307016237	-148.162345482078	-0.11486037226124	-48.269487411346	
16970000	-0.119760922436865	-43.9708986667031	-45.6289025688041	-165.568875364944	-45.6869721241829	-164.201789622604	-0.323989476683324	-49.0905130620717	
17219500	-0.344887024763634	-44.8746487222442	-40.8696012241139	167.874336729836	-40.9135657947639	168.087999343247	-0.677067638916867	-50.9929548860923	
17469000	-0.473543001390681	-46.2833592319277	-37.7703571751921	124.961794797504	-37.7402271468846	125.770845504708	-1.0883681819802	-53.176686839599	
17718500	-0.385211395212687	-47.8707020900613	-37.2364729804796	82.6214731655152	-37.2385277307697	83.1116215391951	-1.37043004292218	-54.6836604819074	
17968000	-0.181167684903382	-49.0898501770416	-37.312520308304	46.4812745885214	-37.2402069073588	46.9506155380555	-1.66613095079271	-54.470484982285	
18217500	-0.026042433211296	-49.4325413811475	-39.2731259658068	-5.60313727545612	-39.2531594195356	-5.75532011587895	-1.55640355978477	-49.1461550556581	
18467000	-0.0290625624229549	-49.3173055567949	-39.7498731867216	5.08314099078104	-39.7015751193076	5.47006159677211	-2.09813379137206	-47.9273682495993	
18716500	-0.192243448317024	-49.7587386681757	-40.2321209588014	-27.0075313869245	-40.2128458898714	-26.1699761010494	-1.78665965319937	-42.7697412975545	
18966000	-0.389007300887676	-51.0020316178921	-40.4696361720306	-48.4649134466134	-40.3299611118604	-48.4662848600392	-1.57046197273472	-42.1579304845554	
19215500	-0.463830198798556	-52.9112820076516	-40.8099699194697	-72.7496372728341	-40.6936674545832	-71.9547783001974	-1.21897143799746	-43.3620288344037	
19465000	-0.378682176367585	-54.6634205121565	-40.8517024084514	-93.6512265357009	-40.8981439709234	-93.9112731891534	-0.826225508333312	-45.6311117330185	
19714500	-0.212978007530352	-55.5584271950939	-40.3555678305461	-119.855581868808	-40.4075889869471	-119.342054670963	-0.439133002538956	-47.3305247953225	
19964000	-0.127822893535263	-55.4182941093711	-40.5721617129013	-161.152133410299	-40.5815574151081	-160.624668930063	-0.211157439828216	-48.2438741500178	
20213500	-0.170483452744567	-55.6730984479876	-51.1802560420265	-177.794414427752	-50.8391209396654	-179.997936756807	-0.227748120359358	-48.3420016107363	
20463000	-0.50020482459483	-56.9588464574183	-43.0981889870476	-142.225634072288	-43.0368946858425	-142.782120652015	-0.324545137215791	-48.9231069403682	
20712500	-0.892523398237762	-57.9431163189765	-38.8509850531806	175.448380128278	-38.8331444376582	175.796641475779	-0.459652775033457	-50.5718140231337	
20962000	-0.908062530027658	-58.6040983321844	-39.0226111488884	129.486247358371	-39.1445489816268	129.325787036482	-0.473145911316373	-52.362895686735	
21211500	-0.687012956958224	-60.0967939877465	-41.199471562453	99.8381263660221	-41.2796498236484	99.9541397206429	-0.319889353673812	-53.8933660424238	
21461000	-0.505906983240943	-61.0019497838147	-42.598080704758	83.2559510172148	-42.6001884214273	83.3389960828249	-0.104847380001894	-54.6290500104764	
21710500	-0.59451311000048	-61.1120364657635	-38.9465192597534	77.9812368729958	-38.9241566298886	78.6722395547205	-0.047699764254862	-54.7700058718185	
21960000	-0.888514745158776	-61.5251434785142	-39.2801434846577	36.8712085179849	-39.2878405289472	37.2693478308663	-0.103498424868363	-54.7166097099866	
22209500	-1.46341126313118	-62.0300792911112	-38.6621500763406	9.54081201729242	-38.7074496623017	9.62262353236409	-0.287541804550476	-55.5135020486577	
22459000	-2.01766912614811	-61.2593755952153	-37.5399067242991	-24.2775882101598	-37.4246137606356	-23.6801904555941	-0.405001516515265	-57.1057494011651	
22708500	-1.88855619055602	-58.5832636531153	-36.8867258576797	-66.6973483831218	-36.861105544937	-66.0956386461891	-0.374917781256081	-58.8274747368969	
22958000	-1.12251532099443	-58.8285376373159	-38.4571256979505	-116.352082934113	-38.3481471749655	-115.470989218981	-0.202256308764528	-60.0092144339171	
23207500	-0.910934903910677	-60.4219409795339	-46.418174280135	-129.322764571933	-46.2842835343021	-128.662921751686	-0.0177198628556372	-60.4046646191422	
23457000	-1.21906009517899	-62.4052597921902	-41.5940454952889	-174.42787714593	-41.4806147324321	-173.390488058738	-0.0290186231057902	-60.5107073969558	
23706500	-1.40499007125763	-54.7638294929847	-39.970797481516	-135.378490764266	-39.8573034861049	-134.734960385292	-0.247753593069073	-60.9076708216464	
23956000	-1.14730494825903	-55.7971922612636	-36.532825069764	143.525326001269	-36.2661757859906	144.815478096776	-0.512861399300495	-60.8981941379219	
24205500	-1.00929515151701	-57.7049885873976	-39.9239848215998	87.1328387827131	-39.7170766989951	87.106809200275	-0.490963528700048	-62.2351084231217	
24455000	-0.76845413265739	-60.1120442431128	-43.6012918342733	48.351053134857	-43.3121381216014	48.4947477281719	-0.35010394272724	-63.9895907406688	
24704500	-0.510609705084785	-61.6572386061503	-46.9982586524573	16.683498526144	-46.680579886263	16.6175115593535	-0.124441386448807	-64.9522758193336	
24954000	-0.344288008589366	-61.8614828184708	-51.3619954041387	-14.9329161683143	-50.5844095258521	-12.1450056564378	0.0146858734141047	-65.1957207705701	
25203500	-0.327352418914133	-61.6298259789683	-56.3870424587929	-34.6126853140498	-55.6458113838113	-36.5527350718707	-0.0266168931222333	-65.4538130397303	
25453000	-0.453318277552793	-61.8442704784692	-61.1212752389531	-35.6934676895563	-61.9960548580001	-39.0131771862446	-0.217843699032233	-66.2800472061283	
25702500	-0.597079415132553	-63.1660858705398	-60.6399087979463	-22.768611990356	-61.1950755859224	-25.9942209180596	-0.493702538886779	-68.6299876311341	
25952000	-0.598001540314317	-65.1990307649749	-54.8430642107426	-49.2521379678383	-54.3425188345041	-53.3492874499437	-1.21718531975626	-70.5447505986386	
26201500	-0.434182845918864	-66.8272066911121	-61.9827608544157	-150.103073802561	-61.5261288519657	-146.512731447217	-0.526077179394182	-66.7814880237774	
26451000	-0.190594250358162	-67.4186728454943	-67.53369816678	116.5009609079	-72.0264251478246	109.155421113144	-0.110952779382788	-69.0074829935146	
26700500	-0.0705723592207598	-67.2994529781921	-63.8506091026384	42.6922327062668	-65.407497456292	47.913867353017	0.0113413501609334	-69.6605014276908	
26950000	-0.140873086603842	-67.0847124656337	-60.1004365740328	18.5726656598235	-60.8329392490361	16.3298746970707	-0.0700156174991776	-70.2577430346096	
27199500	-0.335581842222214	-67.7119133300018	-57.1959091434276	-11.9978614297051	-56.810599278653	-10.8643289837308	-0.312646189133538	-71.585431467244	
27449000	-0.483703281101068	-69.2553237209549	-52.4652810600215	-35.4401115782616	-52.7927390190522	-35.519881418746	-0.562604355975383	-74.3733588675964	
27698500	-0.480077655739867	-71.162082694297	-47.9427993190662	-81.972148940833	-47.7245686812164	-82.7603912644065	-1.0399263869775	-77.9474165953731	
27948000	-0.307368133509152	-72.5303726295677	-47.7945564067211	179.669074246838	-47.6783988530007	178.151326703543	-1.44728228376987	-70.7383311607723	
28197500	-0.118415793289271	-72.7642280893727	-61.3464682466137	75.3057246980258	-59.904842683288	78.7875005751308	-0.260808339501734	-71.2295044448429	
28447000	-0.0736923159638974	-72.4633664352563	-61.9890998688332	-61.7776131788832	-61.3311517169618	-60.4411158396328	-0.0529362546064455	-72.9705884215142	
28696500	-0.200547322988427	-72.496961607353	-56.5343592286131	-109.109490001849	-56.216405324322	-107.105632843344	-0.162660347717208	-74.2666620776041	
28946000	-0.392367043962202	-73.3993115874954	-53.3131339568949	-131.684646789788	-53.1142562165082	-133.906387132139	-0.403378179075355	-76.3945914556054	
29195500	-0.492265896306716	-75.1705356081259	-51.3364489527451	-159.012237358713	-50.8620833601955	-156.267905445701	-0.62289161695805	-79.711150504127	
29445000	-0.41366014018082	-77.1172335446063	-48.9541172899631	176.995022362552	-48.6727773567692	174.006963184586	-0.856208353146814	-83.3700322069518	
29694500	-0.185811590095561	-78.1502369994921	-45.9183831907964	142.265205071271	-45.7466011327446	139.480736932973	-1.51150668640718	-85.1304357111621	
29944000	-0.0332863539584339	-78.1930993986164	-45.161983057865	93.1468715148575	-45.1408972391251	93.6471969680159	-2.08776510224769	-77.0925394476034	
30193500	-0.0653535033800218	-77.990793466162	-47.4205794971261	52.4333499923706	-47.4252248253787	53.7860203430137	-1.34891293093596	-71.1986343045668	
30443000	-0.249484218453975	-78.3685742500244	-51.1875626638146	24.9519542600097	-51.0324816635964	22.9661850924309	-0.945450121804581	-71.0537640721726	
30692500	-0.482896707905388	-80.0047245735095	-58.3243701691638	21.6526609765572	-58.525009030458	17.7287622662689	-0.838871463228344	-72.9944422522787	
30942000	-0.842911432185933	-82.6621789422725	-47.2151278125571	69.6930583060598	-47.0837323539512	68.1420391398655	-0.802462711135738	-75.390397811322	
31191500	-0.826396390598678	-81.5478286761199	-43.2323242285595	-15.1932631529817	-43.0712247110614	-14.6678302567989	-0.557307112512266	-77.6025760635196	
31441000	-0.4414555048196	-81.7493148219708	-45.961166772073	-63.2616932031903	-45.8698924253986	-63.1492752765059	-0.286817183833441	-78.776655679137	
31690500	-0.240142234777475	-81.520860777172	-48.9059457126488	-99.556028260735	-48.6143000677974	-96.6091165111108	-0.111250236100066	-79.0050900326172	
31940000	-0.253472131318395	-81.4054782811872	-51.2743975314622	-120.697208657727	-51.3854841110091	-123.589659012658	-0.14909850305846	-79.2172905329491	
32189500	-0.439415842299837	-81.9787004086611	-53.6480203909266	-136.507653908638	-52.9654362741615	-140.855865610794	-0.339243226423781	-79.5757723698759	
32439000	-0.630915496807262	-83.5634213724965	-53.9336867828361	-162.513857400318	-53.8672242503062	-162.84665663672	-0.462670229939337	-81.2763836356239	
32688500	-0.67920439582095	-85.2350878668354	-54.7799357438152	162.040908487386	-54.5581112265788	162.600096979185	-0.465830530108702	-83.2339072667817	
32938000	-0.469483149803772	-85.755587178341	-58.0068971991633	109.859556614149	-57.7369784369618	101.887325651708	-0.298199545876232	-84.931809705779	
33187500	-0.155931332024697	-86.2433533337944	-66.8784812081401	55.5011541383479	-65.279450256094	54.8504711081353	-0.0894831786358552	-85.4995737127065	
33437000	-0.0536654048191244	-86.4046266404933	-78.3716026126034	87.1499771378244	-76.5110201727074	44.2759958637459	-0.0157481453434831	-85.4253434093505	
