!Keysight Technologies N9923A: A.12.45
!Date: Tuesday, 05 August 2025 18:09:35
!Timezone: (UTC+08:00) Kuala Lumpur, Singapore
!Model: N9923A
!Serial: MY61181427
!GPS Latitude: 
!GPS Longitude: 
!GPS TimeStamp: 0001-01-01 00:00:00Z
!GPS Seconds Since Last Read: 0
!CHECKSUM:1449823385
!Correction: S11(ON U)S21(ON U)S12(ON U)S22(ON U)
!S2P File: Measurements:S11,S21,S12,S22:
# Hz S DB R 50
2000000	-0.071481611561247	-4.86729891045998	-88.4397253863469	158.208974242736	-93.8093842032384	77.336522956392	-0.0819718038482301	-4.86748915259534	
2249500	-0.265992098578546	-5.78686754685728	-77.7389848911957	59.1189166581128	-79.5747300472826	43.1325667779501	-0.271191373524614	-5.78648296260995	
2499000	-0.350668500064297	-7.29916376658085	-62.9924352774088	-35.2664070411918	-62.8564729044742	-39.7863079361205	-0.36687791325382	-7.13565708736574	
2748500	-0.246927185951666	-8.75108727020746	-71.7617798663834	-97.3222055143318	-70.286643532918	-85.0555966796045	-0.253646341605225	-8.58126026382505	
2998000	-0.0465692370705922	-9.51963429028791	-70.2623767092233	-178.583051203371	-67.5897660054101	-178.876483031485	-0.0616076754188033	-9.22829838832308	
3247500	0.0793985295305269	-9.56021514784081	-75.3439047107092	-122.837869308475	-80.2965356160568	-122.685323200616	0.0746117295453117	-9.32636946857188	
3497000	0.0439127229406496	-9.46824122860566	-73.4265533547284	-113.566880875688	-73.2809267691656	-131.759513056593	0.0285673108976394	-9.27410451476042	
3746500	-0.147096107570291	-9.83508968569543	-68.4748332323493	-127.201036328468	-68.5492010371934	-127.892164524903	-0.156596003932542	-9.65952272899386	
3996000	-0.337595666114334	-10.9106533199608	-66.7449224444767	139.380197808318	-67.1099606459593	143.26436069179	-0.327481064538514	-10.8005013929843	
4245500	-0.349799077664489	-12.5210714079766	-82.340129456328	123.909748775319	-82.7243179507676	130.729173372322	-0.344037415556889	-12.4369523042962	
4495000	-0.193326250155113	-13.8633714472532	-85.084685487864	-64.2483338794886	-80.2959759479788	-90.1200954601818	-0.189412997139207	-13.6756564848183	
4744500	0.00229837136431878	-14.3707782146943	-71.7049911634008	-98.5967854947669	-72.1977077341589	-90.960705827874	0.0046683052015932	-14.1733865771782	
4994000	0.0761010336075557	-14.3893586941323	-58.5280091530186	-103.315309297361	-57.9718538107351	-104.075521255357	0.0191724849981604	-13.4504626375858	
5243500	-0.0935535199853809	-14.64226476812	-51.0483540380024	-147.87875865284	-51.2239700074052	-145.810622336573	-0.0195989456327946	-13.899825756608	
5493000	-0.330639989661167	-13.9826513638612	-48.299332528789	114.346121936698	-48.2583954132759	116.346786085481	-0.232799160168196	-14.4783238028721	
5742500	-0.387396037933388	-15.6688058098116	-52.1174629069404	79.7790064005494	-52.2806216388873	78.9250536220838	-0.362731788204408	-15.9328710264201	
5992000	-0.332964373319533	-17.5475670935106	-53.0579096752797	64.2964361269762	-53.0339605686498	62.9324725470481	-0.324747872869195	-17.6407450256375	
6241500	-0.148099927767506	-18.8717728618711	-51.5143045777117	49.9078333389971	-51.4777153966574	51.123831105257	-0.16117661109963	-18.7695046599256	
6491000	-0.0115110450922471	-19.5209777941542	-48.5961266051571	25.6336709041626	-48.6691994688345	25.7974567054817	-0.0017011982977642	-19.2595157366065	
6740500	-0.231268757871104	-19.9606728261413	-49.4395403662438	38.0325517394302	-49.3839434363642	37.907224427399	-0.0474812518933349	-18.9274642244192	
6990000	-0.389627518003682	-16.757866597061	-41.0997929942998	-41.1643988986442	-41.0064579518386	-40.8600540814325	-0.237951098322963	-19.2844319343414	
7239500	-0.375771606835277	-18.0013520514245	-42.2392324697978	-84.4146403133971	-42.1592487109954	-84.3074346201162	-0.591318327916878	-20.1610845498023	
7489000	-0.431560403512845	-20.0227019303117	-41.9274246352845	-126.024467308226	-41.876464912856	-126.110054350468	-0.778887090123913	-20.0787555591965	
7738500	-0.336635898911997	-21.6704349987362	-41.2388804712146	-143.198636450517	-41.1923331216451	-143.364243369989	-0.659207487344353	-21.6254280755625	
7988000	-0.115249876951504	-22.3680598685767	-42.8862364262046	152.577881722938	-42.8436223352802	152.579935698828	-0.302840117426597	-21.1998132718649	
8237500	0.0599440101478064	-22.402619687392	-46.8118559475134	120.568105071276	-46.7499513954718	120.140771156602	-0.0386171531589848	-21.2252478895495	
8487000	0.0380114336254432	-22.2849408770573	-49.6118574940303	102.935241116031	-49.533168984987	103.21919307141	-0.0189911415964117	-21.2088419714478	
8736500	-0.14907779848177	-22.6427410466063	-51.2351007395572	90.2122086069224	-51.2987160584638	91.0857535691213	-0.177392777446734	-21.6389157934901	
8986000	-0.345576236632193	-23.9258964319114	-51.6377212810189	79.9736281325587	-51.6169284652257	79.9610919332275	-0.3582312520066	-22.9343516273823	
9235500	-0.39134929714068	-25.8445740672927	-50.8128437978715	69.3902719693475	-50.7415574421126	68.5867466855724	-0.386983222499929	-24.7006882888813	
9485000	-0.262825445665662	-27.4877455718126	-48.3691078918189	53.9414276348056	-48.1519645597959	53.923873550386	-0.237677237872962	-26.2406296198143	
9734500	-0.135384617289053	-28.0845531567745	-44.4043998970673	21.6591521442556	-44.2686742505097	21.1767043279015	-0.0317864108942173	-26.8460605994387	
9984000	-0.0605277962009152	-26.9859630694021	-44.016060958904	-38.9931712573458	-43.973479428852	-38.9752700734073	0.0575409668832653	-26.639552793618	
10233500	-0.0691566821633604	-26.8269591132244	-47.7358972284784	-74.5805817310884	-47.5498853227568	-74.2199790698002	-0.0193820111063531	-26.5004300365088	
10483000	-0.265388323436156	-27.6590119959532	-49.7418502022119	-92.7844889869174	-49.6118456818878	-92.6914547927885	-0.227441166742457	-27.0577636418452	
10732500	-0.442765410271465	-29.412618689286	-49.7468019330814	-108.177784319392	-49.7461407395869	-107.928619725109	-0.379109006184665	-28.5717258774936	
10982000	-0.500683134184228	-31.5156935174244	-47.7736101499241	-132.921555830424	-47.6654081959704	-133.229618898849	-0.357750679642635	-30.4136306516869	
11231500	-0.438777384278074	-31.50413765704	-46.6460364304993	166.367162626642	-46.5733114612213	166.705836330896	-0.178624336565241	-31.710897171865	
11481000	-0.066146355689269	-31.1343137745346	-51.8304283755258	117.711140030264	-51.7654388445901	116.330082587576	0.0192909150196681	-32.048852789057	
11730500	0.0438076326093086	-31.1731572787046	-57.8815488898626	86.4091807945843	-57.9664899938482	84.5560398246578	0.0226947716931322	-32.0621709658172	
11980000	-0.0847000218174395	-31.4007390105733	-63.0963051662599	76.895623293416	-63.8554748850843	75.0576268980842	-0.0923447851189626	-31.7290585483498	
12229500	-0.304028660348313	-32.5655130324857	-70.0041479680529	63.7108979566444	-69.2229769745914	63.8631223801327	-0.308722907072147	-32.8215433459914	
12479000	-0.426784337351543	-34.5274606582207	-84.765471572333	7.7308008000205	-85.0111583704392	-13.2040969012729	-0.428995312841486	-34.7220541780997	
12728500	-0.340375966809245	-36.6109062598109	-67.3489923653433	-139.055374862293	-65.8061812706451	-132.79537645178	-0.367570568827244	-36.73761267775	
12978000	-0.152513178272077	-37.9108532725171	-55.9956707977825	-164.729199112009	-55.8261135580584	-164.104079254263	-0.198553209972125	-38.2024587806296	
13227500	-0.0873224973202202	-38.188396869871	-48.1493075242827	143.81983457856	-48.2354701107045	143.702461924572	-0.283376922721126	-39.0759849568455	
13477000	-0.210931905012191	-37.6062824358515	-40.401756107185	107.107629252773	-40.3400882046387	107.663637486628	-0.22862188212565	-37.6738984640583	
13726500	-0.440475545967334	-38.0428125393175	-36.3976813766146	37.7923234261142	-36.3398392862375	37.8120627810003	-0.701463340170613	-38.5916939551271	
13976000	-0.853257305840079	-39.6821942486201	-33.0314744484305	-37.4898297219418	-32.9169638218878	-37.4198084974313	-1.30361428763878	-37.4684904406333	
14225500	-1.2513628385245	-40.3705002700614	-32.2334579856998	-126.685014090236	-32.1178025743099	-126.808705802079	-1.13919381131151	-36.2842962313074	
14475000	-0.982370621662909	-38.2423949277679	-35.41051075985	134.959273918161	-35.3113233053898	134.745071758823	-0.748285067521192	-36.8757193227671	
14724500	-0.450331237102762	-38.9772219521888	-42.3019782267938	52.5428076105226	-42.1522845690858	52.7568842590634	-0.282019930567686	-37.6382944107519	
14974000	-0.296150673107005	-38.5143018486127	-50.0797294504216	-14.2116679341719	-49.7665786746478	-14.4872604961788	-0.0381426653386637	-38.0964754936185	
15223500	-0.255644162619727	-37.9542928401615	-58.2598620041846	-58.1569595540166	-57.7571569960622	-58.536128280259	-0.0696831453331319	-38.352320058993	
15473000	-0.383367655267725	-38.6147182706303	-63.473446318989	-77.1203590362317	-62.7581571222435	-76.4811146567496	-0.26095506603691	-39.2633695504904	
15722500	-0.52135252961263	-40.5151628682791	-63.5610436371844	-75.3667908774562	-63.6340241977093	-78.4504248444431	-0.423596827726286	-41.1015151990683	
15972000	-0.488404082190089	-42.7823164882291	-61.797113626582	-85.4427042114308	-61.1871253674392	-82.8012700959687	-0.421508121104866	-43.3829981782703	
16221500	-0.280077085269086	-44.4215195333398	-56.8647463187201	-105.957014488533	-57.1048811759571	-105.37751962659	-0.287645188507291	-45.4721063357866	
16471000	-0.0698443131624469	-45.0272454861476	-50.7801390111906	175.249786623325	-50.6172930138249	175.608030295408	-0.600506322272526	-44.693780567272	
16720500	-0.0251813404132704	-45.0001005381786	-64.4313315397292	103.064274033716	-65.5927744602498	102.492093487256	-0.0318989243363479	-43.0741810181799	
16970000	-0.207118592768096	-45.2590787702546	-65.7734025403201	-172.958731576849	-65.599415865898	-172.695180793954	-0.104072800617097	-43.8032650217009	
17219500	-0.59964163781926	-46.8451724553418	-69.0095272677983	137.938493304789	-66.6715341942822	142.743016697407	-0.329285066275343	-45.2235927827306	
17469000	-1.10157267438654	-46.0698345133024	-52.7438385809992	-146.741334509463	-52.6742086155485	-144.476193164624	-0.497210356395154	-47.474115117635	
17718500	-0.664973723880774	-46.643677007607	-48.6153668344164	139.902449116879	-48.4096939249221	139.41823769406	-0.519664989892901	-50.0349031282237	
17968000	-0.296993342250347	-48.259678676144	-45.7254905652105	78.1312655731431	-45.4837817001684	78.2553134898805	-0.608778623608284	-51.4846741866111	
18217500	-0.0669952786751864	-48.7856657536786	-46.5989766615306	-19.2842460483452	-46.211618897148	-19.7699381289861	-0.474652651164624	-47.5904183521654	
18467000	-0.0674088654728811	-48.6914801988517	-52.1637752430655	-132.15252762963	-52.1324141412074	-131.726995974214	-0.080708138659051	-48.41469160583	
18716500	-0.269950372360364	-49.1660241061962	-48.5548131245412	132.987525968254	-48.4885704241252	132.672849279885	-0.406076850399432	-50.5317616452105	
18966000	-0.539552532505113	-50.6195666126598	-43.8461894673175	64.4001490985724	-43.6052549247621	63.1458781517896	-1.09533226739259	-51.548400563054	
19215500	-0.705122282562383	-52.7488788900112	-41.7995932124863	0.760859976785953	-41.5517973651546	-0.635674612857271	-1.34669996070127	-49.9045259374957	
19465000	-0.692899393455184	-54.0952610972613	-42.0718016649319	-53.360665375446	-41.8501187034242	-56.1531673830331	-0.943342359375224	-49.9566274223891	
19714500	-0.474096443911282	-53.8101779252074	-43.6335924497389	-101.401121758818	-43.4852822590796	-104.91841071086	-0.487968422785375	-50.6451004454278	
19964000	-0.22928277723478	-52.932038126949	-46.4519843162301	-141.17243327179	-46.4439372178	-144.269650674795	-0.211522201195464	-50.7348382068535	
20213500	-0.217840454567184	-52.6240677038777	-49.6937648189028	-169.659519367187	-49.6974854513295	-172.45535973541	-0.190674754992487	-50.6509684005886	
20463000	-0.414570556984038	-53.3456420772102	-52.4912063116121	171.512194690485	-52.6931933698726	168.278385668932	-0.353510103407676	-51.1291496758869	
20712500	-0.630267133557744	-55.1406555079383	-54.9232482502005	160.152685523393	-55.583835105059	154.880891362615	-0.523346796129719	-52.6719834149893	
20962000	-0.691821702848376	-57.3314837620353	-57.195572428754	161.330317273053	-57.877592545086	159.43556774674	-0.525511564140028	-54.6738096822156	
21211500	-0.528956318390276	-58.8264992808829	-53.0369345210162	156.263490600943	-53.4766558111408	157.348596790324	-0.354842007828622	-56.3545297823523	
21461000	-0.278772443295027	-59.2654962120335	-50.5417027618964	114.680920379427	-51.0889936367586	115.009766806583	-0.11974336120669	-57.0068552837633	
21710500	-0.198426728409272	-59.7112270055862	-51.1914795777474	72.9022826674609	-51.5008526723145	72.4887948063714	-0.0318666170117827	-57.1299209849267	
21960000	-0.585650594844565	-60.8729783094334	-52.0364494944027	-9.16335187736187	-52.1966799493073	-9.90222767726664	-0.245336006273448	-57.6126097015937	
22209500	-1.38722654677395	-60.8255247973451	-51.1221776562112	111.233815911653	-50.9772962150065	112.066912139879	-0.493082703592264	-56.8882312464632	
22459000	-1.74984429482634	-58.1825098154896	-50.9506074527609	26.4177666117988	-50.7625120747219	27.777555478573	-0.568365591459438	-58.9086979201952	
22708500	-1.32831947309255	-57.7073229022757	-52.7179309332909	-24.7441284133583	-52.6964781304296	-24.4332535948974	-0.520147428785682	-61.0490475897214	
22958000	-0.786896618508198	-58.6606129345033	-54.988458095353	-77.25701329536	-54.5273147512476	-76.9625007513405	-0.333712825169002	-62.4807741587717	
23207500	-0.396024119601566	-59.0032493634422	-55.6474492802737	-150.504845164619	-55.2455452487765	-149.50186278269	-0.180665148462469	-62.6447066536029	
23457000	-0.272614277550561	-58.8005274618055	-54.1866292930927	121.788330466553	-53.6413955977402	122.029779800861	-0.176820994997585	-62.1440552073973	
23706500	-0.390733989694926	-58.9589963074378	-53.9851235638186	50.4035859608108	-54.1883309883779	52.1824794812616	-0.330970691477698	-62.4811142963775	
23956000	-0.59072371482025	-60.2358203336795	-55.8828920818096	3.63959836181374	-55.7831040503327	6.728669646619	-0.608600362664003	-64.004379757278	
24205500	-0.677651326603748	-62.530991139028	-58.5280698762922	-19.4957585460261	-57.9928571640792	-19.2842066057881	-0.791769165476663	-66.4291935910329	
24455000	-0.546842894819708	-64.7372391812045	-54.3194876544155	-33.0179169153679	-54.0615628168052	-31.3612716743354	-0.777544476052815	-68.3730839972809	
24704500	-0.303438419266934	-66.0571912835751	-54.8167125477985	-75.4781635397872	-54.6436308336253	-75.3553896946953	-0.681015349145288	-69.2950198190986	
24954000	-0.160571457360514	-66.4883549341119	-59.2619197397321	-150.881324620203	-59.3053008451249	-149.717795245682	-0.73724041299203	-68.6700699339722	
25203500	-0.3179540617943	-67.043901027748	-52.611743316228	55.9821926655667	-52.5292842920816	53.5723830987445	-0.973016483895879	-67.4624070484006	
25453000	-0.975863701177788	-67.05886448932	-42.0101294475526	-29.7969588086954	-41.8937032592341	-29.1981332507032	-1.38970082143572	-66.4522579123553	
25702500	-1.11563540731511	-64.5777117129583	-40.1640025892102	-116.438548060551	-39.9897871423394	-116.520471764709	-1.74975781538528	-65.7541286297855	
25952000	-0.854385237499663	-66.9609158545273	-42.8411708801704	-168.416151105208	-42.6358434538078	-169.871507201407	-1.74008595887136	-65.5518519591094	
26201500	-0.598252439075842	-69.2889281007099	-45.5477370748203	156.486597540659	-45.4020132706721	155.787775203251	-1.34938674582553	-65.6801604913118	
26451000	-0.332833835186658	-70.1700669842197	-47.7858951048783	133.134965019903	-47.7905047567524	132.173819363294	-0.847947945960606	-65.6476107463613	
26700500	-0.253889260519183	-70.0456969019732	-49.1703931496641	118.802354462323	-49.084419255702	118.674067088764	-0.519482582135542	-65.151955716038	
26950000	-0.42884770066841	-69.678280543429	-49.3134384165167	105.282297451987	-49.3989458665036	105.520133964215	-0.458989650988595	-64.9607710642151	
27199500	-0.76023910934572	-70.0571668127765	-48.5800638319496	88.9046362588224	-48.9452861856934	89.9900235051794	-0.60653240759445	-65.5822240032735	
27449000	-0.997689384914216	-71.2699288254963	-48.1823029043405	68.4757512375336	-48.1978251276645	69.6436965206554	-0.722523623016294	-67.4821055845201	
27698500	-0.982137269197874	-72.8798299101898	-47.5192621508932	46.8523857636099	-47.6908305962566	47.6785277323365	-0.665440783260145	-69.7850042202485	
27948000	-0.731387347446125	-74.0353578104011	-47.3422834081096	25.7845258681004	-47.2853776847125	26.0116333453176	-0.433891311982447	-71.5817988611345	
28197500	-0.48702103688011	-74.0637968061254	-47.0780208008185	4.62035730907419	-46.9807752991221	4.94126314347142	-0.184882252430324	-72.0639069600432	
28447000	-0.467905221070029	-73.466070587519	-46.6886748084534	-16.9945755756725	-46.7365505625402	-16.6316443357029	-0.108307677056841	-71.9460829937266	
28696500	-0.687622088027564	-73.0473639843506	-46.2545756869312	-39.4477132196485	-46.2886701946795	-39.1022664195397	-0.242304790430001	-71.9828078086569	
28946000	-0.978145082339609	-73.3966885461341	-45.8148309943594	-62.937877835439	-45.8637615026109	-62.1222698413517	-0.483497389261024	-73.1039844961021	
29195500	-1.09948916487691	-74.7033933391011	-45.3107609167035	-85.4227679547414	-45.3532711207409	-84.0822334576309	-0.656135637212789	-75.5020114300923	
29445000	-0.937350210067283	-76.3414846833485	-46.6298339450644	-117.809375685696	-46.4825896485192	-116.091276079719	-0.661264532028024	-76.2036745421451	
29694500	-0.578495643036617	-77.1209103637297	-46.8400272443087	-128.427629972407	-46.6294095956722	-127.662164148599	-0.321959250722632	-77.7339072224466	
29944000	-0.312692853963006	-76.8946855520205	-46.3344705936245	-146.351228592299	-46.2247344372694	-145.592231982612	-0.119970900968388	-78.07997722193	
30193500	-0.285437452402365	-76.4591640620279	-45.4515517999984	-164.177275385021	-45.3746741505731	-164.770880464984	-0.158551862315174	-78.1505793695337	
30443000	-0.466259320422913	-76.7354860143505	-44.2158791605594	176.149684698991	-44.0391711148198	176.513543408072	-0.42072465364099	-78.7386815623953	
30692500	-0.715155772208761	-78.3689509402835	-42.0931692183535	152.156855097163	-42.0215537947502	151.63321610762	-0.765265988210669	-80.6583168895583	
30942000	-0.88922800337809	-81.0969336112176	-40.5751761596814	102.504984121704	-40.5233714238735	102.713036937358	-1.20888779224639	-81.4137007645182	
31191500	-0.94156141410986	-83.1987875459412	-42.6863519089867	77.9329643489701	-42.5545695954179	77.2172323213658	-0.667028316483523	-82.789304977896	
31441000	-0.83225438993813	-82.1094329335751	-45.1827971464885	35.1245938339055	-44.8535483049975	34.1964334554033	-0.471367583096101	-84.599881957117	
31690500	-0.499805710204486	-80.4852701901768	-49.5066971497558	46.6532081514197	-49.6874964325886	46.0538533500464	-0.483765131431072	-84.8057123722453	
31940000	-0.449205486397641	-80.0479698340887	-45.9055865446308	39.2492308932207	-45.8971181192033	38.4098829875623	-0.817624536276446	-84.6862429991129	
32189500	-0.636915688553354	-80.5090187524823	-44.1419826602086	8.68775499815178	-44.0700396526464	7.50572655495644	-1.45425996715682	-84.2525138000574	
32439000	-0.823634998621366	-82.2828166261282	-44.731663089324	-24.670096452362	-44.4667496565474	-25.9592642900522	-1.74546627474278	-81.9954218299955	
32688500	-0.802020185608315	-84.6282089895984	-43.6561107601447	-41.6586249904741	-43.5910942762404	-42.4429025050949	-1.83583614793641	-85.2468816583196	
32938000	-0.59732686955865	-86.2912954187867	-44.2824903845237	-75.4259191822126	-44.301061372696	-77.2076662671323	-1.54384290643023	-82.8018003514713	
33187500	-0.369453635363287	-86.7194867509886	-45.6819912814848	-100.092886312448	-45.8433232856492	-101.314504854351	-0.91086966565081	-81.9768018175567	
33437000	-0.313863521065375	-86.349738515639	-46.8181115089268	-120.049433785139	-46.959700770638	-121.059162569348	-0.556834260865776	-81.5128481137779	
