!Keysight Technologies N9923A: A.12.45
!Date: Tuesday, 05 August 2025 18:54:52
!Timezone: (UTC+08:00) Kuala Lumpur, Singapore
!Model: N9923A
!Serial: MY61181427
!GPS Latitude: 
!GPS Longitude: 
!GPS TimeStamp: 0001-01-01 00:00:00Z
!GPS Seconds Since Last Read: 0
!CHECKSUM:0049930075
!Correction: S11(ON U)S21(ON U)S12(ON U)S22(ON U)
!S2P File: Measurements:S11,S21,S12,S22:
# Hz S DB R 50
2000000	-0.061657898610588	-4.28693423482718	-77.4606557101418	-109.988885622536	-73.4275546483898	-99.1411391769486	-0.0777313999399108	-4.26365429079984	
2249500	-0.32070193031654	-5.16869862887443	-68.3136109535319	-124.918735626346	-69.3092070961325	-123.130398030641	-0.32634327108219	-5.09608376526653	
2499000	-0.437791107889346	-6.95760407389541	-58.0358317212733	-145.609688232713	-58.49657008519	-144.466100165342	-0.445237761017307	-6.81305625420992	
2748500	-0.30870219898242	-8.54686032004367	-48.1400399856706	95.8565431699795	-48.3550146804816	94.6423367944544	-0.32909499745432	-8.16941586990743	
2998000	-0.0485116816631012	-9.23323531099327	-49.9758441445717	-11.5061233178935	-50.2978204143748	-13.0259265547968	-0.0585505327638775	-8.9721176305695	
3247500	0.146371743078144	-9.13845054007909	-53.4201433738495	-25.1653676424329	-53.4055346447653	-26.1401490722609	0.0682103722809327	-9.03134658601464	
3497000	0.0980935488095509	-8.91313225587407	-55.708589180059	-94.9827661166564	-55.6863143900117	-95.0456204542803	0.0591065058125959	-8.54901908626848	
3746500	-0.190301715865373	-9.36699115800328	-52.8679420033577	-138.485321553128	-52.8381649546268	-139.390195214807	-0.180829340025395	-9.00728575889295	
3996000	-0.418491667058829	-10.3698109117548	-60.8765433569067	119.567237288448	-61.7655356400207	117.594314963193	-0.405294954538983	-10.4019869788162	
4245500	-0.434220975003288	-12.5477396562413	-73.5837116711675	93.4570400291875	-74.0974148103999	87.8152847161583	-0.427062034797627	-12.447230633665	
4495000	-0.225003592961925	-14.232230937948	-78.2379558988658	-115.722830010708	-75.8884345673641	-106.555064669203	-0.218179707856549	-13.9332168128421	
4744500	0.0149637146565647	-14.781150081697	-60.5051396086119	-133.985993462874	-60.5401438490552	-134.598068247293	0.0416979108562009	-14.3593917809966	
4994000	0.0438162416798186	-13.5694269228041	-50.1493380755866	137.746616694616	-50.0313522308621	137.157613800424	0.135941666462597	-13.9982148605188	
5243500	0.0134553795301758	-13.1826319369581	-52.4616364503941	76.9453857235966	-52.4652018419953	77.8410599542305	-0.00891520796156983	-13.7565625664935	
5493000	-0.256594677496024	-13.8034177565777	-50.9599590772103	41.9089249828216	-50.851219140553	42.9440850702083	-0.33602136580485	-14.4155284632627	
5742500	-0.460723364394099	-15.5045913661042	-47.2312365561691	-10.8406908841143	-47.3232807375702	-12.2379388560186	-0.639368447901949	-15.4899604478542	
5992000	-0.414832284214706	-17.5792266561924	-47.3575913368745	-75.38786302472	-47.3627079222654	-75.7667615221475	-0.504845442749702	-16.4707624466445	
6241500	-0.206883893231639	-18.8906388996575	-47.2562128313478	-129.90538445971	-47.3087486637529	-130.342177807943	-0.190208319302103	-17.6957273445055	
6491000	0.000622425603132602	-18.1998084859903	-49.262520870652	158.561772112767	-49.1690932589092	158.659524617624	0.0732366022700015	-17.9341749300578	
6740500	0.10393073683762	-17.745167568493	-54.3249903687008	118.944343328702	-54.6413784734397	117.592428875721	0.118405322768526	-17.6666545458034	
6990000	-0.0887065710132071	-17.8921199113654	-57.2720579167528	95.811613641712	-57.3954389781195	95.7415061233664	-0.0764178875874826	-17.7643817839018	
7239500	-0.400565256686494	-19.0834120340678	-58.2234512379847	77.0561262937072	-58.2111536143606	77.4521980311712	-0.345783924265449	-18.9164913655697	
7489000	-0.547907481279907	-21.0078560101392	-57.6533098070439	56.9447349414964	-58.0559836997551	55.0068534486098	-0.471416501698798	-21.0453821978104	
7738500	-0.398718394097404	-22.9775909584003	-55.2862393357127	40.9804114047516	-55.2997636003379	43.1234452310034	-0.349560104296386	-23.0456347795638	
7988000	-0.143274703292267	-24.0160355524875	-49.9339457262492	19.3433442519763	-49.8562167383949	19.4519839432926	-0.105995285988698	-24.0967375039032	
8237500	-0.0474784610957906	-23.2969884243569	-42.8692021531682	-40.4721401462161	-42.8016534685867	-41.7850267697122	-0.0103893357445276	-23.9697734871542	
8487000	-0.00653806070284381	-21.9988299200508	-41.4869697985628	-126.912589160873	-41.4566404628463	-127.478643302647	-0.185843916955975	-22.7974256634653	
8736500	-0.2063026130798	-22.1796940351338	-44.5063507828272	162.818123405819	-44.5128130323259	163.473844481288	-0.384436360673102	-21.582699217701	
8986000	-0.453510768949005	-23.71652899134	-48.280706291871	118.406037513551	-48.3982236553575	116.948107048433	-0.513188211847689	-22.7251310055876	
9235500	-0.521191395610173	-26.1647405713047	-50.3873308117628	85.3346419544101	-50.2964273759561	84.3228016920637	-0.502109969024057	-24.9486048804955	
9485000	-0.387493490724286	-28.1111884739486	-49.8658084397722	46.4454473695861	-49.6998374882148	47.240234480499	-0.282831289317757	-26.8575395795388	
9734500	-0.209976384709423	-27.8656046288026	-49.3444715455399	-12.1346997885689	-49.4595363973834	-12.905527648049	0.000528310779805171	-27.5504395967533	
9984000	0.0129774241442138	-26.6237485456568	-51.9393976382906	-77.1691804519763	-51.9534083240309	-76.9156472359427	0.114600954154635	-27.4476698144403	
10233500	-0.038131521459673	-26.3493028283504	-53.2542905727059	-141.339857736794	-53.2831193690106	-140.926740472181	-0.0806327095837572	-27.5714084881501	
10483000	-0.311188725937426	-27.1735323512827	-53.4821002408924	102.276671471964	-53.3840509129108	102.444914891395	-0.577615347215361	-26.8162281023617	
10732500	-0.555041467344739	-29.3141693211601	-58.9070906445192	-20.4306797511121	-58.180375320983	-19.6461027490672	-0.548506559177796	-28.1617373387635	
10982000	-0.598123364239	-31.7928763942923	-58.1494719184276	-101.254154648317	-57.8294402792484	-101.254842248364	-0.469980404703843	-30.8802032010572	
11231500	-0.426138033757207	-32.5220853303073	-55.9008615777438	178.883316414751	-55.5936563848247	178.470809811717	-0.233474594795115	-32.7133371352296	
11481000	-0.0944218694214702	-31.95097277532	-54.1973091767139	111.170835577936	-54.2399033022228	109.271283126796	-0.0433259017877595	-33.1848393547695	
11730500	0.00633743398890542	-31.3432769623579	-53.4186587566315	39.6364786073413	-53.2959053982646	39.4270523897448	-0.163582727955287	-32.4100512937128	
11980000	-0.194010097118034	-30.9569784574084	-55.2363749245981	-41.1500657696249	-54.8510429898382	-42.0187270217751	-0.406772403977641	-30.5421467042543	
12229500	-0.47783727867052	-31.7778020944151	-60.9292266246417	-99.6171285798452	-60.9237449734295	-95.108120571846	-0.538437966082951	-30.6981782380005	
12479000	-0.631782382503897	-33.9776107922811	-65.5377667997555	-114.774919836598	-64.9850992834709	-114.773906348909	-0.590430685812415	-32.8204877882069	
12728500	-0.543590683482971	-36.2731139481146	-64.6373237933174	-157.619225936676	-64.2215453396485	-152.352453626372	-0.43947336614412	-35.1307401398975	
12978000	-0.300663632252749	-37.0588668516016	-62.3947784725121	148.476891448314	-62.146528067984	147.10204953318	-0.138632629544786	-36.4653830810154	
13227500	-0.0906354120982374	-36.2408250825718	-59.4348971396795	78.3041265549697	-60.0531340628856	77.9972588160312	0.0489001791696769	-36.664481525449	
13477000	-0.0746518252584871	-35.2975422642117	-56.8152130213775	6.03649969405495	-56.8723498757537	3.89007550919523	-0.0574644487684668	-36.6230424224413	
13726500	-0.288221909282377	-35.4179179791047	-52.8040835846523	-74.2931976670047	-53.0332950520214	-75.9538670138983	-0.504240360087676	-36.5313206259398	
13976000	-0.580274982286918	-37.1047280187319	-51.0747131531904	-176.925938930424	-51.1866931726886	-178.178961491398	-0.782153420737138	-35.8590911995294	
14225500	-0.73661756421763	-39.6502034882544	-51.6938971227497	73.5932155692384	-51.6568566318785	71.8507640699514	-0.650116219740458	-38.0884645191455	
14475000	-0.595549072778265	-40.8106556777795	-48.903682238396	-52.4125879858465	-48.8782997829273	-54.2659877859375	-0.418088490611948	-40.4168291656307	
14724500	-0.213560438356401	-41.2130484429159	-48.1015592296357	-153.047242573602	-47.8890348457758	-154.194604095695	-0.128958859960275	-41.2578350209298	
14974000	-0.097516192641908	-40.6711579471587	-47.570416061414	133.137197834674	-47.6009523219067	131.767317088874	-0.0156153846184823	-41.1362754720721	
15223500	-0.212355051964778	-39.5583162472911	-48.594437770902	66.2184110705641	-48.6238425894715	64.5050754750825	-0.242052961176488	-40.6508992946301	
15473000	-0.460994294227501	-39.6513807680939	-51.0004702668658	1.69138037763071	-51.1043822367158	1.38757539184568	-0.663054865034002	-40.2535737295126	
15722500	-0.685885694206264	-41.5672364664379	-55.3007632751694	-55.0676448365177	-55.5905132154364	-53.7800210420683	-0.864253755968526	-40.7126095251536	
15972000	-0.689425047651326	-44.1212399518875	-61.3118497045932	-98.4471121394243	-61.7438234379719	-104.686067029832	-0.736478234666763	-42.530157046971	
16221500	-0.479382817344398	-45.6877136489502	-73.7585101245355	-146.398823826108	-71.1232778689263	-138.565927007006	-0.402750277043746	-44.1221282058103	
16471000	-0.245757014307609	-45.4659909153472	-73.9831777932951	-25.7457172883441	-77.7408288697099	-29.1967634295278	-0.0843807388570024	-44.5341574954106	
16720500	-0.150326320593424	-44.2965773698102	-66.0577277917654	-67.8539757872757	-66.3229457912233	-73.0152010204306	0.00796631587503064	-44.2355084400284	
16970000	-0.291074180342046	-43.6699579443288	-62.4138750064051	-114.747163780909	-62.3773310266882	-115.835402036052	-0.188143967057932	-44.1906725569001	
17219500	-0.583943964772252	-44.6020258183644	-59.7718198745848	-154.03940201584	-59.6548909201752	-157.145205874856	-0.530529444182081	-45.3959175133265	
17469000	-0.782163018191755	-46.9138062316788	-56.2917896441406	160.821795618829	-56.1758611266897	158.576527279031	-0.791685590896583	-47.6751959667899	
17718500	-0.728320312304553	-49.1918016060047	-52.7291965351968	109.140899510051	-52.6825801162764	108.931812604597	-0.809577525605412	-49.8058655362253	
17968000	-0.47580515808682	-50.0341362884766	-49.6960944866522	50.1305719492967	-49.7689294461425	48.9725046145569	-0.618398032912241	-50.1697107473257	
18217500	-0.218613091993218	-49.2567174891589	-48.7890457289357	-10.9110776035792	-48.6819420348935	-11.1439785904528	-0.349857709482246	-48.7625432118123	
18467000	-0.170376556329903	-48.1576666040892	-49.3854343890808	-64.2174222302818	-49.4581415578677	-65.235015097239	-0.249869320421184	-47.2780152365197	
18716500	-0.379974622212627	-48.1426349343701	-50.5111745411744	-107.931940611853	-50.4529082231212	-107.213985010038	-0.382841643817941	-46.9911672539285	
18966000	-0.690393961394562	-49.5919456761709	-50.6269635643288	-141.404759760889	-50.6749957737044	-140.986036166031	-0.615501483208379	-48.3291133412224	
19215500	-0.831775947394445	-52.0856564874546	-50.3758207455036	-177.904799892469	-50.3779854839395	-177.379310939792	-0.698261650133104	-50.8562531181154	
19465000	-0.710156391947113	-54.0761533313609	-49.5474432921091	142.246652641513	-49.6515493216406	142.567261843203	-0.540715313358879	-53.3120677614027	
19714500	-0.431183629958682	-54.3736423399756	-48.6555310813648	96.2570996004763	-48.6035761472036	96.4606842265834	-0.279783590147831	-54.4735762562723	
19964000	-0.238001403073465	-53.3052932929175	-48.1443173728536	46.0209247277837	-48.1317425225238	44.7257431565937	-0.197498332796658	-54.1989541471798	
20213500	-0.309670991307794	-52.3157282553154	-48.5391928732382	-17.2386861473284	-48.4764607150953	-18.0002319974398	-0.423273614428026	-52.8953664931213	
20463000	-0.604503507063287	-52.5918763410872	-51.6932244215444	-89.1058712127783	-51.6143242397254	-89.7044781112507	-0.664552303635779	-51.7143770066089	
20712500	-0.912691006679109	-54.4262868478776	-57.8616243073345	-153.111755229355	-57.9847965901217	-155.154670822513	-0.785252143883305	-53.2142241241196	
20962000	-1.00269733970596	-56.7867764254329	-74.6990779945434	99.4726601184187	-76.5669919180969	110.508312325964	-0.75115322813382	-55.9709716505567	
21211500	-0.781097710626701	-58.0352524304462	-64.9970529196638	-83.0492132886274	-64.9660954344178	-88.0778164666092	-0.547993166205927	-58.1392153737435	
21461000	-0.437115746553016	-57.6271183374436	-60.3614744772826	-115.61763558714	-60.4051208988728	-118.726046797905	-0.325943026548207	-58.5705808755247	
21710500	-0.257812156877527	-56.4268215539176	-53.7883889977319	-169.099481376561	-53.7474040557375	-168.026227819396	-0.312320332745691	-57.4837851321144	
21960000	-0.376359145129699	-55.8532771942723	-50.5608428946878	132.974167960142	-50.3684568446359	133.658542878456	-0.482457813386444	-56.0480775373756	
22209500	-0.69914616698986	-56.6231042866891	-48.8980843229118	77.7459861307064	-48.7813286579943	78.460208619198	-0.73644284605398	-56.0498937549476	
22459000	-0.96441180248746	-58.7873136058873	-47.4599760305954	25.6484449229556	-47.5987714519424	25.8987429433047	-0.871750342501987	-57.9167445165386	
22708500	-0.928659859717383	-60.9378477221233	-46.4824037990197	-27.5440898999542	-46.3393778113559	-27.7787794392957	-0.769593867197265	-60.3061060179147	
22958000	-0.601687487906803	-61.8308894408255	-46.1468778894316	-82.0894099924543	-46.1963158035124	-82.9142336306464	-0.473095245671539	-61.7934647264843	
23207500	-0.295567279440089	-61.4914496919031	-46.3736273867747	-140.083570417474	-46.4606398095388	-139.862888886052	-0.214587745255897	-61.7603325211041	
23457000	-0.284639722578227	-60.4121861295482	-47.1786001633022	157.876809117545	-47.4768180415417	157.912142270863	-0.200735294819473	-61.0580119342365	
23706500	-0.530918273538605	-59.5860328800176	-49.3955246318768	92.9292142890711	-49.7483754374746	92.4957031456979	-0.449746522017702	-60.914606766692	
23956000	-0.826260367601676	-60.4305941195427	-52.65118098243	24.5336208250372	-52.974573277458	25.301028395347	-0.822303828127733	-62.0539049387507	
24205500	-0.963552795929792	-62.8682794571758	-54.8802075450009	-41.7352993462546	-54.9888259386313	-40.990205795879	-1.03609126453384	-64.2045220862877	
24455000	-0.815023879470342	-65.1178243427636	-55.6037914263239	-111.45819427733	-55.8087565722901	-109.788957976145	-0.927363311499664	-65.7066350401495	
24704500	-0.491016550553874	-65.8126962790477	-55.3502496698612	-177.939272532419	-55.6346709936621	-177.056556594054	-0.548285907770367	-65.6472655078531	
24954000	-0.240122411059145	-65.0459530771321	-54.86516432464	117.363804572079	-55.1557551941853	117.517833702708	-0.250714613073226	-64.9312452542328	
25203500	-0.244854862008813	-64.1737429048588	-55.4549337415387	56.6734969085289	-55.8456455261587	56.0452847734627	-0.285230376601186	-64.5300473616712	
25453000	-0.508652321741245	-64.1751898300039	-57.6925536968839	-6.4965166054027	-58.4042625654677	-8.17226424919221	-0.655086545374297	-64.4914648288367	
25702500	-0.80663712780879	-65.8406191723674	-59.9599201601861	-54.7730365158233	-59.8584658591874	-52.2899012244908	-0.971504880428445	-65.3652766633975	
25952000	-0.876745815446277	-68.5233229245845	-61.2017611859802	-91.760587123645	-60.127696829648	-88.6156558755638	-0.978688273376897	-67.5004695886062	
26201500	-0.676404810278356	-70.417000008406	-60.4520162725613	-133.087254768481	-59.3178029108847	-134.661525271238	-0.688072750803219	-69.5754778175117	
26451000	-0.376012955613743	-70.4754907539783	-58.8661257058299	174.056079278923	-58.9480702335738	174.9367103585	-0.352285836689289	-70.3791469590484	
26700500	-0.242339177413877	-69.3187153141485	-57.185299835318	125.234962660759	-57.4839003133075	122.848983493439	-0.22210760237228	-69.810778040265	
26950000	-0.377974797740919	-68.2586177110604	-57.1723389774957	82.9221787703667	-56.832897915074	78.7805371697815	-0.391713139174036	-69.2345219053331	
27199500	-0.707117993853419	-68.6824894951887	-56.7055955550626	34.2013995456834	-56.3987504261174	35.2859542416003	-0.780857633109138	-69.4750842182784	
27449000	-0.970005446520992	-70.7407216554996	-56.4845183856191	-9.33001661453029	-56.6176821355011	-5.57435756172591	-1.08311946198213	-71.1259101245109	
27698500	-0.966565550166772	-73.2983394801609	-56.9803213120711	-49.5003143042401	-56.4654518031785	-45.6638992777268	-1.08346974822557	-73.0916523799244	
27948000	-0.682180540989805	-74.6697107214175	-57.9315349161293	-88.7685355344369	-57.627764789535	-88.9814884575619	-0.787968578953018	-74.1778850480914	
28197500	-0.367665833663778	-74.1855617264767	-58.6798312859665	-130.979230540718	-58.8541153665633	-128.613335833699	-0.443454184531434	-73.6812353501877	
28447000	-0.282301276128296	-72.9504197210812	-60.1709267693655	-172.161634620607	-59.4031765789573	-168.750825047449	-0.318783812351052	-72.6169289481039	
28696500	-0.478932602015566	-72.3434883671534	-61.1365740526316	153.381715761552	-61.0437927693777	153.050109364668	-0.478051535892136	-72.0006911145248	
28946000	-0.807855517682743	-73.26823010796	-62.5597103602894	113.824514231316	-62.7336750849728	111.282923174145	-0.787949077146047	-72.9079954920753	
29195500	-1.00205752975124	-75.6709505490123	-62.9439331586106	67.2746274137297	-63.5161879236465	70.1394269502778	-0.96771909698118	-75.3536407744346	
29445000	-0.895460304195765	-78.1680795592818	-61.1948357550225	15.6613254347278	-62.0111262692042	22.7399812771842	-0.854284819313929	-77.8808332223517	
29694500	-0.566187907865427	-78.9535547575344	-60.048090980865	-33.8595124428575	-60.543663871011	-31.3622808205524	-0.593212225286911	-79.0596258422228	
29944000	-0.329987142035601	-77.9995519689858	-59.1477470231639	-80.5285566893674	-59.0735253902687	-81.9193843873039	-0.389285483279551	-78.5380613451407	
30193500	-0.358217830440629	-76.6168708853605	-58.5388419496646	-132.445488099273	-58.0365404035948	-131.791204487937	-0.464641218345932	-77.3789370874475	
30443000	-0.62797246738999	-76.1459596603013	-57.7184686150099	-177.164924640466	-56.5855957454697	-178.999331766345	-0.771553168045631	-76.6672952151547	
30692500	-0.952460388300134	-77.4033633087513	-57.8472433627719	137.372567143228	-56.8800152759617	140.053525769009	-1.06787233562727	-77.5698524462497	
30942000	-1.07955954724599	-80.0239227662922	-58.4933393551264	95.7883466672916	-58.1178707970846	98.5202347660822	-1.13759310182476	-79.7527176896045	
31191500	-0.864316159679092	-82.2490378318949	-59.5009490379264	56.3232009277897	-59.5523495582409	55.8878946957658	-0.870646230951986	-81.8060731581865	
31441000	-0.499955898380503	-82.7331751964038	-60.6984932635789	19.2861529147366	-61.0326636591519	24.1455396656	-0.5000080525164	-82.351579507737	
31690500	-0.295818350948945	-81.7464016078238	-64.2763966972244	-18.0166149617168	-63.4732676925795	-13.9718233912754	-0.289656243719117	-81.6069812027251	
31940000	-0.380755728597512	-80.7037548757847	-67.7278952104873	-62.0089551942438	-66.6285235990599	-66.6119224639737	-0.402002599888407	-80.7848749023008	
32189500	-0.704245166650929	-80.7869838115167	-70.3917065829476	-102.954369130904	-69.0105812685709	-109.635648055464	-0.755712576777031	-81.0247740307743	
32439000	-1.00625107624349	-82.6621644926182	-73.9856745760174	-171.669587839491	-73.8793776845061	-148.256227312942	-1.07709931532012	-82.7806621042626	
32688500	-1.02210375378166	-85.2943007125186	-75.8879322847278	134.231599424067	-83.6935686937001	139.745426365632	-1.144333686466	-85.1060372613178	
32938000	-0.770858637724387	-86.8654343132549	-70.0399823022221	53.9825213655979	-70.7566917873159	60.7932313577364	-0.89459834925364	-86.6695889244934	
33187500	-0.467196212138775	-86.6410052282117	-69.1248624450953	33.3304662735154	-69.4085211661693	24.7640508378443	-0.559027538703807	-86.3968143806946	
33437000	-0.362115810350247	-85.3177497380184	-66.8989405791187	-10.5690697397419	-67.532679964787	-9.61748761166539	-0.414748519093695	-85.1789109325797	
