!Keysight Technologies N9923A: A.12.45
!Date: Tuesday, 05 August 2025 19:17:50
!Timezone: (UTC+08:00) Kuala Lumpur, Singapore
!Model: N9923A
!Serial: MY61181427
!GPS Latitude: 
!GPS Longitude: 
!GPS TimeStamp: 0001-01-01 00:00:00Z
!GPS Seconds Since Last Read: 0
!CHECKSUM:0661406246
!Correction: S11(ON U)S21(ON U)S12(ON U)S22(ON U)
!S2P File: Measurements:S11,S21,S12,S22:
# Hz S DB R 50
2000000	-0.0654630917194917	-4.0572969456057	-64.3290370386498	82.5096698955666	-64.607212684697	78.3581755195929	-0.0688322651432532	-3.91179086977413	
2249500	-0.348529484450212	-4.94485756015028	-60.8830219976673	45.9336643884988	-61.8043222085221	42.9841190298088	-0.370849088500125	-5.01610627521853	
2499000	-0.471643578764336	-6.81416973185195	-64.0603269593595	-49.9396766123199	-63.848632528691	-50.8916142078752	-0.473623540217332	-6.53474612667613	
2748500	-0.334980492517237	-8.7155646273679	-72.5614165274002	-63.509029930124	-71.3529941658662	-56.465505518256	-0.319318529433587	-8.59174211364428	
2998000	-0.048793370458187	-9.31142162194965	-69.2683756036486	-80.6856019360116	-69.0863474525651	-76.7855590297558	-0.0295418269472406	-9.542767574447	
3247500	0.156085796933956	-9.26375247911644	-67.8595545236857	-102.848524082023	-70.1534812081175	-110.725442111864	0.148923561371257	-9.41710535473113	
3497000	0.0940611752358886	-9.00979257968176	-63.9274255895144	-118.766044507746	-63.7323033638234	-120.210893499512	0.0899402754760001	-9.01043822865511	
3746500	-0.230920305904005	-9.1671465261353	-56.791803776071	170.011119707922	-56.8305441501386	170.195382130587	-0.170860278729299	-9.15036906830625	
3996000	-0.448413593482038	-10.4859313753297	-63.9254684118984	88.9005127309297	-63.3282338121716	85.5784185591996	-0.429037865672823	-10.4299702945025	
4245500	-0.471249396287682	-12.7017342609054	-75.0836533727246	33.3629869738694	-76.0137109642637	27.6415432982206	-0.544514649494572	-12.2467001333099	
4495000	-0.24293070634579	-14.3974377395733	-64.751768105772	129.769327260665	-64.484808301804	128.945514338974	-0.273407116227907	-12.9358762046606	
4744500	0.0123507707853768	-14.8454478795127	-56.8536800158667	82.2251437418676	-56.9620596739423	81.1040524741593	0.0511729163501982	-13.5288039867022	
4994000	0.0737765431049369	-13.463942961293	-53.0341100478161	-16.3580868440551	-52.7342539586936	-17.1973209534977	0.165542098062853	-13.3554065351415	
5243500	0.0191675032963456	-12.9496909725417	-58.2332535011753	-76.7189863004922	-57.7508239153216	-76.364198682006	0.024379861535872	-13.2599902129059	
5493000	-0.272560470459911	-13.5069694058284	-59.4374173785539	-100.570674919823	-59.7058316854071	-100.877767355477	-0.273729637582248	-14.0569571716449	
5742500	-0.491185679312522	-15.3227978858893	-57.3090821306294	-121.785568929301	-57.3381107244268	-124.094140984376	-0.476505939785855	-15.9227662506398	
5992000	-0.453765495724297	-17.6064655109207	-51.6913813489869	-162.37312232481	-51.4303528661812	-161.643628245048	-0.45274127564215	-18.0905603481451	
6241500	-0.227828714065618	-18.8627072938895	-44.7096655231876	116.78898810275	-44.5561768573275	116.45085765741	-0.287038969463174	-18.8070435975152	
6491000	0.0139451137421968	-18.3059436203123	-46.3625372885102	8.10927167940044	-46.167432023128	7.75513952738714	-0.00112619461064902	-17.9425672028654	
6740500	0.112870215125002	-17.8274538480648	-54.01437231041	-52.6846123656154	-53.7377647520545	-53.826909120515	0.11414199827507	-17.2755112169493	
6990000	-0.0995853375560361	-17.9364513004195	-58.3252788162519	-78.8255487406196	-58.4923286198022	-80.8165304178745	-0.0718861006415904	-17.2794458234016	
7239500	-0.435292215356792	-19.1225435182969	-60.5254086201167	-97.8819119664217	-60.4613533368742	-98.6792519091212	-0.35556728564332	-18.4746782079694	
7489000	-0.58440762968068	-21.1471369532847	-60.6751883457318	-114.763887132127	-60.5064702240065	-114.490344400329	-0.490788997843263	-20.7830778158065	
7738500	-0.424936018776492	-23.2217667427077	-59.1282445693158	-133.778470767751	-58.6304296622409	-134.159223824509	-0.368925700803182	-23.0145102772689	
7988000	-0.154905621349937	-24.212359206889	-53.3416669035733	-171.31296902358	-52.8145878755487	-171.173597771058	-0.149053363647218	-24.1501321007336	
8237500	-0.0347156720989154	-23.2118353375051	-48.4256281701018	105.647534299551	-47.6092679400618	104.856960067805	-0.0782679787603274	-23.1061215301719	
8487000	0.0136954925011028	-21.7983127628171	-53.3333873870898	15.8441823849082	-52.3217678949371	12.5362799278279	-0.0162131772794119	-21.6063177987456	
8736500	-0.20076077585983	-21.9270710887408	-59.6683046653408	-34.409430166936	-58.5365818763901	-39.252320104728	-0.194612906933234	-21.8348227551557	
8986000	-0.479736053339843	-23.5115894743476	-62.609404413424	-61.1009905371323	-61.2136836626499	-72.0520375922518	-0.448643314173291	-23.4439281225437	
9235500	-0.562789920274725	-26.1007793044801	-64.4501923235008	-106.387015502589	-62.5343376784948	-112.353363553779	-0.502863619417115	-25.8392136944621	
9485000	-0.425951623265676	-28.1503914893887	-63.3098000409208	-149.014932206055	-60.2266688465001	-171.070709844741	-0.34964839964132	-27.9188528072852	
9734500	-0.212674759566092	-27.7953596793867	-61.5958502469162	118.95371976944	-57.8890654976336	94.9668333278561	-0.178622256956944	-28.0488346802721	
9984000	0.0359155910450418	-26.6769311359338	-68.0765861103538	-13.4177301161114	-60.8642074727929	-25.8204239453236	-0.0330562782497884	-26.4515964789767	
10233500	-0.0323515641978653	-26.4213663748619	-68.8929234222786	-147.336314802404	-64.8974327556789	-125.325342752958	-0.0439962664082474	-25.9127858648789	
10483000	-0.335962858141291	-27.2715668283477	-66.397697259129	157.70471694578	-65.4273502851469	172.951409236309	-0.307476094761372	-26.6828416203508	
10732500	-0.60525537348916	-29.4636004714266	-62.9978367766355	117.865513730145	-62.5168646354084	131.515464018558	-0.529795837245579	-28.768015262966	
10982000	-0.652039969413876	-31.9322233324773	-57.3735651231902	67.9527816706835	-56.8639183372049	79.1222762946486	-0.521401249950205	-31.2414943325134	
11231500	-0.426278735452784	-32.5904702692195	-53.8877687036344	6.92588124873472	-52.852718063442	16.4963816866312	-0.316704690183212	-32.6832949685884	
11481000	-0.072746224230394	-32.1097592752917	-53.6275553836464	-62.4845846701977	-52.2164278317819	-55.2602624007123	-0.10823255008093	-32.2306726150381	
11730500	0.0146312320782209	-31.2841871825519	-55.5171479025387	-119.319954857453	-54.0871646564345	-118.133256517433	-0.0189274692666234	-30.8328721830041	
11980000	-0.177633257798698	-30.6707302240362	-57.6878129932098	-163.918740757631	-57.0126626362379	-162.678218291398	-0.142471815959951	-30.44142564324	
12229500	-0.481236199086328	-31.5868792044402	-59.3695267901764	158.066992119291	-58.4630236896238	160.369122088871	-0.416345926736013	-31.5447496270075	
12479000	-0.666340363072782	-33.8792692946129	-59.5223372581518	117.961656472458	-59.1827460272423	120.931414347453	-0.571874179346386	-33.862010913985	
12728500	-0.577220128454393	-36.2581271722339	-58.2928936166132	70.8541372699304	-57.4344971645785	68.194370163879	-0.475582110116793	-36.226977401019	
12978000	-0.310923562933612	-37.0801444692357	-55.7823410378737	4.04678664147007	-55.4234895817978	5.39857514736573	-0.227542752741795	-37.3702136290591	
13227500	-0.0759380951968401	-36.2766513116181	-54.0472602823528	-75.4530926259971	-53.6290566330246	-71.7890439914213	-0.101675818810113	-36.8228440558746	
13477000	-0.062456035789232	-35.3838535311445	-53.2042264677959	-152.000658827629	-52.7879256625116	-148.727162449218	-0.172348460847222	-35.4472605087042	
13726500	-0.306084348968512	-35.5271386662675	-53.3759060470492	143.208166845593	-53.0266237230227	146.107425734844	-0.379259748279394	-34.8452301176261	
13976000	-0.623272451222123	-37.180565472145	-53.3067079453987	89.5100246217533	-52.9628601797659	90.2619960201133	-0.604565980193604	-36.1631035768966	
14225500	-0.754598936428459	-39.7623080979348	-51.7689818488731	34.5374548353399	-51.3383949462029	36.253880598007	-0.642707328856189	-38.6562583358005	
14475000	-0.612732336008424	-41.4034343122501	-49.2156093669217	-25.3531555312216	-48.7704824851129	-26.0393422523453	-0.431052638615352	-40.7723742363534	
14724500	-0.264277989337006	-41.031761214122	-47.2515143933303	-95.6388349787124	-46.7327044450142	-97.1652971494194	-0.145191309645253	-41.4250937166686	
14974000	-0.0232889451210135	-40.3160513487121	-45.5546149153139	-166.129590943027	-45.1446052347946	-167.417780948331	-0.0276526024580184	-40.9259642969467	
15223500	-0.170466585794514	-39.6750999143489	-44.3851767640262	120.080907569405	-44.0577736851217	118.243753033283	-0.206391449715159	-40.0862986704951	
15473000	-0.493631814413863	-39.5545143651707	-45.8213569766168	45.9004913694047	-45.4926503787245	43.3428529513761	-0.578447625754515	-40.1623984448686	
15722500	-0.731117661153429	-41.4498886181647	-48.7363859351165	-14.6521484138224	-48.4068859087837	-16.6103875038183	-0.8584624470674	-41.2395216053087	
15972000	-0.724354987756841	-44.180506637995	-51.5756776014862	-61.8914159505568	-51.0671751305563	-64.5395876214441	-0.788899374178055	-43.0529400382139	
16221500	-0.491285808223869	-45.8968202046852	-54.0807393487894	-103.941631661161	-53.7330386665613	-109.507186331068	-0.446952276314051	-44.4854780913152	
16471000	-0.240367989373094	-45.6678654439086	-56.6692852209122	-148.880463347793	-56.3815793622596	-154.062700232399	-0.108315852143642	-44.7050045470028	
16720500	-0.142061778706203	-44.3657365472149	-60.2753680095356	173.0512130352	-60.1770929770632	166.613241986892	-0.0124987222793977	-44.194010822554	
16970000	-0.294290810551096	-43.6372036121182	-64.9687150783982	152.36371694267	-65.2423689964482	141.736902808388	-0.227425911128265	-43.9401131563333	
17219500	-0.61154741566303	-44.5660764823495	-67.6359469374375	155.834313106757	-68.4278050497566	146.133922289234	-0.59888888120561	-44.9237710806182	
17469000	-0.826234538501018	-46.9805318411784	-63.7291510549299	144.46419378122	-65.2838347247308	144.816688529689	-0.863593790643213	-46.9312709474216	
17718500	-0.763191524835205	-49.3588734259938	-59.4315755138446	97.7610284071601	-60.1752864853451	98.2278954028971	-0.806379828069215	-48.8010019811126	
17968000	-0.482129597144138	-50.1792008556302	-56.5878643211682	40.3366516233664	-57.3283519559676	40.6517742110397	-0.483146105878336	-49.3428724425046	
18217500	-0.196238502662237	-49.3121116811898	-56.0127600506721	-16.5676758874274	-56.5156762289109	-17.9431492028047	-0.157925395118643	-48.623288397427	
18467000	-0.145237488013804	-48.1514575663572	-56.1442550369936	-72.5335247839924	-56.4508127434071	-73.6669830463627	-0.113704090387365	-47.6599088042364	
18716500	-0.383905292157462	-48.0947557451143	-55.5233344472558	-115.893948215646	-56.0606661155564	-117.394327892618	-0.342106061109858	-47.5489569233767	
18966000	-0.722806228466269	-49.5691608930017	-54.6008460184229	-157.7869376341	-55.0832393043438	-157.992883867267	-0.654926483287536	-48.9605304507205	
19215500	-0.880561579773868	-52.1801941752596	-53.4489249722514	159.031991861529	-53.6795878690661	160.434655520578	-0.793286982821981	-51.54055781934	
19465000	-0.749539846563864	-54.2477342781844	-52.0763796523675	112.995731458398	-52.2341669373623	111.579825359885	-0.656552648393287	-53.835359193385	
19714500	-0.44579519830409	-54.4937408922988	-50.7434056623635	65.0537225347965	-51.2560605004665	63.9490791667903	-0.380471153521872	-54.4910896817258	
19964000	-0.231938513039555	-53.3201269989264	-51.0578492107711	15.2846044434204	-51.2832151033728	14.7530409185753	-0.229477212960265	-53.487154913902	
20213500	-0.306307703401071	-52.2724040188446	-51.9329407643559	-31.48865499817	-52.2637671063144	-30.7002787419058	-0.317504985923407	-52.0768019414211	
20463000	-0.633723555890092	-52.562210604748	-53.0435359104673	-73.3347663680938	-53.2986926135493	-72.3614956894016	-0.582510581893782	-51.7048358314869	
20712500	-0.974777971777638	-54.4415876432012	-53.2413508324801	-110.4405500587	-53.7764487321861	-110.477931414313	-0.822019112493238	-53.197138065242	
20962000	-1.0583592721529	-56.862405322802	-53.4135704379531	-152.902772920667	-54.012122507851	-154.198199010836	-0.813552345096047	-55.6345105179039	
21211500	-0.794658550157865	-58.1713681185711	-54.7069499973571	162.668053513902	-55.3479527278839	163.642114037066	-0.560729309264152	-57.5977864184262	
21461000	-0.417069496739386	-57.74173209392	-54.3632812690796	124.201683757293	-55.0395536585401	126.159263815906	-0.25835885727554	-57.988006870686	
21710500	-0.227583360532701	-56.4439793113022	-53.1131492236797	78.8314842992235	-53.4445849985915	81.1211516293798	-0.182278276448463	-57.2799775933359	
21960000	-0.364690923179621	-55.7294540555337	-52.182725101846	28.6016662538152	-52.6331362444736	30.0489469223862	-0.39785853744933	-56.4188190219473	
22209500	-0.723056309772387	-56.4428510871794	-51.3581040336142	-25.7291144835136	-51.4925296671562	-22.6997927774528	-0.760182394341177	-56.5810646619682	
22459000	-1.01447975467476	-58.6679604364156	-50.7288989454349	-79.4062064211328	-50.9515921035979	-76.3077300763065	-0.955017671808354	-58.2293279224888	
22708500	-0.974211786428079	-60.9725533467982	-51.1624805982446	-132.429149300482	-51.331940208669	-129.285122178983	-0.838163748996349	-60.3674285377792	
22958000	-0.62730502778301	-61.9502527092573	-52.9272280995703	178.294643608746	-53.1991514817126	-177.995861127744	-0.493076855203571	-61.6400111061818	
23207500	-0.294296791862389	-61.5237774315301	-55.3068426947598	141.583051386018	-55.130761991802	149.921550746926	-0.190833037744469	-61.3977932073162	
23457000	-0.265926315984864	-60.3833833508833	-55.4815428555983	124.126964968701	-54.4201628838737	126.975401542553	-0.158675592413533	-60.563173410566	
23706500	-0.534613115329485	-59.5365510260926	-53.4365133225022	90.0856098950105	-52.7054068997606	90.4742332716253	-0.420315041421897	-60.3421848809161	
23956000	-0.855265987311764	-60.3459197621704	-53.086750491966	42.6230645804768	-52.607425581551	39.5665655191038	-0.799252928621317	-61.4935740904432	
24205500	-0.9989815110984	-62.8900782927334	-53.6900609351694	-8.89605574627065	-53.5007589014815	-9.35199514112824	-0.984465465804737	-63.9203812115369	
24455000	-0.829496298803879	-65.2417195882213	-55.6028133802582	-59.8518148296809	-55.3448540884268	-60.8072736560273	-0.840803344897889	-65.9377820573296	
24704500	-0.470583151020115	-65.9394818332778	-60.6658973467189	-114.414575846614	-60.5796869002677	-118.628151671836	-0.48441849502029	-66.1808212462364	
24954000	-0.198179981758315	-65.0903041968708	-66.7844124125815	-165.302863345157	-65.9304871995461	-160.807182053059	-0.235811552599205	-65.1480521206792	
25203500	-0.208942091161434	-64.1074295173136	-69.9505707019978	170.718651872558	-73.0554826085368	147.413467567339	-0.27126797137591	-64.0684292049892	
25453000	-0.502337130148261	-64.0241532552125	-70.7946228560932	121.075986921732	-71.1826329016974	135.205143286383	-0.55849939494823	-63.8991320499954	
25702500	-0.836424975944418	-65.7228195791932	-69.1902394788673	84.5483046355769	-69.9185919688352	81.3006733663399	-0.886524146843352	-65.6294157513347	
25952000	-0.92152323814187	-68.547300137269	-64.0692701831497	35.9784280050729	-64.1552930905805	37.4529938893564	-0.987287945847566	-68.3445578166434	
26201500	-0.704235471000814	-70.5601426445845	-59.5079397020282	-5.93911742933716	-58.9128772552172	-10.5065458743559	-0.768564511554528	-70.4642191615502	
26451000	-0.373852391340533	-70.6307252944265	-56.8471661480925	-55.4934929289934	-56.847734825529	-59.270579646999	-0.46417202967589	-70.8368350121501	
26700500	-0.222657800035864	-69.4360600809421	-55.2723899225289	-109.196052475872	-55.8861056096281	-109.611393394783	-0.324427887764003	-69.5617453977803	
26950000	-0.365785253594862	-68.3187848103257	-55.569122534843	-159.628915827284	-55.6670715784498	-158.786096354208	-0.443524978186772	-68.3332249686205	
27199500	-0.724414500516086	-68.7247931205133	-56.648161539608	159.532765482789	-56.7510609868367	157.348042487034	-0.758991872530512	-68.3031043833283	
27449000	-1.01029008965231	-70.8239347178162	-58.9278288945667	120.789838381249	-60.0537134173016	121.491183435794	-0.989057776560897	-70.1843290431075	
27698500	-1.00142453926877	-73.4593078353207	-63.173236107689	77.8472810685965	-63.5010243391521	83.4249463504531	-0.943237414988011	-72.7236026573612	
27948000	-0.682252758930876	-74.8620045121891	-68.0447462889342	38.9669806384582	-70.1025122779409	43.4993399672342	-0.649123367790425	-74.3906247262443	
28197500	-0.335779697989939	-74.3549973158592	-71.8003446800535	100.672131213485	-72.0608064828719	101.111204410199	-0.357447347925186	-74.1781056320994	
28447000	-0.244136650354909	-73.0578457950739	-65.1315886237278	92.3629685068044	-64.6442064314994	97.3387362729064	-0.313347232468425	-73.0379634569402	
28696500	-0.464204135753867	-72.3682822729538	-62.8521623785296	62.8999442885064	-63.1272307557604	71.3139485807269	-0.54546412782281	-72.1230877933371	
28946000	-0.831045978946848	-73.2450935517992	-62.234525920095	21.8321197195977	-61.1223645626796	31.3154327704661	-0.894576156813729	-72.7335610917725	
29195500	-1.05201155660619	-75.7074473174592	-60.9918427015179	-14.6884631981722	-60.7167470386742	-9.86895880392472	-1.06243780570179	-75.0444396919737	
29445000	-0.943222256457771	-78.2798439334618	-61.9328172895777	-46.2209543100453	-61.3846034526514	-48.1996471697433	-0.887729711797861	-77.4920278914934	
29694500	-0.588535399798372	-79.0758225401604	-63.5071938772739	-83.8522146586107	-62.7078490787701	-83.4435117245962	-0.543761414532704	-78.5814612705891	
29944000	-0.328030552187816	-78.0851171832315	-66.4283825847008	-128.464315064107	-66.3419777764502	-126.430486792953	-0.271506893500081	-78.0123461349307	
30193500	-0.353453233523117	-76.6403955147046	-69.0203088941323	-170.922499420528	-68.5654746033299	-166.974457582247	-0.319072633983213	-76.9442227006212	
30443000	-0.643622082487564	-76.130734611944	-75.0387965705756	155.586535226746	-72.1853960863797	160.395710634505	-0.653850735856191	-76.4680366008533	
30692500	-0.993721500994235	-77.4374559353931	-81.7047516476769	69.089697326561	-92.9426956792907	73.941490609149	-1.0090378157591	-77.6579399071758	
30942000	-1.1247997737025	-80.1616084454777	-72.8824283357845	-63.0435093587793	-72.0837073723823	-33.9085940349328	-1.12445719588973	-80.1172955281478	
31191500	-0.883315491839447	-82.4773850476095	-68.5958230191813	-82.6075153561437	-70.3386474974852	-70.1823267561823	-0.871655700620816	-82.2930724182383	
31441000	-0.484651472140558	-82.9750138947189	-67.1193512695248	-101.949218579118	-67.6487538891424	-98.9473190970014	-0.495102607769808	-82.7583618136045	
31690500	-0.267170602950023	-81.932375656763	-65.2292637641206	-146.761764125096	-65.1318693201112	-146.991173074857	-0.288496260570968	-81.7709862272876	
31940000	-0.366917994938446	-80.7929504877328	-63.2576722566716	177.278400212258	-62.5236300159167	178.855682922641	-0.416658926612668	-80.6194613862188	
32189500	-0.726312247376078	-80.783462606545	-61.4055958618819	141.935444553624	-61.0546671526767	144.408287688573	-0.78768468774464	-80.5634641251696	
32439000	-1.06409607103758	-82.6216196544483	-60.6266587377405	101.244213528121	-61.2718939958468	101.07386861991	-1.10675548374734	-82.2182968736019	
32688500	-1.08853031192157	-85.2636881892743	-60.2701559223131	57.7286020714342	-60.4047563032173	54.6527526182421	-1.13476110996679	-84.6882097726951	
32938000	-0.814817476582402	-86.8161358722892	-59.881373533786	14.6284329475715	-60.3790582845545	8.75216380352119	-0.828600510378502	-86.5560321184811	
33187500	-0.480095949977395	-86.5298158802396	-61.6293615311471	-40.6689690982684	-60.6206474080706	-39.2801567905558	-0.464982429453683	-86.5465088436164	
33437000	-0.356845601483861	-85.1559768003845	-62.9574299759191	-91.5739223239441	-63.1159940454582	-91.9168473744671	-0.338558419320291	-85.4439883853738	
