!Keysight Technologies N9923A: A.12.45
!Date: Tuesday, 05 August 2025 19:03:53
!Timezone: (UTC+08:00) Kuala Lumpur, Singapore
!Model: N9923A
!Serial: MY61181427
!GPS Latitude: 
!GPS Longitude: 
!GPS TimeStamp: 0001-01-01 00:00:00Z
!GPS Seconds Since Last Read: 0
!CHECKSUM:0205768312
!Correction: S11(ON U)S21(ON U)S12(ON U)S22(ON U)
!S2P File: Measurements:S11,S21,S12,S22:
# Hz S DB R 50
2000000	-0.0614444446948217	-4.18964537106763	-77.3922324101256	-108.620074586047	-74.5118768881289	-113.65071564933	-0.0761532621814085	-4.16764376376703	
2249500	-0.328994365675497	-5.07042960149344	-69.2016095863687	-119.436773116964	-71.9289708136626	-117.077557648808	-0.329824068205438	-5.02005107616446	
2499000	-0.448737025131285	-6.88580816541434	-59.3824116427371	-153.273641004694	-59.2455967477876	-152.749436611794	-0.459035939676293	-6.78368930840468	
2748500	-0.318529959898697	-8.62609958253351	-49.2903987027196	91.4697845132598	-49.2015996744871	89.7397049037797	-0.339426812150022	-8.10654260368585	
2998000	-0.0468397278376265	-9.23918658329861	-51.953547640824	-25.8996177121734	-51.6742313699245	-27.4777225621114	-0.0542377360253732	-8.92725221774575	
3247500	0.150443947505974	-9.20248360109841	-55.5818908528877	-42.0660345549631	-55.6519547033598	-42.4570015808369	0.10162393269617	-8.99714008628215	
3497000	0.0988103244269018	-8.98292119525279	-57.7765243580358	-99.4430908509399	-57.5754479336715	-99.3420431266488	0.0675496456775987	-8.71330309891056	
3746500	-0.197930566033761	-9.43357456781076	-54.5846372166469	-139.392159229422	-54.6130074974093	-139.330277783245	-0.180866448753195	-9.14397885796686	
3996000	-0.432107993949408	-10.4228458931809	-63.3808524344879	118.266230050181	-62.8904672524506	116.50815161069	-0.409350925279515	-10.5519421552148	
4245500	-0.445090156113165	-12.6082223710463	-79.7713546917189	87.1355769968051	-80.116879250917	97.0340418612849	-0.430978263177283	-12.5842122919125	
4495000	-0.227201192523933	-14.2748872405553	-71.1057422990795	-103.76589138683	-69.7472141093888	-109.719488629962	-0.219256362151942	-14.050605551743	
4744500	0.0171493272754782	-14.7879245716139	-56.2738121984628	-138.540917481091	-56.3264277790145	-139.874257125032	0.040167530567839	-14.4535580717641	
4994000	0.0717972243288598	-13.4540997350544	-45.9506873382897	118.288916771085	-46.0806830356351	118.884150500736	0.116752962509774	-14.0135601639859	
5243500	0.0177082466963109	-13.113405470775	-47.0646860945454	47.7739958495405	-47.1543291037035	48.5826369105578	-0.0761263842242038	-13.6872042252495	
5493000	-0.265559463369309	-13.6275450550891	-47.2645303033852	-22.699063378665	-47.273569325546	-21.574849087059	-0.422237233272251	-13.3170470586907	
5742500	-0.465970153743293	-15.3593364451983	-50.863278110494	-73.112213942439	-50.8172656234625	-72.833217939237	-0.506948246282824	-14.5519027438793	
5992000	-0.422693149834335	-17.5555351735719	-52.0656175756756	-104.545155527863	-51.9846853662822	-104.448435418626	-0.411618570334633	-16.6737390425188	
6241500	-0.229561219692799	-18.8939967875084	-50.1522783918289	-148.914985126395	-50.0319671905935	-148.647344057494	-0.162585609903317	-17.9872938512132	
6491000	0.00945476263073769	-18.2216296641422	-51.2531619052763	143.584778632202	-51.0680292815052	144.083689256046	0.0940307560877646	-18.264669435892	
6740500	0.109721956096265	-17.8291489312457	-55.4487551821737	107.103877235923	-55.4890463968092	106.628625652779	0.126005505358593	-18.0304301771371	
6990000	-0.0914615287049804	-17.9808257212074	-57.5633941044408	84.7155712185413	-57.756407777842	85.936325740483	-0.0823689916011061	-18.174114785211	
7239500	-0.410930253571338	-19.167902837777	-56.9896881986929	64.0813395347996	-57.2309870587813	65.6785469901284	-0.365655898981671	-19.3913051973477	
7489000	-0.558709015434043	-21.1121795865035	-54.664861872588	45.2846516505936	-54.8048492998483	43.7670638117437	-0.51112161443924	-21.6136775285816	
7738500	-0.40683136043787	-23.1008605558787	-50.5986293957048	17.2873747407528	-50.62350769462	17.7501751344329	-0.445287713008754	-23.6576673490932	
7988000	-0.149225670870093	-24.0511999610442	-44.3491167187738	-36.4054535104348	-44.4266662340221	-33.9501331291562	-0.323373884675237	-23.8548498609451	
8237500	-0.0225261996409943	-23.2719790957917	-42.2965495219572	-121.498344388023	-42.046947739417	-119.607371990367	-0.0578277466921086	-22.186083150069	
8487000	-0.00177214067534003	-21.9123719047798	-46.0276597863144	165.108638718703	-45.8389760729297	166.190810430899	-0.000566104308509922	-21.4414256260088	
8736500	-0.196702830388192	-22.0423959371342	-50.7303539960038	124.171685631486	-50.5458247640077	125.059533069393	-0.194921037230488	-21.6343084115613	
8986000	-0.456978596279716	-23.6039582747635	-53.1671981769495	97.3240778485411	-52.9808492944565	97.9924761603198	-0.435965928452648	-23.1227173429412	
9235500	-0.531972938645504	-26.1067729260423	-53.0441731617126	69.7457757069952	-52.9039272082852	70.4146287492932	-0.475560311784926	-25.3501162147958	
9485000	-0.402624899561925	-28.0922633700801	-50.7310739253562	32.5860918519751	-50.6744640156635	32.2715795549112	-0.276363039622006	-27.2824803445931	
9734500	-0.20692547813224	-27.7863255701784	-48.7745621146275	-28.5084048734554	-48.7595927187303	-29.0625365897584	-0.00537408978984903	-27.9943596379526	
9984000	0.0305489673609714	-26.6993936267418	-49.5234308887604	-90.2041597388528	-49.6829807842241	-89.1906526263903	0.0916966527468018	-27.8658778335818	
10233500	-0.0340991633606065	-26.4841021054346	-49.2769768350579	-140.249365849835	-49.3699900682667	-139.257102072394	-0.101027597274815	-27.8028313012245	
10483000	-0.32495355409396	-27.311271621063	-47.1420453514069	163.611262258706	-47.2586745027206	166.425179995503	-0.541856582323496	-28.1649563319392	
10732500	-0.574116477777377	-29.3890658178913	-45.4707386840447	93.6261422437547	-45.5045776034041	95.7345159391181	-0.803109444214934	-28.5401029211906	
10982000	-0.608659431374935	-31.8363617985656	-44.8862226925535	22.7258767928707	-44.9133275862311	24.057790834875	-0.625146044973705	-30.1170621884571	
11231500	-0.410857014291484	-32.5942452845694	-45.176595921377	-52.0862586173594	-45.2104403440221	-51.4950951276317	-0.274116348208361	-31.5650087665926	
11481000	-0.087238123224555	-32.1197187782933	-47.26743128746	-120.670269146655	-47.4876259884144	-120.370342842652	0.0401534261234907	-31.9116801334941	
11730500	-0.00396661350489451	-31.2434440531588	-48.9065074217661	171.502754273109	-49.3408044474969	173.025305502309	0.0729653626139393	-31.7350070849901	
11980000	-0.163957200235274	-30.7127803804705	-52.2429857063323	98.8584200689559	-52.4353336923656	102.854902511018	-0.30072890507995	-31.5494811536785	
12229500	-0.452353032671271	-31.731096016302	-58.32235570384	57.6492898519068	-58.6468665373514	58.6344638134541	-0.515851500942409	-30.9445033808215	
12479000	-0.638704516729925	-33.9851511994942	-59.9361070185486	28.4141541123017	-59.9833058106252	21.3026070100885	-0.576109410377939	-33.2481467343411	
12728500	-0.557597559352051	-36.2666494380241	-60.7274623144025	-4.6005628390386	-60.7027827590185	-4.82696243965954	-0.449581050241616	-35.7006776578294	
12978000	-0.307516170557253	-37.0200337137312	-61.7541551811011	-29.368968489833	-61.964225360545	-33.5764310812198	-0.175636413658618	-37.147791511322	
13227500	-0.0792559858852378	-36.2490507743166	-61.5345913371517	-45.6244748904828	-61.4182972019427	-48.8224759111359	-0.0426033562643155	-37.3211816646924	
13477000	-0.0596720669737464	-35.4186004259121	-57.4566727974089	-73.7161372669124	-57.7217754205082	-73.6394839563372	-0.227313648464797	-36.7252933645639	
13726500	-0.286349599274493	-35.6281015755542	-54.538978666481	-119.306110971278	-54.0894326693554	-116.943652812722	-0.579913378161943	-35.4655154916012	
13976000	-0.591269667089036	-37.3165146633206	-53.2972591816561	-168.10537533802	-53.1506577951124	-166.928094525762	-0.742398840051782	-35.7455391308695	
14225500	-0.751523455476172	-39.8288560560454	-52.8722040181505	133.385078594831	-52.3461917114804	135.451187157917	-0.680964204989929	-37.8645096614095	
14475000	-0.596340516021917	-40.8086394334934	-57.3796853150059	37.9894052115671	-56.6100291485808	40.1438126276792	-0.410888368473499	-39.9430284027293	
14724500	-0.197996101539554	-41.2546029798339	-59.5277238726258	-168.430318405411	-60.2730895956785	-161.217936347753	-0.0941007802818476	-40.7081219964474	
14974000	-0.0847157053515396	-40.5945555571093	-52.0747007886626	117.887637781985	-52.3932450008814	116.907696273927	0.062714243473238	-40.4697969255596	
15223500	-0.191057587898208	-39.4581809720762	-49.6825704682631	57.3257314844814	-49.9746242953109	57.5695853103211	-0.08590072913113	-40.1641920829962	
15473000	-0.450785880241811	-39.6354694569032	-48.2098224128042	4.14691365078778	-48.3306565999544	4.85627634538832	-0.467931597417079	-40.8539663633661	
15722500	-0.691404841133234	-41.6034960904221	-46.5789484506013	-51.9662028324376	-46.6052835483065	-49.7685973513363	-0.855936987083346	-42.3542503932654	
15972000	-0.69465357480858	-44.2191234305203	-46.1659374354394	-112.619753768477	-45.9788469758816	-111.00115053204	-0.906565858460447	-43.4815996666885	
16221500	-0.481883227447767	-45.8548175257577	-46.7046026203005	-172.97573386392	-46.4472363984353	-172.103083000865	-0.543725249714945	-44.2369732022517	
16471000	-0.245615281968687	-45.6037546331151	-47.5395449668394	131.695653224621	-47.4316658283878	132.561285576861	-0.153792978857118	-44.3795487226064	
16720500	-0.145032174939152	-44.3849914510232	-48.9616587159287	81.7685951542642	-48.9955056247137	81.5563428017528	-0.0170824789489969	-44.085413261561	
16970000	-0.286452380426043	-43.7533102702604	-50.5282762932743	39.2744602638744	-50.444668377355	39.5925941031628	-0.201883238162391	-44.1112342817542	
17219500	-0.588359546127808	-44.6958544825027	-51.1930490586361	-1.25725420874455	-51.140980286443	0.757626494314921	-0.559683494972358	-45.3278011712051	
17469000	-0.792850031405415	-47.0294884407127	-51.2475100085585	-42.0889523664455	-51.0048624618186	-39.7553130659286	-0.850427329514012	-47.4068277998792	
17718500	-0.736776520531607	-49.3040947610833	-51.6761088304515	-89.1035795705111	-51.5508173253053	-85.2389168990123	-0.850010964337199	-48.9568779489377	
17968000	-0.475527195043504	-50.0860342472831	-54.2232223899141	-135.921820150816	-53.6971270429745	-133.335903648103	-0.528012452180112	-49.0795282485776	
18217500	-0.203291151275325	-49.2510626589886	-57.6829317633929	-174.478779568057	-56.8934494897598	-172.959287746617	-0.172130761769153	-48.3404873296934	
18467000	-0.150347347827766	-48.1739599356467	-60.7519507864298	162.876105845435	-60.514723663533	162.738723171924	-0.105319307024044	-47.5747845315575	
18716500	-0.369781557724683	-48.1899116231792	-63.3026324695438	151.922251066389	-62.7857299997482	147.524877341157	-0.315327079801013	-47.6621086991882	
18966000	-0.694385250823249	-49.6748006875683	-64.0155985438811	140.791747533747	-63.5142640206875	135.135173747317	-0.62139044903643	-49.1952625243178	
19215500	-0.84478609339233	-52.2267630066309	-61.9389812549264	115.840976977968	-62.335053433631	116.296328950072	-0.771953311704889	-51.8084414339895	
19465000	-0.724440138852479	-54.2467624904235	-59.9185311967643	78.1544955013044	-59.9008826958564	75.7047562232098	-0.677519231123288	-54.1111145329414	
19714500	-0.441668302085735	-54.5008204779291	-58.2256030523349	30.7203870530565	-58.4053158712326	30.3324502291742	-0.457845365358194	-54.6617773955768	
19964000	-0.239001433276458	-53.3607992996514	-58.4607826861465	-21.7486808725118	-58.3814458906615	-21.4154784499766	-0.325472531384945	-53.3725237230824	
20213500	-0.307363519664487	-52.3665953882408	-59.4346111444547	-73.2404841628518	-58.8507805969255	-74.5610470882493	-0.359304101047213	-51.7965055427425	
20463000	-0.616304137082224	-52.6826347842546	-59.4476426078763	-118.513780579697	-58.9931711038765	-115.090253619734	-0.551482264268081	-51.5734174200863	
20712500	-0.941989902199628	-54.4998462825449	-59.2960465501998	-149.741398367166	-58.6062387870896	-155.513345598294	-0.747278105309449	-53.2493143531808	
20962000	-1.02728530504886	-56.8103434611983	-57.9175357258416	172.191910875324	-57.3899734600622	170.462960184421	-0.729179437268948	-55.7906441716582	
21211500	-0.780286097614355	-58.0332771432138	-55.8131020864284	128.660391037301	-55.5356776532637	129.946978876729	-0.495891335514487	-57.8419200583535	
21461000	-0.416533989863356	-57.6511854356194	-53.8547677966867	82.255725477024	-53.7070888786707	82.6367592483694	-0.236931404756608	-58.3853953467576	
21710500	-0.234651659630189	-56.4596802425267	-53.432359968956	34.0972009481191	-53.1815195909022	34.8090906451695	-0.220176289879695	-57.7484866016738	
21960000	-0.363255959770198	-55.8447526160962	-53.3919917440261	-13.9462971027277	-52.988417924465	-13.1573394914089	-0.483162455382852	-56.6234273813632	
22209500	-0.700449220168242	-56.6034870198233	-54.3165845539627	-63.4941868715522	-53.5527987008962	-62.4444215455892	-0.813640507074313	-56.3209268515065	
22459000	-0.976426580211535	-58.808039908948	-55.9017360639388	-109.001799021551	-55.2760261339889	-109.626135083237	-0.93531197701241	-57.9213620689859	
22708500	-0.943665181856058	-61.0300343060146	-58.4387540344917	-154.323802770562	-57.8055882812302	-151.752853071019	-0.789259122222825	-60.3720804261245	
22958000	-0.614560831685841	-61.9287031266708	-61.6779238559902	161.147840939237	-61.2494254740307	156.61197123495	-0.463081268958358	-62.0561449185642	
23207500	-0.292365705612307	-61.5172603663147	-64.1389927857883	114.530188390077	-63.0960161916984	117.976036068093	-0.208838931086055	-62.1725970611487	
23457000	-0.269098961944673	-60.4664167802158	-63.6670605961488	70.0667992110605	-63.9094317084683	69.9754836744481	-0.236391682251942	-61.457329633645	
23706500	-0.533837682458504	-59.6460298885306	-62.8462176539566	-10.9676693781642	-63.5303309981284	1.73274446097362	-0.540398298889115	-60.9034621627005	
23956000	-0.83450167571285	-60.3868675257066	-61.4339913999436	-89.7303199991029	-62.6854266807945	-75.9532270065215	-0.897271757024773	-61.3168256530608	
24205500	-0.964099088001738	-62.8557902462564	-61.5907354792484	-148.803306763898	-64.9402500568865	-138.036917674873	-0.993572817137663	-63.1222814063908	
24455000	-0.802121496187197	-65.1718944109445	-64.2053426065436	164.076318684403	-66.3225598249776	179.552533142928	-0.76843140011453	-65.1626593394277	
24704500	-0.463899749211879	-65.8904565071314	-64.1116570270758	120.41243972244	-65.0599567832826	131.124589274554	-0.400309194111866	-66.0014790909218	
24954000	-0.203796698503542	-65.115515312318	-64.3138509889781	69.8993302985633	-65.5009240694098	75.2199402697058	-0.21447198011335	-65.6530974457666	
25203500	-0.212256302610092	-64.2247860663511	-66.9283673197837	1.88892029360996	-71.627790028155	2.72926490198076	-0.353940474585731	-64.8948442679455	
25453000	-0.489596379659648	-64.2014172941162	-72.3356304634309	-84.6562681960407	-76.8582634822491	-107.984881004142	-0.717537501507173	-64.3743889131204	
25702500	-0.805867213765718	-65.8816087259895	-73.5172397150442	149.132367208403	-71.0381746373964	130.680715043969	-1.01107497134298	-65.3736599135249	
25952000	-0.884103899814074	-68.6208909376926	-72.4096308998991	52.3340548987172	-69.9551520247869	63.6755582553058	-1.01300529294434	-67.6490839608906	
26201500	-0.681138916475339	-70.5828354018827	-68.7244796000081	-12.9736492683179	-66.9615606860182	-8.45349060650372	-0.709304705564607	-69.7946460773767	
26451000	-0.36891874721683	-70.6561427347032	-72.0895839649107	-83.6843034249102	-70.1328672973942	-58.8094783416364	-0.36345899743617	-70.5926506545278	
26700500	-0.229002404147333	-69.4985903203978	-70.1246020400395	-170.50673966925	-71.0787524831748	-154.807005588248	-0.237070492092455	-69.9338055901577	
26950000	-0.367122663575579	-68.3913258122835	-65.7069016443762	133.377351479655	-67.6153330466939	146.719246184811	-0.415492260167724	-69.1554917020325	
27199500	-0.70723093812631	-68.775430426008	-64.1270811858958	87.7130300537292	-65.2185997331789	94.2759413010164	-0.800792434564785	-69.1255302363618	
27449000	-0.977435324330006	-70.8036597984136	-62.7179267929252	38.428532108879	-62.7522323669294	49.1815949433985	-1.07010214009687	-70.6013530195678	
27698500	-0.969028029439564	-73.3797696855416	-60.0488366275135	1.4836871776729	-60.2403436564393	2.56772864490465	-1.02309928927714	-72.636545409894	
27948000	-0.667436593333575	-74.8022423401794	-59.2738082284488	-44.0291154314238	-58.9553951272321	-38.6446428377556	-0.699093660090207	-73.9880977148743	
28197500	-0.337587752402836	-74.3793190265237	-58.4477793908644	-83.3768924697317	-59.1487526654001	-80.2914192975863	-0.361971319591455	-73.7823949654858	
28447000	-0.250480191265499	-73.1807658959764	-59.5138548881059	-127.391310818868	-59.6234736021291	-126.620223589251	-0.270320867003064	-72.9151694840092	
28696500	-0.458587829724186	-72.552026672991	-59.2332497846804	-168.573963537127	-59.4618305518958	-167.683012050979	-0.47780294779031	-72.4185314304344	
28946000	-0.804455765614262	-73.4210866729305	-60.0125844461077	151.864110818333	-60.9197667924492	152.267969013867	-0.836733665943332	-73.3959918429229	
29195500	-1.01562800376948	-75.7986290712494	-61.3418766173152	98.5446905604425	-61.9491824845995	99.940629365388	-1.05147133638554	-75.8481228815952	
29445000	-0.915582768793431	-78.2903897146095	-62.4519267322873	42.7150311112863	-62.506051625487	45.6368277679284	-0.949237807821247	-78.21707884968	
29694500	-0.581933171134337	-79.075155355737	-61.9562047405897	-22.2329618020101	-62.0272312211992	-17.7568426297196	-0.672074303510995	-79.0871215750604	
29944000	-0.336028048896167	-78.129410581435	-61.8376144876107	-83.4707422946333	-62.792019176809	-78.9036526406512	-0.420095064562256	-78.2075647698077	
30193500	-0.359153547622318	-76.7448979963222	-62.0880608340392	-135.575303721454	-61.3387009445519	-137.679114902774	-0.433866890323255	-76.8928093902574	
30443000	-0.630958415688762	-76.2496560936276	-60.943387715244	178.109535342568	-60.9052627755593	-177.597075423998	-0.696894396901936	-76.3002066404687	
30692500	-0.960919082803713	-77.4922354709282	-61.4360629690781	144.567812985938	-60.7123873698751	141.711280932742	-0.984528795304155	-77.462306153929	
30942000	-1.08862017936266	-80.1091468226554	-64.0125305263642	101.16190497609	-63.2368755120059	92.6105207829284	-1.07330400299419	-79.8916696565393	
31191500	-0.860497859766298	-82.3694882429991	-63.8069941399308	75.1232605837901	-63.4575143792006	71.1943871278954	-0.837132027966704	-82.0716395734051	
31441000	-0.481345527479107	-82.9223999223423	-65.3930277061021	50.0524156475971	-64.2424309126789	41.6831817811208	-0.49908715762326	-82.6193614167354	
31690500	-0.272386579238454	-81.9981937883151	-66.4247227612427	33.5566809298088	-65.3850364708214	31.4446245544635	-0.321138904174567	-81.7650276729416	
31940000	-0.367180460642355	-80.9769443621295	-67.4317017795173	21.6656123027031	-67.6471760058643	21.0148551957915	-0.461019791916427	-80.7728158272408	
32189500	-0.710726714220019	-81.0120855431374	-65.6805830016821	-3.30217948082521	-67.9802011385138	-1.92311451876932	-0.825296664185034	-80.852146033459	
32439000	-1.03078906933782	-82.7890293005832	-67.0639604881026	-32.0527433099595	-67.1894223989051	-27.8002518923154	-1.13066639554553	-82.5368445090025	
32688500	-1.05764620874396	-85.3110147545989	-66.5014894095215	-53.3193755021455	-68.5800505126659	-52.2372278835244	-1.15193017028418	-84.9281008625277	
32938000	-0.802277471619976	-86.7976984821606	-67.7211157566213	-60.8781223072469	-71.7385407113135	-61.4439802991062	-0.85091341611261	-86.6823668561678	
33187500	-0.485204057020647	-86.5286110640852	-73.2989565139055	-91.306798736061	-71.5128197065177	-71.7236960314274	-0.491165432578651	-86.6246707536829	
33437000	-0.364394292641175	-85.2221467388138	-72.882561851765	-93.3372347454203	-73.0820696096119	-77.7567321909562	-0.360605365903345	-85.5312433475997	
