!Keysight Technologies N9923A: A.12.45
!Date: Tuesday, 05 August 2025 17:57:17
!Timezone: (UTC+08:00) Kuala Lumpur, Singapore
!Model: N9923A
!Serial: MY61181427
!GPS Latitude: 
!GPS Longitude: 
!GPS TimeStamp: 0001-01-01 00:00:00Z
!GPS Seconds Since Last Read: 0
!CHECKSUM:0674422165
!Correction: S11(ON U)S21(ON U)S12(ON U)S22(ON U)
!S2P File: Measurements:S11,S21,S12,S22:
# Hz S DB R 50
2000000	-0.0647872087390259	-4.80027685400093	-81.4612682559224	90.8697763946464	-79.2950291370995	107.019989888756	-0.070154672259983	-4.81848206971012	
2249500	-0.231052277325082	-5.69315497830881	-78.912958600613	108.424601737102	-73.9140745263173	27.6601465580247	-0.230709964556643	-5.6898719092876	
2499000	-0.30538756667121	-7.09461422088338	-60.6808372470765	27.5701182966177	-60.6783445354612	29.43466353128	-0.31227494655769	-7.06758686327511	
2748500	-0.216873486681956	-8.39600219404091	-62.8333207980694	-72.2013288353528	-62.7239026398238	-64.0420978674994	-0.226882784076745	-8.25921163174507	
2998000	-0.0446986807156841	-9.15496669375481	-64.5339778940603	-166.568166954494	-66.5452472090957	-162.831137819839	-0.0735346081987186	-8.70063835312021	
3247500	0.0673541132911153	-9.29349976531901	-72.561067021362	-110.901221136585	-75.0239127695984	-118.194392519747	0.0596724847564173	-8.95874291731002	
3497000	0.0334630839840568	-9.3007319796781	-71.1779308497472	-123.688957413806	-70.2336125224722	-114.493635060746	0.022713931095253	-9.03935935967387	
3746500	-0.132243128209583	-9.71058953997332	-64.1895104503642	-136.700236186183	-63.8530241313828	-137.689083333556	-0.138484994156122	-9.47152773347446	
3996000	-0.297028133366305	-10.7969981044836	-64.7799410496035	-165.073335726974	-65.6894556629842	-164.124075939817	-0.28118333278945	-10.5321848851031	
4245500	-0.306760980525404	-12.1797304705292	-75.3526611185588	103.345212633416	-74.6009383369785	87.327547303042	-0.295759719675808	-12.0082930986008	
4495000	-0.17141746614786	-13.3985339598873	-80.2248179470354	-3.15806096883112	-91.3921092786404	-113.396872321405	-0.16431396423796	-13.1438828121789	
4744500	-0.00250437506921103	-13.8821087997911	-80.3340699748179	-124.359174448485	-78.621811739619	-94.3647718657197	0.00481541346240021	-13.6382141653941	
4994000	0.070461978380042	-13.9033225126083	-73.8851323332081	-116.230451435553	-71.5946587088624	-102.628630870196	0.0693585439022119	-13.6326019441834	
5243500	-0.01898365400928	-14.0062387728079	-66.0317460554728	-120.754628907821	-65.8145846185323	-123.607571091876	-0.0167477250382669	-13.7061047414068	
5493000	-0.215346632645032	-14.7413201598598	-58.9770140854912	-137.323446516539	-59.3398239032313	-139.960814744211	-0.196511769685881	-14.3362979667816	
5742500	-0.411297093553022	-15.7977127475313	-52.4884227890905	154.544495327166	-52.5519908619002	156.14860015291	-0.313067119447409	-15.5886729914705	
5992000	-0.422996627734509	-16.9102935191739	-53.0712937963618	130.064628181477	-52.9711298738659	128.484000171731	-0.274014269184082	-17.0660835903509	
6241500	-0.121995328013395	-18.0266390533043	-57.4019668770038	81.9920691969246	-57.3997156443223	78.2918119985496	-0.124381045422209	-18.0381184705058	
6491000	0.0263028100692092	-18.4225655705957	-56.5771610587545	68.6737065746633	-56.9685162638894	69.6852050002523	0.0338545731664462	-18.4515017885942	
6740500	0.0345574624778004	-18.4461295872423	-46.2010912247629	11.1343745941891	-46.1556177744946	10.3048980924305	-0.170424004599306	-19.1756603149425	
6990000	-0.112938274132289	-18.5232008931381	-59.4962393620423	1.71120645722121	-59.071177980028	-1.02286794155218	-0.0778395756882611	-18.2958278112818	
7239500	-0.267831969165918	-19.3231111416026	-63.0141994413488	-47.2264544767603	-63.630502976623	-48.3446412873431	-0.246818589095253	-19.2642300457866	
7489000	-0.337859010547628	-20.8721650409432	-70.4902419604497	-46.3668839538195	-67.6184587380248	-49.4950593713164	-0.324412872550993	-20.7950195176313	
7738500	-0.250968430192103	-22.332356565214	-69.911935706972	-48.9567437702664	-71.4152552460427	-39.1888355967236	-0.243472665812021	-22.2118228299942	
7988000	-0.0687375477928132	-23.1396382549792	-83.244790172175	-81.004499932865	-78.5646418513925	-52.7366963934526	-0.0760590046587107	-23.1480054609023	
8237500	0.057805279470934	-23.2579446421599	-88.2184866027202	18.6825589532695	-85.665362898925	-16.4171613721958	0.0229359075067352	-22.2083870067862	
8487000	0.0261744273019237	-23.2221620483679	-72.0205849863344	77.0593886762654	-73.2764264982648	78.2442806021471	0.0263035586548993	-22.7098898239079	
8736500	-0.140871015312381	-23.6335063446984	-67.0604175872253	67.7444563125965	-67.9095808779456	65.7776231849578	-0.130543805838985	-23.1737672436999	
8986000	-0.312770731367618	-24.8896289482846	-61.8668871946547	55.4826199450959	-62.1492410178348	53.85199683786	-0.294702400397938	-24.3635661939547	
9235500	-0.359054006109829	-26.7603604230437	-56.1450654872325	46.1821087605044	-55.950149574578	44.9623842758181	-0.322827086376195	-25.9368959196097	
9485000	-0.276859759698067	-28.4340992768001	-49.4585937138528	24.5997195267819	-49.4288987562399	25.1286435790066	-0.201898479966069	-27.3367332047427	
9734500	-0.22397860544617	-28.6042896281395	-43.4358547535957	-27.1912581900657	-43.282252629154	-27.673583215791	-0.0375081519733014	-27.8870482870986	
9984000	-0.0555801228261404	-27.9726649266154	-44.1766253335592	-80.3897091175968	-44.1392769316559	-80.0777200180081	0.0447349929611064	-27.8366048094552	
10233500	-0.0978942857618693	-28.3779794437893	-45.1421711398558	-102.028602662227	-45.0998956971792	-102.088428293508	-0.0315451371829956	-27.9236282724073	
10483000	-0.301216226776094	-29.6224738611729	-44.1196009780523	-114.089222080996	-44.1026165994616	-114.806344922845	-0.218312345770748	-28.6118204042043	
10732500	-0.530932805843333	-32.0839008668779	-41.2066660077043	-127.257098336085	-41.1164445047568	-127.546870881732	-0.353071503504369	-30.1567689945644	
10982000	-0.956409213864474	-35.265465840631	-35.6732906922001	-155.251117893332	-35.683122151769	-155.790934474346	-0.349539145035087	-32.0335726662301	
11231500	-1.28204627085107	-29.6309790476544	-32.7726374944432	136.544896808594	-32.7808646405896	136.241479414522	-0.235510141209308	-33.2963917410197	
11481000	-0.390663469723796	-28.8876132750064	-35.7061404021984	95.0702251841336	-35.6765477513894	94.7062633760308	-0.0801047600972142	-33.9379886024126	
11730500	-0.186225419888057	-29.6923563795878	-36.0123394811873	61.7075449081654	-36.031369697629	61.4075809766507	-0.201103960126148	-34.5634060746709	
11980000	-0.264352061874734	-29.8771790217498	-38.4694719623538	50.9746159131964	-38.4928481330799	50.5707213052079	-0.339640085577582	-35.1995963036246	
12229500	-0.383642691008475	-30.9809718716028	-36.1032387540943	27.7297967229965	-36.0564511660991	27.6302542329025	-1.09191555302605	-37.8855005722847	
12479000	-0.469568596210031	-32.8993060187417	-33.3506019856635	-34.7824905060545	-33.3173677433847	-34.8319293122105	-2.06166029067108	-29.2497455452933	
12728500	-0.366970630725239	-34.8154929416868	-39.0943162304683	-87.3517553106942	-39.0448331201982	-87.9204142481857	-0.58886224713464	-30.1021149686663	
12978000	-0.172701018092839	-36.0252016847676	-44.3947372935751	-112.081078480657	-44.3230643706558	-113.094667255802	-0.160917967036741	-33.3988154024107	
13227500	-0.04916108387486	-36.3818123394472	-52.3576079744186	-133.626046621017	-52.1402762899017	-133.296345974775	0.0156819772815384	-34.9556255235328	
13477000	-0.141289560657775	-36.3311984540658	-41.7380215307489	-21.5170916316069	-41.6469093124759	-21.9877098529594	-0.15112140142254	-36.7755853399792	
13726500	-0.24787620928831	-36.5630422847131	-35.8971179454819	-154.65966560061	-35.8631495481959	-154.99922578542	-0.47093345740561	-33.9486388838505	
13976000	-0.426083406916565	-38.3011004967917	-42.4359525456211	138.956328368593	-42.3699191016853	138.872921555449	-0.447834938697655	-35.0408102623651	
14225500	-0.579618842523439	-41.9953913777149	-52.2392225575639	130.885827365069	-52.3541474554094	132.044115178131	-0.396936337367236	-37.0692821868315	
14475000	-1.78280333127804	-38.9090617036811	-40.7011067811465	108.038035371848	-40.6770000975861	107.881361426957	-0.247466683348267	-38.8555624550343	
14724500	-0.475332096590642	-37.952305006651	-47.5109898419139	16.2732915480094	-47.5538975085825	15.3878157074718	-0.0476425659558878	-39.7616919072777	
14974000	-0.208939473601267	-37.9441168574733	-56.0814340411509	-28.9359088151379	-55.7654183108956	-28.2861496658294	0.0609841508943349	-40.0294120087218	
15223500	-0.168672013713152	-38.4189716325812	-59.7320557050877	-42.4816566856281	-59.3943486411056	-43.8944581950462	-0.0150809801690619	-40.1730777759749	
15473000	-0.359363998459989	-39.5896576923558	-58.0182591698327	-65.9137751329225	-57.7330333991533	-65.5716128814853	-0.203816072441803	-40.9807446826514	
15722500	-0.716258236310397	-41.5299809570487	-53.0927566242364	-105.98031167589	-53.2468330505593	-108.772666870878	-0.352959191755678	-42.6091430262149	
15972000	-0.596786971174712	-40.4826008462447	-55.5928944322018	159.176003469839	-55.8565273277826	158.745434614051	-0.361403194369123	-44.6063467703757	
16221500	-0.236452648133436	-42.7784252990818	-67.6285154135735	133.39975774686	-68.3053305777977	127.033966866407	-0.258844191756426	-46.3574202882397	
16471000	-0.028665090078859	-43.7217155115816	-73.1886348140508	-88.3044691240516	-72.3777473031452	-75.290335605058	-0.0689466978108355	-45.8729516579847	
16720500	0.0271257632830581	-43.8523807680818	-59.6731682105577	-113.016059589986	-59.6445604006978	-111.313311263532	-0.0388206743936332	-46.6161619754569	
16970000	-0.102418957958855	-43.9870291570345	-52.9912006407708	-137.040027497976	-52.8745290744909	-135.168847003235	-0.224815089037814	-47.324387464178	
17219500	-0.328962797218695	-44.8268657000602	-46.9448707902395	-167.384921806207	-47.070824620985	-168.505796912818	-0.529807585726332	-49.0703964565351	
17469000	-0.462045496532132	-46.2518262973103	-42.7197149255394	146.070928383318	-42.7478843325726	145.620658854827	-0.889185702447209	-51.5794887760079	
17718500	-0.377683536346927	-47.8184656010263	-41.1974281648248	97.3888610577688	-41.2725552933241	97.3663989521027	-1.2468194679948	-53.3079369298201	
17968000	-0.171437109405037	-48.9881260858708	-40.929541895195	54.2555836134239	-40.9106438285442	54.0151660902581	-1.54499685035063	-51.982706067469	
18217500	-0.00889062173326391	-49.2828782809081	-41.9501380829827	8.87625716782558	-41.9171033228914	8.48049198013758	-1.39916237956172	-47.1945241300323	
18467000	-0.0180796971229595	-49.1373190166916	-43.9039632351595	-4.75981038852923	-43.903948516576	-4.33023315475066	-1.16720629593688	-44.2872898523848	
18716500	-0.184674989898251	-49.5447425078719	-44.8615359095745	-31.0548705014389	-44.9868395135479	-31.5429964737371	-0.903035689095193	-43.6106818747218	
18966000	-0.391643428964139	-50.7817299366493	-44.9743431198302	-51.3097427714766	-44.930710917471	-51.8884350616859	-0.890832585543054	-44.5318413302552	
19215500	-0.475723449308417	-52.690089476552	-45.1783273473812	-73.3449816759929	-45.0144608922535	-73.0728755798384	-0.781591812026654	-46.3687548795815	
19465000	-0.40037201367912	-54.4343861164453	-44.6314869819222	-94.297862354468	-44.5689799762322	-94.6998650579362	-0.562873778404425	-48.4216568754942	
19714500	-0.24909160761608	-55.2594917466265	-43.6117226922107	-120.729515150607	-43.6447775381656	-120.106083181446	-0.276632179007428	-49.6996467683524	
19964000	-0.189982119958297	-54.9025537487079	-42.6532499158302	-157.932980342061	-42.7014486984424	-158.302133673217	-0.0942159737023281	-50.1068594250806	
20213500	-0.211695670687586	-54.5003443639912	-45.5782159429791	151.149554829673	-45.502607718979	151.007835635431	-0.118330041308411	-50.2063085317185	
20463000	-0.474136150573767	-56.0994997458644	-54.4558242011756	178.27263201701	-54.5910124318943	178.859945887442	-0.268206977685618	-50.64120420117	
20712500	-0.984022891944573	-56.6117218325723	-43.7424274294768	167.296772630434	-43.8647168770158	167.168050414756	-0.411418381934219	-52.0949059103881	
20962000	-0.85229885872894	-56.8992628450195	-43.9388522835533	114.860225911774	-43.8207720545028	114.812169870514	-0.416929975107416	-53.8737577781035	
21211500	-0.614083757843206	-58.6898625643886	-45.8581522384456	88.1755071936572	-45.8811303373536	88.2314977382368	-0.267335203947952	-55.4314957594326	
21461000	-0.443662646346657	-59.5479369310155	-47.324615494838	76.4693906832264	-47.1448036817744	76.5023044518428	-0.0632712431738408	-56.1785911999482	
21710500	-0.535687880556074	-59.2748581690176	-39.4633916602469	83.7207802872461	-39.4220550665033	83.6090209242951	-0.0732220745077942	-56.3808403380067	
21960000	-0.788730173406952	-58.8792444975452	-39.5096019819642	13.4933642488229	-39.5408641179784	13.0360670115599	-0.103981525616508	-55.9580205691503	
22209500	-1.18101396940601	-58.1480662306262	-39.7901461299016	-22.4632477995725	-39.6871697123725	-23.0691250132565	-0.289194592324326	-56.8141476739216	
22459000	-1.28689109516063	-57.642944654555	-39.6044626493063	-58.6405756914696	-39.6417168327082	-58.7135941132674	-0.406392271737985	-58.4834313630453	
22708500	-0.990598626819929	-58.3954486740858	-39.8435991030958	-94.0504065739971	-39.7152728554395	-93.9835269549697	-0.366113241852274	-60.3125518140586	
22958000	-0.56851286252148	-59.9846989883208	-40.1151654251984	-129.442383219542	-40.0653668521807	-129.759295613629	-0.192659445923691	-61.6655856303517	
23207500	-0.353800266445186	-61.4602949116764	-40.7791482137235	-170.227208327417	-40.7889369284549	-170.810611621991	-0.0315239070187241	-62.1469951704499	
23457000	-0.609385708030728	-61.9654724909695	-46.0772131629236	162.429829183829	-45.9567799631011	162.766100406333	-0.0397680805526397	-62.6464050808917	
23706500	-0.88603258506458	-57.8981400944243	-41.6543456947437	-147.137858125419	-41.5751887399711	-147.369478279995	-0.443558060817711	-63.6063828051093	
23956000	-0.802299906127288	-58.7819589935227	-35.28965468328	125.459748421557	-35.3596398102803	124.757606495552	-0.7793650755194	-61.8489567231148	
24205500	-0.759937446366482	-60.706827082199	-38.0248657431274	70.090840710074	-38.0652471332019	69.5958613161911	-0.596204337512071	-63.5206954401594	
24455000	-0.591804033049563	-62.8296649868777	-40.3895003577726	36.8069365934424	-40.3748220184215	36.3580979550446	-0.428062709474064	-66.0490976584864	
24704500	-0.375509268758535	-64.0714792179397	-42.2014697335276	8.22689966335981	-42.1925026537236	7.75670063142872	-0.245418708133556	-67.8871139975439	
24954000	-0.242141820371917	-64.0613994412922	-43.8631124522523	-17.7492725937282	-43.8109823110052	-18.3944851705676	-0.276396930957415	-69.3074875204246	
25203500	-0.259090813722268	-63.6985425707795	-45.0670895955851	-38.3849313507733	-45.0978328663231	-39.0374127742812	-0.85387800801527	-70.4142249232555	
25453000	-0.408860379869115	-63.8220308638609	-45.0636761342347	-67.5154255348734	-45.1390056441932	-68.6400890412625	-1.82116531308782	-66.1070044890067	
25702500	-0.561903957363732	-65.0949914649212	-47.1785832346886	-101.996028351637	-47.565264936581	-102.685231981519	-1.51216505334146	-61.6742329947089	
25952000	-0.564249211438245	-67.0714616523811	-50.011259411576	-121.245683708246	-50.3378292078592	-121.833142510171	-1.02772226262751	-63.3264031066506	
26201500	-0.397364171340776	-68.6284037317944	-52.8437793340109	-134.56349650572	-52.6271534843885	-138.146227204194	-0.616234442814838	-65.7395258406328	
26451000	-0.157764364755688	-69.1394334757078	-54.9132017411787	-157.391874288903	-55.3761703675404	-158.407502090419	-0.265082867511621	-67.4313945314515	
26700500	-0.0457822869239974	-68.9606746237375	-61.8062922414157	176.500820651756	-61.3095419302114	175.956641285846	-0.10273542788951	-68.595801884065	
26950000	-0.129652611670112	-68.7463037831214	-52.3312269344319	-65.4609136556641	-52.1660033504689	-65.5911520165775	-0.653238445625896	-71.3308231589898	
27199500	-0.335956872344448	-69.4152114279364	-48.0948684128406	-166.090811290308	-48.3990862534337	-165.132319712216	-0.745528999766971	-65.3908246660965	
27449000	-0.487664131498419	-71.0325437727699	-50.4558901902762	160.581496865776	-50.5840815655479	160.342124007919	-0.615182191295561	-67.8579472708528	
27698500	-0.487866394613797	-72.9931753343638	-51.3882141207473	136.033479363952	-51.2656600334357	137.243761993051	-0.527594702314762	-70.2706397728037	
27948000	-0.316912321005289	-74.336351292809	-51.995796232235	107.485359731485	-52.3362568982164	106.50721362858	-0.319503340670306	-72.0734852392168	
28197500	-0.12776178654759	-74.4979486907952	-53.592746803887	75.9583914294888	-53.6199756138928	77.2109385870341	-0.104578612315132	-72.7052531602573	
28447000	-0.086944957887768	-74.1892930385188	-56.6961418364008	48.9831768874117	-56.5059340683744	48.5915034578608	-0.0416693483188218	-72.8398057160973	
28696500	-0.218968708562247	-74.3044165992221	-60.8773870932287	19.2886007275943	-61.5694549583384	20.0186194608602	-0.159643196136972	-73.1206763953336	
28946000	-0.41299034358878	-75.3827526895232	-66.7507815250005	-39.108318898613	-66.2233397213068	-42.2186497328841	-0.362797637476255	-74.3457706930833	
29195500	-0.509011375799509	-77.4001799811955	-64.2655727455952	-112.309984670118	-66.2943917304462	-106.803601538399	-0.472079219383665	-76.5820434226997	
29445000	-0.42239398478685	-79.6108016983585	-59.4321421310027	-163.729436041192	-59.5160190738825	-155.187405017912	-0.413523823843563	-79.0529440390651	
29694500	-0.201124620379665	-80.9451501457465	-53.6054212482109	168.908803382309	-53.652720859357	168.555034853712	-0.306538705646614	-81.2420762956728	
29944000	-0.081437641590528	-81.4607721408596	-46.9749143258914	131.008787315038	-46.9785178283076	129.940839959852	-0.511295429545778	-83.5362548726096	
30193500	-0.212363415243596	-82.1030019210028	-42.248965807522	54.6348595145684	-42.2725297918894	54.7299748766337	-1.77776063966274	-78.202276710168	
30443000	-0.740165610310437	-84.0032208333001	-51.8517306734795	-31.5444526614674	-51.7778735514171	-31.5646983910139	-0.83673013972105	-73.185353868221	
30692500	-1.87000375938276	-81.1761263878717	-50.0075045733929	71.8604690145689	-49.9446813140954	72.8174732328138	-0.693658324765858	-77.2808960262897	
30942000	-1.25694387405132	-79.1884751449001	-38.145344764176	49.0570426593328	-38.2621631029531	48.6099045902885	-1.51344669424045	-80.1961598396577	
31191500	-0.893565267030775	-81.7531440929639	-37.9678350854727	-42.4962804595265	-37.9791321610548	-42.710591290756	-0.822366584865567	-77.5556827422121	
31441000	-0.597445623947612	-82.6594781617073	-41.0810804177642	-86.2283248402195	-41.0695984566687	-86.9122051785442	-0.349975521310567	-79.341929904981	
31690500	-0.421633343898213	-82.5667817653484	-44.1551221450193	-114.555576691795	-44.1251304363566	-113.93905217293	-0.13655164312967	-80.1036079521031	
31940000	-0.466248469898053	-82.6270071009651	-47.6685551033865	-118.021590673939	-47.7771825505765	-118.967831528941	-0.210840226716064	-81.1006765164376	
32189500	-0.732426537499449	-83.3249179000817	-37.2284676359711	-116.801329246793	-37.2709938061447	-116.871086866735	-1.06152267304309	-80.9210284061039	
32439000	-1.01542255892796	-84.7416471975671	-38.9872630451459	164.627704918269	-38.9168059392668	164.785149311973	-0.630480082562159	-80.4483110366684	
32688500	-1.03057864625826	-85.329612565651	-41.8164971737082	116.420426276637	-41.7736556578597	116.344469255587	-0.564387013714584	-83.0247663130011	
32938000	-0.639705860675207	-86.2167046939781	-46.7172819757441	76.3139150612115	-46.7910229335382	76.5503543837762	-0.366084402421879	-84.9548995173085	
33187500	-0.305960570627268	-87.2213556349693	-52.5564498349074	54.0291696117116	-52.6322224677468	53.2211495957721	-0.1414522819325	-85.6256524990538	
33437000	-0.201510280595134	-87.7459389123454	-58.344496570037	47.9376968006745	-58.4480053791752	47.8963073233381	-0.06248523872215	-85.5718407437654	
