!Keysight Technologies N9923A: A.12.45
!Date: Tuesday, 05 August 2025 19:09:19
!Timezone: (UTC+08:00) Kuala Lumpur, Singapore
!Model: N9923A
!Serial: MY61181427
!GPS Latitude: 
!GPS Longitude: 
!GPS TimeStamp: 0001-01-01 00:00:00Z
!GPS Seconds Since Last Read: 0
!CHECKSUM:2055309026
!Correction: S11(ON U)S21(ON U)S12(ON U)S22(ON U)
!S2P File: Measurements:S11,S21,S12,S22:
# Hz S DB R 50
2000000	-0.0624105238371726	-4.12502233010008	-76.8192226610284	100.384214641461	-77.0192334484308	83.3266270502582	-0.0727083665355939	-4.05075719406059	
2249500	-0.334733033569667	-5.0083723673477	-80.6041742089381	148.038091033645	-78.8750250017669	129.453935654333	-0.339184736920604	-4.97156256509993	
2499000	-0.455539920874214	-6.84422885313229	-66.7288978489394	133.125420320042	-66.1722570119187	133.432282957434	-0.506757505484561	-6.6976433668007	
2748500	-0.326196566268444	-8.71187597147115	-60.3615972705776	50.4414631556118	-60.0084824138875	54.80644505379	-0.328821664117916	-8.15047014985303	
2998000	-0.0458816126403675	-9.26086175004905	-59.9291855493187	-48.6331273318494	-59.668517050051	-44.0397646066758	-0.0380319601145785	-9.12276899197617	
3247500	0.152164569299904	-9.24458011406726	-65.4272719573313	-89.0228743280084	-65.8710384808808	-83.2003165898526	0.135111768827892	-9.12858205580926	
3497000	0.0909505202391701	-9.02324104764518	-64.8875375164337	-113.431041670565	-63.9796742934933	-109.993039402536	0.0746544193137375	-8.92146994560874	
3746500	-0.209006719318741	-9.10982808841869	-64.4675731802972	-179.243124475018	-65.1781337410366	174.191665507197	-0.178267952346718	-9.26567237316694	
3996000	-0.432078160694155	-10.5710083123499	-74.9486822665014	-145.656293755548	-74.2946229915211	-145.217553636887	-0.413821152999515	-10.6307569871119	
4245500	-0.455913103501309	-12.7088751168045	-74.0579267708657	-109.706042184736	-72.3378513097783	-119.174805298877	-0.440237047646231	-12.6448929831153	
4495000	-0.264008905581103	-14.4936099007383	-59.9991085018802	-112.44233489442	-59.4136431300834	-111.748197929013	-0.246156265097512	-14.1570582060532	
4744500	0.0262072482320582	-14.5873485144942	-46.2385755164146	169.386896811426	-46.3940334311658	169.605445873408	-0.0809773429270445	-14.2462232831124	
4994000	0.0940949945422177	-13.8470732604784	-42.2362910806454	53.9962767808303	-42.1760765339629	53.2911117967788	0.0960964671517379	-13.2164295036787	
5243500	0.00373596729011786	-12.9762184374879	-47.9270070400012	-40.7749477924358	-47.9591107356561	-41.5527933056328	-0.0187719200271733	-12.625972758932	
5493000	-0.265535867494978	-13.5431119118159	-53.489195286482	-79.2755505089106	-53.6742035883565	-79.0549094717994	-0.274975083732803	-13.2835260512866	
5742500	-0.473906441404712	-15.3321580860251	-55.6395169850838	-100.056791135042	-55.6473486215157	-98.8503023908923	-0.457353737026617	-15.0843150663164	
5992000	-0.433310147531206	-17.5721493872199	-54.357932207723	-122.944514611503	-54.4022692821959	-125.262086519527	-0.399029908868024	-17.2632139933947	
6241500	-0.236817082287515	-18.9039765881285	-50.2914664266081	-167.779099052202	-50.2757160958384	-168.270342723794	-0.153367383219077	-18.593558905569	
6491000	0.015561601128504	-18.2220268986244	-50.1234816850782	122.166754368358	-50.1759332225196	122.708770052982	0.0919452199130383	-18.8497158316179	
6740500	0.112247924073813	-17.8572146595897	-52.3048383076958	82.3789145188452	-52.3508573397543	81.3943907094388	0.103404017211271	-18.5977434351296	
6990000	-0.0952737829799676	-18.0021831416173	-51.7202237199874	49.9203911872095	-51.586300950555	50.7076066513805	-0.169191618755636	-18.6874459306372	
7239500	-0.424476720300487	-19.1837359641618	-49.1099006016593	0.871904076920787	-49.1070202476866	2.24915681199057	-0.578517078410429	-19.18118019238	
7489000	-0.571369676233416	-21.1083252991891	-50.0554324520183	-57.1350185638209	-50.007935916685	-57.1096690060541	-0.646653371594949	-20.0067764506713	
7738500	-0.411969099327424	-23.119114127222	-52.2652368338814	-91.1209508273829	-52.2519860287618	-92.0944962236757	-0.406521669510809	-21.7499942755495	
7988000	-0.14360681748095	-24.1148396733095	-51.269191154234	-120.927364897617	-51.0989376126974	-119.925591993995	-0.078138879384012	-22.6951377548858	
8237500	-0.0347727503927453	-23.2985497002479	-48.8921989791242	-170.569858143428	-48.7173370553711	-170.143437835532	0.133443571560044	-22.566410576364	
8487000	0.00306434471619126	-21.8199668996654	-50.3292196465451	133.123457665242	-50.3292759111484	131.914245138853	0.0856623895576949	-22.1771616494853	
8736500	-0.196211062547338	-21.9769029215737	-52.4227963110285	98.0014399464669	-52.5275966256614	97.9259003803077	-0.177345460389405	-22.5154670390197	
8986000	-0.463701670160088	-23.5631283612458	-52.1479001681532	69.0018979842485	-51.9225882164157	67.8492756603122	-0.468067061700953	-24.1702177831794	
9235500	-0.545852612947879	-26.1164813311952	-48.8473626798064	32.1664913496995	-48.937739333327	31.8506338473618	-0.571911475187082	-26.5661908510661	
9485000	-0.418117183532262	-28.069373575706	-44.266254726048	-27.128236553474	-44.3924333747369	-26.5957890000575	-0.477183157095889	-28.1972331544249	
9734500	-0.193063333811218	-27.8045472060063	-42.5216740508748	-115.382293918857	-42.5176933567567	-114.369407843127	-0.237203301324942	-27.7452904809826	
9984000	0.0259380291188076	-26.7487992869902	-45.5346475512492	164.137717246911	-45.5450389371504	165.208333737809	-0.0441122693968797	-26.5119851772786	
10233500	-0.0377970278235651	-26.4577746207242	-49.3862318286791	110.639405468535	-49.3728162561376	110.674818387524	-0.0774789933285009	-25.8884372725787	
10483000	-0.329670262934204	-27.3031174208219	-51.2487810023563	70.0953918473666	-51.5510327897643	70.0444884186472	-0.322607472505474	-26.4643961939782	
10732500	-0.589988645966101	-29.4304012207061	-50.7893704748697	31.1481171758059	-50.987130159925	32.7960582376221	-0.52205883452006	-28.3912805108403	
10982000	-0.629110828254646	-31.7809345825543	-48.5788034504094	-19.8270845681139	-48.7157264681278	-17.4208420763155	-0.485300421315927	-30.7513686147221	
11231500	-0.390837977423758	-32.6357792633819	-47.3719474891588	-87.1977557299129	-47.3950854319252	-84.4102514702798	-0.230466627714302	-32.3080473572031	
11481000	-0.0942936630821653	-32.2622751524924	-47.2326984542117	-152.231524536035	-47.1148796321595	-148.570256087612	0.015011683540162	-32.596131732844	
11730500	-0.0100978283412985	-31.1461391827447	-47.5072711992819	134.506386120462	-47.2536542579834	137.45459785397	0.00602714025357594	-32.0840402343478	
11980000	-0.160698562418939	-30.6410813532552	-49.2086842729832	67.7079754682041	-49.0794863322971	68.1806173535488	-0.276286960218431	-31.7302470423349	
12229500	-0.459868589317758	-31.6837873414734	-51.2168454321679	5.77253069222164	-50.9724162963938	5.76701363180664	-0.668607881269593	-31.9250619966799	
12479000	-0.649555069013466	-33.9553749682744	-54.2672595742655	-45.9972267498238	-53.9249077144296	-45.1355584846411	-0.768059520695118	-32.9971265350676	
12728500	-0.565611595295873	-36.2661118528084	-57.2555406434031	-80.4414100710246	-57.1669108682229	-79.8194686531165	-0.545312190668645	-34.8685293576198	
12978000	-0.309505484354653	-37.0483862707811	-59.4965124128679	-97.732386165438	-59.0750008331108	-100.675557221846	-0.179055021390757	-36.0384107038519	
13227500	-0.0788219237356792	-36.2730732547777	-58.4222477762806	-116.791671419056	-58.2557102295339	-116.957271487565	0.0617518622081423	-36.0205168790792	
13477000	-0.0623097567713966	-35.4167727412729	-56.0314106233079	-142.752014607106	-56.0421429384833	-142.225133045494	0.0333319168392464	-35.7398518350393	
13726500	-0.294644428847301	-35.5968541457934	-53.1224198348547	-171.780025378987	-53.1933506892102	-172.697581803087	-0.258667288996395	-36.0724768723787	
13976000	-0.605510949706114	-37.2566663035912	-49.3774243635475	150.132300702476	-49.4011425248022	151.735814597357	-0.633245117496929	-37.6573990896227	
14225500	-0.749946982644444	-39.7665434212016	-44.659030365174	92.1607627752687	-44.5919578992033	92.1546995413334	-0.82853514315481	-39.51839735636	
14475000	-0.609055998198535	-41.0938485708713	-42.0584383046185	6.85211300050121	-42.0278379135098	6.38562870118892	-0.641143840175791	-40.4291887024642	
14724500	-0.207274649138687	-41.1758476736112	-45.7694025019927	-81.5397324656492	-45.7164655623835	-82.9097358439518	-0.235647430037422	-40.3489384751321	
14974000	-0.0762531538227924	-40.6086956198058	-51.7113570789381	-141.500456580716	-51.503711818399	-143.752988670216	0.0100790365808528	-40.0977367707967	
15223500	-0.192584889702936	-39.4186855778794	-56.5642609768249	178.343032997781	-56.5047710547576	175.085689084671	-0.113126956573795	-39.8848878133699	
15473000	-0.454107861773841	-39.5495962043506	-60.4248710581165	150.112315693582	-60.6319775383076	148.974248389135	-0.494319234681255	-40.4317642577262	
15722500	-0.699305817911812	-41.5758790602651	-62.6058305416976	127.808975448826	-62.813509347228	123.261969399604	-0.816657823459446	-41.6282121652592	
15972000	-0.710277948862648	-44.2359949130978	-64.1948146028564	108.255100583979	-63.5626582936023	112.836772631455	-0.778028775837401	-43.243362061617	
16221500	-0.493044588851281	-45.8566495572445	-63.1597815212714	91.2864714110791	-63.1096681929503	94.7913336722633	-0.443450870213879	-44.5474517204786	
16471000	-0.244071487715794	-45.6013642035632	-60.0777631376703	72.4727179543008	-60.5370615564799	71.3852359361628	-0.109940177850725	-44.7970917912799	
16720500	-0.140123054532673	-44.3946117277642	-57.7532841862005	45.5487195506779	-57.996383305182	46.3235046949526	-0.0227038750336608	-44.4126733665787	
16970000	-0.288356178249185	-43.7506368846349	-55.4156551470349	11.4149406906185	-55.3134240980284	12.238038726837	-0.254107000846757	-44.2819097393643	
17219500	-0.59960167962285	-44.6767792041239	-52.4604727283965	-26.584672713447	-52.4345427593863	-23.7996049024886	-0.657111483109683	-45.2539961938853	
17469000	-0.810158588560067	-47.0079588775612	-49.6676403261137	-69.4021175735882	-49.7254704206545	-69.9510181762994	-0.943037560772656	-46.879943207715	
17718500	-0.748397032994483	-49.2877132726635	-48.2710979916228	-120.230700558923	-48.1240541559161	-120.019186147907	-0.839064639751876	-48.3471382319247	
17968000	-0.474192592782617	-50.1010789688433	-47.7356207094899	-173.935034655725	-47.547721039694	-173.031782831531	-0.45635236075837	-49.0304680525946	
18217500	-0.196543618953227	-49.2946655345601	-47.9209149209482	135.770478288679	-47.7496105402579	135.900030795037	-0.121512510955885	-48.6307379264537	
18467000	-0.148510069601638	-48.1955644726108	-48.5352552919491	90.7780863141071	-48.4414191108065	90.3051841681672	-0.0850320106345031	-47.8929345878753	
18716500	-0.379646003190075	-48.1688206621144	-48.7216606440891	47.7118631038417	-48.6704770267951	47.3612139137218	-0.322314291325007	-47.9235322869216	
18966000	-0.71036458895137	-49.6105315877034	-47.9273078025947	5.31336147253014	-47.7124390086151	4.24414972836847	-0.6615549799832	-49.3765848957585	
19215500	-0.863154341124848	-52.1290468144682	-46.324375026253	-42.2856811708423	-46.3017149296871	-42.4416202944325	-0.846954181435016	-51.7792922753119	
19465000	-0.72714969624139	-54.1684477170299	-44.9864738872747	-95.4111841405341	-44.983977882133	-95.7117906272589	-0.748439934886961	-53.6346940845458	
19714500	-0.430291926020486	-54.5397161875765	-44.3781014098583	-153.991108218264	-44.4707901553249	-154.719532881632	-0.4456928731683	-53.8694460112761	
19964000	-0.239149677982145	-53.4659793326137	-44.6673192262922	149.50552648457	-44.8465381705642	148.320557328489	-0.218007282011342	-52.9040833419713	
20213500	-0.319356753659946	-52.3794197398434	-45.7431661070369	96.410460404664	-45.910744684107	96.3924974770571	-0.248045312335636	-51.9844387469914	
20463000	-0.630141290048763	-52.5978752906674	-47.1148234816783	47.5958272624513	-47.2973714238872	48.0874185356043	-0.506110630152703	-52.1852755685731	
20712500	-0.950858182724311	-54.3945835764732	-48.2433633662332	1.586601968078	-48.454563281972	0.877290933948026	-0.782949046957106	-54.0044295895361	
20962000	-1.02659065215532	-56.7749022097765	-49.6473504803989	-43.8073841269982	-49.5389627765691	-45.964685553188	-0.834969009222458	-56.4049777209705	
21211500	-0.775576464308364	-58.1104541436805	-50.2271482150491	-88.233134115201	-50.1094154318518	-89.7555242420802	-0.63818275609336	-57.9997389731072	
21461000	-0.418827342047228	-57.7670066182557	-50.4347757925422	-148.244621225957	-50.77150075248	-149.070352544029	-0.356796664408194	-57.8831302625983	
21710500	-0.245903066160125	-56.4926943224993	-52.1134943802382	149.836089766226	-52.541220070627	147.253337599731	-0.243249576210477	-56.7016563642145	
21960000	-0.372974031444208	-55.7595175196213	-53.7528364634249	93.3316264822422	-54.5998863768066	90.253088299999	-0.373890242400467	-55.7655220903871	
22209500	-0.704477822894223	-56.4645015254545	-54.8903096027176	40.7259542223789	-55.5315950351517	35.7380746454362	-0.674109664113115	-56.2921063263978	
22459000	-0.973344794059256	-58.7115040725535	-54.9061578783142	-12.0171185120541	-55.1968464403151	-13.6038929294792	-0.87278580711391	-58.4434556403727	
22708500	-0.941657169257722	-61.077090408021	-53.7507416101772	-61.7159308556028	-54.3191331973284	-64.61382127444	-0.808291476388421	-60.948888716264	
22958000	-0.630918497281011	-62.0249102345824	-52.6815563046074	-116.131737686548	-53.4054348916333	-118.622643738483	-0.533677432996275	-62.3779177018235	
23207500	-0.313691874227936	-61.4655112259116	-52.0261103043571	-173.924334101866	-52.3504491394059	-176.249076532878	-0.29347506000071	-62.0414299166629	
23457000	-0.262048848578884	-60.3286866313744	-51.2776558893534	125.094931644869	-51.5390080324357	121.67766386391	-0.285164551371921	-60.8619688472127	
23706500	-0.519310773190611	-59.6981497917873	-51.1463777399975	55.3040442220432	-51.4766208383789	51.8178152902218	-0.517820087467514	-60.2101360651283	
23956000	-0.849870256152085	-60.4596865136254	-51.8667779878749	-18.3586216489642	-52.1976048846585	-21.5371102345781	-0.840558713196856	-60.9944361985619	
24205500	-0.980498563505909	-62.8399274412201	-53.4068147145572	-84.8397892448083	-53.4047344045606	-87.9327418485816	-0.964153526793752	-63.1508871213241	
24455000	-0.808659884534468	-65.1611684769923	-55.7246918212686	-143.103817452521	-55.6452810961143	-145.789898774606	-0.773846612698224	-65.2323492722902	
24704500	-0.46379850042489	-65.9073099112414	-58.9578398640468	169.090878745138	-58.5548325593129	168.715276350267	-0.411803647386967	-65.8671248274252	
24954000	-0.203415929323314	-65.1152583283082	-60.439458854847	139.940001797879	-60.8002068698916	141.455268665575	-0.199175389976991	-65.2886321242265	
25203500	-0.21339241931973	-64.1870155680148	-60.6093398825647	118.044180078033	-61.2814877913998	115.421267713438	-0.280877266955677	-64.5065264899378	
25453000	-0.495761966457177	-64.1500073825005	-60.1747607816245	88.4641563887978	-60.4864791460813	92.359714758503	-0.60713009176002	-64.4282760734334	
25702500	-0.816063476679704	-65.8244538235223	-60.320038003133	62.328732091467	-60.085270080971	59.4415639238097	-0.954173929114733	-66.0150238938813	
25952000	-0.895743427753764	-68.5782229874001	-59.2554828981521	29.833473936485	-59.4471835059166	28.4899609616323	-1.0537504352665	-68.3951828792425	
26201500	-0.68786985993047	-70.5587471288493	-58.2173214344112	-10.3079643951177	-57.3644600803877	-14.3304645130649	-0.811029732197245	-70.1554180776735	
26451000	-0.371896637005845	-70.6454454717082	-58.8154342458356	-55.7835335965794	-58.6053802257703	-57.8754271873442	-0.463778708937746	-70.3748102790687	
26700500	-0.23091180279367	-69.4812870272925	-61.1462331275745	-111.561068412818	-59.8594606203058	-111.3101686531	-0.284493342070626	-69.2429382964132	
26950000	-0.370307874339896	-68.3822396819921	-62.9838032342729	-160.598677518231	-62.3212457087765	-164.096190900479	-0.388244409865076	-68.3060333809038	
27199500	-0.714920895004601	-68.7746423691984	-65.5325549235151	147.662413443391	-65.5212185305952	140.10052271946	-0.712161775334532	-68.5078289996026	
27449000	-0.987938568225987	-70.8286386777348	-68.6556452155978	88.4693742643525	-68.3482219343771	88.0146808647036	-0.962388730142214	-70.4863077823107	
27698500	-0.978679975525316	-73.4161531969608	-66.1100243694505	22.2184215991235	-66.4122947391937	32.0236502474734	-0.942403333217587	-73.0224854439909	
27948000	-0.673430961483441	-74.8166931369856	-66.0910577453582	-9.54473554695956	-65.3224356571261	-22.9245086737395	-0.672981151344903	-74.6649937403404	
28197500	-0.338906856617646	-74.3527834668789	-64.7476920452799	-49.3799101410183	-64.8315188006725	-38.5164764940051	-0.395832524757616	-74.414237997494	
28447000	-0.250815878447095	-73.1331148936226	-63.6117746363947	-77.8813303091925	-63.7513339948476	-79.5336762810346	-0.350822938488316	-73.2407831989593	
28696500	-0.462562724715702	-72.4945546741161	-62.0231650853822	-111.906182056607	-60.998825644729	-112.646504978102	-0.576724738902736	-72.2894209884561	
28946000	-0.814109729148997	-73.3833480133895	-59.605228409972	-139.130345140538	-60.1028689300628	-141.597326782232	-0.920268201770745	-72.8364694326925	
29195500	-1.02657076699428	-75.7724821054805	-58.5821209586846	-173.510823800959	-58.6473645712415	-172.097074513502	-1.08714805053183	-75.0231125413447	
29445000	-0.922729433835308	-78.2736800950016	-58.9886340552096	152.101620900255	-58.4413639700622	151.019406616494	-0.920808190779561	-77.374393107993	
29694500	-0.583338007400101	-79.0427930037084	-58.7305976908928	109.222236043245	-58.3924625732994	109.559753517991	-0.580813469240634	-78.4449161228721	
29944000	-0.334665646642032	-78.0817772160953	-58.9379833202167	72.1880665266456	-59.1070320471175	72.1262515273047	-0.300708952925443	-77.9367505629928	
30193500	-0.36009997558664	-76.6988083330813	-60.8623232528645	38.9107143497884	-61.2858434467976	35.1442525048024	-0.329150509308882	-77.0035735275302	
30443000	-0.639202321582952	-76.234344966275	-63.4409987315658	3.32465861151998	-64.5275054930766	-0.0708419078261713	-0.641298079194034	-76.6785748762743	
30692500	-0.974734980493143	-77.5219362278265	-69.3136704942869	-47.9405677135287	-68.3706100381517	-49.1745154002312	-0.990430767645334	-77.9667407466433	
30942000	-1.09870357855731	-80.1657631933119	-80.6722709568935	-130.131646123067	-89.8697457043234	-99.5161614865074	-1.1295516315382	-80.3750603732883	
31191500	-0.865108997194496	-82.4173622237916	-73.0646663372462	60.9152086101325	-71.2558600928969	53.7420074851835	-0.914604472272592	-82.3649329276042	
31441000	-0.481661950576517	-82.9193799168755	-68.0618702282729	22.6583186619697	-68.3831937021237	23.1904717678291	-0.566472647787298	-82.6043081285886	
31690500	-0.271765395618131	-81.9394045367456	-66.2313334474016	-16.3686096438771	-67.1026831765053	-2.10507927931196	-0.357536676409838	-81.4449525421535	
31940000	-0.369810419963146	-80.8962697065645	-66.7710933350547	-45.0499671326123	-67.8100113020978	-45.5698341988036	-0.451483102854474	-80.2655542171894	
32189500	-0.718308802695209	-80.9482746481171	-68.6771501181101	-69.1714675501199	-68.5971491820339	-76.0163961011454	-0.776025708417496	-80.3423942123261	
32439000	-1.04347708687675	-82.7722395211212	-68.6090113429514	-69.1221066142615	-67.5628167841454	-81.0581405899815	-1.05876777731275	-82.2125933697707	
32688500	-1.06618752118714	-85.3185489471487	-66.2465314946158	-84.331235233184	-65.9939126021788	-80.3332102382281	-1.0807694597727	-84.8866251688339	
32938000	-0.803704893311992	-86.7957055815117	-65.9154576330135	-103.675009008828	-64.7878253996269	-93.979916076206	-0.801108652640308	-86.8719471421367	
33187500	-0.481306578941388	-86.482731006247	-64.8180784212877	-129.817262997655	-63.944518910833	-127.176289414896	-0.473105742509117	-86.8884693379068	
33437000	-0.36276465219776	-85.1445517097396	-62.7995217108433	-168.236074039845	-63.1654625906796	-168.065588226347	-0.376456901365843	-85.7192535662144	
