!Keysight Technologies N9923A: A.12.45
!Date: Tuesday, 05 August 2025 18:48:41
!Timezone: (UTC+08:00) Kuala Lumpur, Singapore
!Model: N9923A
!Serial: MY61181427
!GPS Latitude: 
!GPS Longitude: 
!GPS TimeStamp: 0001-01-01 00:00:00Z
!GPS Seconds Since Last Read: 0
!CHECKSUM:0616395025
!Correction: S11(ON U)S21(ON U)S12(ON U)S22(ON U)
!S2P File: Measurements:S11,S21,S12,S22:
# Hz S DB R 50
2000000	-0.0644836783041783	-4.40519815666001	-69.3266880393691	-97.748565467436	-72.1093934273632	-95.4241543188128	-0.0810762314742574	-4.39561343945047	
2249500	-0.317328773745387	-5.26489011530918	-66.897789228529	-105.424417626927	-67.4708419637201	-107.340248242098	-0.323710146390775	-5.21316391548231	
2499000	-0.433261220635462	-7.00582751994791	-56.3242474295137	-140.877537585807	-56.2528084147604	-141.700469013613	-0.438633941288131	-6.88102726584471	
2748500	-0.300718942407014	-8.52731615337405	-49.5243539942316	87.9208864943465	-49.6391995644801	86.5787549065081	-0.307450577529039	-8.20429628937373	
2998000	-0.0592521477685252	-9.26029680847778	-51.6453878924176	2.55633390977114	-51.2117935767875	1.970215990957	-0.0492013171359957	-9.05949303003049	
3247500	0.136008964580422	-9.14165146112555	-53.140876851208	2.14441225079156	-53.0715337865817	-1.75865107466325	0.057402016384363	-9.09539518897154	
3497000	0.0921758151056204	-8.88527576109743	-53.3607368104262	-84.3383004628314	-53.3129865288479	-84.0508081122256	0.0433734443646681	-8.34431067617178	
3746500	-0.182224698588966	-9.3111078540497	-52.0858131136187	-131.8610804243	-52.1014650094478	-131.993795445612	-0.17981596891856	-8.81368893044618	
3996000	-0.412583312635901	-10.2546893443927	-59.7493238560167	123.592405764542	-60.0635314338473	122.597341821974	-0.399000882000396	-10.2043769330328	
4245500	-0.426311904142341	-12.37857155696	-73.4458167174151	105.403187542951	-74.9983900101127	118.085683501771	-0.422102881949343	-12.2722185804128	
4495000	-0.225735799954147	-14.0599434128167	-78.5397964811966	-122.179238816166	-77.0040075946677	-134.282570342306	-0.219796712658958	-13.802312043132	
4744500	0.0130645199276284	-14.6799258403847	-62.7172839141968	-127.507038673814	-62.2109755844105	-127.932294694044	0.037489995176049	-14.3026601431032	
4994000	0.00362634916814872	-13.9338787015722	-51.1956913330493	160.617017079166	-51.2364109869406	160.081288653396	0.131348113281267	-14.0194508957665	
5243500	-0.00778896530186382	-13.3009123706567	-53.9727815308863	87.821240383182	-53.8009609709388	87.2811315770069	-0.00141555400006349	-13.8088886713256	
5493000	-0.261872761296378	-14.0062044966353	-54.0869962850885	60.8996829133814	-54.1353567150164	61.1927737868565	-0.287010019019512	-14.4708694317646	
5742500	-0.454745552375981	-15.721571081668	-50.898319365723	32.7648735137805	-51.0331204020282	32.4321465705003	-0.515128573240514	-16.1827075730648	
5992000	-0.41465401886535	-17.7120257663331	-45.8843098936373	-20.2218575513864	-45.8692726522213	-20.7436742216202	-0.59449328317479	-17.5864046181391	
6241500	-0.210053471121013	-18.9056512906443	-44.6221256732643	-94.9817153808582	-44.6127789182529	-96.0264190769397	-0.289149992244478	-17.5985153360333	
6491000	-0.0250177349041999	-18.3889095273667	-46.3176809482268	-172.840364896317	-46.2425327282135	-173.164132238788	0.030814256605833	-17.686948894884	
6740500	0.083425873192739	-17.6839265854312	-52.3902736702314	134.164160541105	-52.2963522348937	133.185761814106	0.100021436651706	-17.3589471471818	
6990000	-0.0909952863771803	-17.7715725966669	-56.7561622215783	110.478280532083	-56.5875384669557	111.220746063012	-0.0799911094809033	-17.4349129168184	
7239500	-0.385994436635445	-18.8874030945043	-58.9742773408233	90.7948364591323	-58.5401606973595	88.6449767190935	-0.33822206675591	-18.5506808871723	
7489000	-0.529004262594757	-20.7563098956294	-59.2426757097324	68.5358275878796	-58.9311836107263	71.3541236168411	-0.459886081510825	-20.6385295875407	
7738500	-0.387262046091454	-22.6865893532456	-57.8263687053929	59.8731434911668	-57.4436201493931	58.0731867996194	-0.335777550551913	-22.6274289178384	
7988000	-0.130450131898408	-23.8100728897412	-53.194906157073	40.5663798937996	-53.2558613101219	39.8166041949455	-0.0820826345260291	-23.7096637528096	
8237500	-0.0472764658723992	-23.6110778088578	-46.1549736786245	-6.76954614048635	-46.0153934520165	-9.13733814677567	0.0476356590432555	-23.8769111194355	
8487000	-0.0743360789104392	-22.0877701769271	-42.0789088892583	-107.236851552941	-42.0452858403596	-109.098559026969	-0.198329194269007	-23.0325300428435	
8736500	-0.231965122743893	-22.2239282372161	-52.4098605026586	149.91534680288	-52.4923745532489	148.09863402871	-0.252415258825916	-21.7699980055202	
8986000	-0.454062158293584	-23.8510846626837	-65.8049679717337	-129.212571913038	-66.424809559346	-122.932377453316	-0.428623732510718	-23.8659782407408	
9235500	-0.51170805772214	-26.2806671842759	-52.8130605035642	-140.160770017719	-52.4478809577867	-138.964084437469	-0.520030338409785	-26.4970878811649	
9485000	-0.370496545371005	-28.1560283337201	-44.7190293026782	157.11735076772	-44.7936487802256	156.18863170697	-0.526175827193586	-28.0346817220628	
9734500	-0.189157171790703	-28.1691273666045	-43.1355989496647	66.2740818807587	-43.1635768782057	65.56855843185	-0.220232508860963	-26.8449822547713	
9984000	-0.0292769579461075	-26.7696094166036	-47.3984103593327	-8.51444496852908	-47.4148740496039	-9.77633915785518	0.0283784233612053	-26.2162536299353	
10233500	-0.0603823289486114	-26.2839608674626	-52.6219979481709	-55.1196996930507	-52.5851669848861	-56.481690325221	-0.0279806100254657	-25.9698259286398	
10483000	-0.311990826836019	-27.0352937687146	-55.6697026765148	-87.5771213586296	-55.6816027795576	-87.2978617177159	-0.282253066381869	-26.633559470474	
10732500	-0.534078884129445	-29.0319640538763	-57.0278232233081	-116.208994124778	-57.0696581223063	-116.759652135395	-0.481933120645379	-28.5456355738853	
10982000	-0.549346962063603	-31.456850536269	-56.4138451351879	-153.377370481524	-56.132131561094	-154.19028535523	-0.455120268502521	-30.9216978073431	
11231500	-0.384635250895695	-32.581160687313	-54.109466936618	147.798688753875	-54.0388648030826	148.258516162063	-0.231197825411894	-32.6346136302501	
11481000	-0.127003699694757	-32.0850864757154	-52.4719544288636	88.5319932663161	-52.599096173915	87.6841844238994	-0.037449077669831	-33.1773538570195	
11730500	-0.0451199405225697	-31.3932714241235	-50.3790383952511	11.119908547991	-50.2822349476092	11.2303929247158	-0.192684595072574	-32.6436815527316	
11980000	-0.238070256942274	-30.9880904032281	-51.3913373923344	-89.55237754196	-51.3691286928274	-89.8060978495094	-0.374903978159593	-30.1118293969683	
12229500	-0.503412026947126	-31.8498112861467	-56.4764199643127	-160.281816268517	-56.442953931953	-161.426588344533	-0.421766418228617	-31.2336955737393	
12479000	-0.642411327681898	-34.0381863174662	-57.1576565937715	143.46279295459	-57.2855570339614	144.129660844065	-0.531572389121565	-33.9752342937512	
12728500	-0.544527847357444	-36.290107537394	-54.2629495856585	80.5457559021499	-54.3549614628453	79.8582343646553	-0.495817468568614	-36.6388184491546	
12978000	-0.301870447081304	-37.11766877334	-50.1895167362633	0.575473480312538	-49.9835048998724	-1.1731754751451	-0.417756663610677	-37.525424669815	
13227500	-0.103895397871131	-36.3299252738436	-49.7973231670753	-90.5392887444358	-49.7481897513703	-92.1200777853777	-0.255229490091951	-35.6001059275512	
13477000	-0.0930117138001836	-35.3687792562545	-52.4148548118994	-165.382525203615	-52.3482630814448	-165.533658294418	-0.129610603039336	-34.504986373112	
13726500	-0.296295085330435	-35.4292013169853	-54.5767299103835	138.468410819898	-54.6290419120643	136.781089826092	-0.281273001806821	-34.6478274192565	
13976000	-0.565389858610711	-36.9836172234863	-55.6530951796384	85.244038456205	-55.6435531894141	85.7118499153176	-0.510835272425198	-36.1700754633903	
14225500	-0.684750766395953	-39.4920602859977	-53.4522909372824	25.5351861131293	-53.4231394251957	26.9859875187709	-0.569297596092376	-38.5423692607559	
14475000	-0.582968910653519	-40.9697910770635	-50.0488634953016	-51.5789244082239	-49.8381033436463	-50.8937391069603	-0.386464093062745	-40.5487139502883	
14724500	-0.233386868673013	-41.0027986001029	-50.6386725407105	-134.430408456981	-50.4403989518948	-134.564584730431	-0.115890385015473	-41.3395857068423	
14974000	-0.111778652500879	-40.6382964144277	-51.9469211495247	165.33370856895	-51.9136000555735	164.96944385669	-0.0056310595228485	-41.2574141318135	
15223500	-0.270048039083078	-39.6425986799719	-53.6960764153704	115.139618136437	-53.9923430822619	114.573762309146	-0.20845891023995	-40.9691862077203	
15473000	-0.523779483280389	-39.5995652448165	-56.0521935809677	69.7709594218101	-56.2307305274516	71.8092101557179	-0.6375657723001	-41.2299256731773	
15722500	-0.723582466507787	-41.4769713806684	-58.8856887244385	38.4161207103204	-59.4118088739235	37.8259787061542	-0.981151375590722	-41.8418896342477	
15972000	-0.702054884690922	-44.015354531258	-60.1173815343247	21.0953912756838	-59.991244020148	21.5330285423817	-0.91279161929779	-42.751911340008	
16221500	-0.470903319382633	-45.611310391546	-59.9873862724448	7.1636895058461	-59.1515600490912	2.7603727646776	-0.526044574310911	-43.7284244556005	
16471000	-0.229428875380997	-45.4946489522237	-57.9678418166904	-25.793853640564	-57.7368150980879	-26.4513821593973	-0.152224348822887	-43.9304323949205	
16720500	-0.142526509349246	-44.3660648051476	-56.9513284211571	-65.4805445600665	-56.5527871015259	-64.6136578732181	-0.0149322493177425	-43.5715157842038	
16970000	-0.279426456560701	-43.6784579173949	-56.0460849453772	-105.690681082726	-55.9994595528984	-105.761246290731	-0.168478766962127	-43.5125133663844	
17219500	-0.557106500620104	-44.5390495369868	-54.7333687706276	-142.965525586979	-54.7153426634353	-143.709772559398	-0.468383495820906	-44.7464124379405	
17469000	-0.739303884031315	-46.822641175539	-52.9670832310662	176.073947719487	-52.7990528130653	173.390750588133	-0.694572882554394	-47.1823181284937	
17718500	-0.679490123685185	-49.203361239371	-49.4189938652765	122.092525923659	-49.387301272231	121.735370761799	-0.727039019704623	-49.6737606234476	
17968000	-0.458269059566814	-50.3365325925228	-46.3741781779109	49.7354447294039	-46.3555819401563	48.4650929645309	-0.600596120625701	-49.8566222436868	
18217500	-0.282529234433874	-49.6108865282481	-47.5397927804463	-31.0607417992936	-47.545792361062	-31.6357857524106	-0.221901180014358	-48.4245553198044	
18467000	-0.264107189120974	-48.1625817050257	-51.7357484375687	-98.4712046272227	-51.7000413945612	-98.222912088868	-0.105303605577763	-48.0374044503248	
18716500	-0.448113385751214	-47.9606053360884	-56.6085922626663	-151.767628898814	-56.6643904992243	-151.481331028521	-0.343021658938614	-48.474634958395	
18966000	-0.723068062379554	-49.3867262447224	-67.1449662719334	136.703647060045	-65.6355987952385	139.745456038069	-0.716475598874664	-49.9817900820006	
19215500	-0.846579533147461	-51.9107788589253	-62.585937163559	-33.8094451522356	-62.2528342946479	-30.2969739464289	-0.958411299816116	-51.9510314684882	
19465000	-0.718186783695927	-53.9366559990692	-54.8633380215133	-100.251330817699	-54.8205780826604	-98.9412908340597	-0.863071413501858	-52.9828760508774	
19714500	-0.436651990851366	-54.288385534072	-51.4972045667853	-157.245557946299	-51.4780750488634	-157.347701967698	-0.481621393653031	-52.8771020451402	
19964000	-0.236159646476942	-53.2560290599669	-49.9836792205199	151.061240529872	-50.1159747510135	151.364261961823	-0.187394440064947	-52.1852012717542	
20213500	-0.288281686424656	-52.309876341525	-49.5630813348271	107.252132269124	-49.6587124355073	107.588980321475	-0.186555374983157	-51.6301257417134	
20463000	-0.561294448228815	-52.6389964196295	-48.8590520374023	68.2064543601225	-49.1244481781611	68.3821107325948	-0.424408614864474	-52.0353725071541	
20712500	-0.851663491872041	-54.5134140247519	-47.4975895176002	28.016981136782	-47.4649362992179	28.617187999292	-0.684058146895521	-53.957160046743	
20962000	-0.947580028243567	-57.020318740682	-44.9280616861656	-16.6951045342745	-44.8862398026003	-17.1148574333585	-0.754035249155189	-56.5688206256637	
21211500	-0.781223903208254	-58.4065226589278	-41.945518339217	-74.0909526563495	-41.9749923668856	-74.1748058653019	-0.657126699293743	-58.3783669829493	
21461000	-0.495887039872064	-58.0407035961003	-40.2114865441947	-149.202404195855	-40.2134499395662	-149.694381677639	-0.441163679189979	-57.6444321145172	
21710500	-0.392799591475792	-56.6431961042741	-41.7562790644924	134.780273170148	-41.8722227755342	134.614633327172	-0.204019694516054	-56.5012427852934	
21960000	-0.503533735306788	-55.5672639564068	-44.9471601421352	73.4456679026535	-44.9435940150655	73.5762247671122	-0.2876771343181	-56.4714416617265	
22209500	-0.763965867372798	-56.1388654873528	-47.8657174804892	21.8637740119989	-47.9251841455009	20.9416575637483	-0.638794424607463	-57.5678428796119	
22459000	-0.973371182523227	-58.3511936371001	-50.2711695552617	-26.4726116961628	-50.3640633773917	-26.8472902559976	-0.938435478321654	-59.5928583479984	
22708500	-0.925855086027785	-60.7061245272975	-53.3332210447679	-75.336791273044	-53.1980652839546	-76.3054590473495	-0.968281458148541	-61.2702298948986	
22958000	-0.632954444343118	-61.597616998743	-58.604909776271	-130.72563891876	-58.1531178980434	-127.53521980482	-0.702399251127335	-61.6847724211188	
23207500	-0.31513885436828	-61.0174337106906	-67.0855031802977	158.286163360797	-66.5694612148316	159.450689180047	-0.377954948460302	-60.830545904579	
23457000	-0.233027307600008	-60.0880233275	-67.619089117803	16.7273487388244	-68.1542933766537	13.812814840922	-0.263945734754978	-59.7803170110824	
23706500	-0.467735075395001	-59.8532085832231	-60.3974405204983	-51.5779240374153	-60.4552768608385	-51.5420097862681	-0.417609587471093	-59.5673040054859	
23956000	-0.805931952791115	-60.7203320103159	-56.2543705200024	-100.477442334753	-56.3521528635119	-103.072578988293	-0.693817784882442	-60.7963226752294	
24205500	-0.929189524746654	-62.9630410626255	-54.8678643899704	-145.799972863806	-55.1465784981141	-146.228523869351	-0.818915895835683	-63.3723878257042	
24455000	-0.779069732363024	-65.258896479023	-53.9139560955786	175.462703217774	-53.9401306219657	176.337781676921	-0.684241283059106	-65.790235014318	
24704500	-0.498351571777727	-66.0555772760973	-52.7033734316	131.002365089929	-52.6949805136237	130.995997172593	-0.402213279567638	-66.7279127555892	
24954000	-0.310429108119145	-65.1693780001245	-52.4548263548788	84.0427687459609	-52.5017020071749	84.712078020122	-0.271091143634042	-66.3013756299553	
25203500	-0.337835246077579	-64.0037600354412	-53.3729208167218	38.6285284377669	-53.2954442665163	42.227319230438	-0.41570024916516	-65.4153291787551	
25453000	-0.581505881910936	-63.8206874457925	-54.8622803589578	-3.33594002997401	-54.3127083277831	-1.68064717940207	-0.762579047160002	-64.9123839264004	
25702500	-0.849987914353695	-65.4539135371058	-55.5865543648595	-39.5357147903253	-55.9038775904953	-41.2627726909125	-1.08256097697199	-65.8452870275327	
25952000	-0.890461840470567	-68.1804171266243	-56.2776634604969	-68.3916858724803	-56.5193547657218	-71.3667334050725	-1.12518923697492	-67.6061291157516	
26201500	-0.669478578921478	-70.179139013748	-55.4476581645587	-108.644328105129	-55.6574250925098	-107.368265187079	-0.821514482970997	-69.1228809960132	
26451000	-0.359009492765261	-70.3768853356848	-55.3832229255163	-149.821316856959	-55.157177703095	-149.205069920981	-0.432474999864424	-69.5187253519669	
26700500	-0.225478759403228	-69.3255841523074	-54.7485049465791	163.288562530561	-54.7393141583804	165.018928442783	-0.231826210916264	-68.7621012697581	
26950000	-0.354925745791526	-68.2592345089786	-55.1230729216581	124.411852280506	-55.1176646460939	125.634872245145	-0.321479055520024	-68.1818182945267	
27199500	-0.665406043583488	-68.6451674577867	-55.3620809941918	87.0195910921781	-55.5617071764366	88.8158294302576	-0.636893102355806	-68.6538173135052	
27449000	-0.908829557306436	-70.6898135149592	-55.5358190759458	56.6432657848316	-55.7836801315668	56.6547905320947	-0.895695523529523	-70.7700819608392	
27698500	-0.907352664157109	-73.3548571435637	-54.7005456090397	23.2618760514847	-55.1269384897211	21.3725456033414	-0.917706556853179	-73.3965395998822	
27948000	-0.660748865984154	-74.945593674644	-54.1963086501808	-11.327611868137	-53.889136983397	-12.4896123192817	-0.714044662354206	-75.0972417200905	
28197500	-0.411857375581472	-74.5895782138336	-53.3229092435457	-48.783017308338	-53.4499494254717	-48.0343960768128	-0.501201526286284	-74.7960404046383	
28447000	-0.380083168603857	-73.2056179762351	-53.5665358746931	-89.7584206329445	-53.2676427631546	-90.4705354842346	-0.475930777780407	-73.3966030400167	
28696500	-0.58303359839128	-72.3054892748771	-54.040335452891	-134.87202398218	-53.5549389152157	-134.148128094738	-0.653857018410069	-72.176230904386	
28946000	-0.878795652965653	-72.9792074622147	-55.2029409465155	-170.747817736779	-55.367658461855	-173.799463311667	-0.914608269697876	-72.5768592657584	
29195500	-1.02948126143739	-75.2600175063092	-57.584123161069	151.896239647059	-57.1124263078699	146.191098358584	-1.02359179932216	-74.7497734788762	
29445000	-0.891723887917142	-77.7564363382598	-58.8752652289034	110.738383557043	-59.3472808090286	109.356209791208	-0.84863512187704	-77.2041131634485	
29694500	-0.551119102875353	-78.6871299516503	-60.9651241986762	75.8792070745211	-61.0848961647768	77.1868788240408	-0.55310334287702	-78.5466304359433	
29944000	-0.319206135128558	-77.9332781068025	-63.1306875698513	57.8042841441965	-63.5674396084023	52.805154865322	-0.365821909049627	-78.2284370587103	
30193500	-0.353885920014555	-76.6751086713959	-60.9419797651807	22.0213779107813	-61.0396107690953	18.2307243062133	-0.434992374074911	-76.6412128195225	
30443000	-0.617092584654789	-76.2495648304827	-61.9152757606063	-40.9821624479491	-61.2106749236787	-45.6276914515856	-0.613553512695508	-76.2808882592515	
30692500	-0.927220242295396	-77.5401158915591	-62.2953145777679	-99.3365942709848	-62.2571973490746	-95.9716415064568	-0.923411115565417	-78.012471677149	
30942000	-1.04912267325549	-80.2041151909128	-63.3707328685957	-154.956183183713	-63.2245275955919	-149.784905014708	-1.10203460479508	-80.5732111324822	
31191500	-0.857398205547301	-82.5175507671612	-67.294335789644	161.043245125792	-66.2626792428165	160.256117692307	-0.955814709669947	-82.4601084934285	
31441000	-0.544548531136129	-83.0396947341811	-70.4572886772789	100.921148063928	-69.1029974416332	113.160924563142	-0.655620139936644	-82.5154486762558	
31690500	-0.392330371893868	-81.9173823477822	-82.1651743181155	166.137510155918	-80.5194543435244	58.158532754564	-0.441287863112107	-81.2586419605893	
31940000	-0.498723474498519	-80.5893607625289	-70.5907804817816	169.381436992077	-69.4629420717035	170.748117867527	-0.494046063448495	-80.1355547493696	
32189500	-0.805274124329031	-80.3921892980332	-65.2629035123607	133.894960850309	-65.6418817123834	147.818451481545	-0.76419716107541	-80.3171808264309	
32439000	-1.06795431599234	-82.0818207937047	-61.7103530602275	105.856407197925	-62.8782192608001	108.530708849013	-1.00362956330231	-82.2284878325128	
32688500	-1.04219869962886	-84.6602149183371	-60.2715867060783	68.7814754889123	-60.2370667123061	64.5906497838139	-1.01542243694952	-84.8634227744473	
32938000	-0.760461091873948	-86.3111711371622	-58.5536929346167	32.4233536668006	-57.9237449056939	29.7257822476051	-0.759564437578156	-86.8666577767623	
33187500	-0.441037683587311	-86.2688811825464	-56.8518664325106	-1.54181099797977	-56.9191759591364	-3.91125245207741	-0.473189118750999	-86.9944118178152	
33437000	-0.330388504443898	-85.1500840618664	-57.039351047746	-38.0801651953829	-57.0101872800182	-37.7052541206332	-0.413118364709715	-85.925184921968	
