!Keysight Technologies N9923A: A.12.45
!Date: Tuesday, 05 August 2025 19:49:08
!Timezone: (UTC+08:00) Kuala Lumpur, Singapore
!Model: N9923A
!Serial: MY61181427
!GPS Latitude: 
!GPS Longitude: 
!GPS TimeStamp: 0001-01-01 00:00:00Z
!GPS Seconds Since Last Read: 0
!CHECKSUM:1566776231
!Correction: S11(ON U)S21(ON U)S12(ON U)S22(ON U)
!S2P File: Measurements:S11,S21,S12,S22:
# Hz S DB R 50
2000000	-0.104483078955079	-4.31412746181911	-78.4370232847806	104.784704501251	-74.7857120934696	61.3914198204355	-0.138099337992917	-4.16479759864212	
2249500	-0.419113422311176	-5.32524079968008	-61.5630268808586	43.3534987258996	-61.0546706451188	43.294708290723	-0.452567885513759	-5.2349318385864	
2499000	-0.550547019761231	-7.31474428451178	-64.6872885208519	-83.5200408361751	-65.3060118345145	-88.2852434050521	-0.576765207884395	-6.98986872843356	
2748500	-0.387747043544817	-9.20849515794912	-75.1184293764897	-113.991538145358	-73.6640776718164	-133.543661194249	-0.411631709270545	-8.97855388990581	
2998000	-0.0624568403169139	-9.97623325291078	-76.4569382155362	-82.418911860611	-77.5528989192065	-54.714566401223	-0.0916971412830195	-9.78062414677721	
3247500	0.145062573680566	-9.62703115597116	-70.9899893281421	-121.431143368052	-71.0576894728424	-122.682308558441	0.100633582447159	-9.32766127906414	
3497000	0.0799300414475489	-9.02484688389466	-71.8904703136994	-99.6687263967776	-71.2835942201987	-110.846915443513	0.0361007095025846	-8.81293236507795	
3746500	-0.220439307833361	-9.14738993022383	-68.3593624454916	-123.015328332099	-69.2749635090907	-127.716544714478	-0.254873284887637	-8.90194739023896	
3996000	-0.519413322607448	-10.4185757425297	-78.5432330827001	166.798086855006	-78.131951312113	156.759929742423	-0.533882663754738	-10.2445149185199	
4245500	-0.541777367325405	-12.5675376205479	-78.9349561803675	-94.5473584727591	-78.1691883872859	-99.2359016680734	-0.566894420714314	-12.4120191457931	
4495000	-0.288578523458093	-14.1972260002838	-73.3833231807063	-90.7852309415037	-71.0350326848686	-97.3212706432844	-0.31980320122299	-13.9941955940503	
4744500	0.0256159911792052	-14.477929539039	-67.2858611035356	-100.985520333179	-67.1746926720545	-111.180315777382	-0.00718396511023476	-14.3347288139981	
4994000	0.145832930305742	-13.9323521695048	-60.7171804099741	-118.82044623686	-60.3307071971637	-117.823592384773	0.118289389850121	-13.7639711114294	
5243500	-0.145842965321663	-13.0601147046511	-50.1120105465528	163.800508093205	-50.1882580557519	162.32645931106	-0.0426551735882997	-13.2566919619486	
5493000	-0.340079796050241	-13.5934923445851	-70.0134627063769	-152.178510118938	-69.3490845324395	-140.426382196827	-0.367596093489627	-13.7599313509454	
5742500	-0.616228095169444	-15.6846099908039	-54.156915626513	-159.168719706343	-54.0377310957167	-162.465537789347	-0.593650906664109	-15.52079494282	
5992000	-0.572317232283464	-17.5371085378673	-46.7393794276905	133.973679829045	-46.7104132674345	132.994199114949	-0.539143666562797	-17.5375342695074	
6241500	-0.197687597200919	-18.7684075292865	-49.9619121689645	92.0740691750357	-50.1426405467304	91.6659779644362	-0.224256570780037	-18.6990397565963	
6491000	0.0840657370123571	-18.774636366652	-50.8856762696475	80.0902233593774	-51.1412667148065	79.3493105071322	0.052287811906269	-18.6610352785675	
6740500	0.114750888644365	-18.1732129975748	-49.6679057789108	70.8742996174519	-49.6334397629991	71.0145824604502	0.0826754730174941	-18.0690624835789	
6990000	-0.157162637916221	-18.0447884404234	-46.6355327888816	58.0738725539505	-46.548949644616	57.578284108795	-0.16780590474149	-17.9968084196952	
7239500	-0.580313185536247	-18.9623644021897	-42.1314524325083	32.2183148984142	-42.0412589705774	32.0430752738376	-0.5294989323373	-19.3894647789437	
7489000	-0.749583609851443	-20.5816732727028	-38.2852142100006	-3.4984320125257	-38.1788426947287	-4.02543112582155	-0.827756194267801	-22.268139099052	
7738500	-0.54467594897946	-22.3711223957663	-33.3372244862947	-70.4400223071821	-33.2980363804001	-71.4030215629579	-1.10455802204092	-21.4725420006794	
7988000	-0.224312752676305	-23.5728779860878	-36.7740031416113	-134.428303943781	-36.8259245859242	-135.005720273427	-0.269030810880566	-21.2049835121659	
8237500	-0.13646221584029	-22.1788626063914	-38.8781582557756	166.030918059664	-38.9043321848158	165.173747011599	0.0509974626657506	-21.2036109773404	
8487000	-0.00358334554594117	-20.6084327381474	-47.7539688086864	109.380016299841	-47.8705884780232	109.67172448543	0.0504843769636214	-20.687667680771	
8736500	-0.241181170579119	-20.9525922684625	-58.821340046933	90.9531226427909	-58.9648063889053	89.4985243166901	-0.229254031150508	-20.8833060616289	
8986000	-0.546149501595611	-22.6860195384151	-98.1743265129743	168.456243494181	-88.6553934684901	-155.701578019428	-0.541854414264255	-22.4827294023283	
9235500	-0.608166674386896	-25.363248732171	-61.56857655172	-116.361183098587	-61.8619848097538	-115.904191000396	-0.604713134466885	-24.9672438997714	
9485000	-0.362050137304805	-27.4712998733661	-54.7370567939912	-124.551124595106	-54.7845180055452	-122.844556703378	-0.373242417596095	-27.0728664271741	
9734500	-0.0506963925645586	-28.1381376333689	-48.0752673282903	-137.00925293194	-48.1385310891754	-136.790019346193	-0.0544169551269887	-27.7565639233122	
9984000	-0.101412728014062	-26.947141656599	-38.7848277360033	163.171842598932	-38.945485757686	164.413328150216	0.0291545486184248	-27.4339617536944	
10233500	-0.0212536715999323	-26.1679250348354	-53.4589041730561	149.266704003303	-51.9805406793522	156.982212694075	-0.170096310429535	-27.2193019845153	
10483000	-0.579787143320331	-27.1913754880667	-33.4749881519257	148.426362068838	-33.4400737022937	146.167676533436	-0.873371033399737	-27.7794824480931	
10732500	-0.768871938044611	-27.8564331311642	-31.8451947931118	47.6831102183119	-31.8234486109873	47.2842715772986	-1.21050836992513	-27.6947410453416	
10982000	-0.706649206159018	-30.6970676228382	-34.429058417877	-13.0215605901538	-34.3946169087976	-14.2263089275084	-1.16818273599683	-27.935369128519	
11231500	-0.441837852102116	-32.5621226880652	-37.5799405357895	-58.5530536809479	-37.7625554916508	-59.8262818916437	-0.587716171718174	-28.7560874384432	
11481000	-0.357346069381465	-32.4054230296067	-39.372732736893	-105.38450756441	-39.6057729826392	-105.747353945758	-0.107633185595586	-29.1059146307469	
11730500	-0.298944661838075	-28.611986853158	-44.7611139672623	-176.50735027896	-45.018643007849	-175.911447296054	0.0298662604797791	-28.7068990039505	
11980000	-0.242007250526265	-27.7918072268625	-58.2152270426799	111.653997239437	-58.240674124932	113.057900860042	-0.146700335979283	-28.8330203818589	
12229500	-0.502282842263464	-29.2267074261206	-61.8859947830729	-121.630548145233	-62.4169727930515	-109.989765589704	-0.908792536738294	-29.6373360241581	
12479000	-0.672494349615385	-31.8843475349431	-64.6232833039714	-73.5288468742306	-63.1988401264552	-72.3499538520558	-0.731231994011949	-30.9067846576829	
12728500	-0.509303371289182	-34.5760644489397	-60.8817327415279	-85.3782937111841	-61.0333924978772	-85.7997342274067	-0.561707301023068	-33.641978436414	
12978000	-0.147360606916325	-35.787345791715	-59.4917579723674	-98.6290289154251	-59.563291694366	-100.731114776811	-0.197397880348029	-34.9689813561689	
13227500	0.113298491786703	-35.4465503169396	-57.2263748905222	-115.979047740143	-57.1127660706664	-115.953604911683	0.0680969791558472	-34.7807132053563	
13477000	0.069744661457024	-34.6369547542358	-55.3132383149664	-138.965657965235	-55.0910315771531	-139.52646647477	0.0554959080336749	-34.205938331569	
13726500	-0.250418207649569	-34.5163411115302	-53.9211001938755	-172.471323636791	-53.8654921461698	-171.814763048302	-0.232871887040369	-34.3226108193772	
13976000	-0.593648344265303	-35.7386840162479	-57.1547165452787	130.263872385945	-57.232835647872	129.530439316731	-0.57285482218158	-36.1509437423557	
14225500	-0.652259089666528	-38.2900641928515	-59.4622840123669	-61.4218094662128	-59.1529484564023	-62.4711990007943	-0.784793610593196	-39.9278762957956	
14475000	-0.393587794294717	-40.5609028661038	-48.6315600511331	163.2431766444	-48.5288827019274	162.518783842993	-0.986778499450126	-37.9760979751301	
14724500	-0.0611283223627111	-41.1765657219967	-55.9899802492893	122.970450531922	-55.9005786665733	123.139121706754	-0.194475697294492	-38.5661711468156	
14974000	0.0751502562901477	-40.1680699800021	-53.5883971505826	125.955535504966	-53.6017714663758	125.432123062473	0.0678554381588218	-38.3923320344472	
15223500	-0.0376096467102955	-39.2822811773603	-53.1585458414319	93.7742860418973	-53.0984030631298	94.2748137869014	-0.0340146508570981	-37.8505319339593	
15473000	-0.400456709795007	-39.6952170616969	-53.0528905267733	62.1595828482219	-52.9924135070699	63.4412075637314	-0.363951120261378	-38.4353280579943	
15722500	-0.68517726176665	-41.6945155868159	-56.8368615287751	8.82277092700041	-57.07832826811	5.80804131306108	-0.649765502102784	-40.6835908476059	
15972000	-0.644320736772538	-44.9338950821111	-62.9014254173043	45.4897715355202	-61.5219630230742	42.2066623371294	-0.648638920226201	-43.8537880790718	
16221500	-0.359056792174328	-47.0829318968564	-58.1698738707555	0.170216228686478	-57.9937734302509	-4.90847981169546	-0.516650683622325	-47.2831007413963	
16471000	-0.0993062995351861	-47.5480118184123	-52.2487145003018	141.062133613841	-52.3246173690816	138.914276175251	-0.460786744029951	-42.0044442782875	
16720500	-0.174900769136154	-46.9102998788565	-49.5501405348253	73.7131788539629	-49.5070630651976	72.2204519969168	0.0184302604980927	-42.135702127987	
16970000	-0.672647291440564	-45.5738503876294	-46.8859728546059	31.3187040660374	-46.9244144234763	31.5077717847606	-0.141067020969761	-42.0074234764565	
17219500	-1.14412106324139	-44.1737385932702	-45.5299048089901	-11.7056220192576	-45.5191107290777	-11.9420464614753	-0.486433432337736	-43.0487729414498	
17469000	-1.17800889492417	-45.5842329173162	-46.2914223079774	-47.5491079231355	-46.1923664401849	-48.0732683876734	-0.706052306184388	-45.4231980666343	
17718500	-0.932750827681008	-48.5327342289343	-46.788295851265	-74.0625768188017	-46.7842601697082	-74.1574934087114	-0.59267151470098	-48.049816046349	
17968000	-0.582724331785045	-50.3425361072929	-46.8589404135186	-97.1415083142354	-46.7837819252922	-98.1066796689924	-0.250284200240095	-49.3817170663086	
18217500	-0.424133277424279	-49.9849239714442	-46.3140131890134	-123.861127568814	-46.2074467528133	-123.724344498286	0.0398054074886939	-49.0895551959268	
18467000	-0.605764912386879	-47.6752058676878	-45.9149202360699	-154.930106659681	-45.867960624327	-155.234024738711	0.0150856289710962	-48.2548769603334	
18716500	-0.884483224213284	-45.3500932259341	-46.3458024158578	171.494540629311	-46.2491542929501	171.765429773373	-0.302211411353494	-48.2243579211423	
18966000	-1.06960786137835	-45.6629743352235	-48.4535822643622	155.845946274439	-48.2093799594219	155.294944876971	-0.753654198321502	-49.1646149289484	
19215500	-1.04179555944726	-48.3707277375178	-48.0876332018198	120.843104601749	-47.8306718185206	119.772253302435	-0.818616863063654	-52.4150078773033	
19465000	-0.721746174420922	-51.1094420980011	-48.3962513135879	94.1729849254205	-48.3600237528059	93.5630611149811	-0.654298163356944	-55.4097154969595	
19714500	-0.266585673836114	-52.206715332634	-48.1381446622132	67.9775260128789	-48.0142326679716	68.1255619557165	-0.368883469978568	-56.8793563249181	
19964000	0.00525745563128719	-51.7322059698908	-47.0708695760496	38.6556133620698	-47.035387862007	38.5180514668959	-0.346734503389079	-56.9861025029578	
20213500	-0.084313535769813	-51.0241696495421	-44.6376091630387	-6.97664467963729	-44.6833691949098	-5.28480726395834	-0.938844844329311	-56.15101562603	
20463000	-0.445723991201842	-51.5274077460917	-45.9948459928894	-35.4649785554806	-45.8071738198589	-35.4937721174059	-1.69238758046291	-55.5208715361498	
20712500	-0.8198556654517	-53.9906663620114	-42.9789619830736	-96.4809185819459	-42.811201961246	-95.5709587997587	-2.59924628422043	-51.0112134698546	
20962000	-0.973664383559928	-57.9704928083678	-44.135020767733	-164.233332935342	-43.8359506212416	-163.5149965369	-2.06396684676825	-48.6466180553674	
21211500	-1.55900615991108	-59.1908335355933	-48.3547804219873	-159.422005284437	-48.6926167613413	-161.346624558209	-1.19751740771403	-50.2908470464859	
21461000	-0.506230301017212	-54.6236483351832	-44.4557588571477	127.607142261802	-44.4268848053185	127.141575152359	-0.480353912595668	-51.4859596616807	
21710500	-0.139488801265176	-54.0396949608369	-46.3964652396681	88.0376263893355	-46.4470954876544	87.5496805493077	-0.147649476984862	-51.5043620395765	
21960000	-0.231802391532375	-53.5707941128039	-47.8630261322105	62.3979761891454	-47.9069193489881	61.8776827952304	-0.218938688039024	-51.3731720835684	
22209500	-0.568488676806216	-54.4665056359922	-48.4070176797231	42.8251979294235	-48.6659475908259	42.3688310981787	-0.542261446374059	-52.410738651274	
22459000	-0.823358774428483	-57.1852194177465	-47.8163512619408	26.0548723211755	-47.8736161387979	26.1777143105901	-0.775709967361861	-55.0546775280445	
22708500	-0.747429042970235	-60.3986406771274	-46.0520374394969	7.10646063097076	-46.1601973158358	6.58805393805053	-0.698649564281568	-58.1069422809678	
22958000	-0.442466186199038	-62.0546806630625	-44.0063788687298	-24.6698743931664	-44.1892397119319	-24.0974990282206	-0.362870572020458	-59.9672214399082	
23207500	-0.134594066942367	-61.3902607035943	-44.79860460447	-63.0137196515204	-44.9319191442931	-63.0493057816745	-0.0432735163448296	-59.9744100791713	
23457000	-0.0679272141748681	-60.2046484208591	-47.0330099941676	-84.425887657597	-47.0111888729352	-84.5715076473916	-0.000335426940960024	-59.3153136348657	
23706500	-0.350526036531435	-59.8954413690934	-47.5203666778704	-93.196342810143	-47.5951771653558	-92.9381421630295	-0.288540092867471	-59.4316600267891	
23956000	-0.775814532322984	-61.3517961974287	-46.413708808693	-100.476652058595	-46.2226028645427	-100.082973335745	-0.751490510844258	-61.388893446647	
24205500	-1.02619412232193	-64.4276852719608	-43.6347807560299	-113.67781987537	-43.4811472736973	-114.025224901879	-1.12659195164764	-65.2535302754638	
24455000	-0.948426042830873	-67.0883765324196	-40.289063026205	-140.646985560596	-40.0030159364297	-142.632389106744	-1.44956118069682	-67.9886998310657	
24704500	-0.685417397947573	-67.3980299431417	-38.4533724734684	177.735321234051	-38.5373910564317	174.427799673085	-1.34479033752225	-64.5140049772526	
24954000	-0.447162806354887	-65.5493733621974	-38.4881890888748	138.398292927507	-38.9609003903393	137.142230139805	-0.860424171786618	-61.1646944144359	
25203500	-0.447795109015707	-63.862431222973	-39.7220462815997	103.737512370739	-40.2140322334874	103.639093517804	-0.645621843659782	-58.5157633654481	
25453000	-0.771379665053368	-63.5840267408377	-41.5065606561516	78.2305078736724	-41.7808154249543	78.724103675148	-0.693385978200441	-58.1585610096013	
25702500	-1.17895715582079	-65.4391678676807	-42.7414734751382	58.7435840743371	-42.9842399588284	59.0728479941169	-0.896231276112552	-60.6206401337719	
25952000	-1.33819338148099	-68.5376254251855	-42.8278227878667	54.046697005455	-43.0878980771589	53.8559429550187	-1.02665652658469	-65.4339285150049	
26201500	-1.17596733801296	-70.506605286218	-40.0804713456253	9.14938464278837	-40.3524609885776	9.33701388485161	-0.859905219962962	-65.5220486008964	
26451000	-0.889362538601967	-69.5901407875175	-41.7897156606105	-24.3284569003996	-42.0599408811952	-23.8308196043209	-0.296732017404422	-66.4564333914137	
26700500	-0.668330625238766	-66.6873392448264	-43.8106552416114	-52.9691681292958	-44.0447337605539	-52.0712939791688	-0.036539143127624	-65.7350584209817	
26950000	-0.636642018973515	-64.3974289417152	-46.2209419936358	-77.4716245907631	-46.4346097693201	-76.5266639097111	-0.12847662294305	-64.8847142264964	
27199500	-0.841941527476027	-64.5764070386549	-48.5686378983232	-95.6885555579488	-48.8071797913988	-94.3772503814088	-0.484206422818634	-65.1440123091308	
27449000	-1.02548705025151	-67.1831189015946	-50.5752139007148	-109.222901722755	-50.919689625907	-108.176611443085	-0.774792480921308	-67.3717853450094	
27698500	-0.928285149606243	-70.8511486822008	-52.5952656544971	-117.482856303084	-52.8338421198584	-118.311466334429	-0.753391014937519	-70.3838263905736	
27948000	-0.548276633121379	-73.6071485911927	-54.2097015301664	-128.584575839473	-53.9637139480686	-128.265449441556	-0.424159984778289	-72.4938034475108	
28197500	-0.284282129026685	-74.8174424859481	-56.523081912821	-140.055093575098	-56.150553002436	-133.233559595305	-0.0675743907118832	-72.5866034497512	
28447000	-0.645673708921702	-73.4564015902574	-53.5960619913252	-129.02155008821	-53.7984024108225	-127.343975221802	0.0273424074987121	-71.6851016626662	
28696500	-1.1241582569772	-69.4383354273332	-54.8959306116008	-166.186612919597	-54.6975229246225	-166.897429260549	-0.201649490914473	-71.0247786803865	
28946000	-1.20000087127915	-68.5080284953985	-57.630889535253	-151.052795557752	-57.6252019240986	-151.243446194495	-0.595135807893271	-71.9540130789219	
29195500	-1.26572123395353	-70.9925583189374	-55.7462594088033	-153.743044393038	-55.370450243393	-150.320056408269	-0.824332774170839	-74.6748882170463	
29445000	-0.999232866401236	-74.0308308376599	-53.7388937335154	-163.534709675947	-53.6080209038937	-161.27537176587	-0.688007719400511	-77.5870471563086	
29694500	-0.502547522879975	-75.3410225172717	-52.8517245134395	-177.985740010267	-52.5353888352932	-176.383539666014	-0.357525735150508	-79.0939059427996	
29944000	-0.145433216609592	-74.7782688953316	-50.5269333335518	167.348780316394	-50.2754237829364	168.107172740076	-0.137157608089022	-78.9604958550863	
30193500	-0.135535995549923	-73.6334706862887	-52.2468708968164	139.388333426152	-52.1876967876496	140.110998847968	-0.171800144484707	-77.708806003351	
30443000	-0.434600924486686	-73.3571521078228	-51.2734342202069	140.327466826956	-51.4676071301951	140.748987746594	-0.577627925694166	-78.2928976508895	
30692500	-0.808553118709213	-74.9996746392338	-49.7942138284442	132.713960015766	-49.5498907532089	132.68521703428	-1.0839617393755	-80.8595389711732	
30942000	-0.94540784136233	-78.2535133269464	-47.7224368505971	120.574355332805	-47.6977926330201	121.382375062707	-1.41813415277455	-84.9379047634848	
31191500	-0.681446231962957	-81.1042007781915	-44.9501820695348	104.868253044835	-44.8762859598418	105.15411859515	-1.50110678041933	-88.2417362579747	
31441000	-0.268515566723884	-81.9502135183536	-41.8866286518542	81.6595953585031	-41.8797743462042	82.3896933351177	-1.65420507325976	-87.4292801199564	
31690500	-0.0621008008017685	-81.0273817893346	-39.4024676427463	51.3137527877589	-39.3679292813811	52.0247562463999	-1.66996841953273	-82.1575906212162	
31940000	-0.198111619932671	-79.911490317973	-38.1427584661332	14.082560850494	-38.1844992201557	14.815649733207	-1.84888326766894	-76.8453792782798	
32189500	-0.602424138303527	-80.0161822165634	-38.2431766160901	-22.2065953774995	-38.1976401089792	-21.4361372642081	-1.96185839528199	-73.0884896371829	
32439000	-0.95875995186348	-82.1935700952115	-39.1302001999671	-54.378384323901	-39.0744587689938	-53.6277906591122	-1.91906782144053	-73.6632843302292	
32688500	-0.951339725819911	-85.3546961869876	-40.4026310865911	-81.1123082808955	-40.3798579572096	-80.3617017372586	-1.6366153325206	-76.8842942564861	
32938000	-0.622458178954301	-87.4052925983433	-41.8955048173124	-103.920167766552	-41.8091435308726	-103.154262282214	-1.05957687284842	-80.0509799607189	
33187500	-0.272025617383617	-87.4886587668893	-43.2869770652959	-123.760329846606	-43.2599885937961	-123.560014156396	-0.470699809306973	-81.203995101825	
33437000	-0.207813163581448	-86.4103567978983	-44.6337460845416	-142.23379823526	-44.6153439866297	-141.946452194668	-0.186186410837914	-81.1053039517484	
