!Keysight Technologies N9923A: A.12.45
!Date: Tuesday, 05 August 2025 18:13:07
!Timezone: (UTC+08:00) Kuala Lumpur, Singapore
!Model: N9923A
!Serial: MY61181427
!GPS Latitude: 
!GPS Longitude: 
!GPS TimeStamp: 0001-01-01 00:00:00Z
!GPS Seconds Since Last Read: 0
!CHECKSUM:0884204813
!Correction: S11(ON U)S21(ON U)S12(ON U)S22(ON U)
!S2P File: Measurements:S11,S21,S12,S22:
# Hz S DB R 50
2000000	-0.0748695248526372	-4.88499353800423	-86.8441790554328	-59.1794111253926	-85.2941785313714	98.6613842580324	-0.0865455556098316	-4.87565550756816	
2249500	-0.275879170523931	-5.81684501195701	-86.5080879854701	55.8377238445761	-83.4880212910246	58.3701899270138	-0.282112101810084	-5.80093824795815	
2499000	-0.361960172964458	-7.36431926743822	-65.8885120199553	-25.3755099767904	-65.5649237202601	-40.6809280683107	-0.382850468186367	-7.17995211789488	
2748500	-0.255234674522832	-8.83945710262033	-71.4620552599053	-86.6340297196286	-71.8834673045774	-80.6676576895671	-0.264481288715802	-8.64845978617642	
2998000	-0.0465597730210352	-9.60529851441	-87.5759338900967	164.827986225473	-79.2909832417056	-141.976921859693	-0.0516076887779641	-9.37253901830286	
3247500	0.0861533050365299	-9.62812547508149	-76.4497886039028	-115.765700892893	-79.8885030970065	-104.695396308867	0.0759816569392177	-9.3574380574793	
3497000	0.0466948724943161	-9.49675678946073	-75.2504816350411	-127.82840964458	-72.645588009555	-115.50617371737	0.0305783518799484	-9.28845947560142	
3746500	-0.151117154728885	-9.85163372358841	-69.1444203716047	-128.99198082463	-68.8952650716476	-124.771191426791	-0.161148665244589	-9.66124221948567	
3996000	-0.349470876042019	-10.9273536065252	-69.7492079782582	135.249997005467	-70.0949192136186	140.564405172123	-0.337848325555685	-10.8190825321168	
4245500	-0.36142562390395	-12.595135656769	-95.5161467629281	122.454436591073	-88.8272447144216	-92.6278036246086	-0.356179693983439	-12.4837913383235	
4495000	-0.201557454114434	-13.9821447030033	-69.7236895064199	-96.545343251685	-69.4787271205498	-87.1844427225109	-0.195319651977215	-13.7444237392467	
4744500	-0.00415322091362944	-14.5505445466592	-60.2666172503793	-108.906854383817	-60.14394590372	-112.543978035856	0.00640328119009472	-14.2310787208674	
4994000	0.0277854745588081	-14.7366778090261	-49.2376286410205	-138.229418747134	-48.9684060057597	-138.932347635327	0.0744943319103554	-14.1980271444486	
5243500	-0.182339205537456	-13.2905457954547	-40.5173045197069	121.562163345456	-40.3717544942112	119.999784104662	-0.0674358951831174	-14.0783372207705	
5493000	-0.269659636202885	-14.0651402873049	-41.30637076691	59.3160536929506	-41.2801474186069	58.701365707225	-0.330681348157434	-14.9683009708514	
5742500	-0.422492233304637	-15.5195912823397	-39.9988587744743	-39.1009492865395	-39.8926491532901	-39.3465895574796	-0.607419687632404	-14.5885031841575	
5992000	-0.351672042988428	-17.4825351607095	-52.4718211972749	-98.0104780541911	-52.2028514205508	-98.9209361961952	-0.338426956419017	-16.6361557886567	
6241500	-0.17808298927995	-19.0248033814253	-71.8183484034321	29.3936024029687	-71.5229696042426	31.2332906627135	-0.146198031648642	-18.0810256679791	
6491000	-0.230834594013171	-18.7845275204422	-46.717196063903	-19.290695294814	-46.8603473055113	-19.6871319029825	0.0339152350624705	-18.6859883325112	
6740500	-0.0880271755247498	-17.2569907687973	-44.1447217927845	-127.291894627678	-44.1822925806623	-129.121868757926	-0.0305107709600344	-18.8527373296424	
6990000	-0.116486796046872	-17.3250275230654	-58.8250679864143	-88.9501528611195	-58.9436724269666	-86.4838747671517	-0.293995892088414	-18.6834637397437	
7239500	-0.310147023504875	-18.5273985636385	-50.2563201826859	-132.90713604758	-50.3163142036169	-133.759480259645	-0.592432083045829	-18.2310084663555	
7489000	-0.406292562425616	-20.3046389001446	-50.6177884515523	-170.016596196614	-50.5456527305991	-170.03946265125	-0.53750671383582	-19.3028891670738	
7738500	-0.308607451703706	-21.898615877487	-52.5894853808742	161.351602133008	-52.7183146330737	159.748739557627	-0.363944587126808	-21.3027504866013	
7988000	-0.0807688752044652	-22.6784726945491	-51.5078779527349	120.044733761609	-51.6512399009704	120.336974491627	-0.129934374973154	-21.7114823385361	
8237500	0.0814153326563984	-22.6892520520259	-54.0690035799846	100.49431131848	-54.0522276695931	101.050672693594	0.0531259480721865	-21.815745748792	
8487000	0.0496031637681719	-22.5091156444224	-55.5358166800719	90.2252803536779	-55.472299526321	87.9743622900685	0.0315379688651753	-21.6888229389107	
8736500	-0.14844585694929	-22.839531957982	-55.9847819385308	79.604586691866	-55.7933307819138	80.3919944298047	-0.15232602732679	-22.0388802979013	
8986000	-0.354827319502296	-24.1473396676385	-54.6662487703402	69.703996561923	-54.7001966929104	68.6496443356234	-0.350454684874826	-23.3202034484075	
9235500	-0.405414055545086	-26.126746888221	-52.5062104777419	58.9998592531181	-52.5577874352413	58.0119483669085	-0.385426299460976	-25.1125198570369	
9485000	-0.280864120302146	-27.8191436754737	-48.8463174274396	41.3023742469422	-48.7209163194028	39.2945796296372	-0.235780653619526	-26.6808597902122	
9734500	-0.156538917792585	-28.1683295341882	-44.4261654433085	-2.20127863248792	-44.4157083505491	-3.54639226736217	-0.0292128632093921	-27.2599067441123	
9984000	-0.0109282509686029	-27.2795608990314	-45.7139784092327	-60.1220985546591	-45.7227769673146	-60.7166504856268	0.0693871226180813	-27.0471487821523	
10233500	-0.0575872603463777	-27.3204741566811	-48.5079020366583	-87.4508612978817	-48.5563293993873	-88.4885327600485	-0.0173635672336083	-26.9468929697333	
10483000	-0.27938733978406	-28.2083445647991	-49.6992962564595	-102.398080246094	-49.8408306887905	-103.841347159277	-0.238065331687378	-27.5570977527018	
10732500	-0.470736612130173	-30.0834300551376	-49.4183211119737	-115.454358737171	-49.5423627470866	-116.536172093774	-0.399549642760003	-29.1685825177372	
10982000	-0.508407006796633	-32.4076714139301	-47.6421588306313	-131.240425127338	-47.5053546369126	-132.037794047485	-0.379797143671168	-31.1248992978627	
11231500	-0.490767157777734	-33.7798600049641	-44.6739167545183	-161.44244757804	-44.6098642348129	-161.875271817335	-0.19754152618278	-32.5531669121695	
11481000	-0.462136648996107	-32.4652905398136	-42.7632634961537	153.691401429731	-42.6946168363806	153.323957925502	-0.0139676885648603	-33.0084669556315	
11730500	-0.307775380308976	-30.8972096870028	-43.8704393471581	101.339745480954	-43.740477281276	101.193102578876	-0.0462045532272283	-33.0991328572305	
11980000	-0.405122417450652	-30.4288839225978	-47.942863029579	86.6676338784594	-47.7858450137279	86.6971380186061	-0.156041644419644	-32.4662321293088	
12229500	-0.543992762881642	-30.8704442064422	-50.395763587327	70.4636379304464	-50.0188082888647	69.7690324943575	-0.43275112469928	-34.0618187356079	
12479000	-0.575145399645587	-32.8142022409809	-48.5048489853948	66.722659138195	-48.3452548786091	66.3741857686665	-0.660688662845523	-36.3672291892625	
12728500	-0.441338094946066	-34.9908506249829	-44.8496294486014	43.9598725033135	-44.7147530839084	42.4104295389146	-0.820117437779804	-38.4213270859483	
12978000	-0.20851050673773	-36.223392230448	-41.5099688546314	1.03056578383991	-41.4934467497668	-0.496751572274551	-0.959676365755806	-37.5467274396511	
13227500	-0.0657347036760267	-36.3267908656622	-41.1123102761018	-56.9035977595072	-41.0187748396752	-58.5767294036429	-0.609806654576962	-33.9642618999622	
13477000	-0.140552121237939	-35.9720960670063	-44.5659989448296	-119.18823059351	-44.693701521084	-120.43329860661	-0.20732866935334	-34.2729106900193	
13726500	-0.378720817810462	-35.7090932508523	-43.5788042034576	-108.640097596503	-43.5091311189852	-109.809591677836	-0.847560489987547	-33.8991079967015	
13976000	-0.535354056605646	-36.5683948731835	-46.6519861223102	173.009613922881	-46.9134129064715	173.103241656856	-0.662787268013246	-33.9509972069019	
14225500	-0.533649175461456	-38.7356264385722	-53.2730167404398	121.705840699489	-53.349170608105	122.909904110478	-0.585869284813149	-36.1600305803533	
14475000	-0.391753113210013	-40.9094647487185	-64.2978062741369	40.4332835674509	-65.2059479752491	36.7505598558365	-0.374336593169552	-38.054351445413	
14724500	-0.295991615900611	-41.3397251261512	-58.2689130688317	-137.348091271244	-57.8493623967379	-142.663419576765	-0.11084896274433	-38.9274256817339	
14974000	-0.200097106215284	-40.446844920382	-56.6820322412037	154.955726156071	-56.5121290515943	153.411544937897	0.0376039047680623	-38.9898230960537	
15223500	-0.344117381478757	-39.2550569702543	-59.2931950151858	105.876879913357	-59.6925010743998	103.328811325887	-0.0346149837308055	-38.8994446347449	
15473000	-0.353196862160357	-38.9776450595633	-68.4755034869337	101.762769100199	-68.8403152234514	102.142803917116	-0.248021053585411	-39.5953597051038	
15722500	-0.459284586251914	-41.335662303502	-70.1576633309384	117.471804371915	-69.2611999289264	119.755042569234	-0.422665158178084	-41.315699244965	
15972000	-0.441458125743763	-43.8428763921854	-72.9568052785176	117.206982517592	-72.7016336505208	121.759060284376	-0.426522063491206	-43.5352740180262	
16221500	-0.252720870782896	-45.6244562406012	-69.6136355103868	-146.236742541621	-68.8550963671878	-156.107843565434	-0.288784840537593	-45.4486117722355	
16471000	-0.0768330636872465	-46.316139982109	-51.7401537680951	172.626086580613	-51.5860683145622	171.964285567956	-0.425959481141908	-46.2136249317828	
16720500	-0.10754776435916	-46.2398410831877	-48.9630046737675	71.2941221760773	-48.8307485910667	70.0227237643651	-0.156312641052267	-42.3874256593455	
16970000	-0.383087060248676	-45.8892245541984	-51.0747944854477	16.1935796079417	-51.1301009790561	15.5066591509627	-0.139069566693508	-42.9903337477268	
17219500	-0.692189860636994	-46.153617490352	-53.8492233017944	-32.899228655313	-54.0441044456835	-34.8108450840938	-0.337862717871925	-44.2549853124258	
17469000	-0.858873449201722	-47.8181257839992	-57.7533036314126	-79.0087247298104	-57.7592989642387	-77.3571927361503	-0.470339933103217	-46.2629600523057	
17718500	-0.878059844283783	-49.5738700020296	-62.9750759260101	-130.139541582572	-64.230502515338	-134.999485225557	-0.398363265283094	-48.4268255266156	
17968000	-0.764875573635559	-49.7101298885151	-66.1724079417145	109.685630044655	-66.5653158264125	102.033868460282	-0.183349583076811	-49.8054913699393	
18217500	-0.53522735100627	-48.1338138789362	-60.5215610289442	25.6231343456107	-60.6120531792716	23.1023085651732	-0.00393952065650495	-50.1613040560248	
18467000	-0.374773069224876	-46.8099119677801	-62.3036553808308	-175.342335803579	-62.220997212866	-166.742257817562	-0.0858322713738311	-49.8051876861531	
18716500	-0.431680039792276	-46.8268794043165	-61.0863235670957	-1.8535273452897	-60.8893758513799	-1.83105401309006	-0.269325878402416	-50.5232186617276	
18966000	-0.581901597644598	-48.1947347431055	-58.1639019819688	-38.1100416135788	-58.1521044167218	-38.9622349841476	-0.578480351336813	-52.3433570499571	
19215500	-0.607764263813883	-50.499349697697	-56.8785610950744	-70.9625292721213	-56.8083182355804	-70.8494955697156	-0.816595000527376	-55.0143241974074	
19465000	-0.436819153402446	-52.6862262507511	-56.9872021260482	-121.302184611541	-56.7069028076054	-121.934039033565	-0.972260460902375	-57.2020263240725	
19714500	-0.173118903281543	-54.0171813597919	-53.2222950623568	106.218339099053	-53.4131247591971	108.878850807032	-1.10938981199181	-56.9488336727315	
19964000	-0.12350709379783	-54.2662072507517	-41.442466831047	-22.3648113358372	-41.8189194235917	-23.3058170327793	-1.25641617820145	-53.5010483928444	
20213500	-0.268541064359217	-53.6668922670749	-39.6737396372381	-108.543350942946	-39.8517167736411	-109.170445032615	-1.04167513262962	-49.209117375738	
20463000	-0.583035224990318	-54.1239181236378	-39.4606986180001	-160.61557840526	-39.6460786546678	-161.345930505451	-0.877990741815552	-48.6636825238011	
20712500	-0.925433530276389	-55.1875133485019	-39.2710099086927	155.371923763431	-39.4520884601748	154.009177856937	-0.863795707786979	-50.3018606022491	
20962000	-0.96289085918939	-56.1685937648991	-39.9655471544053	114.604820804937	-40.0690055846211	113.396922562707	-0.752926992848481	-52.6187765943008	
21211500	-0.673716150225604	-57.2596856282829	-40.5055736497388	84.550596964696	-40.5855920341405	83.0672423701429	-0.499491971055929	-54.643675614351	
21461000	-0.349610072003007	-57.6304035966217	-40.0659697218014	55.1318499799127	-40.1877322294224	54.4870875529114	-0.203960086899557	-55.6120727550929	
21710500	-0.238280389021761	-57.5174904043181	-37.9843936000026	22.2320153574222	-38.0481577936364	21.7327897445987	-0.132371450392516	-56.2286235028013	
21960000	-0.408843059000976	-57.3866422241362	-40.970448555876	-57.8697838913955	-40.8328321192195	-58.0037589845131	-0.369604365261604	-54.4739975616582	
22209500	-0.743689331727664	-58.4151439216754	-47.1156415063052	-51.9946544852838	-47.0250236670394	-53.7445293997538	-0.445666308503293	-55.3959219604062	
22459000	-1.09822022790526	-59.9048699016698	-45.6931736637971	-56.7970647170487	-45.7298961614078	-59.2551980441535	-0.563281870250649	-57.4060681101669	
22708500	-1.1223515294479	-60.1927214343159	-44.1806729210408	-83.419712066379	-44.395755324823	-84.9982528975317	-0.50371565702358	-59.5364156483791	
22958000	-0.674151444808589	-60.1655778958989	-44.328394258804	-113.163355607782	-44.4777670955455	-114.333175123793	-0.282491614708465	-60.9512009908637	
23207500	-0.280365778350046	-60.4302267526157	-44.6846091561133	-138.650747689071	-44.7657652646502	-139.29342394723	-0.0781300473490092	-61.2001682645442	
23457000	-0.204658183615396	-60.3856150580312	-44.0678095655896	-164.505487582554	-44.1906655257737	-165.593635698553	-0.0619265508398776	-60.964526986261	
23706500	-0.391687491608376	-60.4157090599971	-43.6303842058873	156.968672140487	-44.0726094181822	156.304693152601	-0.254580355700533	-61.1632465878577	
23956000	-0.580312487927816	-61.9071263435638	-47.2152692789675	120.124097513571	-47.4256442233159	121.598037747432	-0.521617620289227	-62.3175513896794	
24205500	-0.751811770030682	-64.9689495753462	-50.0638577658873	115.108463321838	-49.7028610172677	116.372443356761	-0.657160428304017	-64.5458420224401	
24455000	-0.834064804891225	-67.4834161040199	-47.8264949815281	77.9342488990743	-47.9077393958167	79.1661406549228	-0.665983616818016	-66.2647249336258	
24704500	-0.871426191626996	-67.4658106425499	-52.7988909289112	101.253031039418	-52.7552230557609	100.800705302281	-0.333456363446948	-66.8907100498226	
24954000	-0.732218812549712	-65.0497273253445	-49.4552304140916	77.5661050687054	-49.2930873752362	76.7830741121228	-0.228203583346816	-67.0136493803296	
25203500	-0.63765216624913	-63.4312835479449	-48.6337899271008	54.2067490808529	-48.4393168365876	50.6918813238094	-0.36616869104554	-66.9032479776347	
25453000	-0.74226770343728	-62.999090971577	-48.4671606979973	27.0305462892698	-48.2286675948739	25.8803810560049	-0.707147947726803	-67.2592065705392	
25702500	-0.861315157170899	-64.2410673430079	-48.0293164651908	2.14326258008747	-48.0476525885191	1.39840020313429	-1.09917884789137	-68.7304752963706	
25952000	-0.817432069331596	-66.5671068177057	-48.0519504442205	-22.8315245423269	-48.0538266531686	-23.9003703024476	-1.34520693426747	-70.3121305935296	
26201500	-0.580801951278004	-68.4631746794364	-48.3596092556387	-47.5192136507549	-48.3381855022181	-49.0296064119304	-1.31634893419107	-70.7806007036724	
26451000	-0.274345668341709	-69.0624806847473	-49.1403018705007	-73.2043705806304	-49.1803082350221	-73.0475467032323	-1.10576678826915	-69.5503078752036	
26700500	-0.130331705972833	-68.7808018698369	-50.4849136645168	-94.9871453613379	-50.2554720676821	-96.8563108178713	-0.883041743421525	-67.3740537678439	
26950000	-0.228281863513035	-68.4436139911952	-51.4983461479306	-113.551567229047	-51.6309631752049	-113.815274090647	-0.806946772504565	-65.9633756675044	
27199500	-0.483102114516475	-69.1550256323097	-52.0534349728037	-126.870171722371	-51.9833318726374	-127.802074157713	-0.903528211905007	-65.9399238185344	
27449000	-0.678057182286092	-71.0242089794887	-52.4787593605761	-137.054227640147	-52.2466845377882	-141.214430704332	-0.96524686396248	-67.6309452111073	
27698500	-0.677030818882223	-73.3106468052711	-51.9054676712972	-155.139143792933	-51.699496898895	-155.86012670397	-0.856000988268777	-69.9435044601629	
27948000	-0.466087641140659	-74.8004560409159	-51.5570853800201	-174.601889509717	-51.508020933982	-175.345259056648	-0.576704523409948	-71.8145704782218	
28197500	-0.238269985753859	-74.9351706600553	-51.4342299931666	165.262952921342	-51.6249532371375	163.629510054203	-0.292806847465905	-72.3589708931886	
28447000	-0.207435845237123	-74.5508031286085	-51.9357394998497	149.303453955664	-52.0949867902604	149.952103035572	-0.20088692358767	-72.3249661571619	
28696500	-0.408921951790875	-74.6914129578997	-51.8987730581358	139.84382993065	-52.1902023393496	140.395699404427	-0.34501038024893	-72.5914854889475	
28946000	-0.714048785521646	-76.0427993019656	-50.3008418210396	137.358439803696	-50.2269633511435	137.298113487687	-0.647826794247584	-74.3135157703753	
29195500	-0.931086216573429	-78.5560119427692	-44.7325605093404	115.087731648959	-44.7286201835016	115.998457818935	-1.20381657310375	-77.133044101486	
29445000	-0.954831229367074	-81.1217902782127	-45.280108476982	54.3830485670036	-45.352068442583	53.9895030599541	-1.01755543434255	-74.5752120142	
29694500	-0.893055990350831	-82.0636626687875	-48.4335693386383	33.0354835525464	-48.2956341960021	32.3347966185945	-0.500115934497981	-76.1675592096343	
29944000	-0.978497075576347	-80.2076802330253	-52.3139331347194	29.0209159744157	-52.3703085737513	29.7607352201825	-0.223026297573552	-76.6037231571117	
30193500	-0.955081009261017	-77.8026410000576	-46.4168661564436	31.6386065485554	-46.3958900858441	31.1621901106303	-0.221265069224833	-76.5604487513864	
30443000	-1.21323178487311	-76.4320007859763	-45.2053962565627	0.15268646795455	-45.2157939951327	-0.038366418084738	-0.445592607957613	-76.8513902409584	
30692500	-1.39531173923792	-76.3421856883135	-44.260589581335	-26.1163271358998	-44.2470220615177	-26.508970419993	-0.706642315531928	-78.27434563212	
30942000	-1.37943919437345	-77.9297094019657	-44.0007304756101	-49.3171508732498	-43.9775706331918	-50.1435045226568	-0.789924615660083	-80.4670399178046	
31191500	-1.11015765807949	-79.7729481461746	-43.0775290936844	-72.0927732864144	-43.0335665770165	-72.4692433990779	-0.648445068539114	-82.5187487400355	
31441000	-0.765115636317013	-80.4323236669348	-42.1870586202984	-99.0722812860923	-42.2112040826994	-98.8139289285291	-0.426070729782849	-83.2961288612542	
31690500	-0.569705298752744	-79.6905393827106	-41.6420454489143	-129.52444136162	-41.5939627381302	-128.843083288543	-0.323620137112194	-83.0418498122892	
31940000	-0.578795301267734	-78.71513556175	-41.563891759274	-160.16929413385	-41.5648535963049	-159.797688087856	-0.491270365963895	-82.7892747181574	
32189500	-0.74621040534153	-78.7015146413603	-41.8745691138417	170.53973303329	-41.7459345845176	171.387399808808	-0.909325570854469	-83.2904845845266	
32439000	-0.890442340797505	-80.298135159047	-43.1250763764649	133.953672616607	-42.8616208358274	135.476129589506	-1.29770007265719	-82.7400347256552	
32688500	-0.825490229084421	-82.662866051622	-45.432022898388	125.930895595758	-45.2374698443779	126.254750712672	-0.9899386870524	-86.0490220576398	
32938000	-0.570052997639157	-84.4102739647876	-44.9011820855316	106.440432114336	-44.622905636886	108.101319366417	-1.00287071357368	-88.3199117818788	
33187500	-0.288000384461771	-84.8967923882864	-44.60647298397	83.5898245932202	-44.1941116336474	84.9935257452661	-0.946483770772304	-87.8566746621492	
33437000	-0.180009293154214	-84.5306340088774	-44.5647512247067	59.5901126106359	-44.1327888894477	60.090053234548	-0.980448406891865	-85.8360564158778	
