!Keysight Technologies N9923A: A.12.45
!Date: Tuesday, 05 August 2025 19:14:51
!Timezone: (UTC+08:00) Kuala Lumpur, Singapore
!Model: N9923A
!Serial: MY61181427
!GPS Latitude: 
!GPS Longitude: 
!GPS TimeStamp: 0001-01-01 00:00:00Z
!GPS Seconds Since Last Read: 0
!CHECKSUM:0877690580
!Correction: S11(ON U)S21(ON U)S12(ON U)S22(ON U)
!S2P File: Measurements:S11,S21,S12,S22:
# Hz S DB R 50
2000000	-0.0648069134884493	-4.07145013108638	-66.3881406872403	84.2916914372841	-66.1447624254278	83.3913593844651	-0.0704204030412125	-3.94353824500662	
2249500	-0.341443451338763	-4.96226086155291	-63.6268760835785	55.3505251882135	-63.8781516800541	55.8606586003861	-0.359497899380759	-4.9971771490405	
2499000	-0.465786794123955	-6.82043351821321	-66.0141865746013	-37.4931978495862	-64.480433331611	-24.7447825148321	-0.481012125283174	-6.42255942232943	
2748500	-0.332038106724402	-8.71612790869313	-71.2096388567366	-19.5612396731579	-71.8811883682487	-12.6065919249937	-0.320791327830076	-8.43800087772498	
2998000	-0.0489589160949637	-9.29500842854954	-66.4331128451831	-75.6068308474752	-65.2937279605642	-67.040608910088	-0.0349625585850584	-9.41022351972558	
3247500	0.154390565556136	-9.26167305618176	-68.3221570868087	-95.4350314392797	-68.8921135627291	-107.226666578991	0.138575076820659	-9.3433989491578	
3497000	0.0935478317184179	-9.02165138540443	-64.4042521797387	-120.051131968551	-64.290850514384	-120.312968859782	0.0814567251769864	-9.02859142046216	
3746500	-0.228038397401316	-9.18616877608337	-58.0243022286445	177.485442342847	-57.8537495110812	175.22163838049	-0.173856997940273	-9.24067912956277	
3996000	-0.44306668268813	-10.4883435648713	-66.6142499256366	101.46905416869	-67.762667853014	108.301216377635	-0.418303731285864	-10.5363579782266	
4245500	-0.466246544840321	-12.6933468702272	-89.5893656199305	98.749094245758	-81.6591340600602	-169.571583693589	-0.492755886100856	-12.5407035342902	
4495000	-0.240682073566246	-14.3804049400063	-59.5123142277322	145.521608786466	-58.8962190143374	142.523259811044	-0.32034470893442	-13.1269627514849	
4744500	0.0122438644733568	-14.8298435961404	-53.7833037641246	85.4078709534029	-53.8050771378448	84.3022732418312	0.0359009000414965	-13.4301687117716	
4994000	0.0716947040649297	-13.4866970545179	-50.8061766206176	-11.613750720755	-50.701916856516	-12.229374146885	0.157801390140603	-13.1991085150856	
5243500	0.0185248960558482	-12.9608985880966	-56.6486554099158	-70.7576142509675	-56.5067639098164	-72.067481145241	0.02210098745081	-13.0538064309334	
5493000	-0.269287826129375	-13.5205174662242	-58.61788375898	-96.0247215616143	-58.6878818022127	-93.3190136208796	-0.270962900717231	-13.8385765779957	
5742500	-0.485914315740865	-15.323179942533	-57.4877618025806	-114.997975508298	-57.2825007994178	-115.547568601519	-0.468894556439655	-15.7305215994951	
5992000	-0.447647662867087	-17.5960165294586	-52.8958670241363	-148.535978124136	-52.7477684539519	-149.838049832055	-0.428057284308579	-17.9660945704014	
6241500	-0.234974068269825	-18.8502782503785	-45.6366586935774	143.424961296518	-45.5475924578949	142.993582797168	-0.250962276567928	-19.1328523833116	
6491000	0.0188574027239849	-18.320866923703	-44.4734634930561	39.422713918768	-44.4742016043843	37.8937977193217	-0.0512157393429516	-18.5334161690899	
6740500	0.108961012737782	-17.8383311261323	-51.2978223363008	-38.6558331949309	-51.1211279556676	-40.0764959209383	0.0667708347059307	-17.3122028914688	
6990000	-0.0992609618371547	-17.9515084379195	-57.1576089303797	-75.2124730395052	-56.5304965390532	-74.9990750490399	-0.084630891313632	-17.2445539718092	
7239500	-0.431401341141884	-19.1381883715899	-60.1306707321599	-94.7950186576736	-59.7663673510922	-94.6746103206464	-0.351621860689886	-18.3587877485716	
7489000	-0.579207342110681	-21.141978419791	-62.0985330208954	-103.253608339885	-61.2680937098114	-107.018470242522	-0.482903151479207	-20.5534576820078	
7738500	-0.420764184915888	-23.199661211062	-59.1824277802587	-121.602180379843	-59.0351071589963	-122.764153382319	-0.354270190062708	-22.6477158733576	
7988000	-0.152137657968065	-24.1893656599865	-54.3967653609284	-154.597456655792	-54.2664607004422	-156.752071227741	-0.0989034685409871	-23.8217976442719	
8237500	-0.038214760110316	-23.2233855615545	-48.6831759426739	132.930379739292	-48.7522108243368	129.394631207409	-0.0256043760292954	-23.666910059621	
8487000	0.0110103856979886	-21.7996244029102	-51.6239526777199	28.8972910760219	-51.6568745984759	26.5332719943387	-0.105451664719165	-21.7609767664783	
8736500	-0.198922395451809	-21.9316956909755	-60.4233165196888	-37.6709596856468	-60.0908387797175	-38.9683259823763	-0.221535996842442	-21.7921247641674	
8986000	-0.47361055987557	-23.5174616985176	-67.6916069226629	-69.8663343988768	-66.0359438216674	-80.3125272626545	-0.451605480610569	-23.4903657909816	
9235500	-0.556441727597185	-26.0976357854843	-72.9489514806224	-101.404262881094	-73.522045648913	-112.684822930081	-0.495925137246954	-25.8472480758468	
9485000	-0.42489145855372	-28.146698430287	-74.1475709838261	81.2125709640645	-76.1305253056282	89.3980166663785	-0.325409830479741	-27.8588644446616	
9734500	-0.21355185394915	-27.7560894010356	-61.0393591115209	-64.2356368431636	-61.0680776892951	-59.8950003279231	-0.171846825767324	-28.0650523505961	
9984000	0.0387927901070719	-26.6974175704741	-60.3786096342037	-175.861641982593	-60.2908312990977	-170.768831834777	-0.00986391467024552	-26.4059610798671	
10233500	-0.0324642139341852	-26.4742684618211	-62.4165219687279	125.106070282376	-62.8725109464949	129.082748954143	-0.0409112780060867	-25.9560469613311	
10483000	-0.339042957799874	-27.3159408316361	-64.3767925667979	77.0539051487503	-63.7660340204716	83.3541615929556	-0.312357534761112	-26.7327619085588	
10732500	-0.608035601903661	-29.4078861470786	-64.5319020378656	29.1668397155603	-63.5656432647438	47.4766806587771	-0.53531608582301	-28.8469570252479	
10982000	-0.635842523114946	-31.8298355694188	-64.1125790534486	-10.6777182041026	-60.7158176313413	1.81574034083678	-0.525292060413054	-31.3694911530143	
11231500	-0.411648495257415	-32.6683103955861	-65.9317676544608	-86.7174852700858	-60.2638313372768	-79.0475254695719	-0.318376079305952	-32.8731728313768	
11481000	-0.0886013026392281	-32.1529112127001	-65.8000498832977	164.572034887344	-60.6368121712228	-173.844182323824	-0.115124868335569	-32.4972073661611	
11730500	0.00677300266120957	-31.2137037407127	-61.4475303296699	48.8606748892763	-59.5080698658306	72.1358928237153	-0.0507668605696195	-31.1239680060887	
11980000	-0.172738404099739	-30.6482021584214	-60.2618921489006	-39.0648593956434	-58.7366155176785	-23.1595179207299	-0.188209252963905	-30.487865121345	
12229500	-0.473201374907321	-31.6135549298767	-60.6260403240467	-97.9787864077668	-60.1804929112835	-87.6268656318739	-0.449091232572514	-31.3746051838029	
12479000	-0.65906900374529	-33.9166673759603	-63.9585132166898	-141.517007184589	-62.6832573174048	-134.381958621602	-0.594758178328349	-33.5863801596175	
12728500	-0.574563450591242	-36.2684675565377	-68.165698628431	178.616461344425	-67.1224309915568	-177.632448265737	-0.483407528832545	-35.8992464994756	
12978000	-0.312472010563746	-37.0624497224794	-88.1230255279001	-27.9632890767887	-79.7909161500771	-169.834370365875	-0.216527126920979	-37.1184533057186	
13227500	-0.0773759990164002	-36.2633836467745	-62.9234864219011	-115.254017144121	-62.8718126093998	-121.494480275048	-0.0734319470496729	-36.8701177293481	
13477000	-0.0611786955879386	-35.3867747173874	-56.1204775425462	-175.469010088774	-56.5652817089242	-176.920754258068	-0.176375220096252	-35.8528768876407	
13726500	-0.299997862103955	-35.5574318111699	-53.3744775559879	128.572682924337	-53.8234651999326	128.526150823824	-0.433929787598148	-35.165698774743	
13976000	-0.617494538823233	-37.2410936981366	-51.6489993440238	78.7221971300821	-51.3693667632617	74.8806099303426	-0.659837659696269	-36.181013919807	
14225500	-0.768771299074696	-39.8054376281966	-48.4064518741453	22.2774956632197	-48.415771524859	21.0621829960234	-0.679883076312461	-38.4446261492511	
14475000	-0.617148944671168	-41.0325777768478	-45.5220042673049	-51.108867149454	-45.4719824300939	-51.9204920136968	-0.455072762223367	-40.3563728976466	
14724500	-0.202474124409031	-41.2273851391623	-46.6904618418989	-128.341633022043	-46.7035536414052	-129.276676627414	-0.133713285317804	-40.9171559463825	
14974000	-0.0736732343735528	-40.6320554901602	-48.695315847432	170.994622584984	-48.7031988349108	169.573894093445	0.0157447308884397	-40.5664573837523	
15223500	-0.195589772436002	-39.3799981641242	-50.5833469131268	122.510884501707	-50.8713907111479	121.626233845883	-0.156639698939019	-40.0387698237008	
15473000	-0.461560498488811	-39.4819184117644	-52.0923426151747	81.9106526581805	-52.1708812857786	80.895803395479	-0.541487670939668	-40.3068671112049	
15722500	-0.710206957542072	-41.5167576538918	-52.4270200867229	42.4426492298184	-52.4048345631679	40.886632738154	-0.842704589102462	-41.5746795645851	
15972000	-0.720726029035299	-44.2323879148709	-52.1374299426689	0.738772197202541	-52.0858166688879	1.50467902143756	-0.809052797094148	-43.3316176212254	
16221500	-0.498682602243335	-45.886994857011	-52.2702119947551	-41.0085996125342	-52.5139143895278	-41.5764410659827	-0.476567109578916	-44.5794899304425	
16471000	-0.246843881466221	-45.6204166741815	-53.2334659831705	-86.3080274297192	-53.2084706559306	-85.4860275416883	-0.131190409308883	-44.6692894617126	
16720500	-0.141948503251197	-44.3630174505376	-54.752125340881	-128.720524047884	-54.6353673447631	-127.276657268889	-0.0232083409144802	-44.0925910085732	
16970000	-0.291857888454053	-43.6825800637998	-56.3207284177735	-161.412532642042	-56.117423928447	-161.051438148233	-0.223376748306048	-43.7997297862283	
17219500	-0.606829282397568	-44.6115430700473	-57.0357686297963	168.148171262042	-56.6433205017104	168.073659277871	-0.579154542296684	-44.7795158619416	
17469000	-0.820198269633107	-46.9959552653773	-56.5991819855635	137.138201243431	-56.4787833864126	135.576797543082	-0.832829810171951	-46.8533971473712	
17718500	-0.759699350309042	-49.3332253302117	-55.1681743138684	95.7874536693956	-54.9191914540514	94.6603214387103	-0.785684378763912	-48.86933484432	
17968000	-0.482073495532443	-50.146176821533	-53.6461150243438	44.8724881073283	-53.7082258998203	42.7847971200088	-0.490017658507684	-49.5065922468599	
18217500	-0.198542770599047	-49.2947123987114	-53.348673033964	-6.50623910197697	-53.4720728872273	-9.54518448996898	-0.187189740994242	-48.7526326527705	
18467000	-0.148146289695855	-48.1477393543004	-53.9858708819375	-60.2011953351276	-53.8870390715071	-60.3543057518139	-0.144668123266196	-47.7252492226558	
18716500	-0.381826168779097	-48.0938034980616	-54.213226149318	-104.94608729131	-54.093709214626	-104.583388861105	-0.361911234329024	-47.5704804022118	
18966000	-0.716612891939822	-49.5569250751437	-53.5433748142503	-143.945302572923	-53.686035222958	-144.632279190356	-0.665035164342713	-48.9429352819038	
19215500	-0.87172521433232	-52.152872886287	-52.8149453688442	175.644313957377	-52.6397270236286	173.890949483913	-0.797200764976197	-51.4270819309554	
19465000	-0.744303748957976	-54.2297505047102	-51.6135671345678	127.805335565865	-51.4145680647517	127.283063203658	-0.660275450590662	-53.6018109698142	
19714500	-0.445728616644295	-54.5000612546526	-50.6502663987373	77.7123674495805	-50.7712786231896	75.2133970945824	-0.377477442230629	-54.1741961443722	
19964000	-0.235835767101111	-53.3527794917969	-51.5637151983442	24.1410312311308	-51.2868403296467	23.2727509755725	-0.209633092696934	-53.1988573802676	
20213500	-0.309642077506973	-52.3098932031801	-53.4612494635475	-26.8041209119926	-53.3694802350585	-28.5494541980923	-0.281008505040055	-51.9584499699779	
20463000	-0.630128918800847	-52.5914596841832	-55.8657424315819	-71.6425951224689	-55.9312870168344	-74.441823530407	-0.541814631633236	-51.8100229384661	
20712500	-0.967691915031937	-54.4401690348778	-58.8758742381393	-110.060546654679	-58.7517119943853	-109.824735478632	-0.791135571570192	-53.4735485994315	
20962000	-1.05198753147984	-56.8245000543444	-61.024327173387	-139.536044929009	-61.0308949637162	-139.086365989072	-0.798314040396817	-55.968852216212	
21211500	-0.791925198401941	-58.1133199634323	-60.0211593834053	169.776300948287	-60.4230887335428	168.011573911831	-0.567103777824766	-57.9045390890395	
21461000	-0.417411014225449	-57.7128406018134	-62.2035386128998	101.964907844211	-61.8084885398224	101.513383549667	-0.286804140830659	-58.1866306577325	
21710500	-0.23134601818878	-56.4477531307245	-66.9043847242334	54.2065549282092	-66.5986522929013	42.8742099293046	-0.221739160025143	-57.2427173115618	
21960000	-0.367151170874877	-55.7596452291049	-70.1531975970816	28.5488809105041	-70.8269878939894	15.9830789968708	-0.412769199259928	-56.1406970852924	
22209500	-0.719236509690474	-56.4721303678611	-68.2001563356467	-5.9150725565753	-68.7936438713792	-17.4193165223581	-0.729376437563296	-56.2813370340423	
22459000	-1.00929429806907	-58.6683644886773	-65.3786959540146	-56.8533902934668	-65.7319731243886	-62.1515708280585	-0.900767031310317	-58.1270954075616	
22708500	-0.965592909284365	-60.8991910075826	-63.3807705924009	-110.645305822106	-64.7579441447969	-113.961987852784	-0.791606027449628	-60.5178074097256	
22958000	-0.6096137780355	-61.9313952827126	-68.9166240793127	-168.131779166815	-68.8672941531279	-176.74993489831	-0.473013201935064	-61.9941616417822	
23207500	-0.29725544144048	-61.6505716202535	-83.2150291023409	53.8908281408748	-86.8618223694275	0.0885879411942115	-0.207156542288609	-61.880572230259	
23457000	-0.292275720150208	-60.3713320777992	-65.4197410344339	-110.4965710208	-66.4685805012203	-111.741919645866	-0.212422815538322	-61.0167923297686	
23706500	-0.528225853183131	-59.4556109216784	-60.9458156461293	-167.131231425245	-61.3051257898536	-163.90343748354	-0.497399047058082	-60.5753854071594	
23956000	-0.83973606293053	-60.3931356067731	-60.5928101583403	155.392067174725	-59.7832811265144	156.613023582693	-0.871452847487699	-61.3599112397236	
24205500	-0.991594175923057	-62.9262651468632	-60.8401564396055	119.326214289909	-60.4128903138683	116.128646408173	-1.01975294923202	-63.4295715745017	
24455000	-0.828868759275002	-65.2261828465339	-60.4141399021089	85.1104791898714	-60.2320866104369	83.757475734934	-0.823798518786712	-65.3703298241757	
24704500	-0.473501824803795	-65.8885667842549	-60.4030300118865	63.8755107610215	-60.096998419159	61.7305301650039	-0.436753209685237	-65.8654432623645	
24954000	-0.199139586877525	-65.0602730203342	-59.0232213385603	33.9321281602816	-59.0852603311122	34.6640182799072	-0.197594347754855	-65.1887784649833	
25203500	-0.208396563815927	-64.1253136087707	-59.1909615280834	-4.74520857554077	-58.9186128617527	-6.00065959181606	-0.26510370817604	-64.3526788692387	
25453000	-0.499390157506733	-64.0730913547121	-58.6207024342491	-41.7156787356672	-59.2133973296978	-40.5540555283567	-0.583764965262462	-64.2580733247929	
25702500	-0.830065360779608	-65.7547090826825	-59.4778592788286	-71.0268573735312	-58.9692099216158	-76.8437344072616	-0.932021505734182	-65.8886982834423	
25952000	-0.91199134432252	-68.5340362038622	-59.1546420962245	-111.337754275581	-59.2343931688795	-117.298102915482	-1.04080599702354	-68.3511037535658	
26201500	-0.699953068736688	-70.5336694827567	-59.3256634617583	-166.046207145628	-59.2070638837624	-169.424614696223	-0.808439868421271	-70.1832318878181	
26451000	-0.374098170144591	-70.6142186404463	-60.3711330737091	125.775203402053	-59.5233205093946	128.762238675271	-0.468547885330777	-70.3770264334155	
26700500	-0.227922410388302	-69.4448672782897	-60.9896190988395	62.2015714309293	-60.9212068093637	59.9565978559579	-0.290058072509034	-69.2012021122882	
26950000	-0.370902326607182	-68.3471858551136	-60.484502561417	2.15995476256245	-60.9547054820863	-3.55601515547273	-0.393805299909419	-68.2350474142971	
27199500	-0.723361614457166	-68.7539884409271	-60.5305333088659	-54.6718524571469	-60.7880190418537	-47.1036328234819	-0.71908796553652	-68.443005811202	
27449000	-1.00417300510993	-70.8314355172928	-59.9476235582997	-85.2566522544988	-59.967074090929	-87.2484246518259	-0.970038968431596	-70.4539964379882	
27698500	-0.993206469162695	-73.4323626966419	-58.4446820078008	-113.607202658695	-58.6048723758316	-116.630677438523	-0.947598983552353	-73.0036657617691	
27948000	-0.678993864365952	-74.8238918732575	-58.1395923456587	-151.542373387231	-57.7458099099822	-151.468135554357	-0.66999780805902	-74.5895554187704	
28197500	-0.336633997707385	-74.3290146219263	-56.1996021656974	174.702150386858	-56.1602043755764	171.446135150722	-0.38431853931974	-74.2574341831826	
28447000	-0.247235238305256	-73.055063534615	-55.911364647792	136.323246875545	-55.4121252569244	134.782851358619	-0.331741699092258	-73.0192332248846	
28696500	-0.465076911545477	-72.3972681884185	-55.5927010849379	98.7148631771967	-55.2920326751464	99.7386911676619	-0.54947342254175	-72.0590398381124	
28946000	-0.825724118112338	-73.2852207026099	-55.5810205629641	59.0877261613519	-55.1488131465634	59.1020583954884	-0.891078858747055	-72.6785979351732	
29195500	-1.04374595206644	-75.7280569598112	-55.7163616717959	23.108312605354	-55.3795339530541	22.3174378335564	-1.06238983198245	-75.0013020711945	
29445000	-0.93746165979999	-78.2707849378143	-55.8764510949379	-17.7392216374315	-56.0570514029375	-19.0467868577944	-0.896290015747697	-77.4495637326936	
29694500	-0.588423888956299	-79.0479749723471	-57.9058441847711	-61.8673402607762	-57.8845050884943	-62.2721420340704	-0.560785567586488	-78.5520262350474	
29944000	-0.331967707738342	-78.0611240179726	-60.2454602850418	-111.745454211771	-60.4525634596683	-109.817037016512	-0.287927884133936	-78.0026821446789	
30193500	-0.356976994808905	-76.6481671132819	-63.126118557887	-174.668751156615	-62.1596264058688	-165.966947774357	-0.327341349697046	-76.9808357047819	
30443000	-0.643123703711682	-76.1676047525731	-64.8183655319335	134.238312664973	-65.2438168158283	131.563866157739	-0.649546477227206	-76.5552900824257	
30692500	-0.988280603213252	-77.4688213768865	-66.8823060477389	73.8971949289144	-68.1605560038861	76.2911029990617	-1.0012722380792	-77.7750577727434	
30942000	-1.11846265436933	-80.1594888518372	-67.2877321418727	7.4694624728531	-67.4160228662702	7.18554479905789	-1.12847590076854	-80.1731894289431	
31191500	-0.876870338891923	-82.4204908915177	-65.853788441585	-29.1213421249391	-66.0847844076205	-28.4438552888523	-0.889537025068185	-82.2186450445676	
31441000	-0.482611955360175	-82.9204614550405	-66.0467812699059	-50.170434281816	-64.4773247250637	-62.9260696058443	-0.520329644246777	-82.5645892567459	
31690500	-0.267095637185354	-81.908910388532	-64.58492386181	-89.8038690965893	-64.0531168500675	-84.4512153690293	-0.302357627115557	-81.5142004735141	
31940000	-0.369542232568987	-80.8100793971887	-62.3768295863128	-123.30034838891	-62.5872995058027	-124.54826253143	-0.408092435582913	-80.4276433003444	
32189500	-0.726665519734991	-80.8268941350541	-60.3947375383671	-155.013169641344	-60.4656768446424	-153.278621819335	-0.755927262321558	-80.5427731218752	
32439000	-1.05987378448672	-82.6732367940152	-59.5748489042642	176.175421688262	-59.7609272958307	168.332550600462	-1.06718694113649	-82.4133831257396	
32688500	-1.08243671668458	-85.2846792763239	-58.9169798672684	136.197071346114	-59.4529528895831	135.056333321638	-1.10890552077203	-85.0101333728851	
32938000	-0.811998253828842	-86.7989221084405	-58.7953565508616	88.244015135612	-58.9385122786407	90.1738285454573	-0.83523655772379	-86.8578456960217	
33187500	-0.481269700430437	-86.4927449666133	-58.937649053331	47.4669423354321	-58.7454757644269	43.5297801932683	-0.49967723914934	-86.7075879611482	
33437000	-0.360851861760407	-85.1331555461885	-60.4390158509453	4.09854056672691	-60.2254438023368	0.05782071196404	-0.382295995984117	-85.4156918450409	
