!Keysight Technologies N9923A: A.12.45
!Date: Tuesday, 05 August 2025 19:43:05
!Timezone: (UTC+08:00) Kuala Lumpur, Singapore
!Model: N9923A
!Serial: MY61181427
!GPS Latitude: 
!GPS Longitude: 
!GPS TimeStamp: 0001-01-01 00:00:00Z
!GPS Seconds Since Last Read: 0
!CHECKSUM:0131955479
!Correction: S11(ON U)S21(ON U)S12(ON U)S22(ON U)
!S2P File: Measurements:S11,S21,S12,S22:
# Hz S DB R 50
2000000	-0.0998901876227013	-4.40213343861042	-87.5345526601495	43.3543814228579	-86.0846436029337	47.8601376705134	-0.128167665727976	-4.21409473077775	
2249500	-0.406006530373598	-5.39057599915772	-67.231365922474	59.141786293589	-67.0068462202725	55.2822961597108	-0.425736797433783	-5.22123330686183	
2499000	-0.535248390650008	-7.34762268317512	-65.6740283267349	-80.4878417212	-64.9524928249911	-77.6380830486753	-0.549874233844781	-6.99081967590828	
2748500	-0.373280470752528	-9.2180190862714	-70.5040588971001	-133.480676227772	-71.4611728458625	-120.001819326148	-0.392239756272997	-8.91475341716417	
2998000	-0.0558126727203943	-9.96592380244936	-81.5459581113328	-112.26309535352	-83.7922916357085	-87.4505602046097	-0.0798209470918819	-9.70292056109442	
3247500	0.141026398206899	-9.61523929700805	-73.8906571933482	-107.313494744717	-76.2309031421876	-114.674586099201	0.106466408828343	-9.39032496583232	
3497000	0.0834874686546663	-9.03615150684355	-72.3836015294352	-119.987267707786	-72.9445450069655	-98.9406669306088	0.0431436507432765	-8.8110151818179	
3746500	-0.210716888117143	-9.15266302102855	-69.9947026465502	-122.929260860838	-69.3971856885998	-133.47675016427	-0.238307417183484	-8.91711924301402	
3996000	-0.503251756443506	-10.3721589303722	-74.57502669848	167.912819767665	-79.9913129444796	152.179440053157	-0.506094199414448	-10.2205071784085	
4245500	-0.523878514646259	-12.4844839622139	-76.580762048242	-82.7777330460216	-75.964374167207	-109.978486865048	-0.535771845065686	-12.3202079400564	
4495000	-0.276866950958482	-14.1002908622175	-71.1299910284568	-99.229706709947	-68.7585952050567	-100.56645462859	-0.296649123222663	-13.856878934149	
4744500	0.0287031471231074	-14.4346220311516	-64.0482094780234	-108.406638791175	-64.053020668524	-104.812893150958	0.00567702219745102	-14.2019370268111	
4994000	0.135775383424106	-14.0108463567522	-56.0810860076479	-124.470211445017	-56.1147110881751	-122.523105288461	0.126198528159217	-13.6902286862381	
5243500	-0.205180249729641	-13.2446581113494	-45.3871932584452	172.48072698202	-45.3213295635898	172.648300034151	-0.0367122359901855	-13.234990217715	
5493000	-0.360770300014723	-12.8967756754107	-50.5018417976343	93.361085912841	-50.5285963777091	92.3064046484955	-0.347462989631689	-13.7138312664283	
5742500	-0.559520428145199	-15.007842055091	-55.1741974304509	76.6982355296683	-55.6084657206476	77.542695397972	-0.564283262274357	-15.4750725356417	
5992000	-0.485480548875797	-17.3074066178662	-52.0727247993403	63.2906601441623	-52.1018432842075	63.4092177737265	-0.499749243296823	-17.5994957837934	
6241500	-0.180283902713286	-18.6908920950099	-50.701696434428	46.5934643043959	-50.7136072581587	46.5643314843758	-0.221408998085952	-18.9170374805957	
6491000	0.0913219926543922	-18.7026961725015	-48.6980393964776	-2.21517055512071	-48.7176891788067	-2.19626333187584	-0.03204738464227	-18.9418267322136	
6740500	0.127155251544454	-18.2446507715523	-62.7593783549352	29.442106852078	-62.6085887879206	28.8759076742813	0.0118708651633212	-18.1511608820278	
6990000	-0.160447201842159	-18.4143497864774	-46.8497119643073	49.1251852440704	-46.7807265190489	49.288787653941	-0.290297061193597	-18.3676734520802	
7239500	-0.751737486832967	-19.4189264826936	-35.535032672305	-6.87833755317205	-35.4758359314218	-6.83348427678237	-0.879763859900501	-19.1882284765009	
7489000	-0.808276296840865	-19.6146818849616	-35.1496808643518	-101.423795830135	-35.0144238329529	-101.014517682013	-0.977194398568693	-18.739752877933	
7738500	-0.588002052858681	-21.8753323049755	-37.9157859988636	-147.142367741688	-37.7095625921559	-147.748293391719	-0.635892808019745	-20.5395364987792	
7988000	-0.258543245157872	-22.2605163088819	-39.1204206872497	166.125588752005	-39.1551331353067	165.115196078676	-0.243351274291581	-21.3829659790645	
8237500	0.0673620339754416	-21.6110914537164	-42.9805615187653	125.427461881829	-42.9505772949594	124.248051266928	0.0464172381144987	-20.9933635395272	
8487000	0.064966125604649	-21.078262561503	-46.7307795894712	102.702086867607	-46.6332721786884	102.059483841454	0.0336601811151811	-20.3887064940204	
8736500	-0.217415754519168	-21.2952436270164	-49.1287411332674	89.203375988652	-48.9719536983969	88.5122052575024	-0.231028777098972	-20.4894578273653	
8986000	-0.527544798185974	-22.9661652456694	-49.864985385371	76.8659733020698	-50.0098555645781	76.8162202056365	-0.525737806740956	-21.9816814665652	
9235500	-0.60133609243898	-25.6721684243182	-49.3172126283065	66.2473120566833	-49.2836308504764	64.9981031147937	-0.579660750477157	-24.3306741928033	
9485000	-0.413740342830105	-27.9555132219958	-46.3328851884089	46.1632182848946	-46.3019416252112	45.4156575765839	-0.348540568849714	-26.298103633293	
9734500	-0.301347083237523	-27.4268895884374	-42.6459000572408	-15.5736301454943	-42.7247219295432	-16.3940488520322	-0.0320571259196569	-26.7780328746917	
9984000	0.0799137534794147	-25.7770603443182	-49.0775779770517	-79.2048873058011	-49.0827015442059	-79.2862850974362	0.124575211218453	-26.2123093405689	
10233500	0.00227761882646654	-25.4792993362408	-55.0956859147888	-102.842426709862	-55.1386218602934	-103.162944440226	-0.00753955844128396	-25.7183389207662	
10483000	-0.319392239651521	-26.1207903774002	-60.175340310735	-119.61808615625	-60.0470560439102	-118.343843130776	-0.338542719151108	-26.2459716003168	
10732500	-0.57359917823132	-28.1710780146264	-63.6936974222392	-92.1071130763762	-63.2077653013466	-95.7280088479342	-0.593310800345874	-28.238395813635	
10982000	-0.531017864435787	-30.7723509718483	-61.6824653048086	-118.5415238621	-62.4225756737088	-121.286711450578	-0.5645149653939	-30.9503320617664	
11231500	-0.232654309243807	-32.3839246868664	-61.0075860539338	179.453232083688	-60.0728484559984	176.954451819398	-0.355868374152951	-33.2807160210373	
11481000	0.0630088084949554	-32.5298383225645	-52.5571878783443	21.3268325736604	-52.5659205239487	21.6241090464027	-0.567520612245381	-30.7801982025904	
11730500	0.0888218969904397	-31.9356187900296	-54.9699160663741	-100.739055158017	-55.1225277960793	-100.943770485041	0.0469366050945531	-29.7800484432926	
11980000	-0.201693482529693	-31.7520543893566	-58.8429772467956	146.685982705684	-59.1403323487439	146.934421563969	-0.172930935709679	-30.9084294950628	
12229500	-0.741904603412079	-33.1707353819199	-45.3468840897453	-79.7816042024585	-45.3252981898985	-79.9629523777664	-0.999206050523159	-29.0341175718047	
12479000	-1.2267198805787	-32.7352388027783	-48.9202014854788	165.252090465984	-48.9468255445007	166.196847355981	-0.702641723808412	-31.6553615615369	
12728500	-0.662305455760184	-34.0378064830224	-56.9089851110901	107.691395591666	-56.6432457360377	104.646553054036	-0.526333060504052	-34.5027913202362	
12978000	-0.180321696093821	-35.777136721796	-63.1514040665909	78.297305295169	-63.8735955764273	78.7387101183181	-0.174496703688908	-35.8683570564945	
13227500	0.1117843187261	-35.8190548496909	-75.1378477895462	47.1210399797834	-76.6855929964502	48.6475389551304	0.0742313240927245	-35.7314888301284	
13477000	0.0809835277972382	-35.356139195281	-66.2145577057169	-134.592444910384	-66.2464806473868	-131.615246882791	0.0495526631442139	-35.2309355778904	
13726500	-0.236281693384243	-35.5986865383796	-55.929040205499	-179.97076832694	-55.5876528860903	179.418991626613	-0.242220774384569	-35.3885889262067	
13976000	-0.591481110167281	-37.1751755668122	-51.8294603731403	123.286811740247	-51.9770820727636	123.519737950492	-0.579409816870123	-37.0214431935895	
14225500	-0.678531625086382	-40.0186767972948	-50.7890244526862	79.3433408849332	-50.7504457503448	80.7778225645526	-0.683711238195995	-39.7719274783413	
14475000	-0.471523210828733	-42.7000367119094	-47.9486895718347	38.1602806329707	-48.028031476616	39.1641392257831	-0.531999296783956	-42.4218669135061	
14724500	-0.338789430422875	-43.8407796053397	-42.5325356602573	-48.4393515460145	-42.4893079034224	-48.8639085486816	-0.619548874475838	-43.7381163914199	
14974000	-0.345207978385542	-41.3038657276965	-44.7249727509215	112.074107279896	-44.747797176671	111.567133258838	-0.247526118767645	-36.8651633392342	
15223500	-0.544715392716261	-40.2776456155801	-46.8236366066221	38.2171851740336	-46.9064889188464	37.7420405910785	-0.064222677088122	-38.289172458102	
15473000	-1.0605062922347	-38.5210317720034	-43.5847702853523	-14.8663775842096	-43.6813396220566	-14.6940359239118	-0.42757737278133	-40.0030811743386	
15722500	-1.09295153088353	-38.8942427096912	-42.0723763972029	-66.7771550826786	-42.1889278103159	-67.5567219259284	-0.848016622435001	-43.19406062772	
15972000	-0.850304416953385	-42.1520559473304	-40.7807439229697	-115.951658402313	-40.8707529071983	-115.796673003728	-1.25005850753961	-46.7653126036778	
16221500	-0.462313632165197	-44.971453608027	-40.1440287632268	-176.538989741744	-40.2415201552566	-176.438529918522	-1.53340681859835	-44.5050044384934	
16471000	-0.226776637842498	-46.5819268171407	-42.4678279467741	125.370859946416	-42.5326333087859	125.371344585738	-0.696500223921562	-40.4368554220655	
16720500	-0.880595178127171	-44.3790180913035	-45.4291562624445	66.021392854752	-45.4893741572904	66.0599371330989	-0.197802760652191	-39.8263438836104	
16970000	-0.498699241366125	-39.1162163359509	-54.1275838011815	32.758659128704	-54.0007010148671	33.1648371289621	-0.239121906849053	-39.8196349780402	
17219500	-0.603528445516026	-40.8806244189661	-57.1779305555157	27.3976051808439	-56.6381981429505	21.9037146596893	-0.517283760529794	-41.0429181374009	
17469000	-0.769767945508042	-43.8787873670374	-57.0341646844892	0.869863850233017	-57.1335509119104	3.69851716281112	-0.704711352326493	-43.5328955877381	
17718500	-0.653351842307947	-46.7581184636698	-56.6647742829214	-31.3450662835214	-57.15273799958	-31.1398475820918	-0.581741178180226	-46.2423062380113	
17968000	-0.299659287930638	-48.0773309441771	-58.1581495899009	-74.9365902768418	-58.1820183956108	-76.3397162474628	-0.2367038310272	-47.7044209245045	
18217500	0.0184976858046217	-47.7234387116507	-60.3324182757114	-119.331959065976	-60.0216649817458	-117.013363728797	0.0621002353974015	-47.574968551896	
18467000	0.0436750245222966	-46.7518558167442	-61.225185048442	-151.670198113196	-61.3919570989119	-153.12271625729	0.0578015971307251	-46.8920763883971	
18716500	-0.226155300321421	-46.5945999619542	-61.2807541711959	177.512766128905	-61.4365805449645	175.899152555766	-0.228554414531635	-46.991813689827	
18966000	-0.578096926192223	-48.01575346837	-60.4926552471064	140.415302364486	-60.729798854836	144.521300388785	-0.6272404812698	-48.8164241178866	
19215500	-0.703347403760233	-50.786397094221	-59.6546014512428	130.337682878296	-59.5041053290777	128.559140950285	-0.799520377344742	-51.7096209132888	
19465000	-0.4983363050759	-53.2903810899526	-55.5222655875586	92.1914809271078	-55.1210707994392	91.3695826343731	-0.811496336964212	-55.0248995703791	
19714500	-0.134709035236455	-54.2012575933221	-51.6413009984886	42.2607131078161	-51.5868455441698	41.4242332414857	-0.904073113104599	-54.8909403867513	
19964000	0.064597368124368	-53.6271750902799	-50.8732571005657	-18.9187068264313	-50.8510364340472	-20.6041938991581	-0.663668332249676	-50.0329031651577	
20213500	-0.0817364130225409	-52.8411967827801	-52.3447319408683	-76.0739070182949	-52.3360293265982	-75.6865338915906	-0.353311303887762	-48.1031335479638	
20463000	-0.492972775465651	-53.141646198733	-52.1884944159819	-146.148819475281	-52.1082570966292	-145.049944101497	-0.479059044736743	-48.8699249484983	
20712500	-0.895046953345195	-55.0379432964485	-52.7733902996641	-17.3569686823092	-52.7484307258961	-18.2284318762394	-0.948273237279875	-49.9886420476483	
20962000	-0.982833808085536	-57.5101007341664	-58.1402015149352	-142.76652461206	-57.8786032712432	-145.129507715085	-0.793178174692026	-52.8065834381133	
21211500	-0.692335756584661	-59.4477609107446	-61.8476265145062	154.508364117464	-62.1624454313488	155.966918481454	-0.485356197523868	-55.1840093648178	
21461000	-0.374371692047766	-59.8223676138943	-59.9587607612083	100.815421315549	-59.9764621148417	106.930525596024	-0.110036804038361	-55.801828428965	
21710500	-0.398982473400984	-59.0830285486387	-56.3164066611648	48.8778750052239	-56.3547452016006	51.9144473434328	0.0412496432901612	-55.2951596531319	
21960000	-0.894262315289558	-57.7948070167813	-52.7631806555918	-1.34515523269897	-52.8849274386866	-0.432609378244773	-0.123311011636814	-54.8330070485329	
22209500	-1.53416921730028	-55.8467796676937	-49.7355309943834	-49.3988127092686	-49.8424268201795	-49.981919648179	-0.487829299270894	-55.6488970126671	
22459000	-1.63744296574794	-55.2212134140226	-47.8826384683576	-96.143018634888	-47.7946248921386	-97.69583411717	-0.735253560462646	-58.0722915909782	
22708500	-1.20357424933401	-57.2881778621611	-46.7415483561564	-141.625655920631	-47.1133576727529	-144.386595880589	-0.67963533783714	-60.8595758439211	
22958000	-0.604699381707516	-59.2325897996638	-46.9413747279044	163.451560603795	-47.4539505182245	162.319702596202	-0.387984987842059	-62.388678066657	
23207500	-0.114560634247699	-59.6881256777025	-52.831046202628	100.7166890186	-53.221845270041	101.904728616027	-0.0907755243698408	-62.0550351253935	
23457000	0.0116824063500887	-59.7593727846564	-67.9911262017621	-125.171253575304	-68.5055296208708	-120.667848049441	-0.0547502636462375	-61.339721799892	
23706500	-0.313073687890384	-60.9622747616918	-50.5447579769392	-157.041280308538	-50.5581931667017	-153.694666621135	-0.345768213107135	-61.4564250510997	
23956000	-1.11517911691975	-63.8050007774309	-43.4665248120651	162.061213047464	-43.5106206639535	163.891982746365	-0.783924357908742	-63.2644869864984	
24205500	-1.80374273391995	-63.1102072368939	-40.5051243753965	107.241604270922	-40.5199895007534	109.246032508604	-1.04869310837445	-66.6981318591581	
24455000	-1.30421444699125	-63.0530033424382	-40.7029057460109	67.4734048015326	-40.3821345350676	69.1776607919088	-1.03836800688473	-70.0155065641393	
24704500	-0.691252898701378	-63.9433888259114	-39.7744424045908	38.6950221304455	-39.4792648591898	39.4340014758675	-1.00735748741466	-71.3057589892846	
24954000	-0.35279186743784	-63.3709853433009	-38.0352910232331	3.69753039092907	-37.8085093279395	3.77463435564396	-1.37342861767085	-69.2346564078169	
25203500	-0.380123180619744	-62.0524298154918	-37.3949842320618	-41.3438251736214	-37.3095016995885	-41.6096401672058	-1.85946154927441	-62.8839929905869	
25453000	-0.661825069912552	-61.3733211946919	-38.9085597242956	-85.0056537674402	-38.7709910537833	-85.0183271804606	-1.8538722683391	-57.4796374294674	
25702500	-0.952013694450645	-62.838296509665	-41.5681743225579	-119.22497505334	-41.4096073951513	-118.486314361003	-1.702718030828	-57.7481463764678	
25952000	-0.971360391446821	-65.8041466874849	-44.1898920206338	-142.632174080454	-44.0842870618626	-142.972010486229	-1.45854142925846	-60.9206744675169	
26201500	-0.661073726322705	-68.211069951893	-46.4616676686916	-160.854141762851	-46.3569075020791	-161.887325762543	-0.972236623547686	-63.9324442881487	
26451000	-0.240155977130504	-68.7654425955794	-48.0343496448237	-175.187662070883	-47.8697107924789	-176.591494248205	-0.449152569047023	-65.1668084368183	
26700500	-0.0465326465982073	-68.0256042582613	-49.1150767657492	172.823344312624	-49.1697344570274	171.811834164326	-0.19042123098584	-64.5422998537289	
26950000	-0.199285327616925	-67.1874180849884	-49.746310081085	162.409831983251	-49.5614763330995	161.542679406143	-0.228100107239713	-63.7949266680838	
27199500	-0.591191483064313	-67.7662646968504	-49.1225588741834	152.320507756783	-49.0883372022176	151.279348651571	-0.55171128989325	-64.1461829879766	
27449000	-0.921334440937948	-70.1267126830118	-47.8842236811855	140.653655218438	-48.0249992308696	139.932604563544	-0.823751400219736	-66.3813282614193	
27698500	-0.982517576760917	-73.04507830961	-45.7264109201647	117.623292734524	-45.7539000392092	117.606921042479	-0.796482853943442	-69.3499356248438	
27948000	-0.700142356887941	-73.7272815719588	-44.4118281133143	72.8293344160706	-44.404824868091	72.3256294269062	-0.465825919539046	-71.4123155555929	
28197500	-0.175562792395231	-73.5215411733304	-50.3519070595011	34.5957025780337	-50.2477279341548	34.2157583544245	-0.105230888707943	-71.5729898061621	
28447000	-0.123596014585747	-73.1876496016232	-53.400634894141	63.4565934415034	-53.3596700059354	65.9130508611607	-0.00769479291434644	-70.7294020765808	
28696500	-0.475820699534938	-72.9380668478149	-48.3639718892988	58.7402758621196	-48.6337689469467	57.8156731259233	-0.225288180585851	-70.0431959905662	
28946000	-0.983221254543206	-74.0965674988286	-45.9235275898383	30.7487813103163	-46.1350271838414	31.2255199587466	-0.599933548379334	-70.8842755043126	
29195500	-1.38860098763413	-76.8836602861796	-44.4672954278904	1.03881627150592	-44.3630684348327	0.828563439993782	-0.815778694529641	-73.4599074441322	
29445000	-1.56639087405117	-78.6130069585363	-43.0373502420892	-35.095391339927	-43.1650132670694	-34.94145765986	-0.678084959374239	-76.2037171145646	
29694500	-1.19308440776581	-75.7006965123085	-43.744473408349	-81.5451935170602	-43.7155004434355	-80.7409880577994	-0.345799470844823	-77.5815219961496	
29944000	-0.407574837969551	-73.436091818822	-47.8584995924198	-123.417560923369	-47.7601467534774	-124.375324021578	-0.0792295705738897	-77.3418629000269	
30193500	-0.162236745701286	-73.0916436405535	-53.797487077509	-154.011084503203	-53.2988061782012	-154.034498562421	-0.207448494181898	-76.803380955573	
30443000	-0.396328971507266	-73.7575483700992	-65.9661629181168	-153.79251984045	-64.647872131965	-155.149861722559	-0.578145422574672	-74.6482455890954	
30692500	-0.77280922884964	-76.11901265092	-62.3979900143777	-50.801295942185	-62.448830119849	-50.3033654421283	-0.831061917775562	-77.5390863583581	
30942000	-0.954119517978533	-79.9102847935537	-52.9990449277964	-51.7141682645791	-53.279864087356	-52.6712798607523	-1.03063317857382	-81.3191876073496	
31191500	-0.791906813901666	-83.1241404736903	-47.4165017823873	-74.8100847968922	-47.457127797392	-74.5839418682754	-0.899710238549268	-84.5660401595958	
31441000	-0.534035486811514	-83.981848586896	-42.7193710531215	-107.421437956999	-42.694148126493	-107.769355900736	-0.763301796600375	-85.5123901172157	
31690500	-0.490054180300353	-82.5251307538877	-40.4514007632241	-158.264331718803	-40.4534507141697	-157.81652748982	-0.881961801707717	-81.8210535149574	
31940000	-0.729998070883694	-80.4014500567858	-39.3412436583027	-174.083606604836	-39.3251599817084	-173.211092417939	-0.645628751652761	-81.4015284613159	
32189500	-1.18028921355298	-79.4261096106932	-36.8046856046367	140.413494884784	-36.7014616056619	141.476168204524	-1.44867533305477	-81.973317655106	
32439000	-1.53506247783693	-80.4473127770138	-36.4857271890123	94.7273066617609	-36.3524980878487	95.1617332213409	-2.18233436969518	-82.1055153680253	
32688500	-1.46608074737161	-82.5853991384216	-37.5373107844111	50.5308765278921	-37.4490385991919	50.3719564129165	-2.31315446600117	-81.9875760854544	
32938000	-1.02697584527903	-83.9144725184721	-39.7690066307172	11.9767875330498	-39.6886280696866	12.4839593579307	-1.76470010697533	-81.7895964475137	
33187500	-0.537957200027938	-83.5239620539594	-42.6000512312418	-19.151067190396	-42.6526424012815	-18.4683133711569	-1.03885868555863	-80.7826875150059	
33437000	-0.315039194079655	-82.1184106224673	-45.7507881923319	-43.7629307242794	-45.7568517985001	-43.1927805974483	-0.600778866839656	-79.3877477455404	
