!Keysight Technologies N9923A: A.12.45
!Date: Tuesday, 05 August 2025 18:20:20
!Timezone: (UTC+08:00) Kuala Lumpur, Singapore
!Model: N9923A
!Serial: MY61181427
!GPS Latitude: 
!GPS Longitude: 
!GPS TimeStamp: 0001-01-01 00:00:00Z
!GPS Seconds Since Last Read: 0
!CHECKSUM:0254974656
!Correction: S11(ON U)S21(ON U)S12(ON U)S22(ON U)
!S2P File: Measurements:S11,S21,S12,S22:
# Hz S DB R 50
2000000	-0.0778163110792883	-4.88769856183231	-72.8230425370438	-103.125661517254	-71.4706494339619	-94.3987325059854	-0.0884294363651851	-4.86552020696541	
2249500	-0.291428171765776	-5.81631175786389	-69.7185504248607	-99.9617562861698	-68.3841753549258	-92.9611929922795	-0.294559716069752	-5.76650109936496	
2499000	-0.382439066725777	-7.41441807916004	-62.0919928073963	-114.098027535795	-62.9422760116124	-112.742485264733	-0.381036905398472	-7.30755294589486	
2748500	-0.266689737559432	-8.85290645133498	-59.665328075058	84.9518356999002	-60.0692248811496	87.357258332652	-0.275020568833384	-8.61369672433257	
2998000	-0.0460603294828872	-9.60680365536977	-69.2962453576374	98.6488669203503	-70.3043961022339	104.055626834184	-0.0467433054015649	-9.39054799630053	
3247500	0.098953259043526	-9.54732707634728	-67.1988465331739	59.2028779829879	-66.4333186288362	57.0701108356153	0.0738068713130987	-9.28227695749149	
3497000	0.0603852214683731	-9.34338100903656	-73.1432089900147	67.2938527829794	-73.0706560922499	68.643055649791	0.0418327314024516	-9.1711539822403	
3746500	-0.14573382906013	-9.63619927955429	-72.6967924314778	48.2144946840941	-70.3192829600812	48.8966502743864	-0.160533819605191	-9.50116382121546	
3996000	-0.35114764134867	-10.8357297156097	-69.9217961927025	45.3377918897813	-71.2092456997982	43.4764001395175	-0.350464905044771	-10.6894005234697	
4245500	-0.384007422545345	-12.5455260772396	-66.5390277403409	12.9967719082906	-66.4097198336684	9.27631012664646	-0.373688240489059	-12.4225672948011	
4495000	-0.216042193943746	-13.9791449771437	-64.0989656680282	-5.58229626984573	-63.1936868681603	-8.37404745850987	-0.211271731211807	-13.7816790683685	
4744500	-0.0252462403754691	-14.5904660813651	-57.5706090354039	-39.8940640325617	-57.2803594253218	-38.5001662566142	-0.0192456435792789	-14.3812718750956	
4994000	-0.0488663460185925	-14.5488613076918	-47.9304276987785	-111.060507451642	-47.866173757921	-111.250642315502	-0.0342323469281583	-14.3928045823666	
5243500	-0.211530188994596	-12.7619519685951	-45.0522033978458	108.999482286126	-44.9658505229653	108.744068592313	-0.259280915538747	-12.8045746826247	
5493000	-0.296911102462858	-13.2274323533662	-53.2987752359152	18.5866705291925	-53.2144646763686	16.6919613552633	-0.331814440602961	-12.9473509005026	
5742500	-0.417622807516823	-14.900062302902	-59.4179983455892	-32.0638192722017	-59.5658125359965	-32.9538817895438	-0.422689720921806	-14.5699322176229	
5992000	-0.355732604756207	-16.7590242010734	-63.409008525364	-64.9601852533723	-63.1763701590443	-64.3163109524535	-0.357722440347135	-16.4641214242922	
6241500	-0.121420694517897	-17.9732123269805	-64.5566839907022	-102.429765855257	-64.623378134399	-101.0525123201	-0.153181576186868	-17.6442433115204	
6491000	0.0649304525902012	-18.2231014258246	-65.3812657295893	-155.67899134239	-65.4524600531046	-154.252663705311	0.0436909057045046	-17.9429890292361	
6740500	0.096155310538737	-18.0463859258161	-71.840318649558	150.308443652456	-71.6731228040836	148.894638391421	0.0742734647323519	-17.6810123410554	
6990000	-0.0706630928920508	-18.2100241428279	-76.1803732804936	138.577079657839	-78.6812412359983	135.500740696269	-0.0838138003658557	-17.7905376920728	
7239500	-0.314178966453686	-19.3812587805798	-93.0571904996857	161.39161296407	-85.9749843300171	-144.806667293867	-0.303359744171863	-18.7846169358074	
7489000	-0.677697848816197	-20.9115496144625	-65.33669249306	-112.581118590033	-64.601632912318	-114.757066016928	-0.40424536918028	-20.5716232189538	
7738500	-0.315574591675175	-22.1235193967486	-68.5554319913751	132.124545253479	-68.0019810573424	126.01254794022	-0.298650518668697	-22.2462851768739	
7988000	-0.071085750560422	-23.166023017283	-68.6365052110371	99.2375145464332	-67.5942524963113	98.3887403613533	-0.0747510878530933	-23.0869825761321	
8237500	0.0929971808438474	-23.2442966723146	-67.6083678477776	83.3228360583707	-66.4295536922046	90.6513450958383	0.0835937303599172	-23.1623820140526	
8487000	0.050056277012689	-23.1171427267297	-65.2175403410995	75.8561566932602	-64.6942360904565	71.8850184141858	0.0313911642127558	-23.1061596011909	
8736500	-0.172748791435278	-23.5686114439182	-59.8305908726038	55.0523543631254	-59.8827127081046	56.2054399965373	-0.209942848031464	-23.7280611757888	
8986000	-0.410781762931161	-25.1328314535987	-52.6266311533147	27.4919363958775	-52.7291987970651	26.5598375277844	-0.527242774368557	-25.5088844721055	
9235500	-0.514075341085012	-27.4944124647972	-43.294553761467	-46.4582375129256	-43.2206879086957	-47.286707850224	-0.968447045469466	-25.7894532655373	
9485000	-0.51673832511057	-29.4986085284366	-43.5929722659912	-139.809717651196	-43.6566340467671	-139.709953778656	-0.407840605475794	-25.5801089175991	
9734500	-0.524809558304093	-27.9752530917372	-45.7775114366091	131.546593930358	-45.6735537760124	131.74620759157	-0.0560006846796866	-26.6881399654634	
9984000	-0.200113905131756	-26.8460501753894	-53.3050388909329	44.1580665663231	-53.3439324886052	44.3993718333593	0.0818639491814589	-26.8801105029023	
10233500	-0.370207356433628	-26.477897324931	-58.1294829660327	-80.4236340399954	-58.0052664537725	-77.7630133328833	-0.0125003410842155	-26.9828385217477	
10483000	-0.500886049499808	-25.7335028162811	-56.7796301057593	176.609939621218	-57.2481687094551	175.567112967732	-0.260449219450614	-27.7945584998122	
10732500	-0.533229899558951	-27.4248454490101	-57.4152164870695	128.627654021584	-57.7284369031775	130.065603448466	-0.460245163646829	-29.6888756069396	
10982000	-0.44375284357129	-29.6975603803143	-56.5538213527721	94.3513333132115	-56.8304526836022	94.623755749291	-0.502772149263371	-32.0144350156339	
11231500	-0.208242703065438	-31.1838682935934	-54.6810220818808	60.6449403787673	-54.6545108670777	58.3712913208775	-0.469078359620343	-33.5534417314398	
11481000	0.0243540568775484	-31.5299365853871	-53.2438255489254	12.3575287123615	-53.0529087014237	9.93899304894677	-0.491450903260282	-32.4166827719242	
11730500	0.0746970936607561	-31.2820632352041	-56.1550682512174	-49.5670628918679	-56.2998321517912	-51.5413196689897	-0.335922596720754	-30.0295526716741	
11980000	-0.0875055078463984	-31.2567206029749	-64.2330638421313	-91.0964443484449	-63.9532386231508	-89.8271346233422	-0.308383387587168	-29.5327475414119	
12229500	-0.333897838339279	-32.2894046202337	-72.1851675751409	-60.0555580036243	-75.37185127237	-56.8110725411279	-0.474647159795446	-30.5069151467922	
12479000	-0.470005517297895	-34.2420002241767	-65.0377473612149	-38.4386631077338	-64.2775003106023	-37.6968618516512	-0.534954307273101	-32.3642444864855	
12728500	-0.375034296287971	-36.313676944029	-61.5029921252304	-65.6724685403036	-61.19185241303	-64.9544627500533	-0.409318230743158	-34.332141225674	
12978000	-0.155428382066563	-37.4598984000652	-58.6619080356284	-92.2051463225781	-58.1002329027653	-91.9875982612323	-0.148025404291384	-35.4784662091812	
13227500	-0.0340022948858416	-37.5195879643312	-55.2156900256016	-131.174743145641	-55.2462950548027	-131.994242252818	0.0381853651279237	-35.5938968807625	
13477000	-0.136576157870984	-37.0466833008854	-52.5515886150769	178.818094550782	-52.6084105461838	178.654023968569	0.025378765602891	-35.4660039234518	
13726500	-0.384643027439432	-37.1698107104997	-51.7877659895794	124.516380221801	-51.6838265725973	125.529876755646	-0.178865939539689	-35.7646012417606	
13976000	-0.702968403933142	-38.7726183846801	-50.7655847554775	69.5297870052922	-50.7981806540127	68.7552722356245	-0.409515849577412	-37.1503045301619	
14225500	-1.01490017191744	-40.6149642808283	-47.3518546547982	0.696826160688368	-47.1910032092194	0.325928924473368	-0.487122958283109	-39.3044564797608	
14475000	-0.920652583101243	-39.707191330493	-42.476947607151	-98.30369471399	-42.3727354971014	-98.8778453680404	-0.397915311279942	-41.2693302136944	
14724500	-0.474184644877333	-39.3520595187126	-37.8008757395923	141.532163191833	-37.7052577130267	140.870930303899	-0.405745990159705	-41.3773371217492	
14974000	-0.209520244530965	-38.8791287785323	-43.6174230856787	17.9042684889958	-43.5961438623711	16.5114017839365	-0.0304323260884085	-39.7435310403626	
15223500	-0.211160792400292	-38.4117848353806	-50.1480941642777	-34.1141776943247	-50.1098453362571	-34.3445410159044	-0.0686261551569863	-40.1630232041016	
15473000	-0.386251822093825	-39.0114874005973	-53.0881275071409	-66.0077902851334	-53.0951167355934	-66.3944858762347	-0.324804057783548	-41.1953592613951	
15722500	-0.553318734883515	-40.9437176982521	-53.9811656131074	-90.9115106115902	-53.9197955602083	-91.6297114816755	-0.565070928070112	-43.2605210240845	
15972000	-0.523661211972496	-43.2908355296697	-53.2038479874533	-117.637015750536	-53.4336814941292	-118.352879594165	-0.657752943689144	-45.7539253072576	
16221500	-0.299929632683571	-44.9555570943232	-51.5166328787573	-149.945489296792	-51.6015232235836	-149.839894784025	-0.650568013513069	-47.377885676323	
16471000	-0.071321558830017	-45.4607069408097	-49.4483052035601	166.678675912628	-49.3123174869023	166.986772462891	-0.716977315811877	-46.5416214163276	
16720500	-0.0282815425004843	-45.2376858960301	-48.4667721157888	114.775972590407	-48.3522502391096	113.86411339518	-0.707338323080057	-43.326254156445	
16970000	-0.224030195053147	-45.1350484752861	-49.0001349354827	60.0004196309491	-48.9335758474779	59.8574835462735	-0.613876073778332	-41.4890057547131	
17219500	-0.530369366636328	-46.0054691735151	-50.3184962217777	3.33403326452804	-50.4697192295138	3.50015516333458	-0.649534611437343	-42.1486369091518	
17469000	-0.715167122581939	-47.9718535933059	-52.4616751773596	-54.4673771347065	-52.4163104004558	-52.844564070846	-0.674493042492719	-44.2156028863589	
17718500	-0.689719768724977	-50.1712260014238	-53.2613290719628	-109.710305941105	-53.5824782666029	-110.228732426352	-0.52000170092978	-46.6375407397924	
17968000	-0.569054526445004	-51.3885402046219	-51.6154247258079	-167.717879176937	-51.5343130111364	-167.749208041874	-0.236396542294778	-48.3354803180431	
18217500	-0.545559657383134	-50.6495817935208	-46.5339047336588	132.176152275857	-46.4402132200058	132.816324927377	-0.0285982119327449	-49.2177885486721	
18467000	-0.637554831401995	-48.4344726355248	-40.2353550047517	39.3129599801163	-40.1555992081223	39.6588466441561	-0.420569252172779	-49.2971525810358	
18716500	-0.746220742339668	-46.8117667869226	-46.325957765213	-65.6416613743985	-46.2497732676203	-65.9744453219961	-0.416699182409797	-46.4554020568298	
18966000	-0.823835995613098	-47.4293740837801	-54.2987867226176	-112.290414584122	-54.2328798861616	-111.54424737598	-0.513147895888481	-48.052061058792	
19215500	-0.785794972343364	-49.5757634330114	-63.0936516419519	-132.338366176034	-62.8835309055379	-137.666172085655	-0.56075085148059	-50.4843360870895	
19465000	-0.56526195574924	-51.6825701752541	-74.3259149362864	-29.0056937513258	-75.9196530546778	-43.1707965406234	-0.418599232874109	-52.8115903111797	
19714500	-0.250220477141694	-52.6778303205778	-60.5460403036758	-22.7411004999344	-60.680579855118	-24.9249133834724	-0.180449186822459	-54.2146891455401	
19964000	-0.0620859709016215	-52.5444420712923	-52.4291919025612	-56.8007828705156	-52.6166684211444	-56.8951685548066	-0.133582500687304	-54.8536948190903	
20213500	-0.128555242605231	-52.2401028095053	-45.7196483358563	-131.868401766437	-45.5703812269623	-132.697144692773	-0.650833184817568	-52.9891342949656	
20463000	-0.384306215799262	-52.7204788493192	-52.0331471233469	154.203564361108	-52.0334226379039	153.817602106235	-0.467420616206666	-51.5006921895717	
20712500	-0.602900779425328	-54.3376911024006	-59.7705044854412	158.548526097867	-60.1798235022039	158.410072835374	-0.584544489234661	-53.7870816555888	
20962000	-0.614827312320164	-56.755318466302	-57.3657702139967	174.875278841327	-57.2679440982177	177.131962329996	-0.594857316735769	-56.3224895374254	
21211500	-0.418964449946428	-58.7688245177257	-54.6270530875044	155.59376184327	-54.7007439267621	157.152530523903	-0.437159214169911	-58.3950068521478	
21461000	-0.200645283010016	-59.5742216179067	-52.8219873056408	144.22335241491	-52.9380430066503	143.268180811927	-0.251341711351668	-59.2956975835861	
21710500	-0.204421058192581	-59.6016209047784	-49.0333173388384	128.386976262691	-48.948803559292	128.784830593709	-0.290526517558999	-59.3694207692704	
21960000	-0.5358245683994	-59.806483432985	-44.5958664308617	100.830249700636	-44.4897573824534	100.992132799932	-0.642699451481866	-59.0623709045148	
22209500	-1.13599105243857	-60.3133157978297	-40.0913985716839	58.0652420416313	-40.0618399780295	57.7400225200008	-1.15527151263312	-58.4396238189111	
22459000	-1.64061030552693	-59.8581671202489	-37.0853888896723	-2.40439063409238	-37.0793269017817	-2.38246277665749	-1.319954272306	-57.9521371779348	
22708500	-1.46229658618492	-58.8117801864881	-37.2450101786157	-74.557685186021	-37.2328582360194	-74.2553084149372	-1.05163446951128	-59.471747633692	
22958000	-0.85572544727103	-58.7006998445301	-47.419995419468	-123.17321771229	-47.1895265227884	-124.62833738055	-0.93021688238272	-59.8619164620436	
23207500	-0.355780841233508	-58.9511990012931	-44.9721294194219	-123.652680274768	-45.0248666452341	-124.704376665097	-0.43462426236274	-59.1532103890146	
23457000	-0.18950152523116	-58.8232995651298	-44.0809411988333	-169.475986603257	-44.0527587001126	-169.303171705361	-0.31451949894074	-59.1721541459907	
23706500	-0.303044672047905	-59.1573362963276	-46.2623093383369	133.8404285449	-46.4051642510526	133.437516876846	-0.523325911529306	-58.9251216173349	
23956000	-0.524217158836455	-60.8236949405598	-52.6493749459876	87.7760314070869	-52.9221342743395	89.1233819875366	-0.716297242073967	-59.5152309879212	
24205500	-0.661417729310283	-63.6948771773579	-61.8183373090262	61.2888469170323	-62.5278963243881	63.8189388145233	-0.756920487704605	-61.5680840695933	
24455000	-0.608089610406014	-66.3574653405463	-67.1216217193299	126.66761142181	-67.1938819274854	128.41023458151	-0.581182741004983	-63.6350791162455	
24704500	-0.577973565659906	-67.8374082624324	-59.0904251476064	130.291448213585	-58.6962586913044	130.056793862103	-0.269764544876178	-64.6139535277975	
24954000	-0.653108422376618	-65.2016532675844	-55.7667937018907	85.5042831964288	-55.5452847394839	86.6746359847046	-0.073863643184222	-64.6271298174088	
25203500	-0.431176837023672	-63.0123633370357	-57.8680181124168	46.4208643953047	-57.6588336729037	49.5254849430237	-0.115332136036776	-64.5065979176658	
25453000	-0.48809835987781	-63.3162696289734	-60.548667967322	28.0352470442295	-60.0345739481959	28.9311007315207	-0.34851951863929	-64.936824795396	
25702500	-0.659227876346331	-65.2236978956283	-62.1145716582378	10.5759098839074	-61.6636970780365	10.5871694368024	-0.604402569387628	-66.7736163898554	
25952000	-0.670543269125157	-67.9712465461371	-61.1623652564154	4.08744176723622	-60.8857081545356	2.73608404621244	-0.69488982137495	-69.2775591084579	
26201500	-0.470134458377334	-70.1496619729486	-60.4451444586615	-6.43705618635973	-60.6432643915506	-3.05135462717277	-0.550304322167376	-71.4514160457598	
26451000	-0.198152778039899	-70.971482027976	-59.8798399710213	-18.2380345905398	-59.8513501205341	-17.1139475559646	-0.382981375491791	-72.4979499907601	
26700500	-0.113634755012619	-70.9467432969747	-58.679198487339	-40.4385448097068	-58.3427218357338	-42.825817896015	-0.426689691961937	-72.2674307225907	
26950000	-0.317762127597386	-70.970286913366	-56.9915199403094	-68.3428949178301	-57.554555831746	-66.107353083344	-0.778107391396411	-71.6044315078689	
27199500	-0.763597487711022	-72.1245514992773	-58.0917121055498	-91.9326687735937	-58.3932541342414	-93.4959305044619	-1.30840143289455	-70.6247343374728	
27449000	-1.28753331710012	-73.8725317910459	-58.086446943689	-66.127185782487	-57.8421758652943	-64.067178176662	-1.58206522459991	-70.0941057621792	
27698500	-1.55716521256677	-73.6718768889026	-48.7636108667238	-95.9838022384184	-48.4945278995101	-95.6412485378765	-1.41458096395725	-70.5513114169512	
27948000	-1.12251034937083	-72.3623275674097	-46.1416981409293	-153.258704837074	-46.006007891525	-153.789432981388	-0.988623158600572	-71.3571769147288	
28197500	-0.572730604975535	-71.7275303235926	-46.3156321335307	158.959651722723	-46.1713913799449	160.065511061252	-0.565995117280825	-71.2883494272298	
28447000	-0.33853600233283	-71.340043414655	-47.156438837887	124.382165392539	-46.9128918974849	125.514958070482	-0.369497492080638	-70.8632834014008	
28696500	-0.430042105632942	-71.6329264368418	-47.7712690464556	97.658892318006	-47.604844937433	97.5204069585227	-0.441887380069416	-70.7780643521194	
28946000	-0.679371942147971	-73.1888790307285	-48.0293264943332	73.7191481088009	-47.8631065212551	72.4739187119641	-0.658040178983156	-71.9070297532436	
29195500	-0.863021704279225	-75.9552080041772	-47.3412862060313	51.5860144382052	-47.3312057729805	50.4641216393133	-0.78406356724509	-74.2791170909795	
29445000	-0.868771794325643	-78.6825453080107	-45.8315576917134	23.7863318584161	-45.6274656219613	22.1240581288842	-0.683007170454971	-76.523375394629	
29694500	-0.743066226913853	-79.2918891279687	-44.444392460615	-10.6940367207023	-44.1343491881908	-11.2915578099046	-0.405396523380825	-77.7024228812096	
29944000	-0.597720311701283	-77.5381330357335	-44.1603749121643	-49.3545801456904	-43.9667778202742	-49.9682047765288	-0.187197711727353	-77.9005537970483	
30193500	-0.519503684396992	-75.6720749081017	-44.8455920217293	-88.3132388098959	-44.6500272957178	-88.8247426299642	-0.237357533662154	-77.7701614337408	
30443000	-0.625876187818532	-75.2676461404603	-45.8516707709363	-123.31095505164	-45.6975853512164	-123.764094680738	-0.540903317361868	-78.1618738065117	
30692500	-0.822488047143025	-76.5835003161597	-47.4729216510259	-158.020155478584	-47.0381196621135	-158.26017912384	-0.942271583446175	-79.7447753510023	
30942000	-0.903586673445379	-79.0527246535484	-53.0289429460535	167.791878458705	-52.6871790581288	165.909822087071	-1.28250322827172	-80.6199185309504	
31191500	-0.72550220791359	-81.2251841894561	-51.0267438870553	-159.814346456445	-50.9401643434	-160.385787680118	-0.810415690435258	-80.8925739357865	
31441000	-0.420157427494175	-81.9105488140175	-48.0028939665823	153.149318674763	-47.8644538820457	152.890517230347	-0.421950077384944	-82.8868993428681	
31690500	-0.232792942125555	-81.4255660973485	-48.4521537699116	115.065670282974	-48.3365249668067	114.349783506261	-0.379645727278566	-83.2583535720648	
31940000	-0.287363050544044	-81.0009449098961	-49.7424919875243	80.8488235306367	-49.5712390130303	80.4928905838726	-0.674292093154602	-82.7741864593179	
32189500	-0.548330497171118	-81.5375181365556	-51.4606737670308	50.7156202495176	-51.2508036309532	50.9170828218122	-1.15435706493308	-82.2475414222098	
32439000	-0.795525738236514	-83.5668667638517	-53.2047932467501	20.6870014201969	-52.9967584220997	19.0261619655857	-1.47250911424972	-82.236430996821	
32688500	-0.819523349819416	-86.2394447012862	-55.5597815307389	-6.11815957254057	-55.9841192520815	-8.06850068388877	-1.41336489554144	-82.8982009249074	
32938000	-0.657344824160936	-88.111213996294	-58.6512863293077	-21.0313586511568	-57.9987156375318	-25.4641317408301	-1.02281353716799	-83.8614853861802	
33187500	-0.498095345946543	-88.4562222583214	-60.2496202025369	-33.4689674596515	-60.7716037760153	-35.4872440536231	-0.591404221969373	-83.9371981914046	
33437000	-0.552879687304102	-87.5713765072261	-62.4410053768363	-43.1151409022025	-61.6458121907397	-43.7614057992192	-0.375798121757134	-83.4543659293512	
