!Keysight Technologies N9923A: A.12.45
!Date: Tuesday, 05 August 2025 18:05:50
!Timezone: (UTC+08:00) Kuala Lumpur, Singapore
!Model: N9923A
!Serial: MY61181427
!GPS Latitude: 
!GPS Longitude: 
!GPS TimeStamp: 0001-01-01 00:00:00Z
!GPS Seconds Since Last Read: 0
!CHECKSUM:1380101747
!Correction: S11(ON U)S21(ON U)S12(ON U)S22(ON U)
!S2P File: Measurements:S11,S21,S12,S22:
# Hz S DB R 50
2000000	-0.0692676260430484	-4.83743632122582	-93.1477089158629	22.2929051043196	-94.1626861125309	162.639562028581	-0.0786593693807025	-4.83266752727717	
2249500	-0.254866855661231	-5.74708613584006	-80.1534654375138	70.1607367315279	-84.2446846701664	52.7128272282655	-0.260434003164295	-5.74401050851565	
2499000	-0.337074356252361	-7.22234879139581	-62.6927712142221	-13.3385714158647	-62.852435369726	-16.605485398709	-0.353008438538199	-7.10609404583174	
2748500	-0.238399166338773	-8.62529524959743	-66.4841807975226	-68.1950779470339	-67.6268437828141	-70.9278673021565	-0.247627225791047	-8.45974922219525	
2998000	-0.0463845700536929	-9.39565999753814	-70.1036223542291	-179.494145549112	-70.9108455763802	-176.739864329281	-0.0608030061334265	-9.09724449097356	
3247500	0.0781884641281658	-9.47684713318879	-80.773061901563	-139.911941072998	-79.1127383748827	-114.253115259622	0.0704333186992614	-9.21947128151164	
3497000	0.0406034278967099	-9.40947305568225	-73.2767382610973	-121.434742318808	-72.4275638311277	-120.979631664097	0.0252756055371501	-9.20108699591689	
3746500	-0.142192890903692	-9.79487378711105	-67.722931613061	-132.668614732314	-67.9593712439556	-126.761793001271	-0.15283789069944	-9.60650458822	
3996000	-0.324468941156278	-10.8542363714214	-65.9953367193336	137.418174025686	-65.4082671326776	129.743966102794	-0.315410020465316	-10.7245948273084	
4245500	-0.336954202840316	-12.4261102419411	-77.2436882843561	84.6097822554593	-75.2602901800845	78.1924160426738	-0.332008792982244	-12.316624204209	
4495000	-0.187106806082327	-13.7115735859477	-65.1237993260024	-80.0322088843856	-66.2929019417339	-78.0402791867584	-0.185520691018948	-13.4494673623746	
4744500	0.00245259635982061	-14.2202171326698	-69.0208974972742	-107.374938935801	-70.1912966971475	-99.0197517344941	0.00514089854712288	-13.9635419722825	
4994000	0.07890859594857	-14.2264917227707	-63.779138450021	-111.408790992795	-63.6033812878285	-112.264204776241	0.0783925360430199	-13.8911354343931	
5243500	-0.0462078488379349	-14.4370532361901	-55.3243223280316	-134.584497646371	-55.6671933374262	-134.806044874751	-0.0200741943284765	-13.9062343798241	
5493000	-0.340801021944562	-14.227003479825	-48.9297095274861	134.617284484666	-49.0031436279796	135.439448287849	-0.224404887353248	-14.4894430774635	
5742500	-0.371023582566552	-15.6659535775793	-55.34412971171	83.4701067983422	-55.3116357169512	86.9044375211369	-0.346763838434807	-15.8439399641012	
5992000	-0.31561665714454	-17.4423640592975	-58.0282993113061	67.9369999297773	-58.0251895826361	68.8086295671836	-0.306898757013678	-17.4541705720605	
6241500	-0.119088473883489	-18.6517968238077	-58.0997997064583	62.0951663671946	-58.7010654592194	59.3177342704273	-0.137877823954165	-18.4875164537922	
6491000	0.0355394335567203	-19.0646116886926	-58.9923053596507	49.0391262119859	-58.7068019098503	46.7028608717267	0.0341089538412154	-18.8187960092112	
6740500	0.038755321054738	-19.2798578850058	-60.9610769235475	97.8628980645594	-61.2741949164182	95.9768298291976	0.0373392122091487	-18.6867338051655	
6990000	-0.205190882826014	-20.0506114143353	-50.5679389509007	75.5691405790735	-50.7285788596848	76.2438941890333	-0.102925011999733	-18.8913313135276	
7239500	-0.779870973753772	-19.9064491064263	-43.709651713734	26.0834172797943	-43.7804304717216	26.2410779430153	-0.303356493253465	-19.9514172425243	
7489000	-0.623328207885784	-19.6720921232935	-43.2060882413447	-21.9167297204984	-43.2041855068971	-21.7655832950273	-0.427009277015495	-21.7380751022242	
7738500	-0.460429186286115	-21.2405084823529	-42.7452521125411	-43.3444258671212	-42.8264076545438	-43.1331944835006	-0.328352149417926	-23.1301710049088	
7988000	-0.15798994466699	-21.8166135237032	-41.194823788963	-88.3873218876406	-41.3287664787601	-87.9708853440069	-0.163140270858217	-24.1018930355244	
8237500	0.0437535619399136	-22.1359686090945	-41.2098024898296	-119.392570359112	-41.3628914494995	-118.277448462665	-0.0941232789781591	-24.534350728825	
8487000	0.0232766884503205	-22.1833288756721	-39.7584092597695	-148.038431680203	-39.7621904206962	-146.053229230549	-0.34185088449165	-24.7058267960229	
8736500	-0.164841418869641	-22.5656331425691	-38.0939760196831	169.835070003564	-37.9529132502622	170.614145383731	-0.865038038925994	-23.1182782217197	
8986000	-0.348645578544863	-23.7640157583783	-39.5505939713562	122.24885712792	-39.4509606220419	122.792672730288	-0.812729636143897	-21.3191817593604	
9235500	-0.38389915037096	-25.6194862587482	-42.0083857915502	94.1646285890825	-41.9177812647355	94.2563909865732	-0.567945045177679	-23.0859555829022	
9485000	-0.244821197104638	-27.1916454438163	-42.9487866060352	75.1354812118623	-42.8348102324873	74.9518240393667	-0.320874524836029	-25.0449626444394	
9734500	-0.0689746203776057	-27.9108991219729	-41.8966219000806	54.6072354068332	-41.7969963018615	54.3486119801333	-0.0757403982775147	-25.9930235819165	
9984000	-0.0637401639042861	-27.6912497167218	-39.6566218042188	15.3801974193822	-39.5687095143139	14.7083107722991	0.0122204490263707	-26.1299288111957	
10233500	-0.135718592212724	-26.8379384106344	-41.4097383157916	-41.5316973735609	-41.3921421988276	-41.938710846558	-0.0669846273464254	-25.9004766666572	
10483000	-0.279330272577066	-27.5080969164411	-45.7183950548103	-74.335644724443	-45.6481411683554	-73.1816624751037	-0.241426177553083	-26.465159614176	
10732500	-0.425419455003686	-29.2145404553295	-48.3218188278661	-91.186897061568	-48.4148766575898	-91.3643279212382	-0.374695752027922	-28.0074684932134	
10982000	-0.427851931496701	-31.3314824005937	-49.1446161137555	-110.304533366424	-49.0962975996749	-110.502431519351	-0.347205010670467	-29.8496081555924	
11231500	-0.374525375821218	-32.7707198255718	-48.1639781263824	-142.466868533741	-48.2035116722488	-142.46708592447	-0.16783627889671	-31.2212351521257	
11481000	-0.341304445488302	-31.1966513371947	-49.3881388664866	148.790293105064	-49.380761097562	148.378495838397	0.0169582311073078	-31.7375057002589	
11730500	-0.0438363689382795	-30.2658117818573	-61.6749496274861	-134.729703370334	-61.6543200593832	-133.822109489013	-0.142004005872742	-31.9251539217163	
11980000	-0.101054740578077	-30.6892176111979	-62.190471203439	72.6408406345506	-62.4844667116862	73.3817992158414	-0.0881982257540238	-31.0979176492113	
12229500	-0.290541443021561	-31.9299216178418	-79.6159609528951	47.7850922921615	-77.3296962023443	51.3044910869986	-0.296550859685865	-32.4344392528775	
12479000	-0.399333205087275	-33.8453888085601	-75.2878433769296	44.4221737854815	-78.124566006164	27.5014996541858	-0.464347223639842	-34.443635706949	
12728500	-0.309950374964933	-35.8068938928032	-66.6461150927889	35.5547644156948	-66.9939408249566	39.4943472107938	-0.491505799281171	-37.0257840728692	
12978000	-0.108452374363101	-36.9637994113998	-51.8945965232346	-59.4117322644119	-51.5623560829552	-59.9065812905033	-0.692420681963944	-34.3717850389255	
13227500	0.0135010622224853	-37.201446424297	-50.0348441166012	-134.301593482524	-50.2542136350471	-134.574088227918	-0.0587745710968895	-34.8694724883471	
13477000	-0.0719861545523512	-37.0382715270373	-50.2677248310342	152.071884050956	-50.4582714774314	152.123687194475	-0.177389044375715	-36.5537405284522	
13726500	-0.280013161917292	-37.2353194077575	-50.2915347049246	162.581629557519	-50.0613972577567	165.549896519663	-0.404670846200993	-33.7433185504422	
13976000	-0.505795089330909	-38.7601391503035	-50.5695633710791	110.500630611599	-49.9162095079509	111.790320489891	-0.464535498066554	-35.487987977922	
14225500	-0.675389637062521	-41.1902525863688	-50.3449969093585	87.2270216292541	-49.7515891631056	83.692309819173	-0.4765932129646	-37.1437756083173	
14475000	-0.859024541900702	-42.1976944655237	-51.0935548109241	43.9816635230546	-50.6282743926473	40.2497370213748	-0.301300573069906	-38.8585375096077	
14724500	-0.583049294789266	-40.2907316416114	-53.7776265461814	41.3756391402621	-54.2021002753379	38.4892446170005	-0.079882076343946	-39.629676509956	
14974000	-0.41704722419507	-39.5850782462959	-50.5246269596038	17.9370679860045	-50.6290009960389	16.5867304862294	0.0433615577493404	-39.6827467450322	
15223500	-0.424313256001044	-38.3351124098953	-50.6319468900227	-20.7803046206171	-50.5907040301557	-22.1078685742912	-0.0356078251527003	-39.5959758367453	
15473000	-0.492225130484816	-38.4454837683321	-52.3150954901815	-50.6205400864106	-52.3035113658328	-52.0226173426444	-0.237736039466612	-40.2384485562158	
15722500	-0.571854763479414	-40.1707563624875	-53.9616102790435	-71.6178210917473	-53.9164311974995	-71.0731184090212	-0.398136046574451	-41.7799033928309	
15972000	-0.5065005163156	-42.3616811451118	-55.0157625569324	-86.5404454345984	-55.1743807046037	-87.5105907432045	-0.392823603911121	-43.7279195123867	
16221500	-0.282287287287538	-43.9758431686872	-57.1653620339702	-101.545715334452	-57.3837032267686	-99.4071328002698	-0.239852079491441	-44.8394773126126	
16471000	-0.0550255826035821	-44.6087352919018	-57.4276600624575	-113.692999709865	-57.2522325946663	-111.542256346137	-0.0245305082244652	-45.4006104849745	
16720500	0.016801286417967	-44.7358260514045	-60.5562661222629	-125.205790290442	-60.187282046824	-123.993299020359	0.0241229109763496	-45.3776565030206	
16970000	-0.185846961049799	-45.3131058396822	-53.6269785051926	-66.3115141460514	-53.2201372075683	-66.1101209959089	-0.128356031717181	-45.5333089377345	
17219500	-0.557177283297521	-45.9822169556605	-46.2715003189311	-121.433148693565	-46.139851146851	-122.760403566022	-0.355331115870552	-46.642010944572	
17469000	-0.802372309381601	-47.0009480618933	-43.7538856432614	-169.772003074878	-43.801212611875	-169.880176259329	-0.511430306620973	-48.6890258327496	
17718500	-0.702429843665036	-47.6355486447767	-43.2776198187627	142.617043958979	-43.3320689336759	141.617157521524	-0.499738436372012	-50.977842129951	
17968000	-0.368592766876321	-48.4243705637971	-43.6536801063886	100.813035331417	-43.5874679132164	101.572413977759	-0.41088636889241	-52.7098041333428	
18217500	-0.11708230338619	-48.67897900101	-42.5706520363296	52.4036986914081	-42.5171600784382	52.2009497409351	-0.619349451259214	-53.2592330829212	
18467000	-0.0974818915680478	-48.5114763056256	-55.2535124953916	-93.2144203522923	-55.3554380174511	-92.6347472529102	-0.321302796438218	-48.9759205855968	
18716500	-0.263639475550964	-48.9617128423369	-50.0675034345787	67.4975563943143	-49.6865183089208	67.1293532358764	-0.734444600061925	-52.4804747071876	
18966000	-0.489967129132417	-50.3866510919617	-45.5156025220665	14.97841664379	-45.2536884503102	14.3785811887703	-1.57501340723762	-52.8809871448871	
19215500	-0.592281710735466	-52.5718198588361	-43.8832409794969	-42.8057782852066	-43.7711102681195	-43.7772145128214	-1.92503146981693	-49.2984117331689	
19465000	-0.525173245862584	-54.5415998570568	-44.1171461117072	-98.0169316904553	-44.136135495613	-99.6515071279036	-1.28885462345369	-47.703853354094	
19714500	-0.395862705970373	-55.3598537148546	-44.1326049730227	-152.204031232567	-44.1979192857662	-154.475943755084	-0.612945837702489	-48.6863327971008	
19964000	-0.383962636761399	-54.5414630833011	-43.5779972105258	149.933416328184	-43.8615294347897	148.054562321788	-0.255338008267561	-49.316970597256	
20213500	-0.449616192242012	-53.1065129222419	-44.0128687383939	91.8347311835515	-44.2311913431145	90.4091287299924	-0.189713519043277	-49.5962844693974	
20463000	-0.575885113031424	-53.2440080490099	-45.3700660711584	45.1359992468651	-45.5231693104246	44.1338626874299	-0.319610585707074	-50.3607612527761	
20712500	-0.734704663032408	-54.9241163761596	-46.1592903266374	10.3817898237099	-46.2262125554723	9.46955388470653	-0.471421371407999	-52.1123648655497	
20962000	-0.78408892536667	-57.1266935102186	-46.0639301818421	-19.3766976882016	-46.1301674548825	-20.914673745151	-0.470225716450064	-54.2491452272957	
21211500	-0.65542655042608	-58.437855176634	-45.1567911824802	-48.819699523055	-45.3051126584347	-48.8803766484785	-0.30852759215201	-56.0875301639393	
21461000	-0.397200944217037	-58.2873595573475	-44.6135840773223	-90.2449112943144	-44.7470042040653	-91.3652312217185	-0.0895370037124432	-56.9185945492845	
21710500	-0.199254811093234	-58.3921237423507	-49.5209787682221	-129.395061311561	-49.7141212714611	-129.667759982288	-0.0247516966429777	-57.3168320184505	
21960000	-0.410690848494096	-59.568482018888	-46.1026255381015	-87.8425710057782	-45.948403689511	-88.446720809083	-0.32261587000503	-57.6210662288644	
22209500	-0.911361011657702	-61.0586023905219	-42.2014162631316	-164.35809514266	-42.3592547256723	-164.489204540311	-0.493656434661308	-56.7185002995777	
22459000	-1.48837496234993	-62.1530437398467	-46.4159124761428	155.739366843605	-46.531434518704	156.57482957263	-0.532312124426102	-58.988107677101	
22708500	-1.69062344459306	-61.1034246412018	-50.5658870361577	144.675738134427	-50.6007560769768	146.34670939363	-0.506029775170878	-61.5597436701204	
22958000	-1.29411398188505	-59.0721321895098	-49.9842079039874	152.621357508715	-49.8202397467312	154.683373148944	-0.423286697260519	-63.5533269931135	
23207500	-0.7543981033402	-57.8642849232275	-45.3548837666859	132.054849229208	-45.3075435277071	132.240001929241	-0.547598147579588	-63.696580952044	
23457000	-0.47461025634398	-57.2464009076579	-43.957672428545	81.5694038275185	-43.9504246789227	82.155719124491	-0.670497020314472	-60.6433541269528	
23706500	-0.484245997189716	-57.4330202827746	-46.4641139675244	33.0750221223218	-46.3031719916136	34.2375952963314	-0.63371988722574	-59.7250399295933	
23956000	-0.613036401990931	-58.7505168476957	-53.3376186058213	-13.8570824683143	-52.9792671829467	-13.5407690780263	-0.77497650282544	-59.9727745819185	
24205500	-0.646586893954733	-61.1061869798171	-59.287738558086	9.70045179433417	-58.9904409087522	5.84552446474443	-0.634370597133261	-62.0723309398201	
24455000	-0.505918033504421	-63.6175155514127	-60.1698522055434	-51.4349746409782	-60.3312366387116	-52.6737705298461	-0.450711447079727	-64.8918935555726	
24704500	-0.341147319201707	-64.9753840890942	-53.8838708611359	148.060786745464	-53.8109536911417	149.902896405166	-0.244857881941287	-66.6345226828674	
24954000	-0.248982863104401	-64.6981992860807	-47.5019849981066	88.5947096242798	-47.2312352259403	89.8502561010737	-0.192547019037371	-67.2109620743979	
25203500	-0.279536268383833	-63.8622562442774	-44.7195163130831	44.9409965292012	-44.4626953996732	45.395196054471	-0.385878086367352	-67.6628636731346	
25453000	-0.427434476980187	-63.8524096058964	-43.2133568957839	9.37266001395939	-42.9584425017614	9.80922691145289	-0.874463836502163	-68.3781015486325	
25702500	-0.597265423415448	-65.2627575314721	-42.0380057675563	-25.2500122781199	-41.8238129741553	-25.3880056403985	-1.50636487765388	-68.837138034032	
25952000	-0.606431684854388	-67.454413106696	-41.8501243991435	-60.7673661976588	-41.6845802299603	-61.1438863798188	-1.78242482743393	-67.5139746043574	
26201500	-0.426237473122726	-69.1656348805928	-42.8300733357718	-93.2888151576287	-42.5503561690588	-93.2441659455753	-1.39144780162274	-66.160562101194	
26451000	-0.167709521390582	-69.7057108958164	-44.2938354230924	-119.799477163672	-44.0313257460362	-120.445781912252	-0.819922206567272	-65.7990878727901	
26700500	-0.0559498954582966	-69.4599787028934	-45.7569850442865	-140.025982026601	-45.4683307728571	-140.735058639106	-0.464536943461754	-65.4719276821465	
26950000	-0.162050703447542	-69.1833843114324	-46.5904980508495	-155.991832277191	-46.3606576372142	-156.28886118411	-0.400814333065773	-65.4747333545518	
27199500	-0.408145203720765	-69.8906904612707	-47.0705318513327	-170.385991396547	-46.8614345172005	-171.870792382856	-0.549037953503442	-66.2005818438176	
27449000	-0.5974396227888	-71.6358576440519	-46.9680620261475	174.008477997795	-46.6724951681187	172.552462608811	-0.667865623842472	-68.1009844578952	
27698500	-0.604620864112698	-73.7378543351676	-46.8913970995957	154.677654680751	-46.7254577998735	154.10069879681	-0.624475830086207	-70.3360099532398	
27948000	-0.412928490855793	-75.1113861798596	-47.1939165732875	132.746021401156	-46.8131495571576	132.102263958605	-0.410986729816309	-72.0998056554414	
28197500	-0.20014622496592	-75.2569729765432	-47.9565999829543	121.138605821738	-47.9101448987489	120.769710492871	-0.21318276989229	-72.8490213569834	
28447000	-0.169607717248717	-74.9586328043719	-47.4198033633673	90.6597547155889	-47.3299402727298	90.7486289638872	-0.139120108697033	-72.0407783515321	
28696500	-0.348921330886993	-75.1824987440039	-48.828468183834	76.6684299162213	-48.8448455787242	75.2604653125928	-0.251130984743912	-72.0759602563016	
28946000	-0.616467811189361	-76.5341611881421	-49.6735680472742	66.7147706176314	-49.7561719721193	65.1322858664014	-0.468044404473832	-73.0685170990004	
29195500	-0.795508751323781	-78.9658485054765	-50.0921878424808	57.9491594591164	-50.2859600202057	54.5422789096176	-0.586113806207474	-75.0670659228531	
29445000	-0.796348597304561	-81.5046916601452	-49.4939632657996	50.4991121965186	-49.7547979736261	46.7999247455732	-0.490940193535895	-77.0713587736736	
29694500	-0.695592931914145	-82.728565361972	-48.3023022299544	39.2762586102989	-48.188848326711	38.0185058596335	-0.288504487144582	-78.2565621835628	
29944000	-0.754526768812344	-82.2347605397988	-46.4445491840822	25.2592894247885	-46.4627101727501	23.905486686389	-0.10981343828786	-78.372053261334	
30193500	-1.03955394375618	-80.3426016014325	-44.7103279841489	2.24346841919346	-44.9718527908997	1.83835669702201	-0.143550561763168	-78.2553972590063	
30443000	-1.29667740669897	-78.1281198667391	-44.0809856541173	-23.3808224771231	-44.1837138020292	-23.3577668278718	-0.366866271070307	-78.5865339182196	
30692500	-1.34041523602264	-78.2654630549258	-43.7771409482671	-46.3535471641911	-43.7016622499396	-46.8412552055001	-0.605289714943273	-80.0858028721511	
30942000	-1.30846533837581	-81.504915989861	-43.4711695389621	-74.5264804827893	-43.6394353832919	-74.5493640733355	-0.706873633904096	-82.1318086881848	
31191500	-1.59347407882034	-85.3172046355438	-45.543853545567	-94.2863718855218	-45.4322512015053	-95.2850989421556	-0.568893246863246	-84.1995869651245	
31441000	-1.62189611257351	-80.5311061257148	-44.1532317106525	-89.205322863937	-44.1829110733321	-88.0939160341151	-0.387378932919498	-85.1930126739802	
31690500	-1.10541811730188	-78.4952985443467	-41.0923272880636	-117.635298969609	-41.2127627935267	-116.3698470198	-0.340269444797782	-85.2151723425366	
31940000	-0.963128475985455	-77.2039359885017	-39.7463164870422	-155.095764183677	-39.7313769213446	-154.294604159993	-0.586885518075542	-84.9934139683625	
32189500	-0.996771513390184	-77.0477278843885	-41.8784403484235	177.200221128989	-41.8925484088234	178.800761202852	-0.838127909565496	-85.4947867819023	
32439000	-1.03568484168727	-78.7063204778338	-42.4169122348086	158.342890167708	-42.4292809241834	160.631068581754	-1.19279769941292	-88.1124653252189	
32688500	-0.91688854871969	-81.1941351179465	-42.6915585197619	139.857099296652	-42.4606834791849	140.931600436464	-1.49969942008953	-90.2809703474873	
32938000	-0.648583429616892	-83.0953876826659	-42.5445818551792	118.716156279692	-42.2209654667156	120.143355638949	-1.62870172362014	-91.068912832091	
33187500	-0.364834689737808	-83.7908815918196	-42.3084952430598	96.7612476364801	-41.9416216083022	97.4487722090768	-1.70620016511756	-89.1069603218718	
33437000	-0.250234231668991	-83.6470290349181	-42.1642621432392	71.3421716559698	-41.7377013968996	71.6456618513557	-1.74657444613412	-84.8878562226145	
