!Keysight Technologies N9923A: A.12.45
!Date: Tuesday, 05 August 2025 18:41:12
!Timezone: (UTC+08:00) Kuala Lumpur, Singapore
!Model: N9923A
!Serial: MY61181427
!GPS Latitude: 
!GPS Longitude: 
!GPS TimeStamp: 0001-01-01 00:00:00Z
!GPS Seconds Since Last Read: 0
!CHECKSUM:0525803819
!Correction: S11(ON U)S21(ON U)S12(ON U)S22(ON U)
!S2P File: Measurements:S11,S21,S12,S22:
# Hz S DB R 50
2000000	-0.0709227997384974	-4.57921642491098	-70.3432197862638	-95.8836578761308	-71.3807370395594	-101.264921794294	-0.083805580300543	-4.56286279326389	
2249500	-0.311630718893704	-5.4435479744827	-69.0325002811919	-115.71407702523	-69.0167852940762	-102.077142682806	-0.315424159946738	-5.38032572127854	
2499000	-0.417321205187091	-7.12403134386053	-61.351199371322	-119.769565530536	-61.1350688503883	-117.84999740746	-0.413612716188611	-6.95380962217305	
2748500	-0.318362007313372	-8.53138106669552	-45.4777145474512	136.593715559371	-45.3566087942745	136.009725925604	-0.335274545782043	-8.24873642428188	
2998000	-0.0504756570756123	-9.38898576147791	-53.5303979032758	52.5398727891266	-53.4295804835726	51.4541931983774	-0.0352148840404629	-9.07019338705445	
3247500	0.129368872896685	-9.11610710349803	-58.0687430834112	54.2007114186119	-58.4365514171503	55.0271850312494	0.114604281428653	-9.07311739785005	
3497000	0.0802071613731554	-8.86261255660751	-50.4342489115046	14.575249353943	-50.2335671102515	14.9355026744322	-0.00175440378634624	-8.93632328588949	
3746500	-0.160399415885989	-9.13627052491483	-48.0820376259189	-77.0462764019912	-48.1113108847737	-76.6352352730727	-0.227113568773456	-8.54741467520191	
3996000	-0.443837524510721	-10.1643243277493	-50.4901068031724	177.932832081931	-50.1125669655581	178.203408629981	-0.410292664763186	-9.84665587483385	
4245500	-0.417133933331496	-12.0590286119457	-71.9639970523488	127.493969483606	-70.1654698815387	121.649345707117	-0.411401616491207	-11.8643516218373	
4495000	-0.219487987951568	-13.7483042031391	-72.3229053109315	-112.37721641095	-71.4913406439778	-117.229926215632	-0.215326484375727	-13.404590057926	
4744500	0.0192276811941344	-14.3828934007598	-63.5494277317315	-123.559260335496	-64.1000869206377	-122.388550370624	0.0314441291510611	-13.9615027553677	
4994000	0.058866763831854	-14.3446017882453	-54.054660049103	-156.179980213385	-54.4220239412984	-155.546878629707	0.126284253836521	-13.7871049792489	
5243500	-0.0654165855737269	-13.2207033591269	-52.6269816988286	115.293879391681	-52.7353682733918	114.423936855978	-5.83261122485954E-05	-13.6453611625428	
5493000	-0.270585097313664	-13.9778583969455	-56.7004976100904	83.0863845065701	-56.828050739893	82.1712070201177	-0.259246204110353	-14.3200116314788	
5742500	-0.444199674977666	-15.7153710936433	-57.2979482332516	66.6463498584913	-56.9920814093151	65.6364220583477	-0.431796213801921	-15.9549549640125	
5992000	-0.389340307020701	-17.7031985503113	-54.7892863222075	52.7234873082717	-54.8781965171996	51.6731767107381	-0.388524082813513	-17.9332684806204	
6241500	-0.155486205065406	-18.9742232271654	-49.4412737686138	26.3923106391805	-49.5716143185317	27.4873936369298	-0.217956569452988	-19.2322207702072	
6491000	0.0160684561512352	-19.0339865734128	-42.2217361255497	-55.8832261199606	-42.2422385204887	-55.6266165339576	-0.165559157364828	-18.447884312373	
6740500	-0.00668215727012718	-18.1469791747204	-52.1203508531071	-174.015210096838	-52.1158939619414	-173.807262164836	0.0861157910631418	-17.5426242385065	
6990000	-0.124100876320686	-17.7712350396944	-53.303379804937	-75.9630406096921	-52.99576638294	-77.3370757459186	-0.107479903136209	-18.304636180771	
7239500	-0.390265681600191	-18.8884092404869	-45.4798773537596	-150.323292626364	-45.4090233860349	-150.153659795537	-0.594007685779573	-18.9094287798125	
7489000	-0.542189376794943	-20.6077904457185	-48.1177581962805	138.893299882344	-48.195979775689	138.790999859464	-0.567935091295809	-19.4602550840759	
7738500	-0.397828020024559	-22.2212513785937	-50.7926806898092	102.80256748757	-50.9151532305408	102.433459200503	-0.365480259714275	-21.4118500417433	
7988000	-0.116270595671679	-23.2267945055	-51.324554837729	77.6850577591505	-51.465541924008	77.5961413243606	-0.0826458774359438	-22.4523036809775	
8237500	0.03173820734037	-23.317521422807	-49.6684723383918	48.4101233897767	-49.6334614999732	48.8550193200795	0.108143616021046	-22.4898111920878	
8487000	-0.110831191404454	-22.5613352972283	-47.2768329156516	-1.4620334102464	-47.226748786487	-0.579072066921734	0.0617355600080015	-22.2686934374571	
8736500	-0.285676227186749	-21.9996497561293	-48.9212558936085	-57.7727448326093	-48.8762435166051	-56.7964954274836	-0.168826688554765	-22.6226706281547	
8986000	-0.461729731860575	-23.4665758034389	-51.2541907154466	-89.004348676811	-51.1861437292095	-88.8969564458355	-0.412897008782053	-24.1500227847658	
9235500	-0.489625288136664	-25.8125262610299	-51.7624937219617	-110.940052378128	-51.6307335063083	-110.891199617861	-0.465008667720435	-26.3378666047345	
9485000	-0.295423162718362	-27.7229298816369	-50.1842438216979	-132.306944259887	-50.0844288086738	-132.791189291145	-0.304382387614828	-28.2542965075978	
9734500	-0.0565204921235543	-28.4669937559405	-46.3712863154475	-165.630929848907	-46.2819093869159	-165.064358641931	-0.12247345567998	-29.0429071351004	
9984000	-0.0228706040583147	-28.1553194514639	-41.1165122715306	134.797999941143	-41.143840060189	135.719383812308	-0.213261962291342	-28.2532790184897	
10233500	-0.225561975136867	-27.1771466705541	-40.7404262027529	40.2073126868657	-40.6471589910513	40.7602186578697	-0.301716995852436	-25.8334923421503	
10483000	-0.434999924530363	-26.9246554566363	-48.0947751661999	-47.7836270416058	-48.0402640274907	-47.0140205538027	-0.350404238185036	-26.0499778965673	
10732500	-0.570191110286667	-28.7000407296864	-59.4735294540191	-142.706216175819	-59.0282412259844	-138.980025433112	-0.468023421989926	-28.3606790776738	
10982000	-0.538068542678291	-31.0872037031194	-51.3065527624248	70.9227444208182	-51.1363851001423	70.4893001792563	-0.495443876006745	-31.3479759024579	
11231500	-0.367646492894299	-32.3278043921949	-43.7872856566484	-41.3198391146732	-43.7638533464111	-40.6185150862529	-0.541813652345564	-31.691131338721	
11481000	-0.137109539398711	-31.8874759879438	-47.079262208285	-131.129589797268	-47.1761424607893	-131.529852431906	-0.100815826204563	-30.7527640359508	
11730500	-0.0472013339995709	-31.0094583378214	-52.5104409196718	165.095372513421	-52.682834600101	164.575123816504	0.0292117314749085	-30.4829824563234	
11980000	-0.209038153826721	-30.6837978934119	-59.7308078586602	116.834127099526	-60.2355462086997	120.572657321309	-0.114569155347206	-30.5046453305198	
12229500	-0.469213279522558	-31.5139440130383	-68.3549213880398	127.453170720029	-68.5372838919752	134.078770121723	-0.368340859812308	-31.5943400120196	
12479000	-0.587558697131257	-33.5605721787144	-64.5125274961099	132.622011488094	-63.8425954475342	128.935574255894	-0.500002462740632	-33.7481672837881	
12728500	-0.461357221421959	-35.84362727341	-61.4014871812095	99.8723362358363	-61.4093830959744	100.442332956653	-0.406617770913264	-35.9467963387365	
12978000	-0.193883019453117	-37.0701529551685	-58.3831939179221	67.2980974053763	-58.3338764802636	68.1649703137645	-0.152014609761763	-37.2298750618835	
13227500	-0.0354794527744429	-37.0708115800338	-54.7557753809154	30.7885650257741	-54.680703428899	28.1658762794053	0.000642607725155068	-37.3881274884844	
13477000	-0.150320569790905	-36.4791547706343	-50.9067061838396	-21.9805485098643	-50.8212756361563	-20.8515557399632	-0.108082482100181	-37.2476915227946	
13726500	-0.441636688846069	-36.0414338278224	-47.3458332992635	-88.1311665794203	-47.288719457262	-86.7964790988693	-0.493222354000536	-37.2722824504788	
13976000	-0.675331300818492	-37.0122131809256	-45.698714121763	-163.724109494193	-45.4296312166285	-162.701389487411	-0.917625921201989	-37.4678684355933	
14225500	-0.732448854189712	-39.3590498045858	-45.3948707657327	114.519819914955	-45.2146196939736	114.932821510997	-0.936684854915956	-37.7804886221131	
14475000	-0.639250355565349	-41.0969741576288	-44.046211337754	22.9791133948224	-43.9569553845359	24.2717645872415	-0.575459284807437	-38.9452582174728	
14724500	-0.323490293050572	-40.501976696653	-43.5664379423561	-78.535257688072	-43.427426461391	-77.4254397227485	-0.175919915494751	-39.7377419256687	
14974000	-0.142459060467743	-39.8794859331205	-40.2054458036369	164.432497084585	-40.0939769847533	165.382497896326	-0.153646263967061	-40.1201379341568	
15223500	-0.207003297409988	-39.1770625964127	-48.7162682361877	54.6354089841927	-48.4156220146999	55.6845120419876	-0.149407496285645	-38.3912239619719	
15473000	-0.455071579493404	-39.2849697732405	-54.6929844586518	-5.40863605350494	-54.356079747849	-3.66686047834405	-0.343432033744244	-39.1034798802507	
15722500	-0.639210608177017	-41.0381959709733	-57.8862726220991	-51.0206828111182	-57.3956568729705	-52.7056762417711	-0.537918192700566	-41.0536461835802	
15972000	-0.595567262774049	-43.4873214652543	-59.5229800047424	-96.6386792916282	-59.2359773731487	-94.3031915496111	-0.52405791884421	-43.500898649821	
16221500	-0.340744284444361	-45.2625295695048	-58.3121791585951	-133.753867461978	-57.9741107629578	-131.328279748251	-0.297495845656031	-45.2835448286791	
16471000	-0.0974552807964828	-45.7621868447842	-54.9983137482335	-172.933369491442	-54.6095566268678	-172.026886336607	-0.0686154503465728	-45.8241979467943	
16720500	-0.087221727432564	-45.4157799415364	-50.688234209633	147.887026479622	-50.5799748927955	149.431535615607	-0.0556560378296234	-45.6620276763285	
16970000	-0.364816012284921	-44.9368717641003	-46.1765460919682	101.405305010775	-46.1834720917704	103.309523908438	-0.337361546225492	-45.6025438587625	
17219500	-0.727683213985411	-45.2093922566789	-42.6186014722894	45.007544911065	-42.5424871847653	47.2578706807224	-0.778337471894965	-46.347497667872	
17469000	-0.89108012355475	-46.8070709340607	-40.7043632335716	-14.7137891495862	-40.5566478313147	-13.0576661275572	-1.11407490546459	-47.3188536168979	
17718500	-0.772534473258293	-48.8433040482067	-40.346688092265	-72.4756962828732	-40.1769315729662	-70.5734264389582	-1.01911007182059	-47.749102314223	
17968000	-0.508740579566686	-50.0598999831452	-40.8417202737038	-124.716817868499	-40.6720786796154	-123.820182662431	-0.577676717500544	-47.9293776798084	
18217500	-0.346687279645917	-49.5325710524588	-41.524720650893	-173.735611953022	-41.3139372935006	-172.775536132472	-0.191082967094794	-47.6155529308358	
18467000	-0.355206659725491	-47.7914909171073	-42.699734278305	139.066804633562	-42.538087778653	139.559756116434	-0.10396338137636	-47.08392498884	
18716500	-0.478296199072696	-47.1322474667734	-44.480376939806	98.7866189603175	-44.3798297317668	99.3618470556779	-0.270065702661266	-47.2673987666452	
18966000	-0.663021643128432	-48.3865746061271	-45.530718094906	66.5404288244342	-45.4713280644893	67.0405919279206	-0.525818952536476	-48.8258990245606	
19215500	-0.710341707318001	-50.9391878714215	-45.2383008536392	36.0507573331377	-45.0527213319973	36.6553590043128	-0.6552581941701	-51.5339964136058	
19465000	-0.532048041842057	-53.2950767827068	-43.1085585394733	-5.02428592783692	-43.0882516111774	-4.76286339232711	-0.654279084765228	-54.0930274010255	
19714500	-0.240155318561689	-54.3135836031005	-43.8926983476085	-74.9974259614418	-43.9204549212554	-74.5823481735937	-0.513796780152008	-53.1971444398367	
19964000	-0.111384083040042	-54.1960420901137	-52.9179258067438	-112.386310541953	-52.6734940133204	-111.819824774277	-0.111870416423971	-52.5153914970986	
20213500	-0.317665587690346	-53.5905010454564	-52.7655659438026	-70.5299226857228	-52.8259229685299	-66.9170453210863	-0.132418383025398	-52.6238118624959	
20463000	-0.696124764467383	-53.274464678526	-45.9111323749913	-96.7008201497836	-45.7437316706705	-94.8609197022843	-0.430646699513053	-53.3742994746222	
20712500	-0.939828294367899	-54.3813097085782	-42.4086185635781	-140.431799371503	-42.2175956990524	-138.588966432538	-0.761308953961624	-55.3276094898034	
20962000	-0.950048092336488	-56.817532632418	-40.1720104227229	175.131877877408	-39.974443388032	176.383791734919	-0.914466980191088	-57.5896369133132	
21211500	-0.7736934705233	-58.6255909266718	-38.3053600108478	127.875496884988	-38.1279496641218	128.941412485793	-0.859571995283346	-58.5995897061013	
21461000	-0.569140687629532	-58.4781443972139	-37.056917796976	75.9091824047914	-36.8975035180233	77.1902623428896	-0.614222360080582	-57.5270105918488	
21710500	-0.527573069715301	-56.719985300398	-37.3265260041112	22.4167809991174	-37.1274925163025	23.3122667219656	-0.415789571723358	-55.9171920664405	
21960000	-0.620177764677839	-55.0038137409972	-38.8811985644559	-26.2245816746442	-38.7634695523576	-25.720954371624	-0.43972127580308	-54.9616039344503	
22209500	-0.779599706728908	-55.14677935747	-40.8566743957561	-66.6513601608003	-40.7570611500053	-66.0959917291267	-0.634985625474315	-55.4946925137527	
22459000	-0.878729199945903	-57.3502020950673	-42.3113160081657	-99.7608519427544	-42.1534034189752	-99.2056167542267	-0.7559089426063	-57.5714686738483	
22708500	-0.762505007896628	-60.1271863359801	-42.6945959564859	-132.585489803379	-42.6869511584921	-131.28502322554	-0.665110187197219	-60.0293770907957	
22958000	-0.498557014466322	-61.7605359605191	-42.3225886950782	-173.413783278204	-42.2567324608312	-171.316598438098	-0.403870073654321	-61.6381063603886	
23207500	-0.267000544374338	-61.4214659125388	-43.8260907972244	133.509397670204	-43.6408330150447	135.622694003561	-0.177001866364627	-61.6736595642611	
23457000	-0.209333798825186	-60.7096904695671	-49.5025574897714	111.844054588601	-49.396337145422	112.800958265498	-0.159232281745144	-61.2504468001583	
23706500	-0.511726094290444	-60.5496803576585	-44.1256447874277	109.762666504429	-43.8724053528155	112.219181828716	-0.458232798410409	-61.4219066492172	
23956000	-0.836443701230379	-61.0944541933046	-39.9881242557224	39.5660724142685	-39.6846562315544	41.5421984872811	-0.861521712083583	-61.9876598517303	
24205500	-0.983776083984283	-63.3438734816125	-41.0914837362692	-40.1956693075822	-40.7387591693634	-37.2984777303365	-0.955564153956518	-63.8200334329978	
24455000	-0.840860105048756	-65.130275630954	-46.2559521028629	-114.036986546023	-45.97896892345	-110.993283571914	-0.811269440166691	-66.2788250109612	
24704500	-0.513002819896109	-65.8938988834954	-56.50110089627	170.526060700093	-56.0826977576119	176.141599999513	-0.625679320923973	-66.9194240030677	
24954000	-0.331091997873782	-65.3925986150096	-60.8658756897961	-14.1089597577819	-61.141860933491	-18.4158798792262	-0.513367894527208	-65.4695061014072	
25203500	-0.422582098189409	-64.3127005153312	-53.7038614263386	-89.5261458521375	-53.61531722849	-90.1826178893287	-0.52312245850332	-63.7479028961696	
25453000	-0.694158255374041	-63.6866875653628	-51.5948791671362	-143.433342391355	-51.7999847991114	-142.895645693797	-0.683938376990952	-63.2287454979647	
25702500	-0.923324674019703	-64.820920244692	-52.114480448796	172.356493321405	-51.8736925142999	173.824657937519	-0.875333560507526	-64.7075658980625	
25952000	-0.90655243512756	-67.3167482226448	-53.4602988763136	131.83614251565	-53.0428444940336	132.195597341885	-0.884544351662281	-67.1436433550911	
26201500	-0.642570981489436	-69.3996959532008	-54.6433262547276	97.4856005251268	-54.4403233755235	99.5255624029606	-0.625442109769244	-69.2280848107309	
26451000	-0.308070794064052	-69.9843652547239	-55.1455186111476	68.6769836225025	-55.6087232053215	68.8516461271752	-0.310619877282378	-70.0212716707875	
26700500	-0.188110555432234	-69.4419414859165	-56.302312339235	39.3014131271386	-56.1114233274065	41.3182402891391	-0.177390846918994	-69.5277867199958	
26950000	-0.362655867516413	-68.6665230645877	-57.1483015468046	9.66188450643577	-56.4419024829182	8.93565385837422	-0.322872950722031	-69.0912583120862	
27199500	-0.706694377542298	-68.896055403969	-57.7090448630983	-26.7819511205767	-57.1314752627484	-22.302343721941	-0.683767537160503	-69.5526446283818	
27449000	-0.937762984223832	-70.5320550615593	-59.3038953580782	-66.4472607405759	-58.2645986236133	-66.56978916127	-0.98454226131895	-71.467619734138	
27698500	-0.894338730297253	-72.9113508564362	-61.7612434575854	-110.337722467541	-60.7746302097186	-103.261660512445	-1.04517626294462	-73.6653015608028	
27948000	-0.609450033444602	-74.533082517291	-66.7515653551511	-160.42573652152	-64.867404056944	-150.187023143686	-0.854269886401319	-74.8262604238227	
28197500	-0.349887234580112	-74.5084432334679	-69.1785120574074	98.0590362846634	-68.6301948598523	125.685289821385	-0.601142856472923	-74.1347919812443	
28447000	-0.351459243667493	-73.5395832766176	-67.006254508059	31.3115788030373	-66.8526729742501	38.5554110060862	-0.503948843999539	-72.7263776160795	
28696500	-0.620018987844835	-72.7106306437225	-62.6258635071366	-32.4325544876058	-63.5682979339843	-28.9502525977137	-0.630511810425822	-71.7702848226405	
28946000	-0.953311498458082	-73.0266531607746	-59.7759962343629	-82.1261059810848	-61.0642412836375	-81.0080676651351	-0.875704990675004	-72.3850536744906	
29195500	-1.09190910514398	-74.8375860762538	-59.2749906211086	-118.210704917751	-59.1158601064365	-121.103645359223	-0.990281744398682	-74.5678833823025	
29445000	-0.920363476932735	-77.1258656476975	-58.6625329489225	-155.837092126734	-58.6426120325394	-152.869379103586	-0.827367506233937	-76.8878566168315	
29694500	-0.554959738942999	-78.1640006659014	-58.5293604097073	165.090295267126	-58.3294931668219	165.5346216984	-0.527537143462615	-78.091984151726	
29944000	-0.317135012285038	-77.6821901904319	-57.1173213244357	126.190703965459	-57.6402020423357	126.677429801419	-0.282089769663743	-77.851612784332	
30193500	-0.362370154978776	-76.6419567444618	-56.4066030020064	87.7413676977582	-55.8953238915754	90.2534028125017	-0.322005407902995	-77.1938976739686	
30443000	-0.630330673242514	-76.2172705926183	-55.8403536669356	43.6318237768773	-55.3360763806173	46.0805617689765	-0.621394265749358	-77.0578820924729	
30692500	-0.918534668249572	-77.3297773937643	-55.6026667770251	-7.92082881275002	-55.0596559229983	-7.10065065434457	-0.965056198869327	-78.3038612033308	
30942000	-1.00596956701417	-79.8365243169155	-56.6274168556459	-42.254438543528	-56.6604041965432	-39.4561754099127	-1.08953678424452	-80.6060442004369	
31191500	-0.783848065891267	-82.1684447670036	-55.535829176044	-79.4228508695964	-55.3068104171668	-79.6561450179585	-0.952128704718595	-82.5277579333606	
31441000	-0.455779763581897	-82.9610864717244	-55.2829374333853	-118.726946660132	-54.6041709875736	-117.632310915498	-0.683074121762873	-82.6658585477204	
31690500	-0.315938816343796	-82.2661483151522	-53.9676467098529	-161.235370870627	-53.9457602811825	-161.75255413587	-0.510820310398459	-81.4090885323663	
31940000	-0.463364042008608	-81.2684151076577	-53.1576464777314	159.275739963016	-53.0463151940542	161.847311458332	-0.584880280836789	-80.1314018524104	
32189500	-0.818413869050253	-81.0850319279521	-53.2666169234404	122.592035794401	-52.8894477197471	124.680916449665	-0.846449141922019	-80.0580874654208	
32439000	-1.11338448675099	-82.5089881248059	-53.4258410036403	83.7042981332894	-53.3572187664576	81.5116842823785	-1.05641525849124	-81.7060731495251	
32688500	-1.10615787346979	-84.7754534015239	-53.5728357975047	46.4277561864601	-53.3597810721758	46.1674158900513	-1.03667118717776	-84.1271701648038	
32938000	-0.842895384991356	-86.2427087394886	-54.1105786422709	10.1988965515714	-54.0027351981852	10.3820250672355	-0.750510024137892	-86.0773879147821	
33187500	-0.541039656000858	-86.108355738669	-55.0210000061249	-22.6371738664434	-54.6530311724372	-22.2745498716699	-0.428261563355805	-86.3409831961112	
33437000	-0.434058807013009	-84.91422805733	-56.726713800889	-55.6131252370788	-56.3517532832137	-56.3569560950605	-0.324012568658165	-85.5948065597413	
