!Keysight Technologies N9923A: A.12.45
!Date: Tuesday, 05 August 2025 19:08:16
!Timezone: (UTC+08:00) Kuala Lumpur, Singapore
!Model: N9923A
!Serial: MY61181427
!GPS Latitude: 
!GPS Longitude: 
!GPS TimeStamp: 0001-01-01 00:00:00Z
!GPS Seconds Since Last Read: 0
!CHECKSUM:1323468554
!Correction: S11(ON U)S21(ON U)S12(ON U)S22(ON U)
!S2P File: Measurements:S11,S21,S12,S22:
# Hz S DB R 50
2000000	-0.0624972750231742	-4.13387374092864	-85.1630705239473	148.089624957796	-87.7244130286048	-163.579634498329	-0.0729990890186435	-4.0796024498099	
2249500	-0.333846772702666	-5.02279098442343	-79.2760901652938	156.664506836229	-76.7765653121968	-164.531081001944	-0.33476284918653	-4.97431216886476	
2499000	-0.454387510205256	-6.85247225623408	-65.7973027631564	153.318454776278	-65.2135994494012	158.131197656813	-0.487632495062075	-6.7761247955961	
2748500	-0.325187015009603	-8.70849024008906	-57.2373167662851	63.7811621391967	-56.6187420350665	66.1221077004001	-0.336290597022536	-8.09068924981085	
2998000	-0.0465299190779001	-9.24604511930405	-58.4197697977256	-43.6280557488484	-58.3587671014884	-44.3073283595097	-0.0399986852271636	-9.0464601241027	
3247500	0.151052995004509	-9.23689336280501	-65.6331688158223	-76.845708878971	-65.5862678863789	-83.9273390807838	0.133042885997203	-9.06449285230582	
3497000	0.0877600645929983	-9.01143061159963	-66.0574620324786	-88.3442242769402	-65.6743103814125	-89.5421929367217	0.074429859730864	-8.88273206946954	
3746500	-0.173379362038587	-9.15370851681804	-64.2214949885567	-99.1002895196551	-64.2324080815421	-94.2775320064875	-0.176852300413526	-9.25062529056902	
3996000	-0.461654363260086	-10.857505922242	-54.8439771469839	-138.459566753515	-54.6574039288559	-139.716696610365	-0.415524148391636	-10.6450356464066	
4245500	-0.455949709356971	-12.5761904125698	-71.208874095264	114.282747005509	-70.9504522847751	98.8611464688934	-0.436204520439671	-12.6181198980534	
4495000	-0.231827742373286	-14.2781458577192	-67.7226817775526	-125.406688267876	-66.3502908240059	-124.852112443413	-0.231584993549216	-14.1104616426998	
4744500	0.0178701887826301	-14.7794333738057	-49.4622658551797	-168.881471404007	-49.3894752663712	-169.748362342791	-0.0280914178275381	-14.5297686457672	
4994000	0.0848949393894501	-13.6648833885229	-42.1740132323652	56.8809917868676	-42.1239522367539	56.1676420705423	0.0567544198834422	-13.3444133072827	
5243500	0.00851390571131314	-13.0007069542744	-48.4244774940378	-36.0254265726789	-48.3827226788641	-35.7474826091022	-0.0362727334999343	-12.5813862563076	
5493000	-0.263731160492067	-13.5591564191654	-54.1735913154865	-74.3023770332792	-53.99055434801	-74.5537738649202	-0.278202704078474	-13.2013286110748	
5742500	-0.472370761120731	-15.3383199312092	-56.1667358177111	-96.6956119068436	-56.3665933382721	-96.1211272535608	-0.455465337163912	-14.9757336511412	
5992000	-0.431009008755374	-17.5733651282329	-55.3306065297674	-120.329702429467	-54.9903480442088	-121.760675519512	-0.394926130868046	-17.1338312493618	
6241500	-0.232544042334231	-18.9127948065957	-51.6046239636405	-163.194061059205	-51.6490893034861	-162.946453276841	-0.161075067977873	-18.4543466574463	
6491000	0.0136151390558938	-18.2246202346288	-51.6220483315309	126.379792901182	-51.5907468627064	127.600020124619	0.0967087861887983	-18.7261911733895	
6740500	0.111164438053672	-17.8522988827559	-54.3843685111486	88.6889452446878	-54.4123303750878	89.9430587906854	0.116798305201722	-18.4813247917894	
6990000	-0.0946839640228442	-17.9990458971201	-54.4570373103454	64.7083263820897	-54.4500123328301	63.0980309861089	-0.123911459252779	-18.6281550630867	
7239500	-0.421509802301462	-19.1804052241397	-51.408431323182	30.4748652456726	-51.2835511364801	30.6992083692712	-0.498728790683427	-19.7363412134272	
7489000	-0.56954692737213	-21.1127885945908	-49.0009270101198	-28.2058524068268	-48.846705213068	-27.8324997466765	-0.730625094024548	-20.6592738049421	
7738500	-0.410830770090298	-23.1103223245408	-50.604348620904	-77.5701546494224	-50.3615573107978	-77.6491439139132	-0.46551237875983	-21.6673004699173	
7988000	-0.142170277071297	-24.1053871500193	-50.5119659155258	-113.109563980907	-50.2436499961078	-112.326189723916	-0.100751941046491	-22.5323983914446	
8237500	-0.0345251144703738	-23.2985938627307	-48.5961648958697	-163.343840762419	-48.5294708994921	-165.148977314532	0.125189199184935	-22.4012611834752	
8487000	0.00249464590202921	-21.8315864742745	-50.7375367580518	139.747506380548	-50.7828601230838	138.302336652634	0.0862089194206692	-21.9868696945314	
8736500	-0.195996986427578	-21.9862236825086	-53.4876911550688	105.809561984208	-53.5682561368251	104.329642208703	-0.166732705998937	-22.2747388341646	
8986000	-0.461520157607489	-23.5683548858682	-53.8300400552909	77.7184423409308	-53.7414755358727	78.6313059269393	-0.441568759490367	-23.8751874422286	
9235500	-0.542034063052816	-26.1090997763224	-51.5532269590186	47.7550309489934	-51.666709178389	46.913632888096	-0.50850934876057	-26.2410063133609	
9485000	-0.41550196719721	-28.1049583385426	-47.0185187971148	1.71839057596864	-47.1452422802263	0.82714840442182	-0.354934828159145	-28.2498693139052	
9734500	-0.200068503537539	-27.7528200088093	-43.6766544898013	-75.9856842463791	-43.6978478280337	-76.9802211571829	-0.16568504422522	-28.6622025275099	
9984000	0.0305622275905836	-26.7606685159735	-44.4764959436604	-158.751116601184	-44.4335597203802	-159.591052786551	-0.134577711799935	-27.4298998622837	
10233500	-0.0387466044913729	-26.4668715311408	-47.4534719118852	134.532135333454	-47.3547312073134	134.035876331096	-0.191073231275938	-25.9733821932894	
10483000	-0.328084577886664	-27.29604577597	-49.8912687305808	87.004017525173	-49.8267845823563	85.6017295466892	-0.38014525032677	-26.2986433633952	
10732500	-0.585961871308637	-29.4301102095564	-50.1566632317087	44.4683049158564	-50.1218186937936	42.8979237270909	-0.54573055983138	-28.2151978121895	
10982000	-0.626312212988892	-31.8185578441854	-48.5358371168176	-4.21366245600599	-48.2676956573232	-6.265043718284	-0.492979544603272	-30.5828525154073	
11231500	-0.400555392646	-32.5918052517848	-47.3255727208305	-71.0653652664047	-47.4537572849339	-72.7426800397409	-0.227983558584271	-32.1308573332695	
11481000	-0.0851665770601676	-32.2062190383479	-47.5108246523777	-132.609505113732	-47.6388168277434	-135.133423061566	0.0295948651813126	-32.4375546961871	
11730500	-0.00892997057806564	-31.2166751372572	-47.4087536536303	157.291212384108	-47.7455398310721	155.179715026705	0.0294932744378085	-32.0348136618901	
11980000	-0.164877788896767	-30.6527049546481	-48.7739637653262	89.6544623868308	-49.1212681685241	89.3386637175897	-0.250069037210688	-31.8800869498976	
12229500	-0.459011615842368	-31.6809696272417	-50.2969946781909	29.1283749161929	-50.57086414752	28.5946806347429	-0.691748277622126	-32.3663506590013	
12479000	-0.642953493521631	-33.9610739501078	-52.2038017669303	-28.018371820546	-52.3327137483613	-26.1158041228689	-0.86142673170445	-33.0946797146616	
12728500	-0.562652227425389	-36.2639500890534	-55.1799260568074	-69.2021841683048	-55.1864050211608	-70.1037027158149	-0.60903493896163	-34.6156505778667	
12978000	-0.30922197914876	-37.0524988781543	-57.5513418551018	-101.415023727472	-57.2066587315735	-100.641646291743	-0.209742778560954	-35.7359954328922	
13227500	-0.0805738388789846	-36.2749240372731	-57.9134626505629	-126.521403489245	-57.5262419015484	-125.764417962327	0.0519285708878894	-35.7538985693479	
13477000	-0.063089831376991	-35.4119759991205	-57.2418266333887	-150.438943455961	-56.727502058393	-150.679262473398	0.039148591364882	-35.4970119923883	
13726500	-0.293142144444253	-35.590193008042	-55.1629906880075	-177.668027020512	-55.1159688101836	-179.542692062874	-0.234692781983663	-35.8484071591646	
13976000	-0.600133009242405	-37.2609572070088	-52.2801218926328	148.646451498305	-52.2289906892108	147.598646318121	-0.589457984117555	-37.5224431915015	
14225500	-0.747249089279613	-39.8145540664559	-48.0271800342023	91.792768343274	-48.1073232968396	92.2670465409973	-0.806041465954523	-39.5645071064271	
14475000	-0.618182108358877	-41.0192363095634	-47.0473197469031	3.85782625705334	-47.1518083206629	3.33491325588537	-0.635323700612938	-40.1339676649602	
14724500	-0.19883680925965	-41.177460259272	-54.8202372350473	-68.9161809780406	-54.6335260253303	-67.3319469774509	-0.197386018613743	-40.2240989483255	
14974000	-0.0774972179066271	-40.6305005235694	-60.0895250399367	-89.6789345915301	-58.9420371067928	-88.6652308177028	0.0314282853352163	-40.058273013396	
15223500	-0.194351383963943	-39.4299288169284	-60.2810830363484	-120.535006572586	-59.8969405774834	-122.572025077883	-0.0864404936460449	-39.8398885252792	
15473000	-0.453310746568653	-39.5570934238407	-59.9260098373717	-150.601620334523	-59.6508884417409	-158.43660733692	-0.435702811730604	-40.5437610581774	
15722500	-0.697003212106022	-41.5763124280442	-59.4693496320584	170.245030014921	-59.92960353465	165.040287785965	-0.767043773426415	-42.29324132178	
15972000	-0.707296784632635	-44.2314978981873	-58.2464434713532	121.081372845149	-59.0544988127274	118.199432071636	-0.839996209689753	-44.051792141535	
16221500	-0.490895937386769	-45.8560932544702	-59.1330808383131	71.8975040711801	-59.3382828970297	68.1082552387285	-0.568785701368122	-44.6773530130063	
16471000	-0.24530341592984	-45.6021714426711	-62.2490785668785	33.4758345407392	-63.2641334728135	26.2096249117068	-0.197093194010585	-44.3369653398584	
16720500	-0.141893336317461	-44.3878998684878	-66.4643281125355	20.7013230911845	-68.4030196314194	18.3389350724934	-0.0454463682425954	-43.6926618764274	
16970000	-0.287347503712838	-43.7510717835838	-64.1839737180109	29.1248004778454	-65.0810619081429	28.7958879541015	-0.204536226431603	-43.505535870771	
17219500	-0.595795754644628	-44.691099765241	-60.6976600898291	7.87790148801109	-60.1495509225171	9.41374194270863	-0.5220687021838	-44.6792367042702	
17469000	-0.806160309227993	-47.030245930146	-55.9913092992531	-22.0998320114045	-56.1044623458193	-20.2703365098963	-0.752738564810039	-47.0542812928585	
17718500	-0.749083212910575	-49.3048593904546	-52.2038924127777	-62.1942628413865	-52.0783217479392	-61.351934467198	-0.729033294404712	-49.4460723672328	
17968000	-0.47618357809015	-50.0738955309263	-49.541206605419	-112.700218679072	-49.2871828125137	-112.454351834452	-0.515660984257854	-50.2317549977191	
18217500	-0.19541688082392	-49.2731589066615	-48.3139112519771	-170.833937869206	-48.226652250716	-169.693473285449	-0.28390158342292	-49.1017468575434	
18467000	-0.147938334991077	-48.1922081232763	-48.6691323105578	136.006110618354	-48.7255207349563	137.636549518052	-0.230447163399323	-47.5497551585723	
18716500	-0.377176532318278	-48.1772358223262	-49.6689218596061	91.5615422632071	-49.6620607521084	91.5244719324872	-0.387694902345961	-47.1490641282915	
18966000	-0.707203011393124	-49.6308902269481	-49.643589850192	48.8559042206191	-49.654591272646	49.2070144119664	-0.641911928576002	-48.4839197002536	
19215500	-0.86082396336513	-52.1713884546943	-48.7940687432797	5.55322361096379	-48.8304636556916	6.08705276669498	-0.739396267984635	-51.0611864981968	
19465000	-0.733100314157896	-54.1793258523656	-47.1593521526717	-42.3043054934259	-47.3183456370065	-42.0956528733227	-0.590167270079469	-53.475609046932	
19714500	-0.430681651168812	-54.4744908873938	-45.4212852462217	-96.4502645179028	-45.4371328597946	-96.473088003594	-0.325924806748192	-54.4100384454035	
19964000	-0.227962637239512	-53.475078808076	-43.8770344768527	-158.387576999134	-43.9543135607895	-157.88371345581	-0.220985072910578	-53.6798872517518	
20213500	-0.322987033025619	-52.4436392537103	-43.5910945851367	135.014828099362	-43.7008217903929	135.091190028681	-0.326997394951976	-52.165142385593	
20463000	-0.634922585396367	-52.5794162135559	-45.2462756500533	71.1245464857287	-45.3012587856583	71.2914307166367	-0.536696635956628	-51.9458355710089	
20712500	-0.946205287122898	-54.3681653933681	-47.5563195399121	14.6872957336836	-47.4770251548175	14.7208085352047	-0.768377418761776	-53.8584105567088	
20962000	-1.01999397013774	-56.7854311709527	-49.6871609027178	-39.5055249855858	-49.950756338487	-39.6707489068498	-0.810794355317368	-56.4591864627133	
21211500	-0.774848753043444	-58.1424108272686	-51.682508344786	-90.4255144588606	-51.8246040169562	-89.6903443591062	-0.6292714134488	-58.1692348328658	
21461000	-0.424416591771626	-57.7697281670794	-52.725016564915	-158.872888407823	-52.9346625656982	-158.778574091788	-0.363310478618738	-58.0150852792978	
21710500	-0.247916718032738	-56.4591562841265	-54.4886188278851	123.413293507551	-54.9734675365115	121.274188019281	-0.247061749182178	-56.7194625672082	
21960000	-0.369187759436439	-55.7429491665684	-56.090688973211	51.4807315514371	-56.4297693915117	49.0946009014139	-0.359802853878636	-55.7423909934802	
22209500	-0.697268975945681	-56.4850402330068	-56.6105724981246	-8.75777967805428	-56.4375569573654	-12.6370467262263	-0.644439474352975	-56.2925755832189	
22459000	-0.969452739580162	-58.7652695138877	-56.0053465294516	-63.4392275981448	-56.1636782870188	-64.6033108467086	-0.834209395584816	-58.4964645326106	
22708500	-0.945433484537743	-61.1323519602475	-55.7643842477236	-111.637238955419	-55.4999157559316	-112.146345587163	-0.770103508522828	-61.089036639142	
22958000	-0.639193925931012	-62.0068447088331	-55.4170099952409	-161.787908382649	-55.3400374154118	-162.538729854501	-0.505902288516555	-62.6437215655771	
23207500	-0.312233884074122	-61.3968054728046	-55.2369926560615	146.860398316032	-55.0548113680826	146.207054181827	-0.29294107143948	-62.4605252791651	
23457000	-0.24881926202489	-60.3159915993325	-54.6149831381884	99.3882567780372	-54.7281911810148	96.3976075135479	-0.328479604204715	-61.3333480046807	
23706500	-0.514669855263377	-59.7991087733008	-53.7132206812206	39.5555241109588	-53.8308365179642	38.5893074801127	-0.599388589391854	-60.5186600849996	
23956000	-0.862078955539701	-60.4733282142853	-53.3146801612851	-26.1181374626353	-53.2751791094232	-28.9450680019159	-0.923627520830284	-61.0202002282686	
24205500	-0.980632136824438	-62.777261951572	-54.1918824318375	-90.3801277936837	-54.5194835074613	-92.376809029167	-1.02088112618874	-62.9922286354642	
24455000	-0.802165306387536	-65.14022061194	-56.2545010884297	-147.693731019813	-56.4750691391757	-147.392810841907	-0.801112007656059	-64.9877804056752	
24704500	-0.462023886016836	-65.9193018578933	-59.2343521480353	166.458364103019	-59.581275178663	165.999149561202	-0.41567170817501	-65.6183067934403	
24954000	-0.205086764310229	-65.1276461325041	-62.0036527129227	131.886317919015	-61.8472687238791	136.003893345096	-0.186207186324807	-65.0961793547531	
25203500	-0.214199727435288	-64.1980700660774	-62.6236159166207	118.390840498559	-62.4156246214255	114.184868161833	-0.264598379864331	-64.4000494618273	
25453000	-0.493721864584167	-64.1452935673221	-63.1663923200337	99.5936799355925	-61.8662849882024	95.4679163414603	-0.595938690575356	-64.4108750124543	
25702500	-0.813118033525797	-65.8358213513273	-61.876378903939	62.8396228662244	-61.2770814365373	61.6477976269324	-0.95851648191322	-66.0289761951689	
25952000	-0.894047040605749	-68.590260056923	-61.2194367178151	31.1812037053893	-62.1524003050989	26.0000700257521	-1.0765470209752	-68.357030981406	
26201500	-0.68733978404245	-70.5611778168869	-60.1447955676015	-13.0063143859406	-60.4710781438445	-16.2103157035768	-0.836205305712703	-70.0139449614872	
26451000	-0.371595685114055	-70.6425702816019	-61.7417904075072	-67.1230310623581	-62.0441062537152	-68.0989035173026	-0.474993088283841	-70.1681118886847	
26700500	-0.229541631939786	-69.4802059171104	-64.422504122329	-132.809097342231	-64.6199020469381	-133.110860544467	-0.273574130355964	-69.0749718521163	
26950000	-0.368785412563239	-68.3874044354526	-65.7373353377178	162.731683210319	-66.1710151964183	155.804372302558	-0.359114028053241	-68.2383480562755	
27199500	-0.712363040349436	-68.7805442121053	-66.6123421702053	83.2773888115842	-66.8750843057986	82.0322767224551	-0.670700391941357	-68.5480010244104	
27449000	-0.986027152855511	-70.8316316864854	-64.5936409633026	18.2824118283827	-63.980412183069	22.6703274309298	-0.917857172436601	-70.6020156526631	
27698500	-0.978537530477812	-73.4087157571857	-61.8368102409697	-28.3410087014002	-62.6134525574416	-23.5315672099686	-0.903327741589807	-73.1810352493798	
27948000	-0.672481109029478	-74.8064242594636	-61.0880222854285	-70.0488060899688	-61.2764694578627	-67.2945713002693	-0.647470109018554	-74.8339496173461	
28197500	-0.337967411014004	-74.3605277659138	-61.7406818417046	-116.19155877737	-61.8516096597489	-115.51338410079	-0.390109828109002	-74.5833270426349	
28447000	-0.249420578420811	-73.1480072150582	-62.7130158048033	-163.862015008865	-62.5747196728477	-161.414829816075	-0.362432573892525	-73.3766074730367	
28696500	-0.461152192582307	-72.5194448417699	-65.4795451103593	149.320027134824	-64.3206115624964	151.961147749989	-0.593959617884217	-72.3810989029958	
28946000	-0.81292177983553	-73.3986575417751	-70.1141878424819	90.9854081485419	-70.1279498834559	95.1275213663545	-0.932117572308617	-72.9175403051146	
29195500	-1.02526130807284	-75.7711364216731	-71.7810929887986	-5.97596660982801	-83.7590635408907	-1.88418372958675	-1.09218314483289	-75.1796205320631	
29445000	-0.92276580079662	-78.2616230107663	-69.9487923329074	-74.3061996540775	-71.1291505733266	-72.8265071876326	-0.92313175725114	-77.6335303348191	
29694500	-0.583303627787184	-79.0410846809846	-65.9628626479193	-127.997456530585	-67.0684363005342	-132.455854732976	-0.593343777006182	-78.7857251016198	
29944000	-0.333493439394481	-78.093610018454	-63.6757228648045	-171.515405045557	-62.7595789512079	-174.014253640402	-0.332971471616598	-78.2844469239557	
30193500	-0.359930881590367	-76.7222501395046	-61.4018825033083	148.744086267687	-61.1410601763071	153.583871907411	-0.383250571657114	-77.2570351729005	
30443000	-0.637261556445662	-76.2481326692026	-60.3047501612868	114.175674812792	-60.6203026241057	119.6671093037	-0.71110304854215	-76.7286551484994	
30692500	-0.972040809283048	-77.5175974576999	-60.3142803174608	86.5110006051958	-60.6499457547874	85.2022417825609	-1.05927084845862	-77.7514277547927	
30942000	-1.09758639896961	-80.1486922944927	-59.7006027722502	55.250256269246	-60.1506645091901	55.0556437263155	-1.1777771328908	-79.9190002272466	
31191500	-0.864782272661121	-82.4006653943088	-59.5072524587238	23.9384173227107	-59.8437733866599	23.7018086797059	-0.932924561653114	-81.835760894206	
31441000	-0.481400358081779	-82.9173754186178	-59.4047360890344	-4.73117254727456	-59.3486485276331	-10.0453432839317	-0.557625491602224	-82.1885266091418	
31690500	-0.271566952362694	-81.9602177354542	-60.4632070901776	-39.5017596378361	-60.5374937648278	-40.1049184745481	-0.335353322133064	-81.2450227058589	
31940000	-0.369365009080287	-80.9185954936603	-62.4876174427436	-76.63120338868	-61.557416372157	-80.6175856806817	-0.433655879902753	-80.2965533187135	
32189500	-0.716778545465259	-80.9707983865542	-63.5768564688932	-116.041898825859	-62.2785987647605	-112.737154830661	-0.773865378027082	-80.5221633297712	
32439000	-1.04088530158866	-82.7784547214389	-64.9507477980517	-147.915836142845	-64.8764401245814	-143.502349978794	-1.0760643833677	-82.427742064564	
32688500	-1.06460947844598	-85.3146222943498	-69.689815023388	161.036296272069	-71.1935829509254	174.115342848574	-1.11219185419432	-85.005804825862	
32938000	-0.802877895071958	-86.7881633640342	-75.8824321032481	80.7878582011353	-73.4485035156983	80.3941999986078	-0.834328495970244	-86.8050899013752	
33187500	-0.482256803707167	-86.4835693352239	-69.9046366399669	-26.0375825046305	-70.5121824025478	-27.4333892964188	-0.499100640812124	-86.6321643217899	
33437000	-0.363442793241995	-85.1621833117132	-67.5545744649725	-83.7750784413637	-69.120007648204	-75.7098556569531	-0.379568111940624	-85.3288797495086	
