!Keysight Technologies N9923A: A.12.45
!Date: Tuesday, 05 August 2025 20:53:14
!Timezone: (UTC+08:00) Kuala Lumpur, Singapore
!Model: N9923A
!Serial: MY61181427
!GPS Latitude: 
!GPS Longitude: 
!GPS TimeStamp: 0001-01-01 00:00:00Z
!GPS Seconds Since Last Read: 0
!CHECKSUM:1816974178
!Correction: S11(ON U)S21(ON U)S12(ON U)S22(ON U)
!S2P File: Measurements:S11,S21,S12,S22:
# Hz S DB R 50
2000000	-0.0916470615640828	-2.41127022649363	-71.6243645367429	-108.238760584858	-70.2752151554887	-96.807509472499	-0.127247937274037	-2.30147369281032	
2249500	-0.434961339898965	-3.08740656040612	-68.1768462239747	-108.994828550608	-70.4253072654685	-85.769641014649	-0.458117473858889	-2.91679059859931	
2499000	-0.594161039176699	-4.92513946420488	-59.4222152116705	-118.482087546539	-59.1760421055682	-117.010552355708	-0.612705361654474	-4.70865152182665	
2748500	-0.419049744575724	-6.59695268215857	-58.4500432386237	92.4999648344338	-58.356018282396	88.6621074099103	-0.445070160797816	-6.34949990527306	
2998000	-0.0905336831549545	-7.24802554060749	-62.5194592736421	130.701354879318	-63.1712177494915	127.685575576182	-0.0952758582167848	-6.99628457580656	
3247500	0.17165581303215	-6.46745985077623	-57.0193139690203	73.4268313171783	-57.0525927550297	74.7741204999112	0.126675726205651	-6.38482457678166	
3497000	0.121047425456921	-5.59429312174694	-52.827793556933	32.2033866403528	-52.8807233206494	31.1028608286969	0.020780468547356	-5.48722357950711	
3746500	-0.209410235134792	-5.41795784997576	-49.8769270976949	-52.3533558816278	-49.8480242006006	-53.5885848627946	-0.333003295719339	-4.39728926969352	
3996000	-0.609159869947457	-6.31100985778283	-55.3805618879895	-155.916835530791	-55.2183700686501	-157.890217456941	-0.578498364986402	-5.31109689703072	
4245500	-0.598785599184886	-8.26654523396389	-68.1057521411642	-88.2297503903221	-69.341968552799	-85.7030542634523	-0.619823078606581	-7.54515527077152	
4495000	-0.330386579880562	-10.0859447698932	-61.7676153515555	-99.359094599631	-62.1582477434386	-95.6950520405291	-0.363944524086969	-9.26317195312794	
4744500	0.0039646023079476	-10.4955187794262	-56.7518070649056	-126.984994886787	-57.0018246655863	-126.295163378427	-0.0150135501534688	-9.63706812545888	
4994000	0.0621847073987313	-9.39578236050652	-50.1123771826713	170.823240225462	-50.231100659828	171.203517401992	0.145420746176146	-8.91084534830109	
5243500	0.00770812954120517	-8.05079311015869	-55.1752174470612	101.473286229966	-55.1967618154271	101.132104057787	0.00436487929725634	-8.1464154500789	
5493000	-0.328305798019671	-8.3905661259824	-58.8700090682362	81.3767026667969	-59.0044213420173	79.8042542194538	-0.351289726793443	-8.40641551692215	
5742500	-0.604626746279213	-10.1516441148315	-60.5140570927783	68.4327273612123	-60.1095170646413	69.4053547658434	-0.621574477207988	-10.0531892087245	
5992000	-0.557931134260692	-12.4351113304829	-58.2417777930442	65.0145030941678	-58.193518693561	66.4218208354061	-0.585636619366187	-12.283368186678	
6241500	-0.231938182441487	-13.8195637339401	-55.1919007480515	48.7532159696171	-55.3090968376675	49.847323844074	-0.280762262376834	-13.5924246336801	
6491000	0.0709970799903978	-13.7305186868817	-49.7373197481468	23.941923669344	-49.7739763959752	23.3994024399285	0.0131508693436203	-13.5541319103464	
6740500	0.0967743553723274	-12.5169489203792	-43.5939202140635	-38.8886040578272	-43.5101396428594	-38.471717348646	-0.00203551180527208	-12.53516916481	
6990000	-0.12672539517233	-11.7227077317646	-42.5825446698189	-116.162601238118	-42.4158745934452	-115.571662092644	-0.346094917262031	-11.2036170867322	
7239500	-0.539824973685099	-12.4420574147713	-45.4938074647322	175.632015173806	-45.3302446418261	175.32544082041	-0.650539633194316	-10.4918714725174	
7489000	-0.817536654688277	-14.2669386271931	-49.880996026046	133.269881973452	-49.5853442073304	132.865318814549	-0.734909718252952	-12.5175098241842	
7738500	-0.678308552018701	-15.6928089641257	-51.2304136895682	113.401221693461	-51.2624760189507	110.6703278356	-0.591368172769419	-14.8464098601137	
7988000	-0.258014984833713	-16.3581277705269	-49.2987776017432	67.2909844153282	-49.5961897915887	70.1619262921451	-0.227699705974495	-15.5771325756635	
8237500	0.0214691212727499	-15.5325040273378	-50.50402381431	12.0014737563843	-50.225432667576	13.7145445896281	0.0757084757631434	-15.1458136148105	
8487000	0.0652555146897964	-14.0928907068986	-50.4344980861635	-31.129497748092	-50.2571148702908	-31.1157505010334	0.013441426566819	-13.2659060232481	
8736500	-0.19584618436926	-13.7498798485362	-55.529943786228	-71.3955534608296	-54.9374712743349	-73.4761080206174	-0.20744507441586	-13.0483107421275	
8986000	-0.546006943148951	-15.0334655185359	-57.6148355421555	-91.1054450027785	-57.6017476382787	-93.7651973370409	-0.561742593699275	-14.3161230542218	
9235500	-0.658782900261065	-17.541657232219	-58.462516250701	-106.331868042348	-58.7448925965432	-108.828445705263	-0.680393977208379	-16.7500064292343	
9485000	-0.417911389436719	-19.6691325942505	-58.5815971192822	-124.449510395244	-58.3455761857773	-120.612314655179	-0.462785456417329	-18.9719207544189	
9734500	-0.0430107474630444	-20.2349325902952	-56.1102351257336	-142.534199759593	-56.1215703831881	-140.204834954005	-0.104747984329185	-19.6526135863052	
9984000	0.139828149784092	-19.5426187233706	-51.9585565541264	-164.969347965807	-51.6422782117741	-164.926247842871	0.0671619903738849	-19.0572919282744	
10233500	-0.0442030170493177	-18.602439210421	-46.4156870451634	149.638941418318	-46.2620106028507	147.907144814576	-0.129087166210645	-18.1223123225588	
10483000	-0.483651736652453	-18.6113485716693	-44.067850997857	79.8468138464461	-44.1467271221008	78.7619643727783	-0.612773419191113	-17.7930589651757	
10732500	-0.984285160375255	-20.1287044585176	-44.3930070214652	9.19123930866587	-44.3063472870647	9.13623824315594	-1.08353193800207	-18.2561829950914	
10982000	-1.11702397633141	-21.0532668726141	-47.7340884843754	-55.4662932868536	-47.3950188966686	-55.2957368639629	-1.04258159668001	-19.2523771898854	
11231500	-0.656304577072041	-21.3592275086064	-51.7672059283436	-109.412376963809	-51.6322724788748	-108.941960828432	-0.609602424328678	-20.4502194896544	
11481000	-0.116385570494282	-21.1585690661801	-56.778401981234	-154.889598085604	-56.4907172928502	-154.75565845792	-0.138108657629747	-20.4143771142	
11730500	0.107910838042531	-20.2824504466198	-61.0266466532685	171.339997511002	-60.6633880465963	172.805269331201	0.0614559311849564	-19.4555139782961	
11980000	-0.0554911494884104	-19.5491592367379	-64.5307410959075	149.80573516411	-64.3624151967672	151.575833341607	-0.0913532868720062	-18.6394525970312	
12229500	-0.430051266315133	-20.1772456879241	-65.6197327410315	127.174534192133	-66.5967774326369	124.056425935853	-0.451962378696382	-19.1206960843398	
12479000	-0.696445248196711	-22.3740235750865	-67.7841250296205	104.927303017754	-68.0832961363885	99.2416596713604	-0.714890759079796	-21.238008488605	
12728500	-0.594428859815717	-25.0482718792513	-67.9238361823336	75.47216496895	-66.473271019444	81.5425108187507	-0.648364127693887	-23.8819748764653	
12978000	-0.229980043018221	-26.4568053294958	-64.7271580903213	61.114747678599	-64.9897769393574	58.5123756732641	-0.310024470506885	-25.43873947049	
13227500	0.0727407710252455	-26.2359805374094	-63.5024255972023	33.4015570255983	-62.8410358045606	30.5691251404984	-0.0464126369351027	-25.4647740174857	
13477000	0.0439865050512202	-25.3866613840437	-60.8691076508709	-8.04574087184966	-60.6603029503646	-14.4620868116373	-0.148742975402795	-24.3387615111007	
13726500	-0.369671450246737	-25.1852828230504	-61.6192057173635	-72.2967783816469	-62.0581983903626	-71.4223438657341	-0.639540130942394	-22.5873747532105	
13976000	-1.02834493085849	-26.0976277666225	-66.5059952595006	-41.7248794270709	-65.4548216493024	-29.4031317954726	-0.839527179332732	-21.4436483766633	
14225500	-1.4294646682082	-26.4791222630176	-59.9298945477607	-79.8148108153189	-58.7118250379768	-77.180835718004	-0.827674984708193	-24.5078616354217	
14475000	-1.06699861642472	-26.7017916472901	-57.4429579810727	-105.622520026723	-56.7723780569383	-107.502478280468	-0.659322014352792	-27.8057617760892	
14724500	-0.4400980527727	-26.7873038687256	-53.693720826292	-158.087659581279	-53.3692666930945	-159.549358908342	-0.459645880013398	-29.2251507806573	
14974000	-0.0236584848632901	-26.0394942738599	-53.0549603237516	135.779946813416	-52.6615890514751	133.179377116413	-0.487315488001343	-26.8826089673122	
15223500	-0.00630114405556316	-25.0245334360514	-57.4592654938143	82.2524744741472	-57.5710361410568	79.3069156435249	-0.358223715758107	-23.3385200305477	
15473000	-0.316843542683961	-24.9617804658189	-61.8633573442892	51.8932644326308	-61.7704554792835	47.3818841903908	-0.494737130632545	-22.8178727493237	
15722500	-0.676027679618363	-26.7955733254353	-65.2172120871002	21.614445610025	-64.4425059496151	17.4948008884217	-0.767934226465748	-24.496041773672	
15972000	-0.747691635961526	-29.7918583636209	-66.0103961724283	7.29277559772325	-66.2289315128998	0.114164111620932	-0.818864902373929	-27.4492396478418	
16221500	-0.458990618097841	-32.1147625108664	-67.412142374762	-11.461857754588	-67.64700112011	-14.2093239473848	-0.538555213524938	-29.8825744974202	
16471000	-0.0796118994803172	-32.6310947535746	-69.075144619177	-32.9975500519269	-67.7020544780573	-37.2200593407403	-0.158266719849272	-30.5986882111685	
16720500	0.0620372327991108	-31.8140549393989	-66.436057593763	-69.5399690941218	-66.0873519357993	-66.1830840898732	-0.0119801390745085	-29.9924401290559	
16970000	-0.193346865998298	-30.9151327207272	-61.6973450861346	-109.791473695267	-61.2673872229767	-110.248031816176	-0.288593753281145	-29.1452095675763	
17219500	-0.762479570087756	-31.1993120242545	-55.5431642865208	-161.887087696117	-55.3689838912477	-162.969437840757	-0.885464770080118	-28.7589757500784	
17469000	-1.31886869776511	-32.6098523317441	-50.9180167574224	119.543837341807	-50.5221775089133	118.988035884597	-1.30122019380997	-28.8970222393754	
17718500	-1.41962126973116	-33.6446011836798	-50.8796701239334	36.6054055278555	-50.0997410423451	35.8707820894339	-1.13430640853249	-30.5307333373469	
17968000	-0.96946935433002	-33.5100030954915	-55.2106090126278	-18.9395114245746	-54.0206474996916	-24.4032704475069	-0.654744416975996	-32.3887533356526	
18217500	-0.396947026981589	-32.4226210206126	-57.906998783404	-40.4542856600277	-57.3558858385649	-53.9093145142788	-0.235960599230971	-32.5112285461705	
18467000	-0.136979664465492	-30.9589499495505	-57.0222276793217	-79.3712773608505	-57.7594621845597	-89.6645469636526	-0.129647217120741	-31.3311591077089	
18716500	-0.283541833383299	-30.2521933541027	-59.0890136222317	-126.742116313965	-60.2664492583654	-129.541556885505	-0.394430461140754	-30.5699332046575	
18966000	-0.651374919692957	-31.222693633968	-64.834623812408	-144.562219635588	-66.9635960938346	-152.209107988356	-0.966150382229668	-30.9801547757784	
19215500	-0.876168089612536	-34.0103916578498	-62.2971113849895	-123.260246136088	-62.8610785702324	-114.446935616244	-1.30180727381889	-31.493050014525	
19465000	-0.733525032995037	-37.0489833725018	-59.5535921563295	-153.805048735697	-59.0785607227823	-148.138237926216	-0.987672717673502	-33.7257121980855	
19714500	-0.337570796639095	-38.5035952977579	-54.9750617761306	-178.571994387536	-54.759011338752	-178.321800162101	-0.473740583607599	-35.35798887174	
19964000	-0.0492289144335778	-38.0357707805075	-51.6730610959193	138.577667265688	-51.6273103388614	139.249236492637	-0.131406650909331	-35.7834299243978	
20213500	-0.130864030771303	-36.8028711003686	-48.250076444508	93.9404202990887	-48.0891494149473	93.2707409274746	-0.248561394950105	-34.9205587551189	
20463000	-0.57706975460501	-36.2694646397696	-45.1451822368488	36.3726613908113	-44.9312128203319	34.9894875718878	-0.750222494384781	-33.5150332819406	
20712500	-1.1453104618145	-37.334612109398	-43.6293097049863	-28.9778102536213	-43.4386025725007	-31.0208837744531	-1.23069316972417	-33.0432222531253	
20962000	-1.47040235233604	-39.5128487559953	-44.1878345582848	-90.5832626590393	-44.0181003218512	-92.5734734523814	-1.32786169096606	-34.3499062484081	
21211500	-1.326451797053	-40.6278629027033	-45.2337753163527	-142.280792646702	-45.1100723878007	-143.800160033288	-1.00727451655754	-36.4479366776582	
21461000	-0.835505719179313	-39.616399455682	-46.6848865214185	164.595657702876	-46.6976342993287	163.925554941882	-0.49260761117897	-37.1504124369731	
21710500	-0.419765238760752	-37.5357576913713	-49.2625103045361	122.994352308523	-49.1723282898856	121.928055065428	-0.151044306607566	-36.5616341454762	
21960000	-0.37295187048845	-35.8760804115937	-51.7112273414928	90.8543662281917	-51.5755720053563	90.9571997932808	-0.198127116206449	-35.649251638329	
22209500	-0.669912278092819	-35.7432437027349	-53.5984672445736	65.8893463552195	-53.4430473364404	64.2395497260947	-0.582054858552731	-35.7757565140156	
22459000	-1.01248426351201	-37.8281726101785	-54.5500745453499	42.4523208650469	-54.2385355484974	41.3430671128486	-1.00320228738952	-37.7587974689094	
22708500	-1.04901157376978	-41.176963602679	-54.688459862854	17.9074672488947	-54.5377491354444	17.0106635901648	-1.15614336399661	-40.7845368341459	
22958000	-0.731108629731367	-43.5599115904862	-54.4401936781879	-6.99721474869177	-54.5283408179326	-9.16423607472541	-0.977400879461059	-42.773872408243	
23207500	-0.350816977978771	-43.8249229326414	-55.452875675742	-31.4584952973573	-55.083443539432	-32.7843557803649	-0.704902838523125	-42.2596339209348	
23457000	-0.266292399283591	-42.5887312723516	-54.4954987562372	-54.7685219773395	-54.5246669806563	-59.2982890416601	-0.620569271518554	-39.7261522763332	
23706500	-0.603619035578461	-41.0774674261176	-54.0362791252894	-89.2930593039099	-53.8544912399155	-91.5744429009947	-0.77533024572521	-36.9339145800739	
23956000	-1.17316833305774	-40.5507418746569	-54.4427704287961	-120.317558574313	-54.4960225686653	-121.839550816031	-1.08614087529752	-35.997683705562	
24205500	-1.57218648523373	-41.7571863972748	-54.5101829112996	-144.01376472698	-54.5639219661443	-145.982182221884	-1.29479585348861	-37.7279068228644	
24455000	-1.49402727201217	-43.7182950742296	-53.6675233861831	-175.883634013206	-53.5590908001374	-177.870501501546	-1.15231591023707	-40.6554696902457	
24704500	-1.02089005441147	-44.4251673321302	-53.1400300166053	140.651322740718	-53.1150786325444	139.523715575864	-0.691907352102319	-42.3452942613855	
24954000	-0.508302367121744	-43.356667337476	-54.379741298529	100.391349402695	-54.3968008996492	97.5325104735422	-0.281881016832168	-42.2619458441189	
25203500	-0.299097519363796	-41.6996856396924	-56.5142739700579	67.1408761818817	-56.3359134009129	62.8589695891001	-0.186936291873619	-41.1504801761223	
25453000	-0.49365040538664	-40.6748696703786	-58.0768272933063	37.2546087663466	-58.0479468106343	33.084922393769	-0.467767335092895	-40.3292898644815	
25702500	-0.886037487235429	-41.6462840915826	-59.4997118919257	3.17346773212913	-58.8304358627353	3.71773975690506	-0.949931813848221	-41.376200271621	
25952000	-1.10541142613628	-44.6177278339201	-60.1720468548965	-24.4243771158679	-58.5732331665879	-29.7126079797734	-1.28684121948012	-44.2057944533099	
26201500	-0.926745147148066	-47.7009876768995	-59.6460859163811	-53.9966160753029	-59.3875196072537	-55.0028654761384	-1.22056617896076	-47.1662256526564	
26451000	-0.492861706221535	-48.9050894737159	-59.9689899580194	-88.3042857056338	-59.8030697868498	-96.3743881899822	-0.880975782107614	-48.1624919511948	
26700500	-0.201526309009403	-48.1571113500673	-61.3503042004845	-114.8435958035	-60.4493123624161	-119.446585142068	-0.64464757220381	-46.7724012489583	
26950000	-0.284499075293233	-46.5586292458994	-59.5633583054179	-144.753326421577	-59.0736812023395	-139.234992477467	-0.709577109682989	-44.0748175117105	
27199500	-0.716984499921053	-45.7772058839078	-57.5870559463618	-172.243550302363	-57.1397964387459	-175.428066788889	-1.0277564221304	-41.8941232680377	
27449000	-1.21458956717072	-46.820071057536	-56.3032173648555	150.240196813837	-56.0950332741577	151.802239008815	-1.35333538132899	-42.1629597506178	
27698500	-1.42165109614474	-49.2891200605041	-55.950881540486	112.090960422201	-55.8091271263312	108.411292715603	-1.41929561093818	-44.6067443061555	
27948000	-1.16171714561271	-51.1457018206963	-56.3153399400458	75.0494098210517	-56.0464638259855	74.0412061535755	-1.10217265354528	-47.3480286044069	
28197500	-0.684554532811663	-50.8832244472243	-56.6308444616574	46.7110607550077	-56.1326230835922	47.301252682721	-0.62937846621647	-48.0932132721916	
28447000	-0.381951138777202	-49.1748795009593	-56.9438070124645	16.9682340515569	-56.9251129936364	16.4788651054052	-0.353992056904667	-46.9853432296504	
28696500	-0.449102047488819	-47.5281345280186	-57.800241341625	-12.7094318693084	-58.0679629321811	-15.0604045179262	-0.417880805073458	-45.3358686334192	
28946000	-0.809701696141011	-47.3922055648995	-59.0459711169839	-43.669862523113	-59.3082219844422	-41.0542948217645	-0.777225831649575	-45.03756115962	
29195500	-1.15685602510954	-49.4960495241772	-60.201933025838	-58.3761608343764	-59.6074206079995	-60.4812902574978	-1.16671322195855	-47.080191940934	
29445000	-1.16128719885848	-52.8408601189505	-60.6828966307479	-77.3699097613983	-60.5342994387517	-76.7868338693949	-1.25158724469235	-50.333559885289	
29694500	-0.784178039458285	-54.9590133018255	-60.9028492746045	-91.032668259966	-60.9506753813877	-92.3192771763132	-1.01189204208901	-52.6516987774397	
29944000	-0.404420195946248	-54.8178305672206	-60.6339321654055	-108.594546895308	-59.8420401738964	-110.596791708399	-0.696293025176169	-52.6383867984294	
30193500	-0.334298947117561	-53.2858524459583	-59.0501940336733	-133.115846860591	-58.3270989522857	-133.969774671892	-0.668516142460398	-50.866465392604	
30443000	-0.659413964635749	-51.8441552994986	-56.2412784578963	-160.411873246114	-56.2588879864337	-162.641791228082	-0.998544597108552	-48.5409091314131	
30692500	-1.206857489523	-51.9570477912929	-55.3321192028463	165.702408586612	-54.8289966278587	165.482433180148	-1.46098202265768	-47.6190827964303	
30942000	-1.62646779428909	-54.1272342285428	-55.4263367691165	125.260917448132	-54.7427134236977	123.924154191292	-1.73327569815787	-49.1080454756992	
31191500	-1.56783867620958	-56.739286375633	-56.0113589010521	85.1745374062393	-56.0537139156672	84.5676251670281	-1.53397918390324	-51.9239894303055	
31441000	-1.12691285219471	-57.4808886904687	-56.7283242655457	50.0059806364167	-56.3854266390464	48.1855279165082	-1.01166511424888	-53.4771887310232	
31690500	-0.705305237358228	-55.9242226217338	-57.6253674573502	14.1957894797121	-57.2455834050268	15.3639509784923	-0.527323418935937	-53.0443684217027	
31940000	-0.587921616493776	-53.5524903840038	-58.7515809215666	-30.0661289446194	-58.9694553446169	-32.3241561638611	-0.445949776963303	-51.7037971331503	
32189500	-0.844965619528814	-52.0872103485271	-60.5290466821137	-81.6275923237528	-59.6622108699336	-84.8287770045283	-0.885465432857994	-50.4762099117538	
32439000	-1.25653156159659	-52.9647083351214	-65.4638570837523	-141.441363450935	-65.8536457666712	-144.12135077161	-1.37919107843029	-49.7870071047488	
32688500	-1.43716906302177	-55.9762954104758	-79.3242159336165	-155.731059758361	-79.1710937805236	-160.996733286501	-1.53836882225288	-51.9874885536973	
32938000	-1.19996463676234	-58.948490132411	-77.7447007860094	-16.6020451422048	-76.9823869292804	-42.0446933881667	-1.28601391713928	-55.3518703401376	
33187500	-0.746699231367892	-59.8595177429484	-72.6464531742611	-58.6511015263495	-73.3649461011454	-86.3508063299763	-0.799925204016859	-56.9180681926623	
33437000	-0.453132734437151	-58.6945428151177	-69.0503408305136	-127.142703071918	-69.6020915083443	-128.996449377843	-0.458899115628243	-56.3390864434533	
