!Keysight Technologies N9923A: A.12.45
!Date: Tuesday, 05 August 2025 20:50:12
!Timezone: (UTC+08:00) Kuala Lumpur, Singapore
!Model: N9923A
!Serial: MY61181427
!GPS Latitude: 
!GPS Longitude: 
!GPS TimeStamp: 0001-01-01 00:00:00Z
!GPS Seconds Since Last Read: 0
!CHECKSUM:1523626930
!Correction: S11(ON U)S21(ON U)S12(ON U)S22(ON U)
!S2P File: Measurements:S11,S21,S12,S22:
# Hz S DB R 50
2000000	-0.0966999858573176	-2.45480491343337	-70.804386821306	-106.383756625465	-72.0419765617472	-95.003113418358	-0.133045851019688	-2.37862047451003	
2249500	-0.439164760510138	-3.13802970007444	-68.2342414893963	-103.830658200747	-67.6906279675157	-101.548305104652	-0.462976460353658	-3.02624535658378	
2499000	-0.600104486629933	-5.00203790607025	-57.3429506818637	-121.016630406299	-57.5382930147198	-122.088800963879	-0.618910213020398	-4.84490131935955	
2748500	-0.421172945313195	-6.69454206812827	-64.0728719991412	90.2254535574504	-63.9877542809017	91.8211722581344	-0.447791367135322	-6.48116679002559	
2998000	-0.0836493829067985	-7.31586065376329	-64.4463617463559	153.991177973607	-63.5174384911764	153.543304151457	-0.0990346547956285	-7.08101073010995	
3247500	0.168775915990409	-6.55644522286183	-60.3961652871403	82.0013342858252	-60.1691833440017	83.7590511036264	0.127779352211659	-6.40884448738905	
3497000	0.120718103567106	-5.65502206960858	-59.2585281947694	58.5360488283824	-58.6869563241461	56.7135573814124	0.0613634960581494	-5.46185728691978	
3746500	-0.205766613406266	-5.47590388191909	-54.2730572089149	18.9897721378532	-53.8985524856293	17.8744117073121	-0.300031313900339	-5.2339629148053	
3996000	-0.587986678438508	-6.71900901003937	-51.3186023079675	-75.1088150789967	-51.227988656529	-75.9496175808947	-0.694116026033857	-5.49194142487393	
4245500	-0.631766977532422	-8.20909285164342	-59.5793195042256	-60.5274547538535	-59.0053260840986	-59.7479649905149	-0.660683572855163	-7.26759060822446	
4495000	-0.351945977998709	-10.0862091786872	-55.5056691568703	-109.081169544213	-55.4460861910097	-107.331865388238	-0.381944414472866	-8.99409455856786	
4744500	-0.0682741705539809	-10.3759852255349	-51.7509202059279	-162.167330525952	-51.3010359453261	-159.719892357249	-0.029587422698724	-9.3548283438118	
4994000	0.127596959100832	-8.74699001503392	-54.8192496622703	116.160207180702	-54.3993162320855	115.903831451324	0.143541139473344	-8.61683166819517	
5243500	0.0261938371842257	-8.01128249469569	-61.1760260692539	82.8862804243814	-61.0547814335647	83.3671831610168	0.00213659288440799	-7.88391297394361	
5493000	-0.323668235346769	-8.28005054760802	-65.6519578806218	66.8026082240161	-65.3775270385728	66.5619311137627	-0.351049030086984	-8.14832573927117	
5742500	-0.602007292294864	-10.0048395434798	-67.6825063852763	57.8406614006366	-66.9867652070274	54.2590300977247	-0.620378490919438	-9.80160704665127	
5992000	-0.554598233103171	-12.2769906964308	-65.2862868382953	69.428001658872	-65.0233001969602	64.6212886606433	-0.584265742408028	-12.0333116966113	
6241500	-0.220785658083293	-13.6339432271605	-64.0068410425543	50.3605358865739	-63.8966440223638	46.7073459054377	-0.284444309892911	-13.3573464811469	
6491000	0.0986928187113696	-13.5017122716994	-59.9478879451002	30.3795303062204	-59.6055244286731	26.1147227457725	0.0296460184784569	-13.3089054571115	
6740500	0.16479553349123	-12.5660518244246	-55.8501581958341	-28.0895433613063	-55.3069314541262	-28.4946755775011	0.0557812232622855	-12.4297846105908	
6990000	-0.0850837920366943	-12.051145082946	-53.9634714048852	-106.730097479655	-53.6764043090741	-104.95861905474	-0.290119094192637	-11.48161153466	
7239500	-0.500009262959483	-12.9694226220758	-68.3135980875698	-152.841269745208	-67.8556791487577	-146.083777722388	-0.500780884959525	-11.3352405935427	
7489000	-0.807301784140449	-15.3818336888037	-62.2577232707031	-147.865285792641	-61.8669478988142	-143.296782652526	-0.695510221950146	-13.8762074415244	
7738500	-0.912253332099259	-16.8301421291286	-55.1041093549588	128.509866449894	-55.0847202983929	132.446242946261	-0.642141401257457	-16.3261258019547	
7988000	-0.448865407959722	-15.4597526857129	-53.1637270026429	11.6537413878921	-53.2195945284544	17.3190646782942	-0.451356971028941	-16.7228424005707	
8237500	0.0317287350909145	-14.716391399434	-55.7845461804026	-83.7260151257024	-55.8579280540092	-78.8656428853466	-0.169802389302368	-14.440648144641	
8487000	0.0933710918566515	-13.8543393934804	-59.4307308017949	-145.970422494492	-60.1119528388285	-140.648387984993	-0.0234332759780021	-12.8432706864251	
8736500	-0.185307685958021	-13.6018631164309	-63.2838639189615	179.831418328606	-63.9623940472257	-178.004492685665	-0.243442183343703	-12.4966874688641	
8986000	-0.539552069465594	-14.8578572042789	-65.0348356229187	156.159611481354	-65.8847299287314	157.465810420967	-0.578687178889852	-13.7091632007573	
9235500	-0.65274897198543	-17.3233156497142	-66.3098758088835	127.228377281154	-66.9652214908228	134.369296610926	-0.685607248167277	-16.0930775369592	
9485000	-0.409818287532275	-19.4057457248898	-64.6481102304948	108.41545455386	-64.4877270103087	107.760864587902	-0.460692901289566	-18.2723660406977	
9734500	-0.0291179288943649	-19.9104578329423	-61.5069137592747	76.6898313286794	-61.9700052480789	82.3281333182274	-0.0898997419449987	-18.9004306391905	
9984000	0.168530150101592	-19.1095030709504	-58.0567700272878	26.8775705561985	-58.0813242059227	27.906690378477	0.108879075257458	-18.2214621190057	
10233500	0.0369650773728461	-18.1024094621391	-55.6902981039758	-48.7090945186743	-55.5722659290557	-48.2109090935065	-0.0122322757489124	-17.2229010682252	
10483000	-0.347918952669283	-18.3046957253808	-55.8286366512498	-112.58452167249	-55.5381908570143	-113.633922444589	-0.378435910610153	-17.2778361380572	
10732500	-0.743890037032857	-20.3116172311179	-55.2759981514761	-167.159923665051	-54.7193789009809	-168.138087863175	-0.73877035236853	-19.137220267633	
10982000	-0.900929889547703	-23.0826060280336	-53.6912825866365	132.568303103333	-53.5473900453232	132.344155124839	-0.852970676869208	-21.9720969221079	
11231500	-0.82194208994986	-24.0205083773851	-53.7724787707104	66.030792764972	-53.0393693379199	65.1823094034119	-0.773966139831086	-23.5966267749956	
11481000	-0.452110218709002	-21.6366358383081	-54.8444083010542	-1.37733194758533	-54.0518878272405	-5.51959324892255	-0.570884159734313	-21.3196968155921	
11730500	-0.113688501270511	-19.6081201230801	-61.0091384729073	-65.6271624046026	-60.5085368451476	-73.6258981495009	-0.180677017785934	-18.6343957029978	
11980000	-0.168235373518543	-18.6318555359258	-67.6281935548135	-100.125687943834	-67.1248653603648	-113.859227643378	-0.187379733088409	-17.8279411970298	
12229500	-0.486540220402268	-19.3333570630679	-73.9001487719635	-111.625020388878	-73.268504862515	-116.186986463247	-0.492113828261128	-18.517047832271	
12479000	-0.728069726337808	-21.6291484221362	-76.0015895227172	-118.859055547247	-79.5355605969485	-110.127656643081	-0.73296580894522	-20.7712717729309	
12728500	-0.613583478851991	-24.3635630112681	-74.405659671013	-128.225000512144	-74.9706116885545	-147.216351861201	-0.661937219128214	-23.4151598820753	
12978000	-0.237602806758078	-25.7828175997562	-69.0221071448595	179.343293334378	-70.5721099287044	171.377448385095	-0.313005727764243	-25.0441142094061	
13227500	0.0837568209677322	-25.4970192039111	-61.7426058091969	114.520711002336	-61.5826388595703	111.179940534121	-0.0901933402465856	-25.2700774208112	
13477000	0.0910789250571745	-24.4789407235104	-55.1301967565883	2.66493809951562	-54.5490832683414	-0.328101375609957	-0.342639214370307	-22.281480723047	
13726500	-0.231232098664678	-23.9742138353981	-58.5651378454964	-111.305859150458	-57.9532323245489	-111.847607590018	-0.269236637937875	-20.8815079646246	
13976000	-0.664507400375568	-25.0673697212524	-62.754873181199	144.865763114385	-62.6485543054112	146.569100099729	-0.58736664835705	-22.422218543722	
14225500	-0.905805828153908	-27.8143883449967	-60.1881910367816	37.6437836569118	-60.3946222522818	36.5440090266338	-0.781857831285132	-25.3150810878522	
14475000	-0.873431992630106	-30.200777467397	-54.3905347863043	-42.295625280274	-54.5219050990549	-42.0768714348347	-0.673509845816448	-27.9640686568053	
14724500	-0.646565183572165	-29.2550804340935	-50.7830275327663	-118.802481538615	-51.0878012180837	-120.608561008301	-0.363941091293671	-29.0551863035563	
14974000	-0.296210896191993	-26.9250074831274	-49.9325179644701	177.383714484701	-50.0425029895418	175.325552256618	-0.346574577726446	-28.4385518366157	
15223500	-0.246748433541788	-24.9130495841353	-49.3034062188387	109.99030160644	-49.4179633606679	108.730518468283	-0.615833867144795	-24.4841655916816	
15473000	-0.5023354419072	-24.3232461112507	-52.4356838046216	51.2349651431335	-52.4866535278884	47.4225423809632	-0.651953408690908	-22.4551553317753	
15722500	-0.801612410184091	-25.9395702099578	-55.4170026875368	7.17389298452628	-55.8479361412691	4.1458431600961	-0.831665578981512	-24.1771861576659	
15972000	-0.831911960847934	-28.9497572694548	-57.4362682218573	-23.7377852614108	-57.4560878091131	-26.4111277472257	-0.848906748596029	-27.32280985236	
16221500	-0.517060604670293	-31.3472673942042	-58.5028222103993	-48.7238306965333	-58.0830140666944	-47.0161242030861	-0.561927377376402	-29.8719314685078	
16471000	-0.116215810417534	-31.9159931253154	-57.7941578775266	-76.6166752424588	-57.730234259988	-76.7080323793409	-0.185030393813358	-30.6069292851623	
16720500	0.0452209919239043	-31.0986548977902	-55.2160177627749	-104.816568113324	-55.2779686155256	-106.657926564822	-0.0426385498818189	-29.9067896568158	
16970000	-0.182405109018074	-30.1367737903875	-51.9873030095205	-139.950883174734	-51.7067844095794	-141.465409169884	-0.296169051659853	-28.8855782605217	
17219500	-0.697312923725339	-30.3453466485309	-47.9225074606435	175.622515128218	-47.7982834044389	174.231662383404	-0.828764437131507	-28.7482165963005	
17469000	-1.17299041273544	-31.982773029022	-44.2784635397016	115.535971240114	-44.1794131855876	113.85959433366	-1.32323183715055	-29.6526272751614	
17718500	-1.2535867797405	-33.5837114726255	-43.426516334134	42.3687733752564	-43.3010739313266	41.1114734704459	-1.33565938433398	-30.618171871146	
17968000	-0.827809887165061	-33.8362448500305	-46.4034939384608	-21.0988841759544	-46.3432432929841	-21.5793917681899	-0.816286259469625	-31.253695537405	
18217500	-0.311687285897773	-33.016608984075	-50.5759736890077	-62.776287611144	-50.3994215084983	-64.5896368403461	-0.269318996838956	-30.9960234938313	
18467000	-0.103028452742794	-31.4845495283336	-53.8297737781975	-94.0559395152474	-53.8190645170435	-95.8905612266598	-0.0662922856875303	-29.9512941046569	
18716500	-0.265546462321614	-30.6604319968978	-55.9941380793208	-117.880006423881	-55.9872205265878	-119.810674747422	-0.247225764052097	-29.2588849244298	
18966000	-0.636347808131324	-31.5910333366737	-57.8953422261324	-139.177395182115	-57.6273620809932	-138.838315483843	-0.642658670508838	-30.1120524298793	
19215500	-0.8656042984043	-34.3885430545138	-58.8290333272586	-153.910437241852	-59.0696501515812	-153.939023329852	-0.924890588103098	-32.8639795665681	
19465000	-0.7310117835433	-37.4756888453602	-58.681139199699	-165.878204320685	-58.4738275874879	-164.259925228943	-0.918545626866766	-36.2570638438172	
19714500	-0.352752631403685	-39.0199412600219	-55.1470049031073	146.502240662401	-54.8302423877775	146.969986168329	-0.572040821517946	-35.9272716710071	
19964000	-0.0982673062521593	-38.6803107154021	-55.5513446655994	120.558544746195	-55.6026928565928	120.675249374387	-0.200547679393034	-36.6177744713622	
20213500	-0.246876589206277	-37.5541627060861	-53.5259622404449	90.7111225969105	-53.6235911755109	89.757356569327	-0.348411413707907	-35.6153877023506	
20463000	-0.806748222402288	-36.8435989826965	-50.4083735362117	46.877780539538	-50.3700069879747	45.2954183146951	-0.891649744329748	-34.1767461297753	
20712500	-1.4819098181258	-36.9662458507325	-47.8357740848027	-19.098667187271	-47.826611218119	-19.0778459515411	-1.44279298451546	-33.2002966817385	
20962000	-1.74223347088503	-37.7217640385021	-48.1307257482724	-88.4238772452125	-48.0242380397677	-88.455512742908	-1.50544790223612	-33.6969573029903	
21211500	-1.37865753017194	-38.4724126143635	-50.293457439085	-148.094746004273	-50.3087689835076	-146.606875483402	-1.07927575659067	-35.4747894152491	
21461000	-0.742986598949255	-38.1483664390643	-52.2950631638654	165.413351902366	-52.3727814173205	166.189100157919	-0.496785235453242	-36.363690911723	
21710500	-0.294686893820819	-36.780706403226	-53.6734105458952	125.084468937918	-53.8547518209886	127.307764070399	-0.128513676443706	-35.902280582413	
21960000	-0.256799925040503	-35.5215903765996	-54.4111166444658	94.867861847194	-54.7279781553232	95.6589351877416	-0.149822515865883	-35.0678056069809	
22209500	-0.567711317803744	-35.5706860002108	-54.5240597124747	65.0443189340763	-54.5176743071589	64.9600153703896	-0.511315008077723	-35.3042196007465	
22459000	-0.91919138850416	-37.7156117293966	-52.8868285821383	30.4476970241189	-53.0387346044312	33.0810124640727	-0.920705850297854	-37.4505239998858	
22708500	-0.957886705277511	-41.0636524630059	-50.2769468388523	-9.84335262253285	-50.5365595961837	-8.07280424715797	-1.09251771359698	-40.593716080369	
22958000	-0.63478922713337	-43.5049236972186	-48.9223882981726	-65.6821807891542	-49.039846974191	-63.8882569550529	-0.904109366923363	-42.481474309242	
23207500	-0.257625314468511	-43.9059330520192	-49.8728289388192	-119.7863902079	-49.9852349202126	-118.448614995822	-0.600116640426107	-42.489892587555	
23457000	-0.16946252424154	-42.853823413115	-50.6751265857028	-166.98488814964	-50.7599673675006	-165.361394155141	-0.618670682887144	-40.4806733196138	
23706500	-0.512070117185806	-41.7291491650223	-51.4920001773914	148.138741346541	-51.7675545752115	150.394245389946	-0.87447205109037	-37.2120042446026	
23956000	-1.1392067256107	-41.6696026087341	-53.1005274179349	106.902976841384	-53.2504796752443	110.711428180324	-1.14651942347562	-35.777550330446	
24205500	-1.6437923247442	-43.0222051874135	-54.1008290641819	72.7845442797353	-54.1361047255687	75.6234845651921	-1.30324789533256	-37.5698956326318	
24455000	-1.66038920297805	-44.6421901965001	-53.9402179136312	42.0754328227301	-53.4638338060161	41.2452179073891	-1.14510424906542	-40.7242836294003	
24704500	-1.23011562736591	-44.6284385169602	-52.8125283665506	4.50680035863089	-52.8893987634048	3.24675644162466	-0.694679912593353	-42.5511381602317	
24954000	-0.677610727223223	-42.8670532320701	-53.447090336442	-37.8337570399984	-53.3648126309235	-39.3755700496421	-0.296301460741666	-42.5129537753966	
25203500	-0.396101664125498	-40.9135809939661	-55.0458296654132	-76.4416730578727	-54.5925569799628	-76.2111196134298	-0.213029363774349	-41.4405098192664	
25453000	-0.534630477563149	-39.861902658627	-55.6034775314155	-107.332637104835	-55.8519534116015	-107.493644585185	-0.514558872399671	-40.6141131415963	
25702500	-0.893519093935152	-40.8817165623795	-56.6308542261611	-135.643374794528	-56.7826584771036	-132.713915105902	-1.01884816794998	-41.5591937512032	
25952000	-1.0938964178843	-43.9253399774556	-57.3683497282169	-158.505583604612	-57.5756983022199	-159.445585633243	-1.37330625624613	-44.172600837539	
26201500	-0.898882669639942	-47.084159087144	-57.8644372752396	169.800515600595	-57.9206528293692	171.935092560845	-1.30853989929467	-46.8788887792258	
26451000	-0.446494308728882	-48.3702107266587	-58.642051994496	135.698347051437	-59.5634174883469	137.760065845696	-0.971590733344393	-47.598092591539	
26700500	-0.133140948046672	-47.7267574347404	-60.7019980681004	113.573444813618	-61.1575947860983	115.797559524349	-0.697733057502255	-45.6369103750525	
26950000	-0.190963093152889	-46.2773480094106	-63.4071606590397	102.82909853403	-63.7818391375782	105.9359960435	-0.626966659022882	-42.7333852020304	
27199500	-0.594384810447384	-45.7276395547729	-63.5641618149017	106.74080182984	-63.6718750831247	111.345237673069	-0.826070243608979	-41.1239967937127	
27449000	-1.06861165580025	-47.1725244393078	-60.4815420061122	105.855297386679	-59.0781998881893	107.158043637427	-1.11902898996162	-42.3192931767926	
27698500	-1.29325454377735	-50.2718802962125	-55.5675517741403	75.3731641798023	-55.2023930348063	77.9066215982689	-1.24230487580238	-45.6528593542965	
27948000	-1.13647787198686	-52.6546258573268	-51.9867566209465	35.3568685243631	-51.8146666260793	34.2132523434649	-1.05008877396801	-48.9797332277766	
28197500	-0.815627424675917	-52.269545409261	-49.8222783794574	-21.989282237832	-49.3986772559366	-21.0676286989774	-0.826359602080985	-49.8504777560486	
28447000	-0.616796307753362	-49.7321129698067	-52.1211288814562	-90.3123288249282	-52.0389948003173	-88.7247301299753	-0.631664878141526	-46.5199821670299	
28696500	-0.685830614606114	-47.1531202146263	-57.7032895068068	-130.101965226067	-57.1648692212936	-128.100598052426	-0.505628556579962	-44.469549993336	
28946000	-0.989699370993071	-46.418353186806	-61.2063451808249	-143.906776268998	-60.8050482023795	-141.249878726833	-0.802625072193086	-44.4614476925879	
29195500	-1.27577910730559	-48.2768609722985	-63.5332902502833	-156.327883504498	-61.5996558739041	-153.721736023139	-1.17141637695532	-46.636360504674	
29445000	-1.22916205300495	-51.5713524359496	-63.5245790731445	-174.704831115589	-63.7996238566217	-168.572669357977	-1.23689091344427	-49.9758840162952	
29694500	-0.801759374538219	-53.7265905489778	-64.5061172283966	169.83179448639	-62.8621211932972	169.588248515348	-0.979623991819297	-52.3904097889663	
29944000	-0.364777714153889	-53.6625268824014	-62.2265267574941	144.225075115285	-61.4462633870283	144.666002473546	-0.647237312306668	-52.5074426533307	
30193500	-0.230951258960209	-52.2957602003359	-59.420711646321	112.266567271657	-59.0644188273363	112.864722265063	-0.607049253276053	-50.9494834956158	
30443000	-0.497124517212783	-51.1515739808441	-58.6979773748574	74.7278446752593	-58.0624709034475	75.4316390931817	-0.945118595152764	-48.9747075506264	
30692500	-1.00566545477556	-51.6796905761806	-59.1801076055909	33.9388425520367	-58.2540147162451	32.5387975577648	-1.4684726056592	-48.3654358552566	
30942000	-1.41509354469577	-54.3330558052302	-59.307012762884	-0.77276122851691	-58.382074857121	-4.09288639291772	-1.82815531732538	-49.7375319986734	
31191500	-1.38990323184205	-57.4202787385119	-59.2815211474426	-30.5401540197499	-58.1678033139242	-31.077809554003	-1.66592182660349	-52.1415621889808	
31441000	-1.02647253539315	-58.5100673584722	-59.2582765200894	-67.2762461657065	-58.7113934426843	-66.2814969702184	-1.18008054083021	-53.1582872972358	
31690500	-0.700907280245733	-57.0088665493748	-60.7608342337309	-100.595747130873	-60.1654286877638	-102.523352107017	-0.669173630499533	-52.1100334451289	
31940000	-0.66256965423692	-54.4174959038914	-61.9563567017463	-132.188744223214	-61.1648063466591	-126.751713779995	-0.485970202337531	-50.2207172843516	
32189500	-0.96583198731053	-52.6067412439321	-62.1482793116662	-147.685709848166	-60.9465813634127	-147.190505254744	-0.731585527995347	-49.1473357756219	
32439000	-1.39442795848837	-53.1860359053109	-62.0274255441947	-176.868279053377	-61.0691887076096	-174.994622457195	-1.22263681053286	-49.8279147476812	
32688500	-1.57672803540618	-55.9914384196435	-70.7812903774316	169.957869688869	-67.4814804578554	171.306860227923	-1.44864105665724	-52.2776382496211	
32938000	-1.32781522894655	-58.8040639450983	-66.5799396357704	-160.695311434955	-65.5062269791236	-173.167796113345	-1.24298959017903	-55.7372286785176	
33187500	-0.851806234620755	-59.5654223818964	-61.2718438862203	174.059279174801	-60.6520256713768	167.798248995745	-0.788389767450114	-57.3140919794419	
33437000	-0.527056223920149	-58.268720443576	-57.2080014260621	142.471062106902	-57.5087647340028	139.314562588946	-0.471183495426471	-56.7296382857644	
