!Keysight Technologies N9923A: A.12.45
!Date: Tuesday, 05 August 2025 20:55:05
!Timezone: (UTC+08:00) Kuala Lumpur, Singapore
!Model: N9923A
!Serial: MY61181427
!GPS Latitude: 
!GPS Longitude: 
!GPS TimeStamp: 0001-01-01 00:00:00Z
!GPS Seconds Since Last Read: 0
!CHECKSUM:0442938834
!Correction: S11(ON U)S21(ON U)S12(ON U)S22(ON U)
!S2P File: Measurements:S11,S21,S12,S22:
# Hz S DB R 50
2000000	-0.088854520929685	-2.35442222555565	-73.4940527218204	-100.514859370233	-72.3020093137213	-105.740047070088	-0.123367865489827	-2.23028029878372	
2249500	-0.43121881565063	-3.0159775412889	-69.9765263869625	-106.769846309408	-70.0355026221556	-112.367751782895	-0.454469391784285	-2.83494166097391	
2499000	-0.590080899450289	-4.84623931545448	-62.8928144835157	-116.896515880037	-63.2218941876704	-118.327528033314	-0.607877962362246	-4.58636802099661	
2748500	-0.440266210569526	-6.66004030209151	-50.7451701494346	-170.236942728957	-50.3447594141372	-167.94307025952	-0.468895258306203	-6.4333215588163	
2998000	-0.0852406296048967	-7.16587642328809	-56.6299997855435	69.9513552526764	-56.1107665570233	69.6222924954245	-0.0940057945645983	-6.88502440707941	
3247500	0.172807887124261	-6.43575820111574	-53.8614831530521	57.6919930134825	-53.3997304962179	54.9439609160948	0.107295123895775	-6.38381804120619	
3497000	0.122126025678219	-5.54893631263235	-50.450215357209	-21.5249086293631	-50.2994123203996	-23.9010633648828	-0.0140144404977287	-4.8765101363328	
3746500	-0.206953667192247	-5.43213126525798	-53.0512205635794	-89.7879926265167	-53.0110938523772	-92.3667683481725	-0.252435942000434	-4.33877914114303	
3996000	-0.579728869674759	-6.19330802476503	-61.4724061451476	177.016491867661	-61.6350464927989	175.33371490253	-0.551357018576994	-5.51987674167115	
4245500	-0.589114865308259	-8.38101469508355	-69.9666522087197	-80.8428328186138	-69.516575194847	-95.1851072741333	-0.61046134849396	-7.7519720535062	
4495000	-0.324872178163661	-10.1677592887234	-64.6544352809571	-103.59068000321	-64.5782939505935	-101.642411190922	-0.357867935975487	-9.47105918813804	
4744500	0.0164172038884722	-10.5276731585845	-59.2085188214982	-114.529047343842	-58.8809902358116	-115.690755753103	-0.00967666558944526	-9.84884287470429	
4994000	0.0958485910768676	-9.82006744003052	-50.7209735159593	-158.555550292442	-50.6456137810661	-158.685730787772	0.148323558296745	-9.14053434205105	
5243500	-0.0158963792364437	-8.03419388150914	-51.3615179499314	114.494329164627	-51.1804377370775	112.914009590061	0.00256528530123062	-8.33977460328537	
5493000	-0.330968860659766	-8.39110688713533	-55.3438973734694	85.5633630305146	-54.8336526324581	83.7836350046088	-0.353061234919112	-8.58927865582875	
5742500	-0.605309710235276	-10.1860428113069	-56.4818868624732	68.6978974866531	-55.7112595551054	67.5931237743515	-0.626783282860452	-10.2351751647865	
5992000	-0.56374544553648	-12.4720437887941	-52.319488797676	63.7611404873945	-51.8865679519059	63.4466918119952	-0.601630988168416	-12.4829415073682	
6241500	-0.23259398769177	-13.9313093899528	-48.3450204382882	31.3701735465486	-47.8142809283344	29.3283567542706	-0.350688230621424	-13.8328564614082	
6491000	0.0234462614931547	-13.6750384971455	-42.1272559889476	-24.7139775703784	-41.7826270956195	-28.6846869010364	-0.136655067216301	-13.319006473398	
6740500	0.0818292846711716	-12.199690979066	-41.0512907638446	-110.478028463375	-40.9369048345972	-114.609778188456	-0.0686644046253245	-11.2458370466926	
6990000	-0.125453464156875	-11.3119448651122	-45.1186806417996	-177.236709873492	-45.304025617764	179.980429343426	-0.220207183463136	-9.88924260435619	
7239500	-0.499693777664105	-12.0097231301236	-49.6555314410711	143.199156482107	-49.8940540559851	142.401463845526	-0.504966661243508	-10.4275731330958	
7489000	-0.733074838386878	-13.960317323773	-52.506739509554	117.295609477122	-52.6584865513118	115.147589952858	-0.677266112230897	-12.5719352780674	
7738500	-0.58290962773031	-15.823203872603	-53.4469148424407	93.9979913650148	-53.8107121830239	93.1605907544005	-0.532493544530854	-14.7922408479139	
7988000	-0.189019937064112	-16.7020264791579	-53.0305210675728	74.3002362328666	-53.0856117641571	74.1868486845075	-0.172754964800081	-15.7598678035229	
8237500	0.0693649326374923	-16.2507863098962	-50.7310441719843	47.2928167278312	-50.6175106583902	45.8031932322655	0.110278584510445	-15.2886475763461	
8487000	-0.0228826330271967	-14.8344461979154	-47.9227929197237	1.47415248848494	-47.9128713313014	1.4724925362216	0.089043336077428	-14.2742669854129	
8736500	-0.286687487120213	-13.6777247247549	-48.1206483064197	-53.108859525999	-47.9687371077825	-54.1123951780065	-0.21718913817274	-13.9654071772339	
8986000	-0.584316580026849	-14.8935406618827	-50.3917199982951	-90.4130776644592	-49.8893204730108	-90.7063461283692	-0.615081830236549	-15.0104818827522	
9235500	-0.681763716520993	-17.5090752176126	-49.7838886648741	-112.803929725794	-49.4687098803553	-113.637865187464	-0.739798462707185	-17.6244385980161	
9485000	-0.44423853404373	-19.7382753896564	-47.0859484091705	-145.166504897901	-46.6955659190519	-146.728406700958	-0.61503380321212	-19.9350889118877	
9734500	-0.0909200279068721	-20.3478417578944	-43.5960998860053	160.654374818743	-43.2825517595932	156.867553480687	-0.412737610310137	-19.5066599185477	
9984000	0.0498546837753589	-19.5265567288808	-43.6237298058693	87.6445849745655	-43.317040935974	85.0325980827181	-0.0855252016681157	-17.2314974528172	
10233500	-0.164326157722306	-17.7573777529972	-48.1870240906699	14.6580228751931	-47.3579381779344	10.6749535996351	-0.0728147009430333	-16.1297416753218	
10483000	-0.456933708492935	-17.1061179254877	-58.4846381342533	-18.6406498079989	-56.8160021006288	-40.6155210481201	-0.38975893051409	-16.2378710798352	
10732500	-0.771797760724775	-18.8021303684264	-62.0745457139341	13.9837041095939	-67.3964449084052	21.1339369524663	-0.746702865845855	-18.1325219059983	
10982000	-0.791322716566784	-21.1315711107818	-52.1319958604568	-17.8634234434592	-52.3002000836509	-21.8256787973006	-0.967408838326791	-19.8231627081424	
11231500	-0.464697869229259	-22.6937612799145	-55.468432465926	-85.7304172890142	-56.4892087008393	-84.269441506675	-0.493924885091463	-20.7731483530978	
11481000	-0.0970061110318428	-22.5092255734948	-59.3905900260147	-109.626220332878	-59.3973001324342	-102.324526290821	-0.0868110889462312	-21.0414976598757	
11730500	0.0348894115027966	-21.1920092766942	-56.5597317956945	-145.048583914735	-56.3572408622669	-144.283198578243	0.0822043741228974	-19.9365368738231	
11980000	-0.157991450770609	-19.9624424142471	-57.8238206941368	171.848050466473	-57.7649032083581	172.781640062154	-0.0820061983486416	-19.2030519147519	
12229500	-0.520865934955485	-20.2619417095945	-59.1851005674199	139.705338080726	-59.0021045278139	138.890188622524	-0.460695415668127	-19.8054542118559	
12479000	-0.770805892726723	-22.3704405801206	-58.6590029596839	108.56305240682	-58.9535181160597	106.419978326012	-0.742665422181422	-22.0670785095029	
12728500	-0.663151101759769	-25.0472268042342	-57.3941921448791	75.9599073904964	-57.0617433104335	74.9907264706759	-0.711452574444935	-24.8502457993978	
12978000	-0.309582306209622	-26.460954280664	-54.0600093255458	39.7500250101531	-53.8506863351031	37.7746181870051	-0.448452576632612	-26.4455263601945	
13227500	-0.0366904330219346	-26.1189834985967	-50.7607745325837	-9.83942926280341	-50.5408990026208	-12.4333530574493	-0.31386392770368	-25.8136973127718	
13477000	-0.100823357043446	-24.782193772196	-48.6565488902551	-77.6073636896414	-48.2799513946831	-80.5228397207339	-0.398474206368264	-23.0543955545027	
13726500	-0.468506618238942	-23.5379638777808	-49.1628226742859	-147.323550086417	-48.733072418557	-150.843728875456	-0.570092899444681	-20.8359037895267	
13976000	-0.870538240603525	-23.7815197623194	-50.7897113242932	147.25801871531	-50.7450230691796	143.274830081298	-0.809758084669887	-21.076286764434	
14225500	-1.01036301053628	-25.7764199664433	-53.1957186003714	74.8669336589026	-53.3264397289782	75.552519351076	-0.869602895805127	-23.4159222795982	
14475000	-0.764203541591923	-28.0009052933743	-55.7759168049637	10.3546455283346	-55.1916041811206	13.1229644864607	-0.621581852147753	-26.1289292290535	
14724500	-0.376560499166965	-28.1527148179286	-59.9530731106048	-83.2124330077526	-58.5768378954032	-75.7450443460745	-0.277258642721592	-27.1924411646343	
14974000	-0.00325615340856312	-27.0968459333423	-74.9748285255828	30.1169908385174	-73.0171345491902	-11.6199954613323	0.010688451988703	-26.3460065133384	
15223500	-0.0553424245257285	-25.9717848322277	-59.7295033710221	-57.1807855129144	-59.2604897040313	-57.1585872271146	-0.04249525403104	-25.2847229186724	
15473000	-0.409383694104147	-25.5145422662193	-55.4244130924371	-110.352661723565	-54.3671330491415	-111.454328055136	-0.411578291300804	-25.2476926864778	
15722500	-0.762765154101037	-27.0298480159428	-52.9365207597323	-156.439340721758	-51.8840453904254	-156.675334752796	-0.865719890048178	-26.9537058495915	
15972000	-0.819341524318978	-29.8963257891785	-50.6105164201236	162.150569902721	-49.8192970276982	159.558872792211	-1.10885291308281	-29.507826886593	
16221500	-0.524535354155768	-32.1841576062032	-48.0002363564135	113.815808796934	-47.551146171107	110.479380967793	-0.979083944371579	-30.4090186093951	
16471000	-0.15394026836653	-32.6966814583486	-47.3383428353412	62.7015135552136	-46.9550064722934	60.2232365286911	-0.484636583616229	-29.274752464406	
16720500	-0.0483364013524887	-31.7872964964365	-47.3234129966265	17.9917399642945	-47.1815791922411	17.1497853057484	-0.1298793744531	-28.0162076307037	
16970000	-0.355156522739748	-30.3996698685857	-47.3056493390012	-23.9855659753	-46.9016711702922	-25.2333302737087	-0.207276564897788	-27.0931127302934	
17219500	-0.88686149715581	-29.5813051718731	-47.268363456329	-68.3653978148051	-46.8381861149892	-69.5229475548064	-0.585523875685587	-27.449411295637	
17469000	-1.21943622368301	-30.4404436340052	-48.021037694528	-110.311088917772	-47.6375676407298	-111.555990713592	-0.946149703458211	-29.4331818301227	
17718500	-1.10837635198148	-32.560471809714	-48.4619826262222	-147.36730387994	-48.0953226797668	-148.519459553381	-0.980123450677728	-32.2075416186909	
17968000	-0.671834536507983	-34.111651020823	-47.7940165607578	176.257069768618	-47.3118852234356	173.862583203008	-0.694552162235954	-33.824702001427	
18217500	-0.267777984647164	-33.8443859304147	-45.8703426692846	129.971940820987	-45.5797498926922	127.039877006015	-0.39278016007534	-33.2612369976043	
18467000	-0.161720584908282	-32.1975837405569	-45.0360963953781	70.9453366178039	-44.8151647159605	68.3018560303011	-0.349296967616315	-30.9901853957707	
18716500	-0.362931983852334	-30.8986222677714	-46.7260819081077	7.88063433936031	-46.5684188546797	5.67474543821323	-0.517879910233641	-28.8303753793843	
18966000	-0.711195759591604	-31.5072582828451	-50.407768140831	-43.0650233989019	-50.1395659922267	-45.1795332515156	-0.808607892375529	-28.8997754339957	
19215500	-0.911849158051285	-34.207420484746	-54.2457326079616	-78.0264556444506	-53.8948700998451	-79.1839248394396	-0.987650822925439	-31.3018412694335	
19465000	-0.758107676759803	-37.2565024426831	-57.8058774101027	-103.743906597312	-57.3909286130685	-101.209021649775	-0.838266942447194	-34.5127828720849	
19714500	-0.368111140264298	-38.7666027250738	-57.3253883275838	-133.215196801104	-57.0668820162577	-137.838372845226	-0.558976204974181	-36.4812217877983	
19964000	-0.111491178900606	-38.343720020962	-67.9970331516781	-171.054714624223	-71.3161998202003	-169.879952594892	-0.16551348002048	-35.4881429887837	
20213500	-0.261866214301745	-36.9450926663519	-71.3893516514922	-28.6873653750393	-69.4194669587117	-46.353987794031	-0.183582522195712	-34.3601742216046	
20463000	-0.76527927515161	-35.5724620717783	-55.1765084529268	-68.1341321623542	-54.86620332234	-73.3379010874592	-0.543132271775374	-33.7688867417963	
20712500	-1.22801084549868	-35.5698058222976	-48.6022342055565	-121.507292533831	-48.4176461009969	-124.773499831697	-1.07937782660025	-34.7260491570466	
20962000	-1.34650017207164	-37.7420690813287	-45.3382662257422	-175.483554788596	-45.2643018352764	-178.99445647593	-1.40410851811612	-36.5690528272072	
21211500	-1.07412928947708	-39.9491725955746	-43.7346230231624	130.82142459761	-43.8754346402386	128.948742232125	-1.26168286898856	-37.6683807496108	
21461000	-0.622546459886188	-40.2767231330422	-42.8720017134956	83.6983985576081	-42.9904175206593	83.2327827712955	-0.752035362284903	-37.1105232418452	
21710500	-0.376829044849431	-38.7182058448468	-42.4954445577381	35.2423667756359	-42.3809395020192	34.8244080710436	-0.329851526055879	-35.7061589578379	
21960000	-0.437809438853861	-36.523032171566	-43.0542696709486	-13.3810495931305	-42.7590233552521	-13.8389745204162	-0.285126732667553	-34.3965030980091	
22209500	-0.711619854535547	-35.9278470715933	-44.206439700431	-56.2144852638046	-43.7717919567689	-57.455259349031	-0.58538833455271	-34.3363820944061	
22459000	-1.01315387915968	-38.0507915802531	-44.9579665706946	-92.3881136175531	-44.5700273153867	-94.4074780507935	-0.93137443118913	-36.2719685303408	
22708500	-1.04716663944352	-41.6315685849374	-44.4759906915503	-128.963503388747	-44.2681074688847	-131.869073437216	-1.0145381113333	-39.397584530418	
22958000	-0.784498205515211	-44.0911291263838	-43.3303101679661	-176.257704364279	-43.2865258389127	-178.414446229881	-0.768553837990328	-41.6840104373836	
23207500	-0.44334841483822	-43.8009774065411	-43.2183211747077	124.310249173588	-43.2292301030416	123.150887287111	-0.417657620258031	-41.7562587602567	
23457000	-0.303226426868486	-42.2575178391045	-44.9769942832152	65.6088031104322	-45.0761169977678	65.6672871585706	-0.302213051589551	-40.4899746296447	
23706500	-0.624618462486968	-40.851478456352	-47.4873147593414	8.90393576930385	-47.5364849652981	9.08723089334887	-0.595916411572241	-39.0252725633772	
23956000	-1.22267682362229	-40.1094933926909	-50.916301630898	-55.1326801366674	-51.3289854386965	-51.2745391473096	-1.14336863957102	-38.3748008405172	
24205500	-1.57888479506963	-40.8088210330201	-57.2202221176837	-126.488684890557	-58.4242882762015	-120.88413762203	-1.51889727171054	-39.3353640626731	
24455000	-1.39110697313419	-42.8482283996359	-64.5343268914312	118.688058653784	-67.9308058068626	111.322389022326	-1.40362204159094	-41.2361682509493	
24704500	-0.864958446245811	-44.2605903021768	-59.9304062748516	22.0058542229654	-60.1697997762486	10.293823836295	-0.888277988553636	-42.1953204392143	
24954000	-0.397166098407351	-43.9077613173836	-56.7010571806893	-27.5402521541755	-57.2333296761645	-37.7586269433066	-0.399670708944726	-41.7431867808734	
25203500	-0.28242623957901	-42.5172946374158	-55.185875973401	-72.6313174602354	-55.3587281071172	-81.6249133308243	-0.238293563548572	-40.5167777456364	
25453000	-0.557411810910384	-41.3015968254934	-54.4366226410175	-114.983471539448	-54.8817700431752	-119.568396553332	-0.468920802130969	-39.6866390174609	
25702500	-0.975054039299519	-41.8742039089084	-54.4107413483149	-148.992197769044	-54.6415664433065	-151.684801882526	-0.913659900265367	-40.7604556091501	
25952000	-1.17295882365086	-44.5771622889189	-54.7887894051897	177.191666474547	-54.8141303296223	175.749536859221	-1.22389052238823	-43.6412743492494	
26201500	-0.961921796478401	-47.5932060169186	-54.6126516222954	147.293735618883	-54.7203355847768	144.998716813746	-1.13801459980629	-46.7418705772675	
26451000	-0.504079161881079	-48.8153075947332	-54.534486512904	115.617659130353	-54.5517661366702	113.155243776019	-0.807495265218959	-47.936352464433	
26700500	-0.205896530952046	-48.1300350411721	-54.4696511418173	84.8843428559084	-54.9612740978137	85.1538637898976	-0.578595323908645	-46.5669191409538	
26950000	-0.298931718115604	-46.5186982515319	-55.1177855086959	59.4275472022525	-55.6519205246265	56.1509621159626	-0.631750360733156	-43.986935078828	
27199500	-0.74349819088365	-45.5243011255167	-55.8615656436631	31.5997118022639	-56.3002756798473	32.1126450946906	-0.956363718205532	-42.0273245317586	
27449000	-1.21159563645527	-46.200695353838	-55.7924783780998	2.59848832074346	-56.2852433827911	3.39602711633697	-1.30754081348532	-42.4510690203224	
27698500	-1.34249901058896	-48.5767861032883	-56.0105801292517	-26.2530121930633	-56.5285840651008	-21.2988806390502	-1.39729732363694	-44.933640322555	
27948000	-1.01990596696372	-50.8335187362758	-56.1364109727935	-47.9194744073837	-56.338051584671	-48.3759642240484	-1.08396366665683	-47.6354953889738	
28197500	-0.544683973707017	-51.171916894761	-56.3880911058008	-75.820283327013	-56.6394560938962	-78.4531822065351	-0.59587948011603	-48.4813507113873	
28447000	-0.303514829898311	-49.936132689073	-56.6305059608857	-107.588176596355	-56.3195691467935	-107.831965870624	-0.329558975726097	-47.7710257657293	
28696500	-0.45959850669633	-48.4356217332974	-55.5030100895345	-137.725802355725	-55.4747988782071	-137.663420726583	-0.493411517743749	-46.291005778373	
28946000	-0.896387430702734	-48.0981898059205	-54.9339788833847	176.530831743006	-55.0815395087211	174.120487239014	-0.948502084052989	-45.0713392298848	
29195500	-1.27497350658149	-49.8254643983733	-57.8483519640209	152.206952757903	-58.5620953373734	153.266066732233	-1.23695330208052	-47.0185667804453	
29445000	-1.26459802529303	-52.8803190503047	-56.734479326841	126.916597241136	-56.9899779420427	127.952737409784	-1.33582465079637	-50.2771776008853	
29694500	-0.860411655255214	-54.8901354197872	-55.3757756593113	89.5562227738308	-55.3277860276787	90.0636003743279	-1.11223496686254	-52.2662038458768	
29944000	-0.467248834914135	-54.7029476140182	-54.5093175126113	53.8938665386767	-54.2344637647589	55.9031639572682	-0.768170025020387	-51.7258595398192	
30193500	-0.394599715219097	-53.041661866621	-53.441084824469	16.1243163143566	-53.1664910098613	16.5145218275336	-0.645900363671494	-49.5633783049475	
30443000	-0.707352976925901	-51.3081781431806	-52.3681833879105	-26.0993275625617	-52.0452124151404	-26.8010659572692	-0.853766126975115	-47.3785493384892	
30692500	-1.20264270278015	-51.0832493854836	-52.0097747072281	-70.2899888998277	-51.8110167302185	-68.7740675763736	-1.24722759133338	-47.0554451140211	
30942000	-1.53181906127109	-53.1653555888058	-52.1523279025587	-110.670670616366	-52.1768735031361	-110.666786662359	-1.5286445694838	-49.1560270750732	
31191500	-1.39075320082907	-56.1242442778757	-53.0307821989802	-148.122040941925	-52.8461500604143	-146.202622083522	-1.38170361167154	-52.3204295471932	
31441000	-0.924311584108075	-57.5240362308393	-53.4018462588529	178.055759485569	-53.2995425208647	-179.825047366653	-0.913544560541196	-54.0435477008136	
31690500	-0.544994937028144	-56.6466391417962	-53.7118635268169	145.608458598585	-53.3546453770048	145.870462823025	-0.487761216705123	-53.6244482838294	
31940000	-0.518689369939068	-54.6950372201576	-53.5786716330631	115.007040040209	-53.5627377503256	115.058344041278	-0.423946698472196	-52.0659913810058	
32189500	-0.881943307221745	-53.269924883103	-53.753065118283	85.6276428767481	-53.7161628677203	84.8422364480686	-0.784511766852487	-50.8534305210054	
32439000	-1.37333996694559	-53.8841911388952	-52.8115146211968	54.1106709070633	-52.4761333202435	57.2598651740215	-1.29705308648301	-51.3363568936013	
32688500	-1.59179532138351	-56.5216786347115	-52.2640219546565	8.44118404465588	-51.7518271763211	10.3284410780716	-1.6315423829454	-53.9352298355037	
32938000	-1.35971393798892	-59.1377882897277	-52.8645522949349	-34.1622754770738	-52.2567462776925	-31.7868432176264	-1.51814468915651	-56.6698828789376	
33187500	-0.894308970204484	-59.7143488671428	-54.4428589155099	-75.6622093650339	-53.56846365743	-77.2014402133067	-1.07646317915924	-57.2142167021755	
33437000	-0.57641725199643	-58.2074505483169	-56.5230388094883	-121.316527181082	-55.6019118503853	-120.755185297401	-0.697620762437246	-55.6100350483279	
