!Keysight Technologies N9923A: A.12.45
!Date: Tuesday, 05 August 2025 20:20:19
!Timezone: (UTC+08:00) Kuala Lumpur, Singapore
!Model: N9923A
!Serial: MY61181427
!GPS Latitude: 
!GPS Longitude: 
!GPS TimeStamp: 0001-01-01 00:00:00Z
!GPS Seconds Since Last Read: 0
!CHECKSUM:0050337250
!Correction: S11(ON U)S21(ON U)S12(ON U)S22(ON U)
!S2P File: Measurements:S11,S21,S12,S22:
# Hz S DB R 50
2000000	-0.102796112362857	-2.25157027077548	-75.6492478686316	75.651308496429	-76.4920637028432	71.2079009145566	-0.142313573398284	-2.02038229150121	
2249500	-0.444959217585803	-2.967470315111	-61.9952252213043	56.7628357124195	-63.1099179570712	55.0108701547632	-0.485720976182632	-2.83550209947958	
2499000	-0.602723553521771	-4.79971307809407	-61.6794488186731	-81.0042360163384	-61.5368934062679	-83.4348832575899	-0.642674529839018	-4.26134919996544	
2748500	-0.438374235254643	-6.59109664967295	-75.957117917721	-115.351321476988	-74.8500379042971	-121.469667512283	-0.473979890081677	-6.20666806457889	
2998000	-0.0867042514772229	-7.20841735668664	-73.202135303935	-73.9172073836149	-74.3035560040932	-79.700996735676	-0.12838766558728	-6.88737072387553	
3247500	0.144708295675319	-6.60648391604135	-73.159490894412	-107.061573102516	-71.1910616945667	-97.8447891144392	0.0984937660652049	-6.15950298047555	
3497000	0.0971858184998965	-5.67704728791704	-70.9853803745377	-105.579975852156	-69.7459782351513	-107.270674011653	0.0456265405499992	-5.22579270057851	
3746500	-0.218013437616071	-5.44691758356434	-67.0923727322661	-122.442517711147	-66.4503805827705	-119.411261084592	-0.261024908412237	-4.93241481460885	
3996000	-0.558760732551202	-6.49552654417328	-66.6973304540744	157.119513657798	-66.2857497045251	157.600324077359	-0.576800001252572	-5.98169957144109	
4245500	-0.604177493355793	-8.51602180486366	-87.0212573933688	150.926267527627	-87.5032303539323	89.0624726737795	-0.639696001999798	-8.05402046096039	
4495000	-0.346468651749553	-10.1004320241698	-84.9757275350862	-82.4402522927334	-82.7339418795906	-106.324396404689	-0.391394361814355	-9.61443599123372	
4744500	7.22432636038243E-05	-10.2674456815666	-75.5875712480137	-110.940008865599	-73.0347599177202	-108.667746647863	-0.0468894480849253	-9.84924080146623	
4994000	0.154310649442461	-9.47461050344269	-66.0233807258722	-116.475309899495	-66.011749358039	-114.488747078315	0.112594427819013	-9.05983468453059	
5243500	-0.0253896795474587	-7.94004270312771	-61.9230448771664	126.09350624145	-61.9672439103004	123.532701115557	-0.0336662699050817	-8.17055184223564	
5493000	-0.340033197275639	-8.40405853977617	-69.3822006141905	-122.917110520933	-71.4785607406399	-128.434344233796	-0.427075575577986	-8.83853191983031	
5742500	-0.629346718738346	-10.1509714950733	-57.6062855339796	-127.74543353872	-58.1637341727067	-128.569929626454	-0.652400101432835	-9.32877115141629	
5992000	-0.607442201751553	-12.3840397068456	-61.3361014539905	-171.354687259444	-61.8903139118475	-174.270922675405	-0.610477266261176	-11.4925327958692	
6241500	-0.279123090681314	-13.3039385418442	-55.407827984735	124.4574922713	-55.5256761126312	127.370705881972	-0.316590813610569	-12.6767477905032	
6491000	0.061076174766072	-13.1067511342912	-58.1899468345043	99.0223090063371	-57.5773371602546	98.1424493656029	0.0170960083372937	-12.5159498507979	
6740500	0.141094353844384	-12.172425920101	-58.1454424278481	84.0439851964226	-59.4777851392406	84.9434193179891	0.0875192787997271	-11.3792110846296	
6990000	-0.100630303778755	-11.573909686466	-59.7415398448563	82.0399142668371	-59.7590000808799	78.2214780213049	-0.137610981828417	-10.6287738192815	
7239500	-0.498264719497963	-12.2654460366917	-57.6601315432225	72.2619287613672	-58.1636972109818	71.9814892991028	-0.486456203591135	-11.2544450561748	
7489000	-0.733247783809145	-14.1105168485742	-57.0225428626552	54.814716846506	-56.9769204920135	57.2239680494009	-0.687669307503343	-13.2327412422386	
7738500	-0.583039316094003	-16.0714520118593	-56.2609706329193	49.0248307983436	-56.1833749875089	49.0869687749414	-0.557143035648575	-15.2487942971383	
7988000	-0.229304616748053	-17.020233960464	-52.9584462813412	45.5554436081674	-52.8898263839313	45.6090055654715	-0.206252050538758	-16.0299797322205	
8237500	-0.052498344172812	-16.5243021470042	-47.5902904650645	22.2408847977031	-47.3875104278763	21.4855377581541	0.0696688958918946	-15.3635711706961	
8487000	-0.111753927637027	-13.4874718730012	-44.8072531189509	-48.4087039144491	-44.9171321846325	-49.9345570951432	0.0561401057689978	-14.1128780414818	
8736500	-0.225718991388558	-13.2932357322959	-50.514541396729	-87.6516956731298	-50.3185161017226	-87.6998452151581	-0.228762100844631	-13.5799019530604	
8986000	-0.562990618482555	-14.7542933316972	-54.1922387973873	-98.6703434954797	-53.968672957104	-98.9477354138043	-0.585563029356628	-14.5887768034864	
9235500	-0.680617731235222	-17.3165798410315	-56.7959713784603	-97.7077884911115	-56.4635967361707	-97.999639168761	-0.701391573720575	-16.7705745004773	
9485000	-0.449984302143614	-19.3377158837452	-54.1151540818663	-96.0141843772499	-54.5402371096078	-97.6291794299056	-0.482507341842499	-18.7245263083867	
9734500	-0.0653703266796396	-19.8674339590338	-53.5314427809573	-126.094945980568	-53.4904130565436	-126.150804639213	-0.118153012619402	-19.173007433908	
9984000	0.150591088118369	-19.0856517798678	-59.3020669848355	-115.333271255057	-59.6370794969464	-114.343670443514	0.0915700237036652	-18.2329630775357	
10233500	0.0337743480565758	-18.2549766039528	-55.9048673496836	-114.867033366836	-55.8148760099467	-114.358436289859	-0.0115600761291104	-17.1920710799978	
10483000	-0.338424370795782	-18.5829105986274	-54.7434008019028	-121.856760145312	-54.6906832654414	-120.15608325642	-0.381960825000601	-17.1223010469831	
10732500	-0.690403005698437	-20.827986399509	-51.9505201371512	-109.626715391384	-51.6027364214244	-105.868591307859	-0.709267993894439	-18.4726773196982	
10982000	-0.78984701730002	-24.7179800367122	-45.7322056652253	-116.689785065989	-45.2962519198817	-116.171538916433	-0.721149157053836	-20.9521606321229	
11231500	-1.18193761392823	-28.7499110604404	-37.3161493381689	-152.737373655471	-37.0173085512199	-152.660768620589	-0.442399027482389	-22.8519370623438	
11481000	-1.01643097248425	-19.0191314742274	-34.1397879930261	126.55806901941	-33.7985589830436	126.419319374662	-0.167788380173104	-23.3285830013531	
11730500	-0.307504587120012	-17.7519257775446	-47.6761390377702	5.79131740287832	-46.4492215047795	1.09423702248535	-0.0151628866459558	-19.3499477469982	
11980000	-0.287907431330505	-16.8185284584937	-48.8248427068976	73.9840140056587	-49.3218807026284	73.1717874594264	-0.125591999161819	-19.977635686511	
12229500	-0.528096651364006	-17.82879023423	-49.4163181633687	76.7350913808987	-49.6954946903042	77.905208602185	-0.524249365340712	-20.7615303087968	
12479000	-0.760993124295561	-20.3875446832976	-50.1612207112755	59.1311636542974	-49.8498719434335	67.3424417717027	-0.847572911267429	-22.6628654863383	
12728500	-0.656829351622711	-23.2691000321474	-48.0154942416368	74.4906472249155	-47.7200785405846	73.7799548026733	-0.728446168913341	-25.4094218870833	
12978000	-0.290326337823166	-24.7852169784217	-44.8803526091096	67.2363776071273	-44.8005449080383	67.0547947126178	-0.399987292367468	-27.100279714357	
13227500	0.0278003860593826	-24.550336996566	-41.5179839641838	54.9932467077966	-41.4588422318851	54.9871947313704	-0.143933607056523	-27.2363146868966	
13477000	0.0285013498408013	-23.5468105558815	-37.2270116349214	35.5087014421797	-37.1925821373043	35.79250631694	-0.240291025657435	-26.9857825328432	
13726500	-0.352605516111309	-22.8212901361792	-31.967087398678	-0.374696520641582	-31.8482754178067	0.808291077173169	-0.890107794238253	-27.2795820282775	
13976000	-0.764171314577135	-22.5015959319638	-29.3904492525972	-64.1333916144584	-29.1523304142471	-63.2486740923891	-1.73627907541366	-25.913833513696	
14225500	-0.807126667586496	-24.7181737868663	-31.473293700539	-118.56817449141	-31.2001941880858	-117.738985184963	-2.03064328591915	-27.2803015255015	
14475000	-0.566483375733089	-27.3608848444049	-35.2033477026824	-162.403344532052	-34.6571845813849	-161.552618055019	-2.26571753761551	-26.7906144361053	
14724500	-0.202441795119709	-28.4044157113958	-41.7362730992413	-169.950352014631	-41.1670418385554	-171.185765949292	-1.48589683203222	-21.9836126895911	
14974000	-0.0149119742557958	-27.270485011222	-38.0478452278781	-175.026507152622	-37.7469546959764	-178.66709746663	-0.683520384915792	-21.2382422766631	
15223500	-0.0566978376626428	-25.6931088070287	-37.8607319729183	138.154665073831	-37.8473678651283	137.021490928647	-0.370406302724567	-19.6351499286568	
15473000	-0.404655265701583	-25.3956317367287	-45.4721131645308	157.083851032054	-45.0810854045177	155.26692628071	-1.05798080060564	-23.9031987310001	
15722500	-0.755922043901271	-26.2367586251635	-43.3325412470657	67.0185078538508	-42.9741505670812	63.7434524336422	-1.17947495380283	-19.5615042474599	
15972000	-0.754368423842479	-29.6710436416084	-47.9721728552008	101.894576954618	-48.1378842069367	99.4761408422293	-1.0117688570689	-22.4431151769811	
16221500	-0.486273010793496	-32.1696062322521	-46.6683679885787	91.8780901912263	-46.6381306364241	91.6366140489366	-0.645344574576251	-25.3306569583789	
16471000	-0.123745758113409	-32.7987793402442	-45.9930022397505	79.9954266392955	-45.9117303215933	79.6539565574099	-0.195916090742968	-26.2531184009331	
16720500	-0.00113392248646596	-32.1122961321983	-44.9972418349491	67.0623843986631	-44.8341720036085	66.4475566315877	0.0541593681721373	-25.6018177983032	
16970000	-0.29302090332766	-31.3687290380433	-43.3593179763834	49.2075697698818	-43.2269331082807	48.5239723800105	-0.0487775420146739	-24.6643209504348	
17219500	-0.953559732923088	-31.5593881696162	-41.2980610058927	22.8148950068763	-41.1537278959556	22.5755530269658	-0.406457718918979	-24.8752148488279	
17469000	-1.53444455171197	-31.7431965986746	-40.0754074757785	-15.4155989939858	-39.8414590528639	-15.4759545932124	-0.738419972767925	-26.7090879644012	
17718500	-1.38714325255369	-32.6714283859723	-41.1018435284902	-54.5333200680599	-40.7862660239172	-54.4807271021531	-0.73951150870833	-29.4204429797909	
17968000	-0.895251339706108	-34.2763995357812	-42.9736056398089	-86.2286345482564	-42.523109047246	-85.807110025401	-0.40960119780277	-31.2398970851514	
18217500	-0.548802811955013	-34.3890183115407	-44.5912461343225	-116.474628680373	-43.9232772798901	-115.076326905162	-0.0333194741600698	-31.2486331407357	
18467000	-0.650781967004079	-32.601348551578	-46.3916623438218	-152.569422736762	-45.3841914463446	-152.012057332382	0.0619889512778573	-30.3113972420917	
18716500	-1.0537831343976	-29.2008736789014	-60.9572814203492	48.1536813402053	-60.2884629791435	68.6691700450995	-0.381319288721074	-30.0585342542138	
18966000	-1.2427997441379	-27.60903080668	-45.9009134957484	-172.593836167476	-45.3201778161775	-177.724458844056	-0.616838926659902	-28.0484224331945	
19215500	-1.307515555169	-29.4269786414823	-48.9149197236341	125.756543002952	-48.7041093785019	125.436325255312	-0.795846613357581	-31.0799814809373	
19465000	-0.890801712408788	-31.9584122932901	-57.3898607053177	65.2006607237981	-56.0890883294407	67.1458343349045	-0.753788243216586	-34.4842349423389	
19714500	-0.310593329753774	-34.3903282958838	-60.229938712378	113.701146191707	-59.1020226563441	108.713375831413	-0.472149606494101	-35.2223910351048	
19964000	0.075574641767597	-34.8268929658747	-63.8753304593446	39.0297810339295	-63.3753264592018	46.5840896944141	-0.0811512604752639	-35.3327863638548	
20213500	0.0617764937985937	-34.5243449139154	-63.2249768889223	-2.56179753775487	-64.6989257580626	11.7230338056197	-0.263341301696082	-35.3842461220599	
20463000	-0.427535895562125	-35.0841695723525	-45.2329683225003	-84.3694577318039	-46.0869176764812	-81.9500918511337	-1.35883760047137	-29.9691535808292	
20712500	-1.23348177980378	-36.0394889569747	-39.4801478575586	-176.94571341483	-39.9860895781795	-176.649268952402	-0.842052730219158	-29.2327888918797	
20962000	-1.49068869421257	-36.4104257289586	-38.792545226253	109.079160744954	-38.9664972009116	108.991980236659	-0.895169411563083	-32.7441381234153	
21211500	-1.20336440982573	-38.2630079671643	-39.4936235258132	61.4107335067647	-39.351756210365	60.5347944568863	-0.667614103807781	-35.7418412017766	
21461000	-0.798619980322492	-38.0851282031364	-38.9763596870687	21.2494739839847	-38.8040927025885	19.3911951636674	-0.261462931749179	-36.8714931545301	
21710500	-0.483069354968294	-35.5208822779163	-38.8015801561245	-21.9679064483734	-38.699813270705	-24.4418399060131	-0.000350106900514788	-36.2208281033629	
21960000	-0.352268402769838	-33.1391097331801	-39.5561017102929	-61.4586902690543	-39.4895933597126	-62.5611808134098	-0.0548676197599537	-35.0997587482397	
22209500	-0.538690640335854	-32.8763822078887	-40.3491033367676	-92.9756152837242	-40.1771955066164	-93.5904469274995	-0.410030283630927	-35.1702959054632	
22459000	-0.823451399079483	-34.9563918921241	-40.4676030288546	-120.022909146255	-40.1208095516571	-120.600228942262	-0.815947532078644	-37.2902889754878	
22708500	-0.842586314959391	-38.3150004586342	-39.9700005981639	-150.210980442572	-39.6365806515798	-151.250958098371	-1.06595969125035	-40.1230874566925	
22958000	-0.532487854724657	-40.7735082146849	-39.1827398600199	179.254179873485	-38.9199347577696	177.211841718415	-0.7821474768344	-41.0605838708607	
23207500	-0.13324808844387	-40.8537323047738	-39.2826417226027	136.347040233349	-39.2095460061451	134.443934615366	-0.320414922557953	-40.8238345993835	
23457000	0.0832832950724319	-39.5610018032606	-41.7056302815599	102.235145099024	-41.6655169532936	101.389628088942	-0.0746123090745094	-39.8454520111702	
23706500	-0.0693969513325527	-38.5302230414902	-44.0466978438976	82.4295187098216	-43.9820716172621	82.3176512484183	-0.24478433381585	-39.2495108495436	
23956000	-0.473474345417615	-39.0102436562944	-45.2067063090556	70.2470816388488	-45.0901213129278	70.4724330835931	-0.713644491615839	-40.2179950699633	
24205500	-0.803040302854815	-41.5459792632989	-44.865190255891	58.5917372547388	-44.7095678610644	58.8513023159356	-1.16173020273453	-43.377514910149	
24455000	-0.777801518061427	-44.8648184937767	-43.2698445985598	43.1220091684085	-43.1060731398019	43.6193982647529	-1.36896245191802	-47.2252616222098	
24704500	-0.475805179956028	-46.9517798464048	-41.1313061553407	19.7440169885763	-40.8927689617324	20.5415581064357	-1.41255269070212	-48.4110140521033	
24954000	-0.264962432948291	-46.9466350714192	-38.8532895061078	-15.5304533479458	-38.5979569814388	-14.4938506904654	-1.46227327468539	-45.386476954754	
25203500	-0.500029871813697	-45.3656403017866	-37.5807783220385	-65.18992085486	-37.2649702911943	-64.453802865701	-1.47287055667726	-39.6384137410226	
25453000	-1.11860851727987	-39.7048228352123	-39.956989351816	-139.58006840283	-39.5824447839608	-139.284284900471	-1.4310343031758	-35.1507017525535	
25702500	-0.813856789765765	-39.0618402978966	-56.095502164726	-169.979840678671	-56.2827014656963	-168.971213376628	-1.42401218691417	-34.785361320693	
25952000	-0.877465945156939	-43.2008085473453	-57.9725432027427	-122.524319463446	-58.3022427983998	-124.129770688351	-1.30924961377549	-39.1986329611883	
26201500	-0.678608525541645	-46.8360508763994	-51.7315541277013	-47.7126829468479	-51.1514664341599	-49.1389037635279	-1.73879725465867	-47.4832574000096	
26451000	-0.24016206945405	-48.451447429231	-46.7980113952732	-113.798097921616	-46.1572435809179	-113.663588677426	-1.60453084650274	-41.0431749813539	
26700500	0.0610733085860927	-48.219646600983	-47.3660934770663	-145.61937090711	-46.7950262974365	-145.314286000374	-0.729968320396915	-39.3292975225801	
26950000	-0.0118986254731593	-47.2997174913791	-47.4414911425577	-165.316201023724	-47.1086210287338	-165.694563165353	-0.446097885155023	-37.9756726911697	
27199500	-0.448954634533177	-47.414093147143	-47.2632732164276	175.928242251294	-46.969185082169	175.871837401669	-0.624385199036443	-37.2959990740755	
27449000	-1.00765735922243	-49.4924867065352	-46.3721178619237	156.706932773997	-46.2912368105011	155.492024671756	-0.954745563655622	-38.575615265926	
27698500	-1.37717734888745	-52.7352062841331	-45.4042588462918	127.243238762668	-44.8938440069196	127.192266883539	-1.0887701850039	-41.5071132147381	
27948000	-1.28034346118524	-54.4451317819865	-45.4979171077493	82.3592356160934	-45.1970794055141	82.6870952982313	-0.829002527173859	-44.4791731410023	
28197500	-1.03134003834969	-55.486393048803	-52.4538506517344	60.0989265864894	-52.0853863446823	61.314299780438	-0.362699141768665	-45.5980651936041	
28447000	-1.34096053281031	-51.4635581230647	-50.227241102187	49.9869956133198	-49.8429823108803	50.6997845646341	-0.0618026920429074	-45.094941831148	
28696500	-1.41940122110969	-45.80745868693	-56.344336634773	-42.1775295880573	-55.6753146566097	-35.0643699544519	-0.133263137945562	-44.4699710244813	
28946000	-1.6049521172346	-43.1399182724658	-41.2359622270256	138.658485826205	-41.3433027324991	137.824730155165	-0.811546381755363	-45.9893669029868	
29195500	-1.68569720469748	-43.8383180197015	-38.535729899824	8.70099425857418	-38.087301133069	6.71825645849021	-1.3958012536951	-42.4789127876227	
29445000	-1.46248696070406	-46.6568226730904	-44.5752760055145	-51.1387412139734	-44.6907631740919	-53.7954195754935	-1.07903311315869	-45.7527102526509	
29694500	-0.884036780714522	-49.0234205431525	-50.4165727378817	-81.4242451198879	-50.6293625063574	-79.9876176205271	-0.719809014595549	-48.5825427894558	
29944000	-0.330595383611169	-49.3502140375672	-55.8761818850363	-96.2706132300849	-55.7991956062731	-96.0351348537992	-0.269296088261943	-49.0295025713603	
30193500	-0.0889374441991219	-48.3009690552826	-61.6777422793236	-91.8133242370638	-61.5248070653354	-93.6434433567076	-0.0847693641433809	-48.5703498566654	
30443000	-0.246927527148696	-47.3641502946798	-56.062967491323	-58.4876755600779	-56.5128789917082	-56.2164485186751	-0.679736032789049	-48.5497652384578	
30692500	-0.642301245258771	-48.0175867963591	-56.0559430949365	-126.01900167229	-56.1010811976724	-125.124720794087	-0.924612359368823	-45.0681831234997	
30942000	-0.946447422404937	-50.8434185790618	-59.7741007791951	-146.340639342063	-59.5163953804522	-146.707870889855	-1.14508826511855	-48.0339625827134	
31191500	-0.830707405196811	-54.3886229106131	-62.9238453281701	-162.774757383357	-62.8033736717327	-162.441714164884	-1.07928945404829	-51.4421257222158	
31441000	-0.394424517728095	-56.4082189197295	-65.3878389864551	153.557126134473	-66.2572583459694	158.905188480627	-0.697116312173887	-52.9573588325029	
31690500	-0.0208701982468046	-56.3085970172393	-66.4662600043036	85.5231614680571	-68.6193400175958	82.9143066601194	-0.280576193384924	-52.1247953678544	
31940000	0.0170827921949652	-55.3664384360971	-64.0616093534077	32.7253986561394	-66.6979694960248	11.2526458158616	-0.131999922749324	-50.6610918288157	
32189500	-0.352405303490748	-55.2870995393379	-57.5057885393431	-17.9687862486046	-58.7340175785466	-25.5727704265486	-0.4392674797633	-49.7614067744119	
32439000	-0.930666737227374	-57.6027686037456	-53.645533188915	-61.5752183938886	-53.7232555081833	-69.6720280845935	-0.909827494689463	-50.4497700551254	
32688500	-1.49987947821751	-62.0802116279497	-49.005862897201	-101.871477411976	-49.4748325602935	-105.796014332908	-1.23960182735431	-52.7869947621739	
32938000	-2.10873333103723	-62.6758286926526	-49.3085092698096	-174.80005036045	-48.7342270933149	-177.756094215205	-0.970163629670157	-56.2859446743695	
33187500	-1.3773635457219	-57.0026483816596	-60.1870269674323	131.104441109781	-58.6087660355576	120.805899906546	-0.617280236025811	-57.8172906960489	
33437000	-0.578793821141051	-55.2369993556419	-56.0277894944361	-144.747588341821	-56.6766976510166	-144.677254617487	-0.349166320922119	-56.8319531674911	
