!Keysight Technologies N9923A: A.12.45
!Date: Tuesday, 05 August 2025 20:58:38
!Timezone: (UTC+08:00) Kuala Lumpur, Singapore
!Model: N9923A
!Serial: MY61181427
!GPS Latitude: 
!GPS Longitude: 
!GPS TimeStamp: 0001-01-01 00:00:00Z
!GPS Seconds Since Last Read: 0
!CHECKSUM:1965261565
!Correction: S11(ON U)S21(ON U)S12(ON U)S22(ON U)
!S2P File: Measurements:S11,S21,S12,S22:
# Hz S DB R 50
2000000	-0.0827805317991673	-2.27085017709322	-81.2877020222457	-112.196364854558	-80.3248360469884	-91.0170320757572	-0.116486230791164	-2.11434916735316	
2249500	-0.424659452142072	-2.923536399089	-76.0405919805988	-105.826494393474	-73.4986756793718	-119.4132448153	-0.44934776913258	-2.68770884832343	
2499000	-0.584585924647818	-4.74354521454128	-68.3465631856397	-137.624972821426	-70.6427833799657	-128.634543116661	-0.605153659031897	-4.4460761939351	
2748500	-0.427423042558853	-6.58827416510975	-56.5313282347192	-163.737811605264	-56.7805188724034	-163.160498012838	-0.456309957995567	-6.3377939876397	
2998000	-0.0769846406808011	-6.96734114276197	-48.7920738575523	78.5903684787174	-48.8431185155368	79.381092865566	-0.132538387640611	-6.91522830124906	
3247500	0.172119623473266	-6.39403245621	-52.6683374101949	-22.6816616464256	-52.6078644469616	-24.1872810312247	0.0738711603674138	-5.73177084948164	
3497000	0.118483627358557	-5.58383575092959	-60.3857690839275	-56.486564851752	-59.9752231429917	-57.3245992219471	0.0765297794263975	-4.8099720307916	
3746500	-0.192520554831435	-5.27813248867991	-60.0220647939774	-79.0224703629605	-59.3584923036264	-80.200307407631	-0.223375924323803	-4.66047706266863	
3996000	-0.580334653820651	-6.66908394135328	-60.1562481308243	-132.636805520527	-59.4427875782129	-132.781951456425	-0.542301904031059	-5.89632538664772	
4245500	-0.588566400359397	-8.51902385050665	-67.9979152351231	-92.253163456047	-67.5318839180542	-96.2155284629513	-0.606789015815782	-8.14541859125425	
4495000	-0.32174312611161	-10.3345657481566	-61.8521794092233	-103.980739995058	-62.35131613435	-100.347168450443	-0.352890967956757	-9.88200227349707	
4744500	0.0145402975667293	-10.7219903946102	-54.973952863079	-120.274535710557	-54.903481527529	-121.231512223931	-0.00353645803685601	-10.2514941384396	
4994000	0.0547214399462649	-9.64740672685046	-44.6128499437509	173.346732745388	-44.6408875475609	173.221304528416	0.138481405343731	-9.4835212558336	
5243500	0.0171632419684424	-8.23106935202344	-47.8552807609224	93.9576547649469	-47.7866091905101	93.6482387885173	-0.00326437540290409	-8.61577201598145	
5493000	-0.324735174523389	-8.58042325413529	-48.0043351990592	63.5600173098217	-48.058915407129	63.4497752847131	-0.383037793664636	-8.90058802216196	
5742500	-0.621351871814735	-10.3111439749513	-43.3302328128388	9.07724656109685	-43.5024761099382	10.3603340641681	-0.777639391459914	-10.2278652256023	
5992000	-0.565387591874834	-12.5033661975368	-48.4229338019524	-77.7255510363015	-48.2228062029361	-77.8589092141277	-0.61216953224185	-11.4882950353596	
6241500	-0.25747119142341	-13.9791742219991	-54.0405636900297	-28.9819364953351	-53.678251479802	-34.9035239023912	-0.33898647545267	-13.4137225343812	
6491000	-0.0113119147613411	-13.3339559950221	-42.9628598873435	-122.70057363699	-42.9158275563635	-119.842022005811	-0.10116534729903	-12.0705598579365	
6740500	0.114809610693866	-11.7899591651616	-47.6523087994628	160.140701952837	-47.6394832222057	160.718417979066	0.0856726093938189	-10.7485661298659	
6990000	-0.0853852755011398	-11.2039432431004	-52.91503257538	125.001935507818	-52.6324299457665	125.567868956932	-0.100636499811521	-10.1993460408792	
7239500	-0.472109466108314	-11.9836480353484	-55.5409137871649	102.5640517555	-55.6174943928718	102.308814968672	-0.450024382584169	-10.9730654441247	
7489000	-0.702816416997521	-13.9804899672556	-56.7544038389037	82.022385077283	-56.572074945086	84.3004776115007	-0.653465327125063	-13.1918231125474	
7738500	-0.552016443431305	-16.0342128153249	-56.2814430141588	68.1977868434992	-56.4469852428634	66.9228019383441	-0.520894265008035	-15.48337568298	
7988000	-0.181353361464896	-17.0342934871246	-53.8681443033342	51.8456385372971	-53.7853870523998	52.6243661925268	-0.169290291961489	-16.553189788054	
8237500	0.0427056411091976	-16.6021707518857	-48.43554926133	23.6526115785713	-48.5701708081912	24.2683348462522	0.0930314226750496	-16.1886975452688	
8487000	-0.0582508027674997	-14.7045736108447	-43.1494402506107	-38.1212452087877	-43.3004338770895	-37.5754554606822	0.0210245352595406	-15.2670390813428	
8736500	-0.261323562759565	-13.8213611877719	-42.0863202670606	-108.048514098794	-42.2893203065274	-105.285447060826	-0.396090538595302	-14.8260733749706	
8986000	-0.589564777468829	-15.1662503922068	-42.9451629185416	-176.956634519907	-42.7480347073493	-173.661203000718	-0.902232139051693	-14.5323735436601	
9235500	-0.696003280562554	-17.7647626363225	-46.9736045531064	121.565877434142	-46.61773682353	124.086642938196	-0.828948792958122	-15.7083046257063	
9485000	-0.478747641091804	-20.0459853391958	-50.6425076399169	80.0608136334823	-50.4107650760371	81.0001727141014	-0.495405545860663	-18.0577279263078	
9734500	-0.194436337058041	-20.4851104796077	-52.8479939956324	33.1821333816807	-52.7485158867719	34.2275338284789	-0.0921090250647931	-18.8130499170872	
9984000	-0.0368071760234491	-18.4594078132266	-60.5846700024676	-52.5900811007621	-60.6891357139171	-53.9140906230012	0.114807765961411	-18.2773821443165	
10233500	-0.0297157772497018	-16.9411548500431	-64.2150048234692	112.497375764353	-63.584966969326	112.006297720312	-0.0748152276395649	-17.4397521913687	
10483000	-0.344668354012143	-17.1328075084188	-55.6878676887968	54.1012833506804	-55.7090910063902	57.4475186649372	-0.592067073591667	-16.764785238438	
10732500	-0.691803509786779	-18.9346235505175	-53.1446758600654	-24.2329962791259	-52.5863691138422	-23.0345071055301	-0.849080767853917	-16.805733684597	
10982000	-0.71503477396444	-21.407445531979	-55.3461067576067	-75.0559325520444	-54.9552404566153	-75.7539388767618	-0.754478803242616	-19.388487528771	
11231500	-0.414315892323523	-23.1667155804966	-56.7561862341466	-110.452044273707	-56.8712412985933	-110.632859580778	-0.410177264253405	-21.4644859767808	
11481000	-0.0927537290309589	-23.1041177731442	-55.8953612566879	-150.60453782896	-56.2162299351375	-150.551977012422	-0.0314768694409888	-21.8456946638263	
11730500	-0.0210071562489875	-21.5989181989571	-54.8187532602427	168.91788389343	-55.2164062750968	171.550217342076	0.0865386118047579	-21.1080500454087	
11980000	-0.206673012129468	-20.0707370634353	-53.9426431357909	126.23661630219	-54.8991629278442	127.933601446947	-0.146520987893022	-20.4624750279653	
12229500	-0.556972985086608	-20.4168086070853	-53.2628527652803	86.5366321466905	-54.1515900738196	90.2067993320551	-0.612400041960195	-21.0477291978023	
12479000	-0.822153428495337	-22.6310719997389	-51.1950733440688	43.1062026929898	-52.1145382912576	50.2212924095672	-1.01665537698717	-22.8695765056473	
12728500	-0.744310115580457	-25.2883642223964	-49.421867411657	-6.33002805711305	-49.8955772087368	1.6022538300943	-1.06230751449659	-24.3732341834779	
12978000	-0.425383947943265	-26.4241147362958	-48.5665061615262	-61.9747243199204	-48.7373241829609	-53.6502191310651	-0.680868965590299	-24.1845760482685	
13227500	-0.142383137525941	-25.4453823900503	-49.5180275020109	-120.111711392663	-49.1805191995098	-112.625911356792	-0.215785544349194	-22.9577600227054	
13477000	-0.0893657527081188	-23.5773174679578	-51.2571048288658	-172.667810056332	-51.1204224639041	-167.653407081024	-0.0482477633022206	-21.6636370981546	
13726500	-0.307493379475932	-22.6555777142963	-53.3240648550379	142.468256784357	-53.7182889695994	146.423657879583	-0.251155477926664	-21.0450338776837	
13976000	-0.659096397333965	-23.7108729913793	-55.6280882018866	100.210715717356	-55.9294580522247	103.777987237894	-0.605876576108761	-22.0456600746674	
14225500	-0.828548112169411	-26.3985869601916	-56.3922143307734	58.4663004330788	-57.1602506628046	62.7759919942057	-0.78269355116506	-24.5649478060784	
14475000	-0.671409039409446	-28.9216274122735	-55.594903018544	6.08755623340102	-55.762628961828	9.01491728186835	-0.604886987476478	-27.0794132035358	
14724500	-0.343084769196076	-28.9140828932953	-56.8564416955425	-78.5356739238264	-57.5636439738733	-78.3230341775767	-0.241619418431975	-28.1176926176897	
14974000	-0.0139236705715988	-27.9478170155531	-77.962679839325	-43.4091622445137	-82.8468186647229	-65.7453286038498	-0.0163238243278009	-27.6769203127818	
15223500	-0.14157576707353	-26.5916558273484	-57.9978213252716	-75.2797206762961	-59.3931503834256	-72.7540950804807	-0.168690054056477	-26.6407534428516	
15473000	-0.514545823886721	-25.7280179469101	-53.3425111513699	-135.254811093826	-54.6772056800536	-134.680089756913	-0.655246980825588	-26.1686979852743	
15722500	-0.862540866527218	-27.1102968698154	-51.8929501957234	169.199006042559	-53.4018848591264	173.075974844555	-1.16859625225941	-26.7496850103107	
15972000	-0.930765977326886	-29.9747635916639	-51.1674635698687	118.943035766583	-52.158935415127	124.651435458251	-1.29003867889926	-27.9661712331466	
16221500	-0.666606642294497	-32.1605626343146	-51.0226782520012	73.0085796908839	-51.3792735235866	77.8547926639581	-0.901970483472969	-28.9225922942923	
16471000	-0.325391062901377	-32.1898693418491	-50.8448128761495	29.8103027178798	-51.165824514827	34.7137514345793	-0.358463772861044	-28.8449646080084	
16720500	-0.161430204053749	-30.3766516912683	-51.186104837671	-13.6023738594863	-51.43754263958	-9.79457799731092	-0.0513829398195666	-27.7987698567693	
16970000	-0.267181557080933	-28.5487321680626	-52.0795561152905	-55.1802077521896	-52.1200670997297	-53.1111589386688	-0.13421617302972	-26.7562523398463	
17219500	-0.597369403474686	-28.5414673976418	-52.6209288040411	-91.7609696747624	-52.6747520344051	-89.9107698970699	-0.488870052882384	-27.0613166117704	
17469000	-0.88732687688432	-30.7077950733091	-52.6245788381984	-124.24652793483	-52.7833779972977	-122.567450873268	-0.819996969193931	-29.1790177026041	
17718500	-0.857545518614236	-33.7158737464773	-51.5230164478762	-158.291797123959	-51.9116180008336	-157.267805520705	-0.832970749247256	-32.2646189413754	
17968000	-0.54559559619928	-35.52944271799	-49.3623813489541	162.75253252008	-49.6406704267105	162.952752828713	-0.545401711706726	-34.3461692588407	
18217500	-0.243677281534488	-35.0602207261604	-46.6418976456045	115.460484587121	-47.0062205696334	117.375040972664	-0.262153308615389	-34.3651680892481	
18467000	-0.185843959425995	-33.0783061597549	-44.4677011986473	61.0486577742914	-44.9680886212049	62.9462451564156	-0.307350792769069	-32.8639856423616	
18716500	-0.410785219958178	-31.6701646535305	-43.6799471977836	3.91358155525538	-44.1404354988851	7.44980835137259	-0.682745343967671	-30.8592346193069	
18966000	-0.807250174894543	-32.2556422600025	-44.0046378787275	-48.2070313802372	-44.1010440889757	-43.7345549891559	-1.11943950537768	-29.8647731992985	
19215500	-1.06249748335934	-34.8805707636096	-44.6816734332041	-93.5953815295623	-44.4993847781256	-89.7364951734544	-1.27094513736929	-31.0898284585771	
19465000	-0.97226867325883	-37.72967794224	-45.2392023203618	-134.568757485907	-44.9006832634926	-131.877926699356	-1.01934518980499	-33.5863648129016	
19714500	-0.639752099332586	-38.6254939100966	-45.3033076283653	-175.11002089282	-45.0032888186919	-172.91844091612	-0.524934282919217	-35.0909444608929	
19964000	-0.351621769734334	-37.0673348716179	-45.3468934474083	143.801842564199	-45.1535656058912	145.054478806444	-0.13664250538421	-34.7948226074243	
20213500	-0.303824175396171	-34.7900292070925	-45.8729360768861	103.34386046744	-45.7637374770766	103.926155383814	-0.0893663541120729	-33.7074384190561	
20463000	-0.549700723189348	-33.887007818202	-46.3143925356977	65.1248422413491	-46.3217110795815	66.5524081098244	-0.416912741689913	-33.2203090250626	
20712500	-0.918146990911066	-35.2664959307745	-46.1698153589691	27.8587493580835	-46.310815649901	30.2018240741022	-0.898532914274195	-34.3988803279547	
20962000	-1.0797834953939	-38.3802702228912	-45.1530456580898	-11.7067234739472	-45.373080121458	-8.15761755545634	-1.19011777047119	-36.8013927473737	
21211500	-0.886958519115121	-41.0754765358582	-43.5328457179083	-58.6668691581043	-43.7250060675709	-52.5910024363874	-1.10066112087545	-38.6281788947453	
21461000	-0.534873008438823	-41.5211930249341	-42.7618633829742	-116.737854057027	-42.5947818022475	-109.629665684736	-0.703231459070724	-38.2460916889321	
21710500	-0.353468445078897	-39.7629279438608	-43.4595649916601	-176.263643072602	-43.121558367269	-169.437051725444	-0.338968725584787	-36.646163850811	
21960000	-0.444825204387266	-37.5921152574894	-45.3527354268767	129.895903460268	-44.9109709280028	135.42243334416	-0.314266016721274	-35.3322540882081	
22209500	-0.801958607224117	-37.1563468584929	-47.6334669596333	83.0870702213349	-47.3272299699003	88.3295331058542	-0.656395771346926	-35.44285339797	
22459000	-1.23671822102387	-39.1132256793812	-49.7989717187641	37.8819559827595	-49.397755054438	43.1679880924424	-1.07415840235337	-37.4563439051709	
22708500	-1.39652305819979	-41.8032477278109	-51.9253286709725	-9.52241870825657	-51.6140088442351	-1.65414826907809	-1.23545369659836	-40.2740241816756	
22958000	-1.08551670522843	-42.8578787111744	-56.5227531953283	-73.5570686311282	-56.1911987929784	-59.9664641071127	-1.0183331559523	-41.8403088914666	
23207500	-0.580224395287377	-42.2330689998581	-65.560552503497	141.900659852829	-71.9058270572462	152.643847947931	-0.641542296925459	-40.9546456757234	
23457000	-0.368435063503376	-40.6098323400526	-56.6286897118668	20.8655964185779	-57.3373590585865	16.7334163155687	-0.389994526345025	-38.6550830100655	
23706500	-0.549846324277407	-38.7544463882431	-55.070386516441	-43.8147192923963	-54.6474618753956	-43.9523680646199	-0.442542246429648	-36.9322926874936	
23956000	-0.905577988583535	-38.531972977582	-55.9471020972328	-85.5856264937466	-54.973193473926	-86.702634431543	-0.774605864823915	-37.1668810768484	
24205500	-1.1627413718962	-40.8583262159188	-56.4891933531639	-114.050117465537	-55.6894872898793	-116.00737341255	-1.08050988373754	-39.7083551492521	
24455000	-1.06586711843026	-44.1087517501091	-56.1351165077619	-138.906602761991	-55.8273380269615	-140.025318266877	-1.07503899714454	-43.0397910221388	
24704500	-0.681879168908005	-45.9685215135116	-55.8800341487084	-168.933763832457	-55.3066762466859	-171.704453152271	-0.775766942288762	-44.6113722439216	
24954000	-0.352320059117313	-45.5346435392595	-54.2081414236841	156.535218011074	-54.1613436973909	156.605862902842	-0.499542950349057	-43.8113426293928	
25203500	-0.331334361881623	-43.6997921827214	-53.4690268709603	117.004636401534	-53.4729302410952	116.089024402855	-0.459712132664477	-41.6859844610601	
25453000	-0.631438382948632	-41.986567771339	-54.0946728678383	73.3075414050881	-53.3872453149858	76.1597044753279	-0.714217085621968	-39.8434406856382	
25702500	-1.04554340906006	-42.3702315651119	-55.6286893480307	31.9715481930531	-54.7066214372366	34.3939144666118	-1.09334549591868	-40.1863519050342	
25952000	-1.26032294408497	-45.0593576739274	-56.3212979632804	-3.87317479908515	-55.8044039370239	-5.84650493016762	-1.30344070401034	-42.8833266807212	
26201500	-1.08503113941226	-47.9758186201648	-57.0793513665222	-38.0875244131921	-56.1325037876243	-40.2819130307339	-1.13587460802859	-46.1779328089125	
26451000	-0.663261958136043	-48.8890803421889	-57.0297996804224	-73.3362661104475	-56.6976363921291	-72.5605059205936	-0.762280855410551	-47.6708305022725	
26700500	-0.364621150415042	-47.6095702234862	-56.5753551535476	-114.287857252913	-55.9454635426312	-112.206656719514	-0.515373310212658	-46.5128535661899	
26950000	-0.376281243501507	-45.4276649917277	-56.3954714047861	-158.495034784935	-55.3516725399368	-155.233208912384	-0.557184972415224	-44.0336194797143	
27199500	-0.682167863532577	-44.4173336439171	-56.8042743162623	160.010186512333	-56.1875027584125	161.366177362506	-0.851557612839777	-42.1782669959263	
27449000	-1.05172113485636	-45.698878978717	-58.3746332316002	126.123745228917	-57.0447276598187	125.880713474397	-1.17429857761494	-42.9106080846562	
27698500	-1.16691334066732	-48.8047855061463	-58.1224158217497	94.3985516078267	-58.0040855693731	99.1930021808502	-1.27098654118002	-45.7597300695715	
27948000	-0.886629412756798	-51.5277021924766	-57.6888508020444	69.4641421981738	-56.5489225314829	68.1261680041837	-1.00094660216769	-48.7353100582896	
28197500	-0.477563196082514	-52.0726429340349	-56.2449786155544	40.9882855255987	-55.7562398274054	43.8830161971599	-0.583063754353706	-49.6874866173156	
28447000	-0.303894107614553	-50.7725872585012	-55.0584255850614	8.4064226958488	-54.3467344778634	9.60531876599044	-0.395021547322531	-48.801553898335	
28696500	-0.502389578979319	-49.0097294765563	-54.3239019282047	-32.5043573128007	-53.6185082906907	-30.0157695025239	-0.604964578460644	-47.1013061606324	
28946000	-0.942037945357503	-48.4512249437741	-54.5009582167103	-76.1831489604096	-54.2603499442868	-71.4122024789483	-1.10245437021138	-46.0716391019162	
29195500	-1.31848148495932	-50.1789432289861	-56.1144383135146	-113.249298654167	-54.7510993878944	-109.652568287403	-1.52440446005049	-46.9638111818661	
29445000	-1.33206304555029	-53.2772815371629	-58.0668250894793	-144.729396630836	-57.0861405641492	-142.759497229327	-1.52467394150209	-49.2621896482314	
29694500	-0.96354909344365	-55.1297742018298	-62.0995912472908	178.190670173218	-59.655745112491	-174.8155104694	-1.13252142853037	-51.0082006450006	
29944000	-0.585294618303458	-54.5404801946201	-64.8052417516693	163.723146902411	-62.1535059015823	162.108167469352	-0.63489525043234	-50.9264331740483	
30193500	-0.477848246011351	-52.4074396495264	-66.8410335541079	172.417508673595	-63.4193413117039	152.928786965388	-0.442154363078088	-49.6644146715543	
30443000	-0.709190739127771	-50.4932798863592	-63.8528868127347	165.562666416993	-63.526308919865	144.362686346733	-0.677250841875276	-48.3798824028775	
30692500	-1.12783017458879	-50.5053293286526	-62.4009562953736	137.890751042638	-62.7771486883324	118.909702297839	-1.16526529308557	-48.6327342636719	
30942000	-1.42503885145917	-53.0515267871466	-60.9087259984367	103.994924313186	-62.2457683404892	89.5517979476519	-1.56566729106039	-50.7446174750108	
31191500	-1.29463649618738	-56.4048911622746	-60.1585094859429	60.6589555999495	-60.4775452893985	51.2972206238954	-1.49459313022957	-53.3645825374039	
31441000	-0.867791095386655	-58.0408904130352	-59.1122353025592	27.566906872451	-60.4472779778451	21.2312489524406	-1.01829953410922	-54.5133338424364	
31690500	-0.536937467762011	-57.1656738410988	-58.8170598590344	-7.61841004229962	-59.5213094561225	-10.574192117727	-0.568566399863864	-53.892896203576	
31940000	-0.545384368780603	-55.0232151581234	-58.0657459045026	-44.9680797310699	-58.7186934086041	-45.6650773351951	-0.516642508291815	-52.2139047619349	
32189500	-0.910102081692449	-53.3711970015218	-56.6975887402506	-90.5536393809294	-56.7165147192779	-91.2727160494163	-0.895979372577464	-50.7202478135985	
32439000	-1.38833744965844	-53.9053001865782	-55.4415033988612	-136.489955058497	-55.0816906292933	-137.803946025417	-1.39452722351498	-50.8014458286106	
32688500	-1.60101125468255	-56.5729986519154	-55.5478505499908	177.917920098907	-54.9835393391568	-178.626662407546	-1.65563396642566	-53.2188771110711	
32938000	-1.37302617163089	-59.1953210515048	-55.6641796891559	140.726611081475	-55.2688844799665	139.328887757427	-1.46548138521898	-56.2532269649442	
33187500	-0.908764672246927	-59.7161720217521	-55.4485587757668	103.087510497554	-55.0550790732091	98.8222661910489	-0.989577778293681	-57.3348660029689	
33437000	-0.583499205703153	-58.1302326584132	-55.2851565721527	66.8986707399564	-55.2113795754747	63.4540638309237	-0.63457213236959	-56.2493515653461	
