!Keysight Technologies N9923A: A.12.45
!Date: Tuesday, 05 August 2025 20:23:32
!Timezone: (UTC+08:00) Kuala Lumpur, Singapore
!Model: N9923A
!Serial: MY61181427
!GPS Latitude: 
!GPS Longitude: 
!GPS TimeStamp: 0001-01-01 00:00:00Z
!GPS Seconds Since Last Read: 0
!CHECKSUM:2076419382
!Correction: S11(ON U)S21(ON U)S12(ON U)S22(ON U)
!S2P File: Measurements:S11,S21,S12,S22:
# Hz S DB R 50
2000000	-0.103387344709568	-2.29300902312711	-76.8975768020093	71.7720221399661	-77.0867459438583	68.1456479734633	-0.143558149801135	-2.08866272704038	
2249500	-0.446373048771669	-3.01573646410005	-62.8473084944676	55.3161957409929	-62.7354923832622	54.0180846453674	-0.486845077864355	-2.88958608889931	
2499000	-0.604717958342661	-4.85438397571107	-61.552392730227	-79.2030454910698	-61.9302497397201	-84.7500660280718	-0.642877637904949	-4.40313702955123	
2748500	-0.437557093473792	-6.66036629417571	-71.8135223212253	-127.855316784423	-72.15576195696	-115.091217851858	-0.474575545733314	-6.34544372729638	
2998000	-0.0852989222242891	-7.27649960109336	-73.2356454335985	-82.7782730159524	-72.2799161886273	-91.8932482854774	-0.127991708957637	-7.01552011698878	
3247500	0.147873858160141	-6.68204388106391	-73.3019612852215	-111.561800857443	-72.4344213821438	-118.807746577417	0.099290408467394	-6.30918274568321	
3497000	0.0986531152994033	-5.75537368574831	-71.2215414943723	-117.747989995297	-70.4474754411473	-106.950471717651	0.0454109517452608	-5.37041047773089	
3746500	-0.219274710122641	-5.52914877334462	-66.501474905297	-125.310492709149	-66.0845236212168	-128.900750885025	-0.26295129705491	-5.08455850148434	
3996000	-0.559443934987857	-6.56205761537196	-67.6116329105037	153.635460868335	-67.9554755233019	154.027252249484	-0.579544345256981	-6.14283459086013	
4245500	-0.604988385572456	-8.60919340212413	-92.8338294300628	41.1527995822402	-95.2923349000846	-117.608232117942	-0.642033752711016	-8.22800163514973	
4495000	-0.346028045198208	-10.2057440655347	-79.6148551270436	-106.251622692231	-77.3220552899447	-97.2001514877497	-0.391319450540673	-9.78868372406822	
4744500	0.00073200542315486	-10.3745343640241	-72.8176128236421	-105.972010003992	-69.8016341308997	-101.735636390432	-0.0458085966451732	-10.0237547656298	
4994000	0.161093007386277	-9.55262499144507	-64.8483424469083	-109.433750053214	-64.8410493807784	-109.391478963031	0.114550038646612	-9.19464453955002	
5243500	-0.0184171967052131	-8.88639298560542	-56.8549789088427	-128.225097486153	-56.5782769105355	-128.455759324034	-0.0327652755018286	-8.35948837704509	
5493000	-0.483025815498941	-7.87510258451361	-50.7665593237304	132.558740556191	-50.6440704236494	130.842321127459	-0.389742290004276	-8.51729571184201	
5742500	-0.629168916844291	-9.82926007069015	-53.941909611111	174.44552058895	-53.9522426112285	176.215991990546	-0.766383220021375	-10.2437232326653	
5992000	-0.573395328634379	-12.2139088055667	-56.7447555020456	58.0420120583033	-56.5454507111054	55.8318504591229	-0.888886086890113	-12.1399602788123	
6241500	-0.260240610013599	-13.5837898395095	-59.0625935449751	149.547232557698	-59.0034455687879	147.844049586168	-0.312856605600154	-12.9666933280837	
6491000	0.0623378417911411	-13.2993789405863	-64.1055682790082	98.9468129852849	-64.3349714703428	99.2915660445466	0.0205385566503755	-12.5414492699278	
6740500	0.139088846071521	-12.3820759269883	-59.5543500466175	90.7151714318488	-59.7459920451733	87.0297767158668	0.0990634597467358	-11.645000259238	
6990000	-0.113873114731831	-11.8449598521664	-58.2697329929888	77.1951031501729	-59.0419391851615	75.2693875587381	-0.135286669155693	-10.9238883178731	
7239500	-0.539056475077987	-12.5550672701202	-55.86717537113	63.8183723572185	-55.5415907756135	63.7292814184268	-0.488563186201761	-11.5732968290806	
7489000	-0.778562265884123	-14.227521418167	-54.5863426573607	41.4451613651836	-54.2665199946759	39.4696599248005	-0.696349313854873	-13.5793085267251	
7738500	-0.621459817893531	-16.2779428252499	-53.1142185792666	35.812093919576	-53.1764488472421	35.8561968895271	-0.55847722618375	-15.6079053136107	
7988000	-0.309847319282042	-17.3211880311443	-48.8742968341366	26.5719081548727	-48.6152428623738	25.8498221707436	-0.207830701927364	-16.4136758666983	
8237500	-0.209019055131371	-15.5803859059755	-43.2045619630972	-20.8961857280227	-43.1588672865514	-22.824543897752	0.0627729319090906	-15.7307836685655	
8487000	0.0167637454385042	-13.4964986963265	-45.9272259737634	-77.1147599446041	-45.9062939979909	-78.0720223564906	0.0539737514022626	-14.5248371676499	
8736500	-0.216049293590403	-13.5046706969418	-48.8740668337759	-96.4989273765755	-48.8630395831689	-96.352480473598	-0.238036380244965	-14.0496367881661	
8986000	-0.56888020745659	-14.9018816852405	-50.257635168773	-103.980968615189	-50.234863284818	-104.263269836987	-0.598355089442638	-15.1226244476402	
9235500	-0.687597296984742	-17.4836325815851	-50.214054428802	-109.769138245502	-50.2797471032774	-109.351873657309	-0.714338632199852	-17.379703597248	
9485000	-0.454758697843176	-19.7168306261072	-48.9030440843928	-114.350796700182	-48.9313302952081	-113.879633317544	-0.49392346319674	-19.4238334898137	
9734500	-0.0984649519014091	-20.5108686034016	-45.7707813236328	-121.944345865963	-45.7027033029584	-122.571655860283	-0.132327319432747	-19.9468921871985	
9984000	-0.0676375161281678	-20.5547751602245	-39.2053800214919	-144.324628351088	-39.0402489127041	-145.083412880742	0.0523260334487907	-19.2528602295668	
10233500	-0.12743771232477	-15.3871462998939	-40.8750689084072	107.885010325241	-40.8547035224752	107.233557991587	-0.0742542431640183	-18.1567696735303	
10483000	-0.34288266017815	-16.9217825074239	-46.8442073508002	166.093953947237	-46.7369580345806	165.239463291063	-0.500838710386037	-18.4579918521642	
10732500	-0.689628406131106	-18.6590801319004	-40.4760696734643	115.807451428662	-40.4307105145146	114.899084020757	-0.878414528451098	-19.6207007920868	
10982000	-0.681789834323259	-21.4304012277309	-41.6651550223328	85.4966965921445	-41.6426586061681	85.2549295304012	-0.910486917474186	-22.4437322240728	
11231500	-0.383447368990705	-23.4142914479375	-41.1926205015569	65.0636728275893	-41.1603925980789	64.4776208877376	-0.729116760610227	-24.6623377769495	
11481000	-0.0533259143320569	-23.7995126597982	-38.7625750412452	36.3165003273851	-38.6819694740475	35.6817637946395	-0.711274081024025	-24.7040500590454	
11730500	-0.0236720180927974	-23.2253174164252	-45.1968215007435	-56.0101408114975	-45.1517528888174	-56.4897337642784	-0.25496467703353	-18.7540533525473	
11980000	-0.532043406148898	-22.4271670173297	-39.264701734821	-4.2466305019418	-39.1326076779454	-4.12031964669341	-0.948985823116098	-21.7333136717877	
12229500	-1.0202925086353	-22.0487192381426	-38.5903637796883	-70.0054468386241	-38.326996630365	-70.9475819959351	-1.42865650002965	-15.875111084671	
12479000	-1.85652972966308	-22.78366645246	-42.2190116441747	-137.426968837205	-42.0418421351078	-138.27524829128	-1.02511079958648	-17.442637882589	
12728500	-1.34911756563418	-19.6093734236704	-56.9771614740179	160.726366249249	-57.0297319586259	162.881823511686	-0.710170183382261	-22.5553095756673	
12978000	-0.48887455716915	-21.7290065633875	-66.90112171889	-66.1911796117921	-64.8494192854364	-76.0069321574636	-0.65702340891058	-27.5766883020735	
13227500	-0.00803159603662916	-22.2454928532696	-53.6759644330506	-49.7809562157035	-53.9953059646748	-52.9733835659929	-1.20674270071319	-22.2344211584529	
13477000	0.090309450414007	-21.5876346321537	-49.0388532403101	-88.4736425866424	-49.2941081846005	-90.9298565267084	-0.469013453189768	-17.9010941009687	
13726500	-0.161845707938665	-21.2439380603311	-47.1345872302822	-123.512301552371	-47.336284814125	-124.121627449989	-0.432976240502365	-17.846667132969	
13976000	-0.547978006459083	-22.2892695112667	-46.1592541845048	-162.414400226908	-46.3160634113897	-163.347915973536	-0.74710522786859	-19.2776555634992	
14225500	-0.716199103692877	-24.7404619092828	-48.1868989463909	154.310619265585	-48.4072011687878	153.870098594119	-0.924256781838362	-21.6279245936715	
14475000	-0.512396986636068	-27.1884102870551	-53.0556078516203	126.095803626098	-53.1840186717414	126.213362561494	-0.701255524913846	-23.948941598875	
14724500	-0.137957051500992	-28.0558007350674	-58.3472140602162	150.297261276019	-58.2261897467084	148.299734382767	-0.276020714891657	-24.9264892759592	
14974000	0.0927666382594577	-27.1671733046438	-50.907653913353	146.804242240112	-51.0106206334193	146.10412006015	0.0298996222432563	-24.4228019262015	
15223500	0.0294831275227692	-25.9352895686899	-50.0875447477064	109.931327670857	-50.1230834913466	109.280564327252	0.00882455235961286	-23.4535824830546	
15473000	-0.357242812168684	-25.8165734342201	-52.7667364512736	69.4293144827801	-53.0337466629616	68.0037868817006	-0.420398877704284	-24.3510382006587	
15722500	-0.874320811157103	-27.0776657530635	-45.8175675392631	62.9466873697529	-45.9089565820802	61.7575616946863	-0.7615651869804	-23.0569563228219	
15972000	-0.800848120008726	-28.7498845895207	-51.9152952267303	-13.2186926847514	-51.941933078145	-15.2554899014336	-0.799881331373826	-26.0421268723689	
16221500	-0.446049372140957	-31.5952041596254	-63.6598555486546	-9.36987778332712	-63.2901727588967	-11.194870841503	-0.520249499078719	-28.2486048165695	
16471000	-0.072028499345669	-32.4856504588362	-62.5115877367406	52.9557870982488	-61.9843095956525	51.7444061244644	-0.120347827579023	-28.696177634327	
16720500	0.0378091607840348	-32.0552794607155	-56.5303028622135	52.4593525159391	-56.6379427214325	51.072216934216	0.0933526919680682	-27.762378462752	
16970000	-0.329105388799539	-31.5508202855641	-51.66771297099	32.3520337889885	-51.5597078949465	31.0136369481241	-0.0340445136372236	-26.6717236708505	
17219500	-1.17782659506559	-30.797412334415	-46.9484270481482	-7.66723036588182	-47.0562566216169	-9.2835106478369	-0.400495592706669	-26.8335670845373	
17469000	-1.52773911225372	-28.9577854776219	-45.8181489972937	-62.1688309310649	-45.9586252746495	-63.9952485625002	-0.724298204695211	-28.7115532159467	
17718500	-1.21884272441968	-30.9027836186542	-47.0137871301286	-107.75547943875	-47.1334800886701	-109.533342876647	-0.717377774159289	-31.5488172561496	
17968000	-0.787470657907712	-32.5718684328932	-48.2639305687823	-153.237482506007	-48.3951564054607	-154.746113148881	-0.392174696317269	-33.5030464882009	
18217500	-0.355129273264254	-31.7244438679441	-50.0143243900239	151.330827036045	-50.1365840689838	149.959310907478	-0.0399370940884951	-33.777639060987	
18467000	-0.112214691147573	-29.8982975093778	-51.6751510065336	84.91656153242	-52.0000340446833	82.4871731904358	-0.0260267739061509	-33.5284277563438	
18716500	-0.226444374310832	-29.0233034719261	-49.3370076265043	-12.0674132158938	-49.3639854453278	-14.1372268660854	-0.842668859373051	-33.941521963161	
18966000	-0.56930992414087	-29.8899667053952	-51.5358451077829	-150.040175258805	-51.6393260369836	-151.894997616802	-1.03441795013606	-27.1534876136071	
19215500	-0.784739831145557	-32.5363040723538	-62.2071069495188	111.878540052049	-62.284375248392	115.767331077423	-0.934375854835417	-33.0462652293355	
19465000	-0.63637027503572	-35.4614626551406	-55.7055714810711	-53.7990317358291	-55.8846986338042	-53.0182011032143	-1.59736259942543	-39.5133648150799	
19714500	-0.224609967262806	-36.8770291616908	-52.5028416061116	-161.432699250611	-52.4613023639693	-162.649936052935	-1.35732522175165	-31.1519702499736	
19964000	0.106725845888981	-36.4244712858274	-54.591465312926	148.504603814946	-54.4946353958164	147.791818950417	-0.33690902636584	-31.1376719838395	
20213500	0.103312146783522	-35.2827691131308	-56.3808806625427	102.043706790979	-56.4572211368633	103.147153204221	-0.119865884594908	-31.4478698631009	
20463000	-0.227636379607017	-34.9619631245938	-57.126003815678	-156.863042273079	-57.1239745274443	-156.529805398142	-0.815517931782592	-28.7028459630914	
20712500	-0.653125952432807	-36.5258473763532	-56.1119137804791	120.248990855889	-56.4229116183444	119.796905165242	-0.81106384785153	-29.944848638984	
20962000	-0.834482420172354	-39.7491216541404	-57.1296892750779	79.9719769002094	-56.6905201358169	79.4253910096619	-0.930439063214671	-32.8231372373807	
21211500	-0.651204375532081	-42.9302069055966	-59.2134661504869	55.4376627208278	-59.1751382887348	55.9456862381052	-0.719995333705248	-35.5046709927768	
21461000	-0.381150710923308	-44.4910724571671	-59.7425764795549	45.9468357291107	-59.5615739759514	42.0478700990533	-0.289376298517262	-36.4201291867281	
21710500	-0.505802949222629	-44.2308067034299	-59.8310551329148	41.2406482543889	-60.155964706722	39.4292245778069	-0.0021069940677069	-35.7742329722698	
21960000	-1.27911771456223	-41.4393004389378	-56.6519904663393	22.6498291327391	-56.9319491314821	23.6463852895872	-0.0574956052794999	-34.6424082702833	
22209500	-1.96391350135866	-34.852258724666	-54.5361913640231	-16.808674221598	-54.6490348575566	-15.4891933096021	-0.412332801352075	-34.4675190337838	
22459000	-1.76074453641022	-32.9482087320643	-54.2190513586458	-57.5830579333572	-54.2854219398009	-59.851100364793	-0.776806246999537	-36.1090274762335	
22708500	-1.3650160119151	-36.1520973720008	-54.3383737012009	-101.257678277086	-54.311628375799	-100.512544842594	-0.851619410884473	-38.8634292465139	
22958000	-0.817948649838509	-39.1382214963201	-53.5518405514304	-155.303188645231	-53.9718305619089	-155.6451044909	-0.572309820686738	-40.8833776907005	
23207500	-0.29278022862967	-39.8202402641134	-54.4795701121362	135.018340498827	-54.9428060576374	133.720410874865	-0.169556101442144	-40.9344460191112	
23457000	-0.0324521792505976	-38.8697697527584	-56.8471059127199	82.3192461138044	-57.2656347612778	79.5179195243398	0.0222688624698794	-39.7887330902887	
23706500	-0.162862351738472	-37.9681133612557	-58.7364362741109	44.7061320679246	-59.1300533618267	41.6089459858105	-0.143876561798617	-38.7584167024037	
23956000	-0.549105567398588	-38.534261751124	-59.0929867214131	18.4329820363499	-59.4414154798394	17.1820443833211	-0.556397233108944	-39.1340316393432	
24205500	-0.857691364381326	-41.1719283292032	-58.8765003619573	4.03993152983543	-58.8955469515851	-0.967964045478466	-0.882134928783895	-41.5243961888791	
24455000	-0.801044097641795	-44.5968264747705	-57.3186413543384	-6.82271808189223	-57.7455319027606	-6.26344416816939	-0.847684441186922	-44.6458434745684	
24704500	-0.454308391413557	-46.824666764453	-53.8981825876323	-11.4911316173718	-53.8663076426071	-13.7611509611515	-0.495475026213945	-46.3448584095355	
24954000	-0.183229814178112	-47.100935536295	-48.4019590221987	-34.1842440694406	-48.4385347570734	-34.9229615647256	-0.197732190957437	-46.2955605279051	
25203500	-0.332689522548013	-46.3388557267053	-43.27206289355	-73.5964529510071	-43.2508027981361	-73.8456572956955	-0.214428806051469	-45.3395291171759	
25453000	-1.19776547394317	-44.1454253687732	-38.8894253752084	-131.556475663606	-38.8198767699863	-132.550759294912	-0.603439219557679	-44.9462652799509	
25702500	-1.37293137286717	-39.5235058809128	-40.9047695103518	157.456202540591	-40.8091956939343	155.428047219993	-1.24821171418631	-46.8507382717824	
25952000	-1.1852874598053	-42.2761791670083	-44.3323366122428	112.7384409235	-44.3624527718584	111.635412370301	-1.99031060935254	-50.5884780919864	
26201500	-0.842141004014442	-46.1894632033157	-52.8530683101069	83.4838193336984	-53.4722896466624	84.7352355532146	-1.61189761458386	-48.9302919812649	
26451000	-0.355422250091143	-47.960642978573	-52.4124392034241	97.4000641240246	-52.3480051767983	96.5396973960426	-2.00261167864751	-54.8134877228154	
26700500	-0.0220070847578841	-47.663717661242	-51.8159454085434	70.7116021312619	-51.6130137873845	70.020189559877	-2.60696471309041	-41.9155950639525	
26950000	-0.0545470368857976	-46.5626440290212	-55.6155729154475	45.3737568838813	-55.1584335279128	45.1801088781052	-0.929266701326422	-35.2828137680475	
27199500	-0.426262005473644	-46.4376908735265	-59.2134332971643	50.3304260082824	-59.1728722320617	46.5599954081768	-0.603346554296417	-37.6155091237019	
27449000	-0.862149005935956	-48.3035391179194	-60.4502104992888	62.2027222699898	-59.7888257494344	64.8070005701168	-0.85887177540329	-41.574427131344	
27698500	-1.03350850158943	-51.7936928234093	-57.4100181052641	70.8981190759013	-57.0370644130465	69.0249122693837	-1.03594482032277	-46.7241903072473	
27948000	-0.806536896084459	-54.8466831622866	-53.2021603905726	55.2683734786965	-52.8842447190834	56.7340435791454	-0.9087270801018	-51.6767009064115	
28197500	-0.451902586360325	-55.8969557162355	-51.4156147852594	35.1707880988695	-51.2840916271196	35.5935326699116	-0.770693376148676	-54.6670961856961	
28447000	-0.39869805995473	-55.5847772319948	-48.7989641932575	19.698646245499	-48.5666569294676	18.0101407902058	-1.22158091566783	-55.2862584625298	
28696500	-0.848843213944532	-55.2239937508947	-46.4344513296022	-10.8314118354031	-46.0778711448737	-12.7273050870325	-2.52441292027787	-50.3466051080939	
28946000	-1.78761656547862	-56.0040835479421	-45.5287486564706	-42.3890522837601	-45.1702142120954	-45.2399235534253	-3.14281387396312	-38.9570876080884	
29195500	-2.93400100494517	-56.9696200998061	-44.3090481903151	-73.9081100707226	-44.2930443398165	-77.3362595920385	-2.57699654186941	-35.6850082008277	
29445000	-3.55859514989107	-55.9067202932489	-44.5529613069421	-112.446601827534	-44.4708893807069	-113.612646506363	-1.93092927446772	-39.1028241957974	
29694500	-3.22446283956566	-50.2838596352663	-45.9876013399234	-147.833683733751	-46.0251705196065	-148.546692344854	-1.22125503493976	-42.8444184161841	
29944000	-1.92057938604874	-44.3612875799551	-48.1861817210267	-179.74468126646	-48.3650777763036	179.879227375188	-0.541218350395008	-44.4939090740939	
30193500	-0.872620706955725	-42.4025908023724	-51.0331109803166	156.932493203643	-50.7710222622617	154.695981015865	-0.215696672531827	-44.8520612364018	
30443000	-0.584649366351596	-42.7993542557477	-53.3200667465086	139.38906038194	-52.9831402045473	139.940610677155	-0.588666278351342	-46.0018944625415	
30692500	-0.807873379388621	-45.4301042299469	-54.8818108083182	102.217529620617	-54.3395412447434	103.612337655873	-1.13805810674115	-41.7628384990986	
30942000	-1.12010724293952	-50.627872988578	-57.5633329228835	60.0964487927724	-57.5820641773278	61.2288449066084	-1.14608404795107	-45.5304912165191	
31191500	-1.21626618868279	-56.8681773482719	-56.2547066491869	-5.98820242269894	-56.0359804055695	-6.41218660923658	-1.0367937788866	-50.454211101009	
31441000	-1.37188706267487	-60.3750459473286	-49.1048393144862	-81.7267632236758	-49.0670501841611	-82.0373424290697	-0.889034969973461	-54.7621504921268	
31690500	-1.68554279810948	-56.5127282839888	-47.3711102737699	-178.560616824636	-47.2531114037675	179.246727736813	-1.16094795359028	-48.6586278718511	
31940000	-1.5901298241834	-49.5701822283589	-48.8320748501153	162.363018944848	-48.8229037479485	159.570473503163	-0.370563070563795	-46.5555206661118	
32189500	-1.56221058676849	-45.4590106160866	-48.5380908482763	124.466967548772	-48.7720778296406	121.499007244333	-0.475432522675761	-45.6207620272932	
32439000	-1.67433471976077	-45.0200441393482	-49.3542787614074	95.3632605412101	-49.8693216896174	93.1531399239395	-0.817412484636852	-46.7724853302825	
32688500	-1.61978430316941	-47.8797409763922	-50.6477054777647	70.8957797338473	-50.8778157807435	69.8594348848369	-1.0541337017672	-49.8748230479675	
32938000	-1.22864598403064	-51.3916921028406	-51.6139230058617	50.7539867709408	-51.9636284868386	50.3293122940669	-0.884129678244716	-53.4703750074647	
33187500	-0.640858669450504	-53.0197326023571	-52.5893332816888	38.7837220411058	-52.6497519616551	36.8326039751	-0.438074947282884	-55.1946842626019	
33437000	-0.204879511015219	-52.5050665150159	-53.3317231875277	27.4989377898004	-53.6319079170217	26.3686955979845	-0.0897313066659686	-54.8372145774914	
