!Keysight Technologies N9923A: A.12.45
!Date: Tuesday, 05 August 2025 20:26:32
!Timezone: (UTC+08:00) Kuala Lumpur, Singapore
!Model: N9923A
!Serial: MY61181427
!GPS Latitude: 
!GPS Longitude: 
!GPS TimeStamp: 0001-01-01 00:00:00Z
!GPS Seconds Since Last Read: 0
!CHECKSUM:0677095597
!Correction: S11(ON U)S21(ON U)S12(ON U)S22(ON U)
!S2P File: Measurements:S11,S21,S12,S22:
# Hz S DB R 50
2000000	-0.103428704912422	-2.32012989062833	-76.8601425261145	85.9084656300202	-78.4915132784909	73.6763892124733	-0.143388210692351	-2.15061390605198	
2249500	-0.44745679054622	-3.04266859602003	-62.1431346267556	48.2089979524722	-62.1690217628302	42.5301722117933	-0.491352379958901	-2.96150213652595	
2499000	-0.604645166198677	-4.88458782013041	-65.5729570402384	-85.276077667581	-65.4152600605299	-81.3311469450127	-0.638257160785334	-4.53700711777	
2748500	-0.437001165112685	-6.69003761947291	-75.6019147153117	-85.9219891859373	-73.5434286614921	-91.2902513653936	-0.4731504030075	-6.45069062965057	
2998000	-0.0840886942965547	-7.30752955392575	-75.4840597349808	-85.9060111865287	-73.3923697656849	-92.9875499393651	-0.125571996934441	-7.09903825735069	
3247500	0.150887094576678	-6.71356363628608	-69.0476712469977	-100.387005476392	-70.0507939449615	-98.4385220690426	0.0787892698043315	-6.38507886433458	
3497000	0.0994629206888049	-5.77923102376308	-71.7871913324947	-111.035922089271	-71.9259416428659	-109.753293244658	0.045930142909586	-5.48703862074018	
3746500	-0.219637987548332	-5.55474684113761	-68.9296349242607	-116.224379252664	-68.4109514920813	-117.546726275323	-0.262825794727846	-5.2016835284174	
3996000	-0.558417084795404	-6.58567157827063	-75.1579772833648	165.420139894289	-74.6826745246562	177.746812012632	-0.5787475133524	-6.28195612717533	
4245500	-0.605548756013151	-8.64980609226006	-75.3265111039403	-78.0248434948444	-75.2212425621237	-84.4178196398462	-0.640287933503156	-8.3616712223697	
4495000	-0.345543422355771	-10.2512545398548	-71.1158682447005	-94.5118472713175	-71.5422783137697	-99.7369739186661	-0.389038683349667	-9.92530500868903	
4744500	0.00331198695571917	-10.4322268081797	-66.1007127113429	-102.283556831477	-66.0886326389111	-103.539832563998	-0.0448799120447916	-10.1545829857878	
4994000	0.15881865779216	-9.63622411610268	-59.4995682365888	-113.046391686257	-59.3498277088825	-111.995992205513	0.115919359056111	-9.33191821208941	
5243500	-0.05200123446336	-9.03614202005438	-50.5438491325823	-140.211997163791	-50.5415949447719	-139.857459648452	-0.0338964599766283	-8.4929233422041	
5493000	-0.43254974391152	-7.83948346335169	-48.4728071541679	117.147964404336	-48.5356175696815	117.187067806301	-0.387922694012608	-8.56366591718479	
5742500	-0.630831460666186	-9.8438837521097	-58.04911236068	96.9290643560823	-58.4851590503409	96.3207605465229	-0.654326754629872	-10.1379200260382	
5992000	-0.575364269932475	-12.1325593767241	-56.2399217805592	73.7173100181716	-56.1474755392637	72.6550351094837	-0.610451592763207	-12.2512505466559	
6241500	-0.237617334373846	-13.5182022415651	-59.7492092445935	61.2977318531113	-59.2425635436747	61.0950982672269	-0.320383449945441	-13.4652160385675	
6491000	0.0785882868065475	-13.4110309171633	-58.5690976156741	115.998048791477	-58.9531172275663	115.260055565429	-0.00857940180656825	-13.1680110916066	
6740500	0.146435006445016	-12.5089526422347	-53.5006636227156	90.8178409907296	-53.7668174387693	91.6202503753548	0.0786409737333512	-12.1923315996841	
6990000	-0.108705771083676	-12.0136444588734	-50.684406174697	80.6732871561232	-50.7120725515701	80.6792119715805	-0.158996824201572	-11.668910460321	
7239500	-0.544020469932307	-12.8951190374722	-45.7272976230659	67.9270499768196	-45.6626884451292	66.832109619013	-0.537645030101684	-12.5858466267523	
7489000	-0.850708758790244	-14.6372226480204	-40.0185364703143	37.4230398154233	-39.9962314159776	37.4559857029086	-0.797600738558493	-15.1831514850587	
7738500	-0.735844333537903	-16.3165333527268	-34.8144314280996	-0.718817982303122	-34.6414262287616	-1.35309202035705	-0.893592094934164	-17.8089428684942	
7988000	-0.368719086795512	-16.4450363725418	-29.5952933428221	-70.6644137057543	-29.5502351812573	-71.7945888404365	-0.818275834510434	-15.6447463919058	
8237500	-0.121429091459555	-15.8085324319048	-29.9012452267358	-141.867240402132	-29.8296413770491	-142.756653093728	-0.302522994304416	-14.163660960015	
8487000	-0.063359306847723	-13.3193387850875	-33.9960558549659	144.817385157402	-34.0103832774131	144.014956937969	-0.151210999606858	-11.8249994475356	
8736500	-0.238169462345122	-13.1524368046917	-41.063812037636	108.223984531989	-41.0638791880244	107.812389292474	-0.279578365473431	-11.732261636303	
8986000	-0.578721660396696	-14.6515719061256	-46.075625106979	92.0971699090958	-46.0442574555052	91.218068749825	-0.600050275768748	-13.1472011260567	
9235500	-0.699384097848922	-17.3512810988604	-49.1933996941116	80.7974734816873	-49.0251998482641	80.5247786926264	-0.707360566629144	-15.5930052613134	
9485000	-0.485845264891196	-19.784447125306	-50.5264570998516	70.4500039377717	-50.3873514337028	69.7876971351276	-0.483383480113061	-17.7613198262398	
9734500	-0.236400080606977	-20.9641918459606	-49.7519067068885	50.0344112341321	-49.4396941485266	47.6043339817908	-0.111275659927788	-18.3399478605695	
9984000	-0.34260036159896	-16.9336630108683	-52.2394955529167	-41.5646409785634	-51.4882212311994	-42.9623757581988	0.101443885103392	-17.5849936483896	
10233500	-0.0221226068157025	-15.5363704615952	-76.2664452365221	135.708084317245	-78.8729611586655	-152.984487484582	-0.000294608887150987	-16.6172968269521	
10483000	-0.315200965470668	-16.222051740533	-69.215056876784	147.877265107921	-69.4484516262444	150.636545566492	-0.366206570301737	-16.6758813659731	
10732500	-0.652674577471966	-17.98993082687	-53.581733938624	121.097537618704	-54.0397241887951	122.891809634139	-0.726098745204146	-18.4506801518136	
10982000	-0.656431861333396	-20.6218773255904	-48.9803025738911	78.6663562957082	-49.620346877689	82.2261729749932	-0.843003023688444	-21.3237731397289	
11231500	-0.355315881771567	-22.4395533278465	-44.3342845480038	35.3279579247455	-44.4747979409356	39.6750053554635	-0.859426636911048	-22.9318433949207	
11481000	-0.00697570384614648	-22.5271209875923	-44.4089073324629	-44.6943749387169	-44.2262985077728	-43.4754294264773	-0.336769212429572	-19.0295392700595	
11730500	0.09817845876391	-21.5405182112209	-52.2840298510626	-102.589797124033	-52.2242268421628	-100.772006797434	0.0718186787435308	-19.2439600544018	
11980000	-0.13840067514192	-20.7162912696268	-55.1605038930989	65.9419697309863	-55.2414865315806	69.7148952620169	-0.151240393925811	-19.7158310846229	
12229500	-0.609309941589571	-21.4675373519788	-41.1126334811281	-23.5220195137852	-40.6397030511143	-18.4746450297519	-1.04457171217989	-19.9783150582473	
12479000	-1.07008705738671	-23.722952975282	-40.6196329418154	-108.085141157441	-40.1484699065627	-107.047642224507	-1.00359797473761	-18.3736598695395	
12728500	-1.25558080382497	-24.2840739979856	-42.3404611488723	-165.586117494072	-41.9747216897599	-165.334634229978	-0.746508741499861	-21.4404343709584	
12978000	-0.633016947822864	-23.2034002406268	-46.7097602571617	144.563784005195	-46.5266404689506	144.22178468594	-0.337112791799798	-23.186504252833	
13227500	-0.0615128426868464	-22.8225217121532	-51.8552279818467	114.516411265842	-51.7149857036697	114.223697556077	0.00182937796880237	-23.1402544279985	
13477000	0.0765602414893234	-21.9983448836168	-55.7889901281737	100.144451187088	-55.4127205131276	98.0409023394848	0.0499207456205504	-22.1540780370411	
13726500	-0.15674926388582	-21.6201181570671	-58.3691692654525	78.4428598482482	-58.2700853670628	74.8176668912916	-0.198237249580804	-21.6578749320722	
13976000	-0.530099707351504	-22.7082400927132	-61.9727315671843	50.4601144031854	-62.2368360922881	48.3623310659539	-0.591885929891202	-22.8780259979269	
14225500	-0.700343707776712	-25.2023741757603	-65.5786170869355	33.4596673729445	-65.344760512417	29.089072503733	-0.827495135346762	-25.765898323822	
14475000	-0.49930271041156	-27.5955956983398	-62.5783961958442	-24.6249886478698	-62.6360292337165	-17.1951462225198	-0.923123465734971	-28.8146538488664	
14724500	-0.115431118642249	-28.3956239990747	-56.0789674923351	-126.418242511941	-55.6423688490084	-124.837397248328	-0.766964710713127	-25.1385272491323	
14974000	0.121567034015108	-27.6226057350029	-53.5400396359834	158.82110033523	-53.3782108269492	158.330392180687	-0.0506020466538122	-24.5521413894465	
15223500	0.0410813789380841	-26.4806450040437	-53.2675158478824	110.960439068482	-53.3333914090042	110.102756904056	-0.00865120589338856	-23.9826494269019	
15473000	-0.362367861173655	-26.4040860775906	-52.2388759200635	76.8563755270905	-52.2957424661998	74.7760636539196	-0.312608678915969	-24.1960038861643	
15722500	-0.887181530568572	-27.7776624442077	-49.7562591241814	26.3573271213849	-49.7905235555967	25.4546717437348	-0.679369258200595	-26.2617650923222	
15972000	-0.885442336991088	-29.1006973175147	-52.9090188405277	-61.0565743332359	-52.752788149978	-59.2273741233963	-0.842586799039379	-30.0048131201938	
16221500	-0.46380864631911	-31.7218642012095	-69.9120050435757	169.478563135653	-68.2091184504136	-173.01134821417	-0.929813090012615	-33.2209446912964	
16471000	-0.0597958509869295	-32.7048124557657	-59.5170048781923	8.17670895017936	-58.9761806547902	13.2824121128614	-1.17469458324198	-29.8841006389798	
16720500	0.0677800197324391	-32.3925674237412	-62.5562316771348	-81.1436367257579	-61.6091123757058	-81.1825763223381	-0.33464414710482	-25.381276991942	
16970000	-0.273176263648637	-32.1647906149276	-63.6401097472848	160.261448114074	-62.3513024226566	163.55688126848	-0.217701479698149	-24.9249221538245	
17219500	-1.13889479154624	-32.3295920565193	-53.7619929141818	73.5603459917072	-53.3204015580253	76.2266172691618	-0.511198248041781	-25.494027045297	
17469000	-1.70007648381482	-30.5271601198091	-48.3027003961737	5.99800861445027	-48.1675020261057	6.99125621149729	-0.808324426239674	-27.6140281518485	
17718500	-1.40343705799608	-31.8058920635948	-47.1719366845482	-45.5893976547211	-47.0390539191485	-44.982113333225	-0.789972433738165	-30.5493661181046	
17968000	-0.981588853229242	-33.230785925344	-46.9428130425704	-86.9879415268959	-46.7455913684476	-87.8009309190078	-0.450094238791734	-32.4486496812266	
18217500	-0.556257932774437	-31.9469358905476	-47.5244418156586	-127.638352105067	-47.3871977663159	-127.971276035042	-0.0721039054723513	-32.4420576831866	
18467000	-0.287681001809533	-29.7569952358237	-49.0158342768251	-161.360033666391	-48.9462869736986	-162.00809060459	0.0285879141184995	-31.3720444169383	
18716500	-0.373854066737813	-28.7210344632355	-50.3260506219536	173.007392897657	-50.4533177655961	172.415842787615	-0.219791139807284	-30.6788129924318	
18966000	-0.70046759178124	-29.5510004701354	-52.0586149088926	138.879485062673	-52.0428864302036	139.19684250772	-0.739122786212697	-31.8912568302248	
19215500	-0.904817889994014	-32.2371438773745	-54.6190009769028	154.943718293321	-54.4656422554771	154.714232750813	-0.915490433940852	-32.5503454014908	
19465000	-0.745416012397376	-35.2314265974244	-53.8290634886504	132.47343603578	-53.7387199942744	132.782659730114	-0.793549607265714	-36.0882610613669	
19714500	-0.324538592684843	-36.6955884629441	-53.2774110294549	117.956546248735	-53.3005795756966	115.908232534278	-0.433875416730781	-37.8928367840814	
19964000	0.00946342327011189	-36.2725157401936	-52.6393238456397	101.135181221017	-52.5947848087738	99.7433855178059	-0.167674488078165	-37.9209071339533	
20213500	-0.00189670251123168	-35.1530698394778	-51.8109876877056	84.9118585602199	-51.639459549403	83.6390544847193	-0.289504830205733	-37.2837953322548	
20463000	-0.361324465544088	-34.8518396161934	-48.7540125582499	49.5256550368618	-48.6852540301557	48.5130061454472	-0.788046807609045	-37.1796785469799	
20712500	-0.846281778553654	-36.3608434691341	-47.3316012293186	8.01611382202234	-47.0135329773707	6.83568667135816	-1.63905075639105	-39.111585552304	
20962000	-1.10185356561595	-39.1367594720911	-46.4390237738928	-57.7173034730144	-46.0003595226422	-60.9291993993436	-2.57098328651275	-40.0517633597814	
21211500	-0.90816368814168	-41.427528885064	-48.0151993246387	-147.362659512489	-47.2923927322422	-150.861717702488	-2.68194062994746	-35.4833418806433	
21461000	-0.509305368933769	-42.0878829978006	-47.4689729839489	134.797943961396	-46.7464050501828	132.044985262482	-1.5327186176505	-31.4711814112201	
21710500	-0.337661650920144	-41.5677296555678	-45.1334380670215	76.3002920419274	-44.7021620478734	73.6293240882269	-0.628214995100175	-30.4739245349151	
21960000	-0.740812347626286	-41.0735058867319	-42.7178826664849	30.4601512056622	-42.6711946581849	28.4543312023773	-0.362100169169188	-30.0526258617386	
22209500	-1.85831575189398	-39.5889377788463	-40.2692972857173	-15.6093938693838	-40.3040844331988	-17.3163403976756	-0.569398034384316	-30.5795354537983	
22459000	-2.45160139907865	-33.9097686087307	-39.7004169414151	-68.6940111099605	-39.7297389683812	-69.7936056736961	-0.871863419881688	-32.7955871644993	
22708500	-1.7197186893551	-34.0251910637964	-41.1821809761457	-113.124069254249	-41.32122983966	-113.691221497778	-0.921589077675775	-36.1208581346907	
22958000	-0.922475762724102	-37.2910782315907	-42.7637905428539	-151.399782540502	-42.8743357013364	-151.106759835609	-0.638906577043376	-38.7105941162886	
23207500	-0.298594867537538	-38.4656429069976	-45.4673891469767	163.22832001437	-45.4872924437848	162.979452877516	-0.252778333449249	-38.9922538551373	
23457000	0.00209484314690812	-37.9894085969574	-51.6525067310463	128.567462336155	-51.7763383783392	128.276978176602	-0.0327919897951184	-37.8566543096526	
23706500	-0.129746295172853	-37.4134944965798	-58.9552128406346	121.87406828646	-59.2561244895752	121.365936008662	-0.176949417996843	-36.9027216086553	
23956000	-0.53499645539835	-38.193971076371	-66.7798124468437	157.383467323227	-66.9736594805609	159.869525296527	-0.597365804369322	-37.3129006532411	
24205500	-0.873222365892312	-41.0099665264497	-62.6878467734631	-144.695224726993	-62.9061176539569	-144.424088152133	-0.957442409485766	-39.6057569366583	
24455000	-0.855224460681823	-44.5993055244643	-57.1849580496775	-137.175771930739	-57.1693025012577	-136.642525938831	-0.94557442135401	-42.5372944675275	
24704500	-0.566613986067393	-46.8779180403305	-51.4775433842634	-147.649742151065	-51.6444555844004	-145.882843131821	-0.587049772197222	-44.102702299533	
24954000	-0.366861490973763	-46.7383170956739	-46.3116192012716	-171.324107669112	-46.4233798640923	-168.937850450555	-0.265441715127759	-43.9112645175104	
25203500	-0.481992911261224	-44.867425306022	-42.6488471180411	156.334258011793	-42.7520859212407	158.974936731654	-0.253657573908458	-42.7370715269985	
25453000	-0.9505321189112	-42.8295661592817	-40.1298920355625	121.707268605439	-40.1674490352275	125.456432491696	-0.621287382542262	-41.8184055204133	
25702500	-1.53695838478653	-41.8175053598488	-38.4866184901954	84.9665325024565	-38.2896800474081	88.694921184341	-1.19509552128902	-42.7303624048931	
25952000	-1.72729384443189	-42.3685528622462	-37.694548674255	45.4443156036153	-37.3559228667266	48.7602115597131	-1.65256970573832	-45.3469789033101	
26201500	-1.3116214393164	-43.923456089888	-38.0250094684353	5.69738303346083	-37.6338301601572	7.76953296664092	-1.78994398401321	-47.3758250448439	
26451000	-0.588901842494353	-44.9973894327126	-42.6468585749029	-31.7412376253515	-42.2057652949656	-31.1446100966923	-1.1380649634509	-44.9463156136855	
26700500	-0.0975506780397972	-44.8887170756195	-40.9276662571672	-34.1786995500189	-40.456953389045	-31.5590054643601	-0.981450599545544	-46.8561567779373	
26950000	-0.0417976738831926	-44.0473918504345	-41.3562324258365	-65.8118234974795	-40.7065055353907	-64.7066922820105	-1.21171788660138	-41.9151875987955	
27199500	-0.371197927259689	-44.0932271644942	-42.6927128844193	-92.1036669702994	-42.0275947163188	-91.3204202856773	-1.34029714731796	-38.1314216784246	
27449000	-0.802173838245183	-46.0708992211303	-43.9549927363968	-113.068325599986	-43.4470394112717	-112.44536436582	-1.47998227264481	-38.1737697175416	
27698500	-0.995171773733573	-49.6742534944064	-45.5229946688671	-133.378249414886	-44.9512256508376	-134.336774234322	-1.45746415379868	-40.9263962017685	
27948000	-0.821680841110091	-52.9715908685541	-48.6091871433937	-137.085735027646	-48.1794459081721	-138.717253642549	-1.10828229332917	-43.9498286582007	
28197500	-0.583023623024368	-53.7180978546853	-44.8871613886283	-146.899603504111	-44.4452844252437	-149.249661614509	-0.560171589531349	-44.9547909028494	
28447000	-0.582103775752145	-52.2548931892569	-44.0467606846916	-178.314506112653	-43.5737748597338	179.212138552346	-0.208027185613917	-44.3149577075617	
28696500	-0.963821741105914	-49.823300712763	-44.4478697614254	149.385386765103	-44.0810053310586	146.682533693015	-0.23396245815995	-43.1359896101581	
28946000	-1.58138646040058	-47.9405655487946	-46.3757710002527	117.196344543777	-46.1276816271731	112.906155094782	-0.575663308177181	-42.9828083851022	
29195500	-2.04740729806787	-47.394040624004	-50.1042025472784	88.6083881528908	-49.7638226996696	84.7254121602984	-0.929790584301883	-44.9044738652342	
29445000	-1.89760233561257	-48.389496328559	-54.3512910514367	78.9182658367621	-54.4010504471911	75.0885015288718	-0.961873912302575	-48.061174821705	
29694500	-1.25020251235563	-49.546311621449	-56.551840417586	83.0039643802219	-56.8121742415055	81.3167750608235	-0.650213443059079	-50.5053021331151	
29944000	-0.612941755374633	-49.2287141489741	-56.7715738133903	85.7994564196378	-57.4822393455512	84.9856401065974	-0.247880725977496	-51.0651753862289	
30193500	-0.309406852880494	-47.8217211179346	-55.3705002419842	77.3263214991853	-55.4037205970479	77.0821016714506	-0.205816686858669	-49.5203199909355	
30443000	-0.429466722520808	-46.6707982565025	-57.6438569511497	72.0698445976203	-57.9568813545409	69.1582592170954	-0.300033558374839	-48.7223564369999	
30692500	-0.805958579905424	-47.2049565334202	-58.0201226792627	68.8011660141396	-58.2915575789747	66.3006823435394	-0.750500084116628	-49.9241196626187	
30942000	-1.10339045852175	-49.9732899596294	-57.2507188904208	70.9679194387783	-57.5616988135899	70.7634811719213	-1.15633485282236	-53.3907626805142	
31191500	-0.982335096433014	-53.4903334395192	-54.8663754335122	65.2554706975793	-54.3525378838694	64.5143083906241	-1.29302657010067	-57.7478882934572	
31441000	-0.533467869879872	-55.4324148236509	-52.9198190500375	39.0798266775146	-52.0678184705567	38.0619725443877	-1.34541904788697	-57.0767595430092	
31690500	-0.14231413618326	-55.1241132716979	-54.3999320850887	45.5534818544172	-54.1965427565151	45.2044520247949	-0.56034810777856	-56.992522244115	
31940000	-0.0766699928650824	-53.8243881411294	-50.1951850216212	40.9471995519977	-50.3411380004935	39.2983902995401	-0.771338835947989	-56.1876260870562	
32189500	-0.393004943938749	-53.1931484162675	-46.9214256732112	20.8510499521755	-46.7870404290619	22.3018655087894	-1.54210977320103	-55.4371576166962	
32439000	-0.858516023804655	-54.7363823967896	-43.6636997649145	-8.15864350657402	-43.1241439023772	-8.1974800210982	-2.7794672134899	-53.7393588563298	
32688500	-1.10398926085218	-58.4085605913134	-41.5638730623912	-43.7490947697098	-41.1299691024381	-45.4774901191651	-3.24902030303426	-49.4161906194783	
32938000	-1.0096298172818	-62.4549142526648	-40.6372636527873	-79.2686400203435	-40.311599708115	-81.8399997080026	-2.36505267384443	-48.6796533391192	
33187500	-1.09011298888783	-64.6558312496062	-39.6023095364257	-120.534973086361	-39.3866406892283	-122.999123912655	-1.25737184667868	-50.2401156967054	
33437000	-1.40841467296697	-56.3867487674787	-41.3318863899289	176.430950100161	-41.1590087256469	174.458172968443	-0.546069668262167	-50.7441291708241	
