!Keysight Technologies N9923A: A.12.45
!Date: Tuesday, 05 August 2025 20:49:13
!Timezone: (UTC+08:00) Kuala Lumpur, Singapore
!Model: N9923A
!Serial: MY61181427
!GPS Latitude: 
!GPS Longitude: 
!GPS TimeStamp: 0001-01-01 00:00:00Z
!GPS Seconds Since Last Read: 0
!CHECKSUM:2002447858
!Correction: S11(ON U)S21(ON U)S12(ON U)S22(ON U)
!S2P File: Measurements:S11,S21,S12,S22:
# Hz S DB R 50
2000000	-0.0984372330049219	-2.46786608850637	-70.9477297519624	-109.072183883136	-70.6128561849584	-104.037501975825	-0.134827715009306	-2.38202856563202	
2249500	-0.44157959311654	-3.16061103770199	-66.8423715606941	-109.655334945713	-68.0919618315256	-111.121331266298	-0.467599796255146	-3.03567290259684	
2499000	-0.604157754418349	-5.00511982287497	-56.8816503755326	-142.546381893128	-57.3449665089228	-141.278453322333	-0.632107924108273	-4.86796546066083	
2748500	-0.423298324647495	-6.71204731781314	-63.4619641093803	91.2470063935565	-64.0447918437323	97.298618732892	-0.453435638613563	-6.52853637477935	
2998000	-0.0813530727591454	-7.32332452626046	-62.8533580228746	150.801126248819	-62.894548346706	152.471608059988	-0.103982614230447	-7.13490513224564	
3247500	0.166634065495951	-6.60287123795593	-60.7590510642279	84.3229876626809	-60.6842639421	82.5418403907946	0.125906274117579	-6.45064228282822	
3497000	0.120029446421191	-5.68618434605691	-60.4499758137465	57.9335099937249	-59.8857255454264	58.1264166093427	0.0612981320801408	-5.49106480350175	
3746500	-0.204148404828969	-5.49174241340232	-56.0368988544732	22.0015035219426	-55.7680940011062	20.5854328575932	-0.295622320181342	-5.26590633480845	
3996000	-0.571010575319741	-6.78366730407754	-54.750982210868	-60.2781915893583	-54.3808928290547	-60.2795554334609	-0.693225244317851	-5.61630520473304	
4245500	-0.662601990408523	-8.31356987386586	-54.1345355887045	-54.3098153495701	-54.4334853307479	-53.994160334399	-0.678998189808712	-7.3312056776033	
4495000	-0.392214823337011	-10.0475478300382	-53.7567372889318	-135.096473448497	-54.2686946955324	-133.500228490457	-0.393479938203542	-8.97262595022941	
4744500	-0.0931296973866348	-9.82340269069437	-52.8362453659375	151.928750066319	-52.6891364118524	153.113936172833	-0.0297515760599368	-9.30359707037851	
4994000	0.159743044155971	-8.7686727777893	-60.7638355375485	90.9441433586664	-60.3338275807051	91.2294698900907	0.144706905967287	-8.57865076110726	
5243500	0.0314818730295399	-8.02031529193433	-67.5701575294446	68.0727360836509	-67.2200138548637	65.5062443498117	0.00311032727835838	-7.81679149465485	
5493000	-0.321779707073277	-8.25690087994017	-72.9989072496927	45.4176135312848	-70.8651850613613	48.1308066781149	-0.352680039054879	-8.05697955993842	
5742500	-0.601773557025839	-9.96163089547476	-74.6441517097529	22.7149087487401	-73.9745740878422	25.4418431129002	-0.624910575077529	-9.71071760404917	
5992000	-0.554399797869043	-12.2317115722498	-75.9336623554301	-18.1663518636428	-75.7683482388605	-22.4304398435728	-0.588904141724238	-11.9748133325823	
6241500	-0.212023000077766	-13.6013712626482	-78.4872520574673	-86.3262731904894	-78.3264223448516	-64.6388366780458	-0.290281477208417	-13.3372746178573	
6491000	0.0987632434731571	-13.4409378960985	-76.4082663872157	139.212031576908	-80.8737232102009	132.520908227194	0.00229318055070818	-13.1417907790073	
6740500	0.170347640161541	-12.5247205441404	-69.5732423442641	112.605658834172	-71.4319545491186	110.916974666738	0.0371170059313514	-12.3272090728315	
6990000	-0.0808199132638347	-12.0166392950805	-74.4704861164695	128.868420407657	-79.348978402832	129.584810578686	-0.123967413747235	-11.0227191942784	
7239500	-0.491279626095467	-12.9220915368596	-68.4851307753731	131.259436756407	-68.5748778474543	135.358745288266	-0.509570626606543	-12.0128355181534	
7489000	-0.782876768607141	-15.2767577223879	-56.99072758686	107.35464292704	-57.349640682621	110.801624429117	-0.740543544371057	-14.2759262222018	
7738500	-0.820947798386729	-17.1779099776631	-46.3611278240873	45.3554384898171	-46.3547664055106	45.888626273579	-0.714603699708633	-16.5525015617641	
7988000	-0.527920920480993	-16.0152762018976	-41.8684964806719	-56.1615172762109	-41.9594123958959	-57.8626227753165	-0.49834530680692	-16.2675716359922	
8237500	-0.024811690656187	-14.6199866464332	-45.6449747446513	-137.763721241954	-45.9804345770097	-139.634942832587	-0.121817017774954	-14.5148697053716	
8487000	0.0697817043872215	-13.6993699707606	-50.156762563565	173.518611110889	-50.7623298866398	172.579887398475	-0.028742641992389	-13.0232242382548	
8736500	-0.195877639241524	-13.4729517008368	-54.3803823744638	140.755718089191	-54.7208102216957	141.482248496403	-0.249700106192611	-12.5411086222858	
8986000	-0.546322298139894	-14.7536181779977	-57.1428501449759	118.721455740735	-57.5456159447592	119.959484240213	-0.582404292654476	-13.7258952462896	
9235500	-0.657819207025649	-17.2443910648926	-57.6909614226992	100.817782637651	-58.1684446295626	101.414075698611	-0.690382159185768	-16.1006368700994	
9485000	-0.417083503767861	-19.3496820719353	-56.7542396034583	82.8527609537726	-56.5478705968017	84.176281802343	-0.465435264642528	-18.2781729614122	
9734500	-0.0437141030749726	-19.87971201481	-53.3245182279719	53.0251415616056	-53.217977346607	52.0496492329171	-0.0973530266465212	-18.9025409644137	
9984000	0.132621229896671	-18.9450450315051	-49.6011390636409	-6.39891193251094	-49.2239798227942	-9.62726330745435	0.0922665531746123	-18.1321265887401	
10233500	0.0279818229053677	-17.704928957448	-50.1777949982512	-77.9549207412125	-49.837066851917	-81.5842963786039	-0.0114532378653462	-17.0768297837778	
10483000	-0.333817206742571	-17.8278204064996	-50.912015562941	-132.937288766339	-50.2383672732872	-136.535166364293	-0.387275796806888	-17.1763184095263	
10732500	-0.688911412906214	-19.601026683193	-51.3438757133789	165.729203240368	-50.4086736132489	160.639134519303	-0.75398167647885	-18.9321998718199	
10982000	-0.729691781746226	-22.3506554889319	-52.6212225458418	110.553689333418	-51.6656517551235	102.418242257771	-0.86445730611354	-21.8781084922564	
11231500	-0.504465337279019	-24.3695355687714	-52.0805568488767	53.7283611213209	-50.7844746457258	47.4989279997701	-0.863382850037061	-23.2070702233253	
11481000	-0.347525159512083	-24.1461074292605	-52.8608202841483	-6.64202840840633	-51.5447911997819	-21.8049208559185	-0.455042916248645	-20.3137433529002	
11730500	-0.368219934102173	-20.9319772869348	-55.3915605066475	-84.6536285882884	-55.4062421310927	-96.6088217273262	-0.0178789604059402	-18.9844911749788	
11980000	-0.367309928818887	-18.3671070977616	-60.3420188985256	-142.957958903824	-61.0428514552528	-148.868712355907	-0.116384903133969	-18.6659359712222	
12229500	-0.588677739076245	-18.7970584546212	-64.6526347789291	173.036137963079	-65.8507328347023	-179.282019253923	-0.493148963964124	-19.5128505210542	
12479000	-0.788327534231498	-21.1466813146365	-70.0026400628101	100.84122502299	-71.2757035202966	131.855445869673	-0.831303355594529	-21.7872714322111	
12728500	-0.656745582273999	-23.9743647271096	-73.3726315110782	-54.6652327075497	-77.2126141623512	-98.5634341097314	-0.819303352186858	-23.763127544286	
12978000	-0.273681913243263	-25.4409138237029	-63.4832426401285	-170.349152384333	-62.6740802564971	-179.465633100494	-0.430555642689361	-24.9599354307029	
13227500	0.0502819533260554	-25.1517783763342	-57.3439899119824	117.736317799808	-56.3835490163464	116.035608009731	-0.203963569780264	-24.7141686462613	
13477000	0.059514938170308	-24.0295896963861	-55.6985167364143	23.6825516588591	-54.5668787188738	21.4748797646146	-0.214984241102558	-21.7816604818078	
13726500	-0.241423726985556	-23.2977439255648	-66.9147498696012	-60.2447807601567	-64.5941137924109	-58.8651868550234	-0.248809011249867	-20.9779295018562	
13976000	-0.623734211633038	-24.2433361105784	-63.7273758385136	40.2705964409252	-64.5885670751163	33.3411316335693	-0.582581950944149	-22.5997491228838	
14225500	-0.798575180263858	-26.9063870994683	-55.2777989416203	-4.41204802209036	-54.9376542986048	-7.41965345957585	-0.846711152376169	-25.8697509169841	
14475000	-0.641985640928082	-29.5135629101504	-50.0044842519181	-69.941244428435	-49.7294059484316	-73.4535408960172	-0.983122566706928	-27.4940085820466	
14724500	-0.344080387595295	-30.0310595008835	-50.0644588123325	-126.798000247978	-50.1704022941533	-134.297266404748	-0.439132007764128	-26.6012206146741	
14974000	-0.151966547997651	-28.8578655746996	-49.5425301616812	-175.476107067182	-50.367416263083	-179.137445595533	-0.0828260938686443	-26.0623638779351	
15223500	-0.365615792023686	-27.0203470854971	-50.0101154424296	138.217428850548	-50.1566326004417	137.643106807326	-0.123312737513408	-24.8577059166319	
15473000	-0.788452078677633	-25.0493109461541	-50.2124134709369	94.3157312936176	-50.7342790235147	90.3800957798148	-0.481577130333461	-24.5915262582113	
15722500	-1.02707681657693	-25.4586500396416	-51.6840368849615	41.8789638007473	-52.7286195766499	44.1000530237633	-0.841355521776291	-25.619403570804	
15972000	-0.961923488418508	-28.1569039742825	-54.9258361116775	3.5647979667533	-55.5003115954081	5.2154069047403	-0.874715572550661	-28.5141908127475	
16221500	-0.588801545000739	-30.5365933114219	-57.0517834173632	-21.1247188180743	-57.204088322896	-20.156578001979	-0.620601519507108	-31.0947409302434	
16471000	-0.149262225035503	-31.1296995541465	-57.6516905852133	-49.0058161021487	-58.005362896014	-45.9571006209568	-0.309241661127693	-31.8451367236733	
16720500	0.0447325134236385	-30.3068938952056	-57.2328265088852	-82.4106191418524	-57.0009458384792	-81.777949831968	-0.283632202285867	-30.9038709488078	
16970000	-0.146147940485142	-29.3032199658838	-57.2510169235887	-127.525930609311	-56.413946052651	-127.758763068475	-0.673766239726975	-28.7024442177734	
17219500	-0.596972383495142	-29.4637207949592	-59.562446141052	-157.517298608687	-58.1968821298198	-170.904123896136	-1.11381626535999	-26.4353586366334	
17469000	-0.96765796228397	-31.4226401151315	-57.4303470263033	-179.039618417035	-57.920730857992	163.400176451277	-1.25889561454532	-26.8313533341087	
17718500	-0.987220615153531	-34.1541400832478	-55.353085148888	126.248856732284	-55.8179155753652	118.02464733915	-1.06973446143916	-29.358951469876	
17968000	-0.705416775748135	-35.7219158038497	-54.5758112928378	75.3970464572271	-54.9206655379633	66.3710376402083	-0.613105322480604	-31.2890944673013	
18217500	-0.451102822665847	-34.8179360131281	-54.9657131270272	26.1521485502491	-55.5469024426157	19.2497741942586	-0.157991473684534	-31.357800880489	
18467000	-0.366031075226019	-31.8672731022887	-56.5887403415701	-23.2111730090798	-56.9596086131051	-29.1293965667558	-0.00483175286541955	-30.3097165186044	
18716500	-0.448919452925824	-29.9786609967853	-59.3655934750446	-66.3148410877211	-59.8076998540017	-70.3583702317575	-0.210010700608363	-29.5518129781537	
18966000	-0.727084156046886	-30.6510180357865	-62.2384169524172	-97.5709985556324	-61.6387840669867	-98.80923582967	-0.61934193035688	-30.3585267251934	
19215500	-0.90087134879907	-33.4450715380326	-64.3994339639624	-113.571643497738	-64.2009489011082	-121.001056695249	-0.920069547469983	-33.0098478240589	
19465000	-0.730309015791834	-36.5692678972204	-63.6714411802706	-127.630253399129	-61.7282866353652	-137.040845099329	-0.89857156584389	-35.9857736041755	
19714500	-0.319999291987676	-38.1433574541295	-60.9011726055952	110.709787786493	-60.0632711182793	112.480422002786	-0.514721587999367	-36.7945877135964	
19964000	-0.0259049663228099	-37.8142602091211	-65.3368182795472	35.2456265152695	-64.8501800939369	60.8127425082726	-0.233470453172615	-37.1530993585549	
20213500	-0.111394228892621	-36.6759223706028	-60.4104637032763	-45.0788166780435	-61.5169957328727	-16.0669744777813	-0.402591595006724	-35.9317607967038	
20463000	-0.553842332487094	-36.2199875996873	-56.8495664573237	-125.38653473256	-59.5631925633313	-99.5064983384674	-0.958065516610128	-34.402199104159	
20712500	-1.12128982616346	-37.511098831668	-59.6415920031812	156.892078049973	-64.3494797158126	-156.826717280598	-1.541002262486	-33.2303376186262	
20962000	-1.47749155310319	-39.9775627418571	-78.6957864135175	85.2720296330001	-65.8045292427211	-111.580882801738	-1.5868399998959	-33.4831995462614	
21211500	-1.41846623953437	-41.2277310525087	-63.6099320191592	-151.04427834369	-57.9526478582024	-155.042194452692	-1.1372803181985	-35.2437372073529	
21461000	-1.00308320408001	-39.6401242278561	-58.2322282239581	152.485565906514	-55.2068890578712	152.05590769172	-0.536936905655949	-36.117180945499	
21710500	-0.549393307175801	-36.8909170721958	-57.35341981893	109.2842986806	-54.9780194267096	109.740916022044	-0.152454793331087	-35.6404404095298	
21960000	-0.432414886695704	-35.0389428343308	-57.5704054985124	76.475085719265	-55.3312139210748	75.1513845158141	-0.16060187537967	-34.7815803185584	
22209500	-0.689672743800682	-34.9528857795959	-57.6253822676457	43.9710732119427	-55.4467894149509	43.3667245163233	-0.509548001566544	-34.9703306726868	
22459000	-1.02335953938361	-37.0653470065498	-56.9278030303906	10.5690895628482	-54.2047170847819	11.4668069877004	-0.905506236938505	-37.0426484976806	
22708500	-1.04873755538631	-40.2291040805074	-56.9832407129656	-28.5143495923656	-53.7400000924453	-33.1061378490969	-1.03795988745603	-40.0505487578143	
22958000	-0.677409286054586	-42.5893876250837	-58.6562050323634	-60.0523503631856	-55.8928982391217	-76.0083975999704	-0.794737185140555	-42.2828823933817	
23207500	-0.261388246850049	-42.971639626488	-59.4472966692402	-86.331279860374	-57.3587348676033	-105.193320128474	-0.507330353220879	-42.5283741399367	
23457000	-0.116984006032353	-41.7936022657283	-59.3682791176641	-120.893840420124	-57.9101148205163	-147.078619237713	-0.512356895893364	-40.6978871073267	
23706500	-0.353594429400952	-40.6704613642585	-62.130505146057	-158.319540580743	-61.595547189222	171.069887297452	-0.788319870118638	-37.8754406845616	
23956000	-0.849710020165812	-41.1941923881968	-62.3306287889471	-158.047119833687	-65.4962641278019	-164.566041762511	-1.14231643957672	-36.619406330764	
24205500	-1.31639469913595	-43.7897047442045	-59.3121783607693	171.56001369922	-60.4883244620304	165.782055873557	-1.36238169960437	-38.1929022709874	
24455000	-1.46142095300152	-46.4538448016502	-57.3999037516135	124.946583950675	-57.6066306768333	117.103986832095	-1.2217203946056	-41.0727533513877	
24704500	-1.23252601515008	-46.5243470593854	-56.5521858902945	69.5854206008777	-56.2450607396083	63.6917521801318	-0.770850720047052	-42.7691587794983	
24954000	-0.810269161495037	-43.9969551169232	-57.9741209697551	13.971205513537	-57.1958024580137	6.37794928564827	-0.380107751032594	-42.6227838679938	
25203500	-0.544278723952546	-41.2926511731703	-60.0285314480171	-38.5992275167487	-60.0013186187248	-45.433703961689	-0.314312773686688	-41.3988723439664	
25453000	-0.661024950704071	-39.8591251182801	-62.9552054523559	-95.4480566202728	-61.8184278144065	-94.6137442103636	-0.636866178049423	-40.253779014178	
25702500	-1.00577914029794	-40.7121221757024	-65.7576412553266	-141.983591724152	-64.4192185509947	-140.38599455496	-1.12889090139555	-40.6476643959933	
25952000	-1.19786157853923	-43.6546613447815	-66.6071044454319	162.375450139938	-65.865408493926	156.377446176183	-1.38916058047197	-42.8779066169653	
26201500	-0.993216182700184	-46.7149291361533	-63.2188224118825	75.9338378967243	-65.4298271744944	93.2380091708417	-1.21268045551048	-45.8550898513286	
26451000	-0.52056489663738	-47.9104347749559	-60.4159566950672	6.45183700321415	-61.4847826334463	13.353149123225	-0.818099664597634	-47.0846905227234	
26700500	-0.1810073046516	-47.2193542331975	-59.7290003578763	-49.4846646585684	-60.1680695486007	-44.9622365902621	-0.510161563653814	-45.9456568962538	
26950000	-0.21197879672379	-45.7824340768247	-58.7363150159809	-92.7739852371455	-58.8821639729682	-93.6761882523297	-0.54828609479385	-43.6464095281583	
27199500	-0.601734382417442	-45.2973400017162	-56.2231450345655	-128.063848250516	-56.4666740542109	-125.643812915526	-0.801047678147954	-41.7180970033747	
27449000	-1.08073747246489	-46.7160666071792	-53.9637099779292	-167.017486860334	-53.6801596196918	-167.864682508221	-1.06488102462024	-43.1904667827019	
27698500	-1.29937396583792	-49.608612793171	-52.1061202212473	146.348261153867	-51.8449903778398	142.905695160738	-1.31425267496403	-47.1447115758467	
27948000	-1.08906735533083	-51.8217195317868	-52.4170633591523	94.8050778955586	-52.0159456043892	88.1496375468318	-1.3203850578331	-49.2169584238584	
28197500	-0.691056716733927	-51.6493204183831	-54.3162613010752	53.9181378061895	-54.3875135239662	44.2797003409891	-0.866408596777204	-48.4057193806265	
28447000	-0.456482064567343	-49.7163765346905	-56.1293403894997	15.0825923561754	-56.6695401049688	10.2488500579421	-0.525700926764609	-46.7287650700733	
28696500	-0.558804272936407	-47.7030577408273	-60.1026243146045	-21.6656318739274	-60.3455255169123	-29.4099763188634	-0.545262265474828	-44.7975387826796	
28946000	-0.930091092624955	-47.2545532093551	-65.8886227011808	-48.4701257497627	-67.0035095670946	-61.3185997471169	-0.875934271209457	-44.2938774555074	
29195500	-1.28515538486013	-49.1035322112539	-73.2203150756011	-4.06799915629594	-78.4811040837127	7.65315413185791	-1.22442191275322	-46.1472084736037	
29445000	-1.29385614932588	-52.1942019517469	-63.5108005775774	19.2963488872201	-64.2362293383831	21.4920458072661	-1.25588763732392	-49.3685239394735	
29694500	-0.897890439038201	-53.9730746857891	-58.0438375455417	-11.2426147011142	-58.7406489079698	-10.6163840808861	-0.959092904015063	-51.8293004061582	
29944000	-0.456384679302889	-53.5370983564238	-55.9384679538547	-47.0633876291734	-56.2921679492594	-48.4328633789896	-0.590510973523795	-52.1301898686687	
30193500	-0.293672013518768	-51.9299166782165	-54.9635263927582	-85.213682052228	-55.2864717507764	-86.9840534700497	-0.532474377206342	-50.866690322682	
30443000	-0.527992100489557	-50.6865377036917	-54.3758750444086	-118.491493076397	-54.6718278750915	-118.228109720556	-0.87828286790717	-49.2098507105058	
30692500	-1.00521601294503	-51.2089119783881	-53.6280976367257	-148.016232680076	-53.7105012305401	-149.256608913835	-1.43708064328227	-48.8525373848292	
30942000	-1.39302104303776	-53.9486585070551	-53.0313187548992	177.272442506992	-53.53422451031	175.053358789294	-1.84767254463354	-50.2389726379474	
31191500	-1.35247539432731	-57.1936315301545	-53.3609112139081	136.911841112786	-53.6065047950829	134.127378099304	-1.70180688994768	-52.3315487183382	
31441000	-0.988392188828981	-58.4654335045408	-55.2147839848917	107.318473393924	-55.1142781596414	106.589510513772	-1.15972653460847	-53.6176311211819	
31690500	-0.67803508677442	-57.124000360883	-53.6699246310397	86.5582387976701	-53.7484271677831	84.8834762648111	-0.710056408562545	-52.5596671844677	
31940000	-0.660082372675423	-54.5849041482662	-53.46481823433	49.7381463094597	-53.6330486657778	48.2857642546259	-0.52930749944549	-50.4754916849863	
32189500	-0.981946495918485	-52.7561520026943	-54.7981326982569	15.5447433714894	-54.7389848049995	14.5148228309204	-0.781789268491151	-49.369455165964	
32439000	-1.42586106624847	-53.2684156058998	-54.7157112567631	0.151545653002581	-54.3494351904705	-5.39765273720414	-1.3042339104215	-49.9239139695571	
32688500	-1.62031501340595	-55.9527291169811	-51.9801927063702	-36.1404304491112	-52.09836768757	-38.7360267959156	-1.53174123333175	-51.9357527878937	
32938000	-1.37738518576343	-58.5821465680868	-51.5665265150651	-75.7331824368742	-51.2412101956055	-76.9743058991503	-1.28499412019697	-55.264825869229	
33187500	-0.891376920216465	-59.1211993346596	-51.6318799077825	-113.46955059906	-51.5090487499449	-115.846789249512	-0.801584117882855	-56.8259019284715	
33437000	-0.532649245348864	-57.6358742210237	-51.9042766348675	-149.854059453269	-51.390820515249	-152.796556167721	-0.459649687556528	-56.2289488957525	
