!Keysight Technologies N9923A: A.12.45
!Date: Tuesday, 05 August 2025 20:34:01
!Timezone: (UTC+08:00) Kuala Lumpur, Singapore
!Model: N9923A
!Serial: MY61181427
!GPS Latitude: 
!GPS Longitude: 
!GPS TimeStamp: 0001-01-01 00:00:00Z
!GPS Seconds Since Last Read: 0
!CHECKSUM:2105733428
!Correction: S11(ON U)S21(ON U)S12(ON U)S22(ON U)
!S2P File: Measurements:S11,S21,S12,S22:
# Hz S DB R 50
2000000	-0.103152237305843	-2.44615812925155	-81.5372164764394	92.3693934481623	-84.927448324417	68.9466210861666	-0.143911693475037	-2.29181248922555	
2249500	-0.448014207214742	-3.18207849724394	-64.984276304124	45.8623694951351	-65.3022939217075	41.7726848278459	-0.486333137460072	-3.06123447804232	
2499000	-0.604931214551888	-5.0399879076691	-67.9010986617087	-81.6583216175766	-66.8698302797703	-78.2931622494835	-0.635337488124216	-4.73247349459671	
2748500	-0.434869037623332	-6.85675386562005	-72.2008124803867	-121.848350223103	-72.3437912496191	-136.515309670002	-0.469763986747346	-6.62496858177834	
2998000	-0.0811650912336946	-7.46886289556002	-81.036628742626	-74.4182292989492	-76.7329244969104	-124.256752944017	-0.121444310135313	-7.25412567057124	
3247500	0.153390855240513	-6.87120128670517	-74.0317274076459	-91.9137734810899	-74.1566427364936	-110.06998464081	0.10575934293748	-6.61966871205868	
3497000	0.101006294203883	-5.94026809897176	-70.8253876290401	-103.104474500394	-70.8421681834277	-98.5855781881305	0.0414351108816488	-5.69910682344071	
3746500	-0.225723613348204	-5.741376189061	-66.0770251512213	-134.947790157197	-66.5871516227659	-138.173625691523	-0.257735314360263	-5.31709125981325	
3996000	-0.556555244372249	-6.7077399590233	-73.887550991435	141.400590965895	-73.573423861616	144.865706197603	-0.573750460351992	-6.38506964684501	
4245500	-0.603615309620779	-8.82536261256658	-77.0861086605906	-108.224579146359	-76.9811240776922	-89.0950902425963	-0.633536599452673	-8.45786150026999	
4495000	-0.344398930762125	-10.4918495854129	-68.5049278459769	-90.8970363051839	-68.9035493179318	-104.225916839935	-0.38093560920915	-10.0100216543138	
4744500	-0.00551737904058566	-10.793696562536	-60.4089285045087	-107.964136461855	-60.2405384681881	-109.754354279887	-0.0344434926869877	-10.2426280371942	
4994000	0.0668119129041349	-10.2941786469599	-49.5366823580572	-138.841486325544	-49.4213404213083	-139.518943085844	0.119930355016576	-9.42443271265307	
5243500	-0.111095853848224	-7.65372174671496	-45.8500297280993	121.496737135712	-45.8821387275445	120.688408245386	-0.0328317826454446	-8.50631771054594	
5493000	-0.36127700584045	-8.1020750087856	-49.9075151021126	85.2695467265604	-49.9431405658211	84.5911237238966	-0.386539187898962	-8.69781849291551	
5742500	-0.6275325443709	-9.94770190613303	-50.483941655269	69.1579440842215	-50.382238195361	68.1628166404152	-0.667207207711158	-10.3531516601938	
5992000	-0.585984470510587	-12.2942845925052	-45.5018650586972	62.6690181980002	-45.4576122579781	62.043627777722	-0.637181009416278	-12.4531946965806	
6241500	-0.282581859619739	-13.7267174165184	-39.543399056465	19.6664441992966	-39.477294164106	19.4242523727419	-0.502137783132075	-14.0753561299077	
6491000	0.0237997039642909	-13.5437762984358	-55.4108119318242	-12.7850512777399	-55.2961252838983	-12.1979081147089	0.00858617917435744	-12.7233303749698	
6740500	0.0809723914241534	-11.8427662954431	-38.8604090708629	-64.0827348467719	-38.7505827200742	-64.2786291436504	-0.0676532432158276	-12.1444187801437	
6990000	-0.111699735344359	-11.3736130774757	-40.1012167035341	-123.112484359067	-40.0292845389857	-123.162065105338	-0.434534041202827	-10.9691354157351	
7239500	-0.528086550586762	-12.2324138523093	-43.8589595162154	-172.47726160694	-43.7217086645903	-171.998106255939	-0.789308034447269	-9.97161515619002	
7489000	-0.76676133248485	-13.8430361654023	-46.5692822373384	174.232952842661	-46.4649544241021	175.042956531805	-0.8518598206491	-11.6055829597496	
7738500	-0.643992514624347	-15.8997195916142	-46.0813790354425	144.881204314945	-45.8566327265411	144.494097336621	-0.650225431421194	-13.7948569821167	
7988000	-0.287495411827569	-16.5007381458238	-47.042943927615	102.197268977688	-46.7432711709855	101.303820132318	-0.25714666587575	-14.735966599434	
8237500	-0.107176122885703	-15.2953181839328	-51.2604756021228	33.6009190561984	-50.9390971472773	30.6589487358597	0.052082189516358	-14.1892986030016	
8487000	0.0708638055478272	-13.5449701662312	-60.6199956415554	116.543725447469	-60.7719447909959	116.276867132615	0.0642440985822712	-13.0959821815297	
8736500	-0.190355247055616	-13.4466183698182	-55.4816821265692	98.7987972094905	-55.5830927163166	99.0454956521064	-0.216576801608391	-12.6378088968108	
8986000	-0.552280101550933	-14.8150158283492	-53.1724989433682	82.1761011300988	-53.1844257232358	81.0611697513094	-0.573845310558468	-13.7041118571209	
9235500	-0.698181388864805	-17.4959891678691	-49.0820314150521	61.9920332064116	-49.1405038488301	60.4288154929541	-0.692893495043909	-15.971968225687	
9485000	-0.614283819646048	-19.3918314782048	-43.5550832256336	9.11238938031065	-43.6424047245921	9.45355446622158	-0.488003220007797	-18.0214254509801	
9734500	-0.125327555016377	-18.7319121486985	-47.5424874739715	-61.6847034377818	-47.4387126423353	-61.2206954452835	-0.10878407243132	-18.4214474878288	
9984000	0.152063136033774	-18.0465174441933	-52.2349794961288	-87.2606140071865	-52.047919485029	-87.4529136627537	0.111347102674461	-17.6420516496624	
10233500	0.0576171105137443	-17.1083115120618	-54.5626249535913	-103.683915681164	-54.295433308904	-101.847200450402	0.0127413827156455	-16.6434441941701	
10483000	-0.299098385928116	-17.1457360797554	-55.1626219695726	-122.26360295367	-55.185100248093	-121.117069795743	-0.348652147980235	-16.6704582776734	
10732500	-0.631282229836073	-18.770177828229	-55.2952278276234	-151.750633790003	-55.2945210211829	-152.70538341396	-0.690642210335611	-18.3522292247791	
10982000	-0.635752346016244	-21.3068200000026	-61.9854408562093	163.711586773216	-61.5660691724567	164.479490171875	-0.789603443554397	-21.458627339165	
11231500	-0.328200732562017	-23.0886687256603	-77.0695644152621	158.581183242981	-80.8225290724698	140.138860108235	-0.536804030881808	-20.2256956129242	
11481000	0.0253161028635946	-23.2548123063496	-65.2277715940969	-117.760476256662	-65.354871511124	-115.383789260538	-0.0485468040004515	-21.3622164224501	
11730500	0.117996371047481	-22.4443023496617	-59.4575689289239	-138.203133005401	-59.5600329664965	-136.966236307196	0.0918143206230173	-20.7014946573435	
11980000	-0.157768423525019	-21.8630804952184	-58.1726579055393	-157.525990166753	-57.9143554128685	-156.864553329392	-0.113868353241141	-20.1098597796946	
12229500	-0.719971037289881	-22.8708998746251	-54.2464730379926	-156.155836470935	-53.702965698847	-156.672501757772	-0.52772585310591	-20.934542003712	
12479000	-1.3693017728293	-23.9288700939625	-46.1568488364444	169.284374290737	-45.9138198998311	167.897182789227	-0.894379477315183	-23.6901523354041	
12728500	-1.18424045531025	-23.5494094228313	-41.2489422030784	106.027071482872	-41.0897506925718	103.84221497035	-1.12729097271475	-26.8994824272315	
12978000	-0.580306360513827	-24.2590764596185	-39.6479821066125	19.1794317605712	-39.5419854219534	17.3602869657072	-1.32073191260699	-23.7069105962437	
13227500	-0.11064539699523	-23.877418971616	-46.1359636262016	-56.926038416467	-46.0922649073362	-58.4109784395355	-0.280050724812963	-20.9877450398316	
13477000	-0.00742941247559481	-22.9944781835428	-52.8902856728338	-109.334965495931	-52.9040289730575	-109.982609528942	0.00174802776443545	-20.9834830956999	
13726500	-0.282484016151376	-22.697143935409	-57.6864834003701	-178.874204131152	-57.8630354164581	-179.24429973101	-0.207298649977727	-21.048688437488	
13976000	-0.737859095161201	-23.8115093320053	-54.4188439114679	93.8991945809101	-54.6746327923208	92.9737778639654	-0.58018116204386	-22.4793627850717	
14225500	-0.974803558333545	-25.6169778772504	-49.2879440847188	19.0066023398322	-49.2692607337097	18.2100669644051	-0.788073199044948	-25.4522392784289	
14475000	-0.661476847720053	-27.5783788730648	-48.6366150922022	-46.0761266414095	-48.6078429781872	-47.4696583691578	-0.712245643952763	-28.637392494226	
14724500	-0.2268389304308	-28.8616285596322	-51.6531372436509	-92.1358224129289	-51.417769390506	-93.3028766549598	-0.847716959013009	-29.8037948088294	
14974000	-0.0454602963849168	-28.4400920280084	-50.3110616686566	-128.230824710299	-50.0523481369925	-130.665802447939	-0.338881261411858	-23.3306489123808	
15223500	-0.23226396110291	-27.454626488139	-56.6875106204585	178.144239874804	-56.8795231569943	175.69626616943	-0.0361319970783303	-23.332639746881	
15473000	-0.926350371589377	-26.7116575862602	-61.10553321376	-158.173037419949	-60.8116746304811	-152.924660303876	-0.320500678175537	-24.1015909329554	
15722500	-1.33357074295836	-24.1308016581894	-59.6183543690206	162.599901427138	-58.8380052125341	163.414857289656	-0.725042484237959	-26.4850523350055	
15972000	-0.967624443635677	-26.7480345873311	-66.7023881439862	-12.9610812597309	-68.4467414163671	-7.15029646313063	-0.964882789817306	-30.2283402088104	
16221500	-0.545974073281622	-29.8815333749342	-52.5075347588746	-102.283061739922	-52.7574701594599	-103.093598211706	-1.13662942519289	-32.6749290232148	
16471000	-0.121991865098405	-30.9510995704606	-46.6063178769885	-170.523062045817	-46.8605227663209	-170.894635636741	-1.03258802756327	-28.6924130604226	
16720500	0.0219284479098487	-30.4710274946039	-45.4435091256332	133.855871367041	-45.6010333787149	132.700555628317	-0.396814852699525	-25.415786983677	
16970000	-0.282710235702231	-29.4442741554189	-45.053048315087	85.9231914524017	-45.1334745838934	84.3713138487881	-0.275012191013331	-24.4122206779043	
17219500	-0.819053720099128	-28.39429943282	-45.8440227976337	32.8403984983452	-45.8412608890912	31.6555350540528	-0.53959864682291	-24.8638308732935	
17469000	-1.06487265312918	-29.2340917406462	-48.4200534651295	-15.2285488763739	-48.4524486640721	-15.2912652870758	-0.820260487608682	-26.9641308565378	
17718500	-0.941247568729384	-31.8367783292547	-51.0282614171428	-52.4633783056748	-51.0076652869901	-54.5609818737468	-0.788597178062367	-29.9386697349517	
17968000	-0.564111497153357	-33.6317384037512	-52.7496786738066	-94.9799804855834	-52.7600788507366	-95.2734257810216	-0.437884729451229	-31.9132200811306	
18217500	-0.204810504981194	-33.1978979532055	-54.1123752523066	-147.103558046914	-53.9740396316548	-147.597958112463	-0.0480460932018663	-31.9776733374173	
18467000	-0.0581144277876988	-31.3179235160512	-55.3224305047535	150.09061623819	-55.1835621148573	150.736345922526	0.0649311442150579	-30.9688310015707	
18716500	-0.201170775970827	-30.3339432519855	-56.4691699013177	97.4901886016881	-56.5636680251852	96.2467918473945	-0.164712073197484	-30.316810458465	
18966000	-0.560444859088427	-31.2655178858841	-56.6399284385324	51.5789864141952	-56.32516181684	51.6948788898155	-0.602867403003164	-31.3792020718927	
19215500	-0.785951657550827	-34.0179778982257	-59.0543849218531	25.3850400090635	-58.9489023330474	25.1171628776413	-0.888623205165526	-33.7197612040197	
19465000	-0.647090591038996	-37.0414585232699	-54.920749822083	6.04372581696127	-55.0165935595075	5.62361241884026	-0.872948252593773	-37.6708348578638	
19714500	-0.25544716374947	-38.5548308652961	-51.6831650664732	-25.2305841636243	-51.5978628271467	-25.2832004360028	-0.814746915784013	-40.0341668647023	
19964000	0.0363358010636921	-38.236294634312	-48.8923244655786	-79.2858183736792	-48.4961838670716	-79.034453598969	-1.16687549958175	-36.6192447907876	
20213500	-0.0396854604573355	-37.2847425206649	-51.9654317602811	-140.520184987492	-51.6671142115023	-141.058627414926	-0.587898759438283	-30.0172212422106	
20463000	-0.484940093074275	-37.1183267285669	-57.859291853462	-169.024324968145	-57.3338554199616	-170.687994992898	-0.439833549997117	-30.6878699356954	
20712500	-1.04175754140784	-38.7211145829209	-66.888634760112	-176.556420779261	-68.0610946051606	-164.041699980806	-0.812564530597749	-34.0632382448744	
20962000	-1.3975350109565	-41.9809242501876	-57.4880449473927	-97.249014490263	-55.7793409741086	-108.137911000666	-1.53438626321133	-38.3213356123433	
21211500	-1.49090492585649	-44.3669429622594	-52.9956522001629	-150.44911121015	-52.995724273203	-167.00208966608	-1.6488891474719	-36.1961744684953	
21461000	-1.47171308812202	-42.7343199630247	-52.123953580155	-162.611265882163	-54.2402061706983	-164.036627898842	-0.900544731000098	-34.7843152733577	
21710500	-1.2639968586833	-37.0694002783027	-48.0023459058019	159.483993462509	-48.7968637965249	160.996839359239	-0.300978630933126	-33.61369177459	
21960000	-0.968636284175726	-32.7933489089359	-48.0820827198314	117.545839106211	-48.330890671792	118.525772568827	-0.185807295274938	-32.9375558007575	
22209500	-1.00073406940551	-31.9333809551034	-49.3660786793797	88.7460718801179	-49.6697137544351	88.638563354076	-0.476780595864137	-33.2435176114217	
22459000	-1.18264712046321	-33.9617086991024	-50.306462103018	68.2425284261923	-50.2825658906439	69.8716814796763	-0.821076310575179	-35.2871509314119	
22708500	-1.12025785223795	-37.4542262438141	-49.8904527995326	51.0518995142985	-49.9077704953449	51.0537696107778	-0.892627889200507	-38.4168663452518	
22958000	-0.726461040109573	-40.0905823862776	-48.12409999108	29.7939768422683	-48.3163025336796	28.1083336167605	-0.622126367916062	-40.8050199351592	
23207500	-0.272750497457689	-40.4944144131469	-47.3865314421856	-8.02305367944199	-47.5784950900905	-8.69467402182393	-0.251197903510783	-41.0175703801199	
23457000	-0.054380880840753	-39.3379669494672	-49.5705157317105	-41.5551788252277	-49.8172839852396	-41.225518748063	-0.0697587117960171	-39.9082829878042	
23706500	-0.214363222180281	-38.2778948142249	-51.9145939610561	-61.7000804844629	-52.0471551591338	-61.3194991717827	-0.256241510088018	-39.039958668285	
23956000	-0.627199535928243	-38.7069223951721	-53.2915921647521	-69.3926700242045	-53.3563386852927	-70.0345359501454	-0.717738553321043	-39.6940077517769	
24205500	-0.962740159952139	-41.1892412187186	-53.704819735763	-75.1616602876113	-53.6469748518652	-76.4329430773297	-1.13387107149798	-42.5065652819585	
24455000	-0.928298272068627	-44.3675233065623	-52.550100114263	-82.3333778191164	-52.5539223186544	-82.7705007181367	-1.26657095130373	-46.0652657471107	
24704500	-0.582308300615325	-46.1308829582832	-49.7996559520833	-92.882069590289	-49.8714276505507	-94.6381151569612	-1.19487131583931	-47.3336563453189	
24954000	-0.248727218226381	-45.7281283781584	-46.9195159533557	-120.060359665352	-46.9328575907446	-121.757467776003	-1.11879789621674	-45.0438013945286	
25203500	-0.205337536126484	-44.3237371719315	-44.90825645187	-155.452724521588	-45.1784117338356	-157.105910064075	-1.13852089344442	-40.8343756494049	
25453000	-0.542366929003507	-43.3958131273541	-44.3659971819208	166.686341012381	-44.630949398745	166.592623768237	-1.29160568363611	-37.0730355009499	
25702500	-1.07407657214936	-44.3970936393135	-45.051742707911	131.100386109804	-45.1233054139633	131.127251328146	-1.49380236985995	-36.1887115599348	
25952000	-1.45271464629752	-47.1890569731869	-46.4367683148649	99.0563161794523	-46.7702522562847	98.3643879891421	-1.51475125696964	-38.3348363953369	
26201500	-1.44528650320902	-49.5864675531372	-48.6840258936552	74.2076085644209	-48.6885030671699	74.9198771208048	-1.1506076334586	-41.7604298912542	
26451000	-1.13992789205274	-49.2840658817275	-48.9778426018025	68.1197366984168	-49.3372363413222	68.3031630092413	-0.625938096853794	-44.9187611053691	
26700500	-0.836491352257791	-46.3941234761691	-49.1642006549262	14.0802337058338	-49.1749386499699	13.9390957491773	-0.469283293104618	-42.4128262959194	
26950000	-0.701475821515884	-42.9125477987547	-53.7300484885854	-3.50404639612588	-53.747339099222	-4.01006646936964	-0.225909834828574	-40.9803390392464	
27199500	-0.80620577785823	-41.4306718083382	-56.6365812428041	-9.63179707357951	-56.8019439706986	-11.8519422143649	-0.462423786670964	-40.5479209363569	
27449000	-1.00354525946713	-43.0240085397631	-59.5410209741244	-18.7265100948274	-60.0746078499719	-21.7762967538323	-0.831536757701387	-42.1134264813659	
27698500	-1.06349563023992	-47.2829472074548	-64.8468177316099	80.662201590484	-64.4746576153174	84.7799444863306	-0.987577057909868	-45.3299372972943	
27948000	-0.866925394632657	-50.1716488340305	-49.921346982191	41.2154606601416	-50.1170968906933	40.4626735887314	-0.759383439434443	-48.5614998267143	
28197500	-0.390049005169519	-51.0610002043692	-46.4036532719852	2.4396680049574	-46.2885041005788	1.7667975098665	-0.365106545744501	-49.9707865231959	
28447000	-0.218420092887954	-50.8536305453701	-43.7280604359024	-33.6220585286143	-43.5655230609088	-34.4196794202321	-0.211694334139007	-49.8780249969783	
28696500	-0.630644773123777	-50.0875928765637	-41.8597462963001	-75.8908432083846	-41.8546459162382	-76.8060164642364	-0.545688852985785	-49.3206794547694	
28946000	-1.42016999080966	-47.5502271899601	-42.7516274822027	-107.889994392781	-43.0299503609389	-108.257877476857	-1.36882840247251	-49.0708358602334	
29195500	-1.59517782767484	-46.8675185017471	-40.4311052475117	-137.359696553892	-40.4685133385979	-136.512716710099	-2.27271114250387	-48.4401007333276	
29445000	-1.39421988524241	-49.618080932392	-40.5679819283045	175.761019392732	-40.3819991902654	176.859589382989	-2.31564994142949	-46.6069948184437	
29694500	-0.879950271762853	-51.7200075390309	-42.6321964020684	137.266952087227	-42.5797287731377	137.213483145866	-1.51405080586533	-46.5172554364924	
29944000	-0.37896919828349	-51.7275469442485	-45.4164307432962	109.334563395629	-45.2796500501174	110.515414770536	-0.706884244618837	-46.7824802060487	
30193500	-0.188048204887115	-50.4406346275041	-47.4715036967288	91.2210069162636	-47.3629011108601	91.4895350854826	-0.347603605045415	-46.1487898353459	
30443000	-0.395014808417168	-49.3541409813944	-49.3289600544898	72.6183583815695	-49.2048782477304	72.1188622068309	-0.439459627691044	-45.4118000627556	
30692500	-0.838734245455014	-49.9589751469197	-51.1016878451109	59.1551682424423	-50.8641579259696	58.4490103643287	-0.816922034270357	-46.3407862377441	
30942000	-1.1841559803271	-52.7889700608308	-52.3145582862836	47.5052436451863	-52.1027261394868	44.8898580675567	-1.14747977874984	-49.3120967914856	
31191500	-1.10485281715297	-56.2749065490654	-52.8183702842106	38.8745421017864	-52.8343061793607	38.4007778259693	-1.08942204920129	-53.0305929810851	
31441000	-0.711587102154108	-58.0580100875596	-51.8061564707214	31.2866902391458	-51.9146648846074	30.0391587827314	-0.736455130840675	-54.8508632648644	
31690500	-0.393979576784426	-57.4790757047156	-51.2447406171912	19.1250745676558	-51.3919257581741	18.5622033852448	-0.37966485092233	-54.6881655828693	
31940000	-0.413547111199803	-55.7978623421135	-50.224634940689	-7.57434450060515	-50.089037463682	-7.01966120115316	-0.34846342168685	-52.7516663426171	
32189500	-0.812956929117539	-54.7227083191236	-51.7517759908606	-26.4849535886583	-51.5625168925171	-27.2531043563204	-0.650430375071157	-52.2535356613123	
32439000	-1.35908879942333	-55.7978127302241	-51.839604453508	-31.6455871639961	-51.5546333664478	-33.4623307432852	-1.23326570156289	-53.8138434827417	
32688500	-1.67576004763213	-58.8041505133338	-50.5809236550294	-40.6953106900394	-50.3716322197395	-41.1202099365082	-1.70441273204371	-57.1889390262946	
32938000	-1.58307556534396	-61.4181193095814	-48.3959217673499	-50.3913169650825	-48.2358876148319	-53.5704415792386	-1.80881196487668	-60.5608308739033	
33187500	-1.26774404388575	-61.455604104409	-45.7602743183267	-73.167985456902	-45.6297996424735	-73.5766749347697	-1.72168166661672	-60.7234917222534	
33437000	-1.06580593638682	-58.9077844226457	-43.6009678917374	-102.384784863943	-43.3922015656311	-104.132306473319	-1.68355644327935	-56.5370369194551	
