!Keysight Technologies N9923A: A.12.45
!Date: Tuesday, 05 August 2025 20:52:16
!Timezone: (UTC+08:00) Kuala Lumpur, Singapore
!Model: N9923A
!Serial: MY61181427
!GPS Latitude: 
!GPS Longitude: 
!GPS TimeStamp: 0001-01-01 00:00:00Z
!GPS Seconds Since Last Read: 0
!CHECKSUM:1189531943
!Correction: S11(ON U)S21(ON U)S12(ON U)S22(ON U)
!S2P File: Measurements:S11,S21,S12,S22:
# Hz S DB R 50
2000000	-0.0934221695427095	-2.43000229777349	-70.147147101215	-112.776785062649	-71.0048054536546	-98.9055499338443	-0.129477401573604	-2.32777368452656	
2249500	-0.435515106010753	-3.1090031260076	-67.3661943479487	-101.51521816851	-68.7104332255815	-94.901149194036	-0.461082415541343	-2.96045444145093	
2499000	-0.595828694878163	-4.95612498178471	-58.7174288988864	-116.29218211634	-59.095523601731	-118.690258252598	-0.615489010599717	-4.75356494955915	
2748500	-0.419551985689949	-6.63650925553265	-59.1576406490389	89.9664871248015	-59.3159902745164	89.6105381008377	-0.446578807154065	-6.39423479151156	
2998000	-0.0867598904694765	-7.28613088818143	-63.7980086453388	130.765160435081	-64.3145892776203	135.671768696778	-0.0960713064561944	-7.02491930729784	
3247500	0.169856676470734	-6.49694959507797	-58.0721372412942	79.4328435497234	-57.8654155421196	80.2958639280283	0.127778209820647	-6.38673487664548	
3497000	0.120821971964124	-5.61184236619543	-54.94214620688	45.6722260958895	-54.8930184836864	43.5993277687306	0.0450220217886213	-5.49828365082063	
3746500	-0.209918207630547	-5.43381394160212	-49.6441807093748	-26.1126320397972	-49.5753226338443	-26.23616758084	-0.357821039192275	-4.75999666348719	
3996000	-0.611856241757464	-6.4878713059906	-53.1019680245172	-132.015385611966	-53.4970430910535	-134.418659811285	-0.60757668917317	-5.24622023534693	
4245500	-0.607517492894508	-8.23222857051747	-66.7607636538968	-81.7558112251857	-66.4115247744011	-78.7204745316677	-0.629497002658904	-7.45266525483679	
4495000	-0.335583541056824	-10.0844616157074	-59.7841739123394	-100.457203942965	-60.2681975457873	-100.175039012	-0.368594372230172	-9.18532622439455	
4744500	-0.0173594581202517	-10.4916960076143	-55.0656656229326	-138.555148206691	-55.4345547735579	-135.650352266423	-0.0186596794921404	-9.56059753734899	
4994000	0.074401208770936	-9.14959965061436	-51.2727650198447	155.506798690133	-51.1400139354935	157.648628324666	0.144815992302481	-8.82594526749596	
5243500	0.0135367333919947	-8.04965740713303	-56.97236643347	97.2656180490026	-56.7936448818213	99.2729801973606	0.00351639621806941	-8.07490643805369	
5493000	-0.327601033329253	-8.37004006531853	-60.7267941740593	77.155072290884	-60.6864383036124	79.6297630722575	-0.351716083391472	-8.33813181778127	
5742500	-0.603942403512554	-10.1232512711645	-62.694484028311	66.5257111816782	-62.3463567270343	69.4742461869391	-0.623096963194963	-9.99807568630338	
5992000	-0.556621061061436	-12.4070122773942	-58.5538237266583	73.1262886165631	-58.1374854118491	72.2633545376858	-0.587371373674042	-12.201607675932	
6241500	-0.228504271369618	-13.7829149189678	-57.3075951806302	51.511701378072	-57.0568860532478	50.0155878412795	-0.285766796544686	-13.5319841347925	
6491000	0.0841037094108147	-13.681813238738	-52.2697068933479	27.5609058381589	-51.8965458928145	27.9246747641072	0.022069402199542	-13.5151379654823	
6740500	0.125934295192072	-12.6048833397896	-46.0089739211043	-32.1833753965493	-45.6010843832675	-31.6518003402458	0.0130322722855758	-12.5632192417509	
6990000	-0.114344782716506	-11.942624884461	-44.7024983093369	-117.208882256978	-44.2681215279617	-116.779388801609	-0.334340066912832	-11.0349281502606	
7239500	-0.539033613629266	-12.7217496684617	-51.8894293873094	161.215437037307	-51.6595247596658	160.879694091036	-0.525804519719973	-10.7845036290368	
7489000	-0.850787514943651	-14.6829589965382	-60.6723953483814	-166.182752416376	-60.9913433222608	-159.195374115798	-0.683175774442067	-13.6311545991265	
7738500	-0.767971421398944	-15.7714595567456	-48.4578587377647	171.650241749346	-47.522661184979	173.871818350867	-0.74524479469316	-16.131035281114	
7988000	-0.305285032764215	-16.0108396872044	-46.5074738249685	78.3415524786663	-45.7982065800954	79.4978293348091	-0.387872192450843	-15.276166886406	
8237500	0.0365399877417221	-15.2047834694754	-49.4290051236043	5.61602709159585	-48.4628152544281	7.19477299108986	0.00108361987684047	-14.3623072795155	
8487000	0.0869763993426788	-14.0457826836221	-54.6443158380949	-50.0827393450616	-53.7623509920479	-49.4492088600209	0.0544669753919701	-13.2581934477153	
8736500	-0.18750868767313	-13.7453828145411	-59.4460090022809	-82.7285888271796	-58.181328508812	-79.5847472575799	-0.212010863840752	-12.9065086858703	
8986000	-0.54110899544488	-15.0072145009147	-62.1878609035867	-100.143011074248	-61.5518926556821	-101.06408997197	-0.565429539313376	-14.0987989226375	
9235500	-0.65457034510514	-17.4977151934566	-64.8479812403518	-120.553005134144	-63.3149711944803	-115.179298723958	-0.681399213911093	-16.4977366756736	
9485000	-0.412840746793863	-19.608718165257	-65.024122124267	-138.393446770123	-64.5646587441536	-131.114680898188	-0.460168498790672	-18.6872485275508	
9734500	-0.0345530754066413	-20.147216459501	-64.3191331590635	-156.289024018498	-62.6919337734498	-149.633354342596	-0.0926197765255067	-19.3287209622135	
9984000	0.159467660320221	-19.4222799966535	-64.4976470956025	-164.906809598051	-62.094136901592	-162.712797296314	0.101896535202723	-18.684679253069	
10233500	0.00510301679913231	-18.5540141451633	-57.4481814669981	-163.817627500546	-56.4186608476461	-174.949686891172	-0.0391131537394521	-17.8032962217984	
10483000	-0.43061063065701	-18.7889382782793	-51.8898575680268	138.095023501771	-51.2720938163502	134.058148108523	-0.458093090897314	-17.8425583908983	
10732500	-0.915834091274806	-20.6605043542688	-49.7031040938083	79.3651913496709	-49.1441565816607	77.5183461043264	-0.887469489641064	-19.5284255324436	
10982000	-1.17149073268401	-22.1244130435727	-47.970719283629	10.3706481054022	-47.1745541538672	8.56768974319468	-1.09665465540998	-21.4601408317274	
11231500	-0.792560822943975	-21.5610533965787	-51.4034012413763	-70.9583485230174	-50.4533466556045	-70.8310038648117	-0.844383590021213	-21.4326844120578	
11481000	-0.198587290220012	-20.8952910052381	-58.1636149869436	-120.254062141198	-56.9567810351436	-121.573357548886	-0.331731884698695	-20.2676408284968	
11730500	0.0691123448439381	-19.9753270572143	-63.1108407681033	-160.617195043537	-61.9035741400501	-158.332583907823	-0.0450384115607189	-18.9472333265696	
11980000	-0.073377996575959	-19.2825415782831	-67.0033356275129	167.171175591112	-65.3242064949786	171.569078987865	-0.145777874523211	-18.0963927375513	
12229500	-0.438788452316566	-19.9335287017964	-70.1480712757593	142.912458267489	-68.9774617335948	147.902156384316	-0.479698421193425	-18.584825014608	
12479000	-0.695569825492874	-22.1372340927573	-74.4240203243961	115.384503090209	-72.5624300625512	107.122094506529	-0.728957737833417	-20.6989518576587	
12728500	-0.59374840470276	-24.8094822081276	-74.4106461795754	86.0351234808654	-72.2127546417427	86.3283680255274	-0.648740198711545	-23.3133065443515	
12978000	-0.224405408009923	-26.2023288338728	-75.476680613586	66.138347657511	-74.2699697355822	75.1378533407202	-0.293143912520322	-24.8591913951636	
13227500	0.0888128184487369	-25.9362960625008	-72.2289847910845	86.6631068383873	-72.0405954544677	69.4121071359135	-0.021732136664269	-25.0595978403275	
13477000	0.0835619347182861	-25.003981140049	-68.9264052565177	-22.5200839961744	-67.5915461181826	-9.04206145965296	-0.0257552593936058	-22.1671778797436	
13726500	-0.268045117329116	-24.6970606979851	-82.2077902056471	112.378206859257	-77.2020594881514	20.5992282003883	-0.212125178494171	-22.3659284323095	
13976000	-0.78885701101557	-26.0112205187204	-63.6547130418784	40.1867592324598	-65.2399353710568	30.7989770792408	-0.624222415210152	-23.6777772015734	
14225500	-1.19058277822555	-28.3435660107129	-56.1519827551644	-13.0646761382042	-56.4334274027293	-14.9279642064728	-0.862618548681544	-26.3951368599879	
14475000	-1.17872155778933	-28.8747329753747	-51.9404137038066	-74.3955237849932	-51.5833944627795	-76.7489024592375	-0.784615802615882	-29.0018951952237	
14724500	-0.656106298932604	-27.395281228783	-50.1853713886763	-148.707694063102	-50.0497293789068	-149.548967563801	-0.595733632313101	-29.6440716944493	
14974000	-0.182184170310121	-25.9241805316335	-53.3546174455379	143.664297199618	-52.8371577740933	142.129738987163	-0.532995771071637	-27.3506515769007	
15223500	-0.11201553296346	-24.5865460467808	-56.9732289422358	108.783950037283	-56.8513122468472	104.947440463302	-0.537438326453191	-23.8728512938783	
15473000	-0.37988355258176	-24.4466886768863	-59.6377259120113	76.937582491177	-59.4869593534686	70.2249357889957	-0.679990610258827	-22.4691064232048	
15722500	-0.71471303955211	-26.2941040391894	-61.9997653267581	44.1152213620374	-61.8805864170091	40.7640556619896	-0.893399060353823	-23.7701166842817	
15972000	-0.772499177038073	-29.3192058333752	-63.5403721413338	26.5532848766666	-64.188397982631	16.574915913175	-0.897040159796801	-26.6170259707957	
16221500	-0.472724546828464	-31.6609638176108	-64.923207962206	10.7292223208015	-65.3465094284625	1.14122025273112	-0.581842275857045	-28.9778084742931	
16471000	-0.0797781250393419	-32.1692186422857	-64.8032362004896	-8.46926551715035	-65.5308896182798	-15.5213632514926	-0.162215159562773	-29.5735199200252	
16720500	0.0828849175273366	-31.3101329337813	-63.8643221914244	-33.0144749469828	-64.0934379916283	-34.867085768553	0.0478462336918929	-28.7895796667292	
16970000	-0.133918728475757	-30.3464268595607	-60.9871162624449	-66.1221109634478	-61.3101678108969	-66.9747157795365	-0.104498615851741	-27.881146142732	
17219500	-0.626281646054146	-30.6625924899058	-56.4206890283303	-106.365558277573	-57.1590750381483	-106.824620271831	-0.513089360169684	-28.2733205918022	
17469000	-1.08274553947054	-32.6756730738727	-52.6990860369029	-154.610497733693	-53.1949720173293	-155.098361339755	-0.895613074885701	-30.4552606541499	
17718500	-1.21402491124066	-34.9543912299851	-49.3148700603843	152.056738176935	-49.8413786502133	150.773981804935	-0.97282016798974	-33.5459688367398	
17968000	-0.968221765549766	-35.2381543864583	-46.0679262167439	94.2687578423938	-46.5793014795002	92.9566722183646	-0.796441907593123	-35.4400305189505	
18217500	-0.529257189655495	-33.3737380359967	-44.0899586302024	30.0001875214343	-44.4826256762486	29.6091878414824	-0.68174438201974	-34.2763620004498	
18467000	-0.269135820066329	-31.1286007807401	-44.7267579417016	-36.9134627324461	-45.0927559057262	-36.6190017751429	-0.611432952167912	-30.1802387377573	
18716500	-0.374439867387178	-30.0840533681832	-47.5777447339749	-90.3610164298484	-47.9389158963625	-90.1309563149487	-0.564359812434992	-27.7763329885867	
18966000	-0.710829983160939	-30.9669082730944	-50.4676190650676	-127.512325476291	-50.6561891031326	-127.777323743665	-0.770471907155337	-28.4878163117534	
19215500	-0.916799307730695	-33.7465104140768	-53.0119530587554	-157.948161782193	-53.0433797456576	-158.721085577316	-0.948104473989227	-31.5184882631559	
19465000	-0.76242359832982	-36.8028210369768	-57.8642618442102	168.056303177725	-58.4371864426592	169.11307083401	-0.939740215014773	-35.4260401615172	
19714500	-0.358942342704751	-38.2620329615457	-52.3487447010508	-170.469643653474	-52.3215368595011	-170.268566950521	-0.533600288307713	-35.0915484008454	
19964000	-0.06275106503676	-37.802669328029	-50.3528237684112	146.244763543795	-50.5067138868866	146.709061861479	-0.116815720522086	-35.48816710477	
20213500	-0.136181952917465	-36.5519114081636	-48.5229377945636	108.238606185386	-48.5276663476882	110.209086567846	-0.167819471746703	-34.6773697731232	
20463000	-0.562135034844599	-35.9789611569267	-46.4232305836739	64.7144204297517	-46.2931911181586	65.7560621480071	-0.621425681234951	-33.970751958245	
20712500	-1.0922218096839	-37.1241036508692	-44.7389209697206	11.1304669518676	-44.4319015418977	12.0302666144932	-1.21139930979729	-34.217801726788	
20962000	-1.38559475917505	-39.5923553699508	-44.8855420801251	-46.9427959002952	-44.4495765068661	-46.9231962882446	-1.4527016056262	-35.022854951003	
21211500	-1.25734649345206	-41.1673120632375	-46.3268546809718	-97.7072476060932	-45.7836820764767	-97.9211452051701	-1.11255985667655	-36.3563189379637	
21461000	-0.845197115042705	-40.3211083488834	-48.3234878525689	-148.632833959831	-47.6982200871352	-150.432354393641	-0.550982661814021	-36.8299591086063	
21710500	-0.489043919954973	-37.919356340857	-51.7843037721467	168.63718710091	-51.2033835275977	165.999066345462	-0.171887646202052	-36.1903477352483	
21960000	-0.445913577046974	-35.8881993097918	-55.0951826182276	141.627637704162	-54.8751630444867	139.07735783844	-0.192369600411008	-35.3257160271557	
22209500	-0.724608473559549	-35.5429840498568	-57.4727896425963	128.566875528911	-57.4534125079819	126.175339768092	-0.56018370285057	-35.5273371728474	
22459000	-1.04853277147212	-37.5337170059427	-58.0021139838382	124.405977467067	-57.8413758916869	122.029732475402	-0.971467114347662	-37.6255438279446	
22708500	-1.07111512586916	-40.8326919383025	-54.3525604034587	114.751352074855	-54.6470034992398	111.980750963559	-1.12595602402288	-40.7826655830147	
22958000	-0.737882810016298	-43.1629594699395	-49.9465603529461	76.4750915609407	-49.8129103692547	75.1287312213085	-0.949069815866408	-42.8200739507705	
23207500	-0.333205365301229	-43.4301466590395	-48.7679104988273	24.9518107337764	-48.5479845917754	24.6872432572092	-0.669896464008179	-42.5085046971122	
23457000	-0.220460742416696	-42.2765585942024	-49.6578033115028	-18.4366089958946	-49.4439061433587	-19.3451758755693	-0.625210013698377	-40.1816272941051	
23706500	-0.533368417210037	-40.9886685229911	-51.0013157616953	-56.5037986659665	-50.6357422407598	-58.919378077311	-0.830071318079143	-37.2492891814741	
23956000	-1.10475616179239	-40.7799850851466	-52.4782736328946	-88.4021633045626	-52.3232567565292	-90.4468938798797	-1.14529340892895	-36.0318789491051	
24205500	-1.53343996795932	-42.1902661690601	-54.3252673259214	-112.533219171705	-53.7759632305551	-114.773787619318	-1.33537001068004	-37.5974166941504	
24455000	-1.48393502439199	-44.2038275374914	-54.5343417603431	-134.068463549437	-53.7933181324791	-136.209508953714	-1.17002867174345	-40.4786513158767	
24704500	-1.0442142586121	-44.8885039945113	-54.3315361900204	-167.313285745176	-53.9236648327371	-169.545742718009	-0.689692224729858	-42.1692406829939	
24954000	-0.558560608549454	-43.6189709669543	-55.3137481588327	159.926072195602	-55.3416677983205	154.962479462339	-0.261800799755271	-42.1471099237092	
25203500	-0.348185052129515	-41.7238217219574	-56.7008740277217	129.735407067477	-56.9192560066548	129.843506588682	-0.157432352147867	-41.1540647101168	
25453000	-0.525518113228348	-40.5750275367925	-58.847963082138	105.675594134241	-58.3202087005101	105.463460450111	-0.43973427325388	-40.4695793568727	
25702500	-0.900220411289139	-41.4896529336888	-59.042619216306	84.2643250284261	-59.2545127225597	86.0097752992324	-0.934867317023412	-41.6707136567419	
25952000	-1.10443057688173	-44.4480087347647	-59.2224274626901	62.8476807159361	-59.4221712248454	58.3727976485303	-1.30681020621263	-44.6342882092437	
26201500	-0.913212409320504	-47.5499017465474	-58.5744734042119	39.1437026924601	-58.6697670279165	34.7076805448099	-1.3001931290598	-47.602332925374	
26451000	-0.467829309118826	-48.7866573107232	-57.679248010864	8.5520128375101	-58.1258332784662	5.34760696023169	-1.03514257627983	-48.1542234642718	
26700500	-0.165458442366137	-48.1031335205087	-58.2869996518161	-28.6622708745677	-57.7718376203283	-31.7187278417792	-0.767573307395035	-45.7750004307021	
26950000	-0.239761208279868	-46.6296412284972	-58.5380730181943	-63.6356677901844	-57.8073808563311	-67.3678174133898	-0.667402718391015	-42.7282461978762	
27199500	-0.668252551660981	-46.0399330419657	-58.3647476297936	-96.8110407341321	-58.2474496810384	-104.829227901748	-0.853543285353219	-41.1350676501914	
27449000	-1.17654531627248	-47.3384937891444	-57.7597264132249	-127.276607481801	-57.5494613412638	-135.959711138713	-1.14561727782046	-42.2582114839599	
27698500	-1.41635103668375	-50.0574299303297	-57.3737845834461	-161.049930239167	-57.4116401708673	-169.989925026216	-1.24218593531699	-45.4101373773066	
27948000	-1.21802433346235	-51.9834382434289	-56.6753994993957	160.710829469192	-56.6322245236818	157.163798290931	-0.992853297235914	-48.6780454079162	
28197500	-0.799536231189106	-51.4301283696887	-55.4157397856174	118.008463785596	-55.2609610653768	114.733323732283	-0.648332522072672	-49.8338594545878	
28447000	-0.515311528879327	-49.2438884936048	-55.1686475649637	71.8659321457741	-55.0053538639128	69.8481668544853	-0.576735185003426	-48.2066772511977	
28696500	-0.562518039917436	-47.194384757015	-58.6171219211356	20.1306731379583	-58.1727919193051	17.8747753312769	-0.661779840563934	-44.9945979774929	
28946000	-0.885778116058465	-46.8097967778285	-64.5549924930823	6.76281745546363	-64.1919531398148	1.58400807104653	-0.869942093594955	-44.0272154893289	
29195500	-1.19785543500772	-48.8134513745354	-64.8529297994831	2.56033368982732	-65.2431832643666	-3.12671664016989	-1.1625222695302	-46.3339115684714	
29445000	-1.16845890934558	-52.15253826196	-62.6545253450334	0.141747779044106	-62.8326747530805	-4.76627442031833	-1.21936393133415	-49.9245298337336	
29694500	-0.760089996466721	-54.3201148976862	-60.7570765240587	-19.3152525439256	-60.926763003412	-20.3159946127217	-0.983468615525887	-52.5143643456694	
29944000	-0.347492170731796	-54.2831864031962	-58.7018218543799	-43.2225228470972	-58.8221190619832	-44.8639870156291	-0.696749869548956	-52.6297999599322	
30193500	-0.243106849251054	-52.9231458595415	-57.2672405865595	-77.4325993432059	-56.8316566981052	-80.1484366152946	-0.697585935566501	-50.7076829976013	
30443000	-0.538077010124898	-51.7490954106041	-56.4280976910617	-116.72282400442	-55.7922192361041	-119.962741718246	-1.01154458719375	-48.0588012912583	
30692500	-1.06889490924927	-52.2505666887007	-56.1542361317978	-149.939072563362	-55.8636110619733	-154.981838813037	-1.40939130390906	-47.0372709521766	
30942000	-1.49828096004967	-54.874012040968	-57.7203492011992	172.15867518359	-57.0018843051126	173.786894094682	-1.61819421510414	-48.8451164956256	
31191500	-1.48818371100641	-57.8889094909305	-59.4414004881604	139.394919190506	-59.3527438760009	137.009132646183	-1.41261185613685	-52.2159449791509	
31441000	-1.13562794906658	-58.7820335978081	-62.8652088123348	105.855323497672	-61.7564675939858	107.832420902666	-0.943450181004969	-54.2592458436344	
31690500	-0.806298681652999	-57.017291471044	-64.6282841678832	97.0318077309364	-64.0978161957909	84.8090901748118	-0.554762765223239	-53.8972138668247	
31940000	-0.748131238101716	-54.171293389328	-68.8081936753788	65.1737405418265	-67.6621006871746	67.1064134483868	-0.535075618804903	-52.1454139513908	
32189500	-1.02097138029414	-52.1744663968363	-75.8289809930124	119.845282186911	-75.1678466681053	120.043528264143	-0.941390376454613	-50.3846206005916	
32439000	-1.41700633488038	-52.6459957328529	-65.245851769765	115.402630906952	-67.289073832867	113.136696862938	-1.41396128251869	-49.9959605210844	
32688500	-1.56689914315013	-55.3943590709374	-62.0526687175213	64.9052864342329	-63.5131572420897	67.3197329736903	-1.59691586743767	-52.1022645022473	
32938000	-1.28980237746253	-58.2143939705551	-61.2243639118279	41.1179152406412	-61.2209564830874	36.6268882644905	-1.33152202308735	-55.3397232700425	
33187500	-0.788506445671413	-59.0554787011398	-61.4833094763419	11.9360712170538	-62.1103309407042	9.22199920064736	-0.82887717234264	-56.890707990376	
33437000	-0.44488576207537	-57.9118394664134	-61.8501178712395	-16.0730371682173	-62.4796294631993	-11.3891331603377	-0.484283445716866	-56.3350291470336	
