!Keysight Technologies N9923A: A.12.45
!Date: Tuesday, 05 August 2025 20:41:36
!Timezone: (UTC+08:00) Kuala Lumpur, Singapore
!Model: N9923A
!Serial: MY61181427
!GPS Latitude: 
!GPS Longitude: 
!GPS TimeStamp: 0001-01-01 00:00:00Z
!GPS Seconds Since Last Read: 0
!CHECKSUM:2003321777
!Correction: S11(ON U)S21(ON U)S12(ON U)S22(ON U)
!S2P File: Measurements:S11,S21,S12,S22:
# Hz S DB R 50
2000000	-0.102455800356012	-2.50963672607921	-84.5713308737173	-130.214014997073	-77.9457529427488	-105.563090278775	-0.143086404775756	-2.40298443341177	
2249500	-0.445687450482852	-3.2283815303889	-82.6839062946911	-146.212810246748	-83.5565397004	-89.7473451855916	-0.479628746988741	-3.14044705293112	
2499000	-0.603346914694655	-5.08137324149786	-82.2014692541771	-67.4217025456711	-77.5090130890054	-89.5054161998246	-0.633763710134316	-4.81140041039046	
2748500	-0.42830388322026	-6.88164660586766	-77.38259661183	-99.8304522643964	-79.6477084612727	-126.795284334812	-0.464070620843869	-6.70711951553239	
2998000	-0.0753355048113958	-7.48342883104991	-85.0665676199675	-16.1346114713099	-85.2789892288218	-115.37185210625	-0.112429152561885	-7.31190263023888	
3247500	0.158947426741369	-6.86424073700183	-82.6071619713137	-118.364491039731	-78.9560823079086	-82.90505181637	0.115121402194131	-6.64167715280681	
3497000	0.105538392730409	-5.94374636437547	-74.0834246415576	-113.315663994402	-73.0442087138538	-115.857554709138	0.0605319197168984	-5.63580360725193	
3746500	-0.23210464454035	-5.76885602631094	-66.4316860477102	-125.639697333146	-67.4886466865181	-117.465740346162	-0.248648351204437	-5.31481237987475	
3996000	-0.567341066515509	-6.65056484715643	-70.1365645484957	-169.973261127842	-71.286115410007	-168.000626920606	-0.567658812162889	-6.38694993538423	
4245500	-0.623486145883489	-8.96587218201339	-61.9581654200852	-109.240556694366	-62.0361198704196	-113.401271780861	-0.634674321579955	-8.51860798545753	
4495000	-0.512056395783328	-10.8080302327862	-45.6463497375448	-160.500915636509	-45.6333326146579	-162.384803067004	-0.416999055166937	-10.277196025889	
4744500	-0.0702316407795485	-9.60253844958584	-40.9657642333036	64.344279589929	-40.9063542060049	63.5817411743642	-0.189563456182507	-10.1676455177359	
4994000	0.156410201491647	-8.71861134706911	-58.6711737448851	-49.3921538274757	-58.6166184367897	-49.4062841272144	0.124431710860545	-8.73544794950294	
5243500	0.0270354384455759	-8.00130871487277	-50.1152446751803	54.3134846077243	-49.9526295236148	53.1274140381325	-0.110558548995009	-8.67219840352794	
5493000	-0.334730277843298	-8.17120070857405	-46.1606070941743	-34.9258630725071	-45.9360090129337	-35.0710570471496	-0.567573078281867	-7.11012714768879	
5742500	-0.61238444348728	-9.86476446230552	-49.6224919826193	-76.4892120669444	-49.2718417469083	-77.8631858921657	-0.688949071244779	-8.56647983926894	
5992000	-0.570222857609891	-12.1003269944072	-49.7962868429797	-93.52526135506	-49.6595306841897	-95.2587782671604	-0.621642728187928	-10.9174347544045	
6241500	-0.255996078576284	-13.497410242996	-47.782207534644	-131.841222524378	-47.6053177834995	-132.995603052856	-0.318264077828589	-12.2369662212845	
6491000	0.0430907767579013	-12.9683693133613	-48.1975078553845	165.46396036232	-48.2401475406045	164.919179137152	0.0173671758575707	-12.0233420902288	
6740500	0.153771494811387	-11.9116119470276	-53.2804117403651	128.977897340838	-53.3072145329615	128.777038106818	0.112185012926668	-11.058257064905	
6990000	-0.0735368107541054	-11.322104026354	-57.0398602030583	116.150264146763	-57.0039151728122	114.627856410749	-0.109509715275737	-10.4717494073506	
7239500	-0.456550036002994	-12.0454064405292	-59.1289432513561	109.277910814248	-58.9468132311298	109.328666018799	-0.47012143281152	-11.2336771444524	
7489000	-0.678392993175225	-14.1052839158338	-58.6509875366884	107.059371651183	-58.2725871368213	104.291936926432	-0.684172599967296	-13.4607480167851	
7738500	-0.542410601834418	-16.1462262292828	-56.5829269633599	86.0860586806303	-56.3480878464474	85.8934142968955	-0.607780082250143	-16.2644439875566	
7988000	-0.167751870285051	-17.0367051144033	-56.488925824465	79.8414230303008	-56.2516521245197	80.1408615941151	-0.277685627271906	-15.0872551539056	
8237500	0.099773828839945	-16.6524149191358	-53.2622918976586	66.3608701163808	-53.2003100568926	64.8963032822801	0.0794727078232215	-15.1238658520608	
8487000	0.00283790868868361	-15.9096322919905	-49.1881199919286	46.234620685606	-49.297409842249	46.4931220227368	0.075757339106745	-14.163907484138	
8736500	-0.568026838062684	-15.0036805411065	-44.1979989363854	5.12423788019022	-44.0927126444799	4.39374000297269	-0.222984483933111	-13.830181629998	
8986000	-0.823241803711299	-13.8362096080789	-44.1025984015281	-54.2031665391142	-44.0947787055042	-54.8342829966027	-0.587338816968685	-14.9758677918623	
9235500	-0.763777111157095	-16.4712888711491	-46.2242120991852	-84.1986246651285	-46.2254805980568	-84.8824394809645	-0.704794536439169	-17.3554010637684	
9485000	-0.475208435335425	-18.9253052710542	-46.5670826749359	-101.537638688957	-46.4743645909544	-101.878675625437	-0.489813622836728	-19.5416851537744	
9734500	-0.086105856912766	-19.7237392989125	-44.6095656959001	-118.281647258413	-44.5031095694695	-119.174084011554	-0.143448304522479	-20.2224318601969	
9984000	0.0774806105799741	-19.1989446220182	-40.6056774018878	-144.20260597091	-40.5151636594753	-144.693059736251	-0.00399998877848453	-19.6806133889919	
10233500	-0.191437486336626	-17.754031135273	-35.6853398946031	162.967985240601	-35.6824820902052	162.161829264507	-0.281399237476212	-18.587743188967	
10483000	-0.477923784261153	-16.5261655496887	-35.7319504158498	90.3105067934452	-35.7533440282858	89.692198296321	-0.796178789488156	-17.6302054452033	
10732500	-0.729210674125136	-18.251515029496	-38.8123359381985	30.0364321881791	-38.8477921645823	29.8497177480825	-1.24743514770964	-17.2952288487574	
10982000	-0.730296168547953	-20.8857881221688	-44.0284576709215	-16.2934548508331	-44.0167340746915	-16.7782372128499	-1.05902629535451	-18.1104521264742	
11231500	-0.406569971539775	-22.4870579411657	-48.9107945254962	-46.8486138542659	-48.8550522988213	-46.9880550648657	-0.555525189903409	-19.9065562214138	
11481000	-0.0225904484110953	-22.5462718246732	-54.395105012872	-85.9431369914573	-54.3094373771893	-86.4796205973723	-0.0772011416885485	-20.4952359986137	
11730500	0.102523499038072	-21.5646503027458	-56.3416705471567	108.072305518322	-56.6264727632805	106.688178950342	0.073615998089233	-20.524126816532	
11980000	-0.128449357800565	-20.8309791567952	-43.6625940236208	-35.6717224860343	-43.5640310708883	-35.547979013436	-0.59008892603699	-18.225781505994	
12229500	-0.670054175272921	-21.3107411168714	-47.5850531849919	-57.3900995136362	-47.3781432068373	-58.790277127067	-0.603019986300379	-17.7263303759184	
12479000	-1.01658690923723	-22.8847999294934	-46.5280199397738	-109.645844281111	-46.3287481821785	-111.019169140057	-0.791845194213743	-19.7866759224429	
12728500	-0.967718835484733	-24.3377289428689	-47.2112154423707	-151.917406476332	-47.2873308070402	-153.170819836688	-0.689321482388293	-22.4395219307537	
12978000	-0.48804971417456	-24.7314538345879	-49.1582062198947	169.207674589105	-49.1651735701649	169.290217118267	-0.318612760225597	-23.8684900576911	
13227500	-0.0469274974965867	-24.17417719384	-50.9758256458975	139.272394264185	-50.9788471580238	139.518040033517	0.0150154882050476	-23.5909385056511	
13477000	0.048636083326188	-23.1372857699379	-52.2930984536905	115.571088773386	-52.2213403276866	115.843540618134	0.0737429324519429	-22.5835843639023	
13726500	-0.209832869613513	-22.7431926906518	-52.7517802123955	91.6115192824782	-52.944636601091	92.6843119604969	-0.191142202055549	-22.0269659461364	
13976000	-0.619044231670727	-23.950988422423	-52.1785653849801	63.2689072085073	-52.1608063118821	63.3574344720189	-0.57765958690716	-23.0268679099837	
14225500	-0.860068350930639	-26.4067727832042	-50.3523440141854	16.7153299905306	-50.4145794338225	16.4793167225779	-0.772415667920986	-25.5021047714519	
14475000	-0.627781021952604	-28.2020892543313	-53.973532187922	-63.1778120412013	-53.6568198954671	-64.0013013904208	-0.603257347233061	-27.9175212055987	
14724500	-0.199246169668667	-29.3209563494324	-69.2186782488526	-172.517865533673	-70.3537543101437	-172.778352055091	-0.249913588228011	-28.9816235522727	
14974000	-0.00852592152484812	-28.8239634817452	-59.5493585128868	28.0881621619291	-59.2659249432737	25.1713505070444	-0.0538180929305762	-28.7224479107586	
15223500	-0.172073799368323	-27.7828170545207	-54.4227415345063	-42.2745186826706	-54.6553549988126	-44.0708217574504	-0.309917506250779	-28.07768127664	
15473000	-0.759934944608625	-28.0222517647619	-54.0653819631684	-132.859099444667	-54.6763731306307	-134.340332509745	-1.12334592654773	-26.9589569713962	
15722500	-1.69234583430299	-27.0761623104311	-58.4427139317483	5.0058426043688	-58.0466431536803	-2.21271248770913	-1.40894581358227	-22.8305021209052	
15972000	-1.3012998376337	-25.9792451632171	-59.0115895661601	-119.717503537612	-58.3049273814225	-122.126701421548	-0.917425418606126	-26.3718719848143	
16221500	-0.6751366960327	-28.8766970227545	-65.4604777542604	-138.174619801897	-65.8377831720613	-140.078368906773	-0.57284210560557	-30.448313600841	
16471000	-0.15917657577688	-29.9550766325872	-61.8165621632844	-125.796012371787	-61.5154297676573	-124.569376136755	-0.354045541260545	-32.34363310699	
16720500	0.076805217883276	-29.4038365949702	-55.4353748198365	-160.734630168669	-55.3649255408248	-159.669576513251	-0.625590054902396	-30.9066147526936	
16970000	-0.075281736267884	-28.615327532877	-53.173790838046	147.123659228092	-53.0097069713469	147.37883688621	-0.875057465109284	-25.7621934270803	
17219500	-0.503949292599051	-29.0733059687902	-53.3204136723794	99.0099948150577	-53.2521813347928	96.811271248539	-0.93398923502908	-24.1734550972377	
17469000	-0.899894797038874	-31.205870888299	-53.8777333358641	46.4937218291353	-54.0338842712011	44.8647089440375	-1.04845709987739	-25.9445047181505	
17718500	-0.930633103136473	-33.7100633866388	-55.6711553091164	-12.2304388584185	-55.7358155180533	-14.2412602268545	-0.922548698477997	-29.0635491586975	
17968000	-0.585644709282545	-35.1621637781147	-58.8271049917716	-78.6477594132927	-58.9473156456262	-78.294683962813	-0.517632660831269	-31.1922470654948	
18217500	-0.242457706415545	-34.9361146861306	-59.5650327034545	-147.243312530555	-59.558257018138	-147.141475010528	-0.0933703225739821	-31.371433571305	
18467000	-0.242517711339134	-33.4390695367117	-56.8852790958706	156.402690497862	-57.0085089816891	154.383066974416	0.0395536144401503	-30.4523688834373	
18716500	-0.613848471129136	-31.7249123313453	-54.2333734035653	104.22871977065	-54.2587487803941	104.626128794727	-0.196777803695596	-29.7638331123585	
18966000	-1.06053173643782	-31.0561206093053	-52.3074168741007	60.1314483093791	-51.8506911476075	59.1139525579834	-0.613948544911056	-30.6567502234168	
19215500	-1.22341041258388	-32.5738282424679	-47.1526180041322	-14.304477492514	-47.0758749986597	-14.1677448665171	-1.12450505597258	-33.8468417167152	
19465000	-0.97134841374629	-35.0526137947414	-59.6227373684413	143.497904793281	-60.0241422276055	144.681855770564	-0.81957322150835	-34.4540273587317	
19714500	-0.478617986635274	-36.2687633059519	-52.9739834944322	33.919698665722	-52.8136279652701	34.628458042509	-0.417780899663944	-36.9826138482293	
19964000	-0.0868360172396443	-35.6846006021612	-49.9471017404903	-3.45480309544998	-49.518506180071	-5.97272858094426	-0.184302296155665	-37.2557587300892	
20213500	-0.0546802492834982	-34.4293007958135	-44.9872075143586	-44.0014966336113	-44.9976283228503	-45.0378129204038	-0.496067448377907	-36.5145726937533	
20463000	-0.37255570803865	-34.0131151457479	-42.3528697120918	-111.872794658009	-42.2517153022957	-111.941016218699	-1.17878457433982	-31.5618254096899	
20712500	-0.819732430923033	-35.449197477714	-45.9764165593429	-172.936700412275	-45.9300344011146	-172.401102263052	-1.03204454953987	-30.6751294588762	
20962000	-1.038779055182	-38.207683538063	-52.5110646339768	147.293560994618	-52.2454410303657	147.994124982046	-0.991852769734579	-34.2247647195026	
21211500	-0.821234095418579	-40.4585378331734	-61.919752991829	163.425700640108	-62.1001598796807	160.524296213475	-0.741561059154077	-37.6139790085703	
21461000	-0.378588025749955	-40.9450338601675	-56.8394940960616	-132.652895511356	-56.9007621329872	-133.868217627119	-0.344003366483621	-39.1324955546209	
21710500	-0.114099224000867	-40.0860715579017	-48.6457554278941	-153.516804401406	-48.7840476607697	-154.315319941346	-0.155233100133147	-39.0035092679168	
21960000	-0.266488171995094	-39.2023791429767	-43.6444972289707	176.837336630615	-43.6491882298759	176.287203307136	-0.391240928529408	-38.3293851606969	
22209500	-0.793284289486403	-39.446879169091	-39.1059235979348	141.728905676858	-39.1503410287582	141.50851968552	-1.04652030544667	-38.1726056042823	
22459000	-1.40473262677554	-41.2943689462544	-35.0492860302565	96.3016959594394	-35.0172285634679	95.8326489230782	-1.73427992295227	-38.3574172808223	
22708500	-1.6789214264175	-43.354068193567	-32.4337045085182	41.1717193538448	-32.4403170193767	40.4863624324038	-1.83782150015281	-38.7236454462974	
22958000	-1.43353324902895	-43.5755669396454	-31.7084527419229	-16.9873496969873	-31.7624486054134	-17.6766665585219	-1.39329706884885	-39.4276462869786	
23207500	-0.944856888811565	-41.9692659011658	-32.7599972428896	-75.1977549585053	-32.8986613393533	-75.4850483243942	-0.858470554635225	-38.6470792671611	
23457000	-0.686728337735437	-39.0998283063899	-35.9594705204999	-130.012850829478	-36.1483648379543	-129.149231336014	-0.532932483878839	-36.4290227415466	
23706500	-0.689313029569523	-36.5409449055809	-40.9859512315373	-169.669900145498	-41.0815836547752	-167.552195513414	-0.510597105508735	-34.6490121015114	
23956000	-0.924347297599202	-36.4413892854826	-46.0064267325217	170.233653920801	-45.8608188304551	173.705038556326	-0.779481576997443	-34.8461413169554	
24205500	-1.13102089602214	-38.9380011721213	-49.264392234161	162.094367598355	-48.9612178959413	164.56920432301	-1.02706063647542	-37.2847767314281	
24455000	-1.00711602474413	-42.3502313495917	-50.083988353033	157.5352084206	-49.7742294948305	157.937691253846	-0.945886904223568	-40.5515219022142	
24704500	-0.593074653437033	-44.4297989760248	-49.8934183811547	144.18742028244	-49.490924316269	144.502950665387	-0.536264166072025	-42.3628984707319	
24954000	-0.219059197890684	-44.2934182724451	-49.2111122504922	125.22799598333	-48.9670426218737	125.822215716039	-0.151426172034111	-42.3436914535988	
25203500	-0.148980987578313	-42.8625987759718	-48.8586351687615	101.870517346743	-48.5707211038646	101.069924020538	-0.0630763841466972	-41.3447557585551	
25453000	-0.413060475384577	-41.6674334894439	-49.5055538076195	77.1450408190295	-49.1297026108018	77.8891414033517	-0.338681934192496	-40.6763362418527	
25702500	-0.813930985218958	-42.5525695876577	-50.4069321551281	56.9671449213153	-49.909187036995	56.3313296378931	-0.808844073063744	-41.9302692090256	
25952000	-1.03401897016648	-45.6525757626172	-50.7421641867768	40.5248634017996	-50.4904225069601	40.2909183498174	-1.13588104658337	-45.0537126768311	
26201500	-0.871404417786258	-48.9685016805487	-50.2597456233456	28.0713192285981	-49.9065866528717	26.2791720589523	-1.08290734603986	-48.4827107655337	
26451000	-0.483792876553991	-50.4830659795715	-48.8117959430642	11.3453980126637	-48.6066394616162	10.568550140056	-0.833458304490876	-50.0539719002529	
26700500	-0.279616302461795	-50.0681844560939	-46.6303861540445	-10.1131682038208	-46.5744777982518	-11.9556935391348	-0.75791703732804	-48.7970347598931	
26950000	-0.514336040107112	-48.7411963171886	-44.9492815719225	-38.754747804007	-44.8536856119831	-38.9763919703745	-1.02891555223489	-45.5269181365449	
27199500	-1.19129482410132	-47.6043096939109	-43.7421923933564	-63.5570193983023	-43.6450937556856	-64.3608934337828	-1.1339292028174	-42.2141535829528	
27449000	-1.87903358608685	-46.8559962687977	-40.0951739258205	-111.720867428773	-39.9866430329321	-111.929539129	-1.97955969338959	-43.194599677377	
27698500	-1.97711369889237	-47.3780238368837	-41.2197884669348	-161.88725521754	-41.0699387608475	-161.445619695761	-1.99110774885488	-42.9542160085804	
27948000	-1.54953558058663	-49.1017496708627	-44.5291062032104	151.528617569386	-44.275702109155	153.121850576675	-1.46603884396822	-44.8278167681928	
28197500	-0.913869964074688	-47.8690029057619	-47.2616358338706	144.749938325064	-47.070553960089	145.008073093912	-0.798962619826575	-45.4829002666757	
28447000	-0.424783758017413	-46.7967750760585	-47.5667061513911	119.20675131176	-47.4375985407497	117.70065554039	-0.36764182177501	-44.757377350231	
28696500	-0.45375224830032	-45.6845998723321	-48.6743672686147	95.5524055952858	-48.6450500141635	95.3840825185317	-0.353314216015506	-43.6694427672754	
28946000	-0.822127662404104	-45.6076029880198	-50.2795558108481	72.8461449236382	-50.0587055986287	72.3512960898269	-0.686300430442272	-43.7100277957692	
29195500	-1.15400392496762	-47.4997918359923	-51.4058628903234	52.7217289584608	-51.5422480404853	55.479364707093	-1.05137729404058	-45.849983900869	
29445000	-1.11935577439938	-50.8195915377775	-52.3116175529115	38.6005145377365	-52.6210473649404	40.3521001192165	-1.09929384305714	-49.19595167621	
29694500	-0.705150033524849	-53.1419398666206	-52.5095144580423	26.5838978488918	-52.6427252101659	29.4279904850148	-0.810582775905747	-51.7016665801169	
29944000	-0.290452444596207	-53.3053110274686	-51.9973044873333	14.5447544361642	-51.843678282069	15.4041855487629	-0.439896982312288	-52.1371924100221	
30193500	-0.188447082501676	-52.1070766152076	-51.1187950729875	-3.6823971034688	-50.8921189959691	-2.42891035740217	-0.379374197010942	-51.191672273667	
30443000	-0.491927080462391	-51.0146264676766	-49.8586038167379	-25.2722980925476	-49.6692092668124	-26.0067608476722	-0.763769319583672	-49.977170111705	
30692500	-1.03856037935348	-51.4517322630962	-48.5332195852049	-52.7020984645113	-48.2797932904675	-52.4829657061955	-1.41857761438761	-49.791287658116	
30942000	-1.4898541973271	-53.9050470625935	-48.1918126885415	-85.3277817544415	-47.7760533601262	-84.9082736718529	-1.91130159201413	-50.6106532608207	
31191500	-1.49881833886688	-56.6398810589211	-49.3105683181168	-116.476001914443	-48.8644992373509	-114.433887627545	-1.70709429799847	-52.0048469365609	
31441000	-1.12855277291222	-57.1726945629765	-50.3612939756478	-132.724791961402	-49.9128794969357	-132.478246373573	-1.03759360145274	-53.7969914627975	
31690500	-0.717341024501697	-55.2142456773755	-51.0836347904791	-162.671453594962	-50.6659295602757	-161.292241247628	-0.611604172597787	-53.0442775735327	
31940000	-0.550833774518847	-52.5963836389464	-50.7998911249204	-171.33884622324	-50.4581842604784	-172.812923606641	-0.554010241961223	-52.5344046784926	
32189500	-0.7470154801475	-51.1570899771768	-49.4585427264708	163.069585081118	-49.3079475491153	163.420302077061	-1.17834053938574	-51.0690709735864	
32439000	-1.11240600613506	-52.2110396709074	-49.6441680186503	133.640405004047	-49.4963831708208	133.465479337748	-1.79862714786507	-49.2802537411659	
32688500	-1.26677373050627	-55.4614065855836	-51.0689473460001	105.759022322114	-50.8127956113858	104.674949583796	-1.90207642232698	-50.1299075921163	
32938000	-1.020219251359	-58.7710185851195	-52.3218626992135	85.0173762956187	-52.0860387991287	83.9412120422422	-1.49625741574231	-52.9993924503978	
33187500	-0.572048413446498	-60.1698379990553	-53.1004977465208	70.4215336918664	-53.0779166308432	71.0208056132052	-0.861638091280542	-54.6664789724165	
33437000	-0.318209513849604	-59.6260874389256	-53.0025878734995	62.6293621665926	-52.9724260661409	62.730809775008	-0.395605498024321	-54.477236651307	
