!Keysight Technologies N9923A: A.12.45
!Date: Tuesday, 05 August 2025 20:57:40
!Timezone: (UTC+08:00) Kuala Lumpur, Singapore
!Model: N9923A
!Serial: MY61181427
!GPS Latitude: 
!GPS Longitude: 
!GPS TimeStamp: 0001-01-01 00:00:00Z
!GPS Seconds Since Last Read: 0
!CHECKSUM:2047951241
!Correction: S11(ON U)S21(ON U)S12(ON U)S22(ON U)
!S2P File: Measurements:S11,S21,S12,S22:
# Hz S DB R 50
2000000	-0.0847849801971226	-2.27248246867522	-78.1630049157836	-133.210298561701	-81.1526446803563	-97.2484603102702	-0.118322122385746	-2.13911521278383	
2249500	-0.427042029057691	-2.91975799869116	-74.1815589612912	-123.164735723596	-83.8540977197286	-126.362558845148	-0.450978384183184	-2.71527918057072	
2499000	-0.586082282991325	-4.73776906543749	-70.5559977809814	-118.169021991907	-69.0234597594847	-132.364375503348	-0.606824745351161	-4.46905407839018	
2748500	-0.426657249546221	-6.5758905991976	-56.7799033674204	-158.89346756118	-56.5428668524689	-161.294938305558	-0.45621883866971	-6.34432289295879	
2998000	-0.0803702787484958	-6.9470413090427	-49.7381768302073	88.822306495657	-49.6972342150329	89.3147917217104	-0.124659037010717	-6.91332083850021	
3247500	0.172983306252763	-6.3759161756465	-52.0288477265747	-2.85906401124088	-52.2859884278044	-5.05119950297726	0.0589861775451642	-5.84189350595641	
3497000	0.114790865843195	-5.48422474747674	-55.0926445286174	-27.6675023274923	-54.725928354948	-28.0182694122949	0.0641145438248615	-4.76666502320672	
3746500	-0.198737190220389	-5.36051060250044	-57.2056082562345	-100.13796350881	-56.7762943291973	-95.3910540958201	-0.227300879764214	-4.57223844673574	
3996000	-0.569748400288083	-6.26517092739532	-64.1313291720883	178.127332511156	-62.2435230802757	-178.995729572365	-0.546167219799051	-5.78106932445372	
4245500	-0.590167461487142	-8.48140264568213	-70.239462256627	-92.3971348934653	-70.1408818763867	-84.0013361865469	-0.607666082999306	-8.03502740292431	
4495000	-0.322690452962214	-10.2439662478821	-63.1324457927665	-103.172576801064	-63.6757676921066	-100.169180536094	-0.354826430614591	-9.7691469169288	
4744500	0.0182191353777266	-10.6100495228983	-56.9647995509405	-118.106275258897	-56.9978684389904	-117.954790681328	-0.00498633479357451	-10.1428326203499	
4994000	0.0775649485385095	-9.78379052343195	-46.7842377005777	-170.301564777454	-46.7613524473277	-170.585602395451	0.144494669717649	-9.41134603265005	
5243500	0.00793860811388414	-8.14050340770379	-48.6163115880708	101.193942855843	-48.5785680580575	100.412304354114	-0.0014476124584672	-8.54389711049009	
5493000	-0.325638867976032	-8.50168941212213	-49.3739636194132	70.5035392153419	-49.2971595877938	69.0604207430013	-0.373185183553536	-8.82302529283527	
5742500	-0.62456468198994	-10.2028896176296	-44.4170006583592	-8.85324692173321	-44.4221772508653	-10.5913645386272	-0.746012261227848	-9.84307438794127	
5992000	-0.564029372351205	-12.4893941815141	-56.7738229846351	-4.87743922060243	-57.0517746211163	-3.37827616750765	-0.618241197138468	-12.2381130014971	
6241500	-0.256750221293076	-13.9073467055705	-47.2589458375484	-17.0631874352284	-47.1988714610802	-19.1775284101019	-0.420605948747622	-13.4953441672655	
6491000	-0.00446626684563124	-13.4215754255424	-42.9542956901296	-105.946209486809	-42.8442232212419	-104.434749797725	-0.109642919058716	-12.0961436426789	
6740500	0.0983300337738419	-11.7772389628469	-46.616243991669	177.056934634696	-46.6787949557431	176.836664610317	0.0621883764606403	-10.7328541759069	
6990000	-0.0921350227550367	-11.1147060700782	-51.726600422045	136.586328544711	-51.8106574631358	136.740870115809	-0.118171704526317	-10.0672091224563	
7239500	-0.473816985588698	-11.8690043508908	-55.2120635911238	111.177912225663	-55.0345797283307	112.880898435594	-0.456906857687133	-10.8014542214191	
7489000	-0.700419168248995	-13.84678564456	-56.67052817871	86.7728355798552	-56.6546583567938	90.4133291476787	-0.655643892205296	-12.993597576426	
7738500	-0.546964202650496	-15.8864556923269	-56.9191790552058	74.4399306818929	-56.9891426690545	73.7043498616492	-0.520954842647552	-15.2607141174287	
7988000	-0.170921796058181	-16.8582666134727	-54.8290728979471	57.0003809080083	-54.9094224759213	60.1222389144053	-0.166281404448746	-16.2994726674766	
8237500	0.0715633004201154	-16.4480640122187	-50.1642837635095	34.099697330145	-50.1637938698657	33.7375872812728	0.105241574817208	-15.9011326603601	
8487000	-0.0396802466338055	-14.8448747206098	-44.7725459043448	-21.5794619075561	-44.9348985290094	-21.1299614999009	0.0553402742586683	-14.9656223750723	
8736500	-0.267262028393075	-13.7823515520059	-44.060704548716	-89.6394440766931	-43.8556268512881	-85.5760969178434	-0.305309900561024	-14.6638085013273	
8986000	-0.586615092850407	-15.1199258518589	-43.8842446778724	-149.213946132066	-43.1556369070737	-147.365068831544	-0.846393686648011	-15.3537813553717	
9235500	-0.695221009213379	-17.6929777676884	-48.0301215338752	140.769000748305	-46.9969680565788	141.041334209357	-0.86224750250452	-16.0598992094319	
9485000	-0.469670056307317	-19.9735259352677	-53.7887188532049	113.16519731233	-52.9555178958351	109.511248889278	-0.52708341286209	-18.3770699633335	
9734500	-0.16748752578684	-20.5487640618312	-55.4830225976073	104.755464205539	-55.1022819375174	88.947584101464	-0.140459622332797	-19.0230633792757	
9984000	-0.0665911239154667	-18.7578113715424	-52.5197879278854	106.114446715873	-55.8884008857256	104.590181586946	0.0518767309650761	-18.4965867784927	
10233500	-0.0711125923846984	-16.8810911247283	-46.0426425173961	37.4154071680458	-47.0688298713593	43.9236776773665	-0.234526933767256	-17.0511144104196	
10483000	-0.372441072165375	-16.9527700791773	-48.0640261548616	-46.5385380869668	-48.679787221604	-39.4114535026607	-0.513843617512324	-15.4338192488478	
10732500	-0.704925260231357	-18.6719324919252	-52.2857064664176	-110.309336300023	-52.7371406400205	-100.805694066985	-0.729432802671434	-17.0027453865265	
10982000	-0.713753895088931	-21.1522051219162	-63.3456675287423	-147.008001393453	-61.0705840489126	-125.06862952097	-0.753359928413069	-19.5183502140241	
11231500	-0.403192476116638	-22.9189459989955	-66.5772234570787	-140.518310776267	-62.4685453718049	-139.908702302213	-0.403958890319407	-21.4080753141645	
11481000	-0.0709348734933443	-22.8999076433907	-63.702214582103	-165.684247126551	-61.2839255063673	-172.861601720649	-0.0252542954061112	-21.7447144207181	
11730500	0.00733725301545015	-21.4864776284925	-61.1007642384353	173.742718795881	-60.4579320934312	160.897417765212	0.0966345322527005	-20.9790451420112	
11980000	-0.185434426517662	-20.0393488626046	-58.4548735603164	138.248797334915	-58.757879691203	130.616458097528	-0.126013079696338	-20.3503420457214	
12229500	-0.542376474783866	-20.3753549072144	-56.2029937425407	101.069938738473	-56.7440501642979	96.4123376010701	-0.578495693759156	-21.0471567451571	
12479000	-0.803430581285249	-22.5744531065169	-53.3761240685379	57.4372468113053	-53.7955852462658	56.2166097153031	-0.989606452654621	-23.187967943484	
12728500	-0.725904451828773	-25.2661492642349	-50.5930051623434	8.38825347232453	-50.4819676146131	6.09391783887919	-1.10761774556813	-24.7604161314163	
12978000	-0.408611123661319	-26.5226748045241	-49.1113428986625	-48.1932761792244	-49.1065245880353	-49.3475786265924	-0.740838823719545	-24.228027037859	
13227500	-0.151616750099453	-25.6724012828505	-49.0797757200892	-105.78863792172	-49.1876526644633	-107.035679457071	-0.262417699772905	-22.8495447735264	
13477000	-0.136924139872149	-23.6756451538365	-50.0388124513673	-162.454603656011	-50.1863274607405	-162.185284631424	-0.076646669547239	-21.4647686591076	
13726500	-0.355630324569003	-22.4989113639864	-52.1065067128979	149.157990658821	-52.3311935652252	147.836990915306	-0.263686029577988	-20.8230621775139	
13976000	-0.685728633131192	-23.4316165710407	-54.4602781184545	104.71368530017	-54.5127260830513	103.82197958996	-0.607253642944173	-21.8054854949699	
14225500	-0.837631552844387	-26.0970424632707	-55.4174895375707	63.2034425483241	-55.4747029218725	62.6198319969141	-0.776814984325931	-24.2992696086022	
14475000	-0.667105804371624	-28.6592983281112	-55.0033102505797	11.6444763219058	-55.196393360662	11.7373095858019	-0.592449692910873	-26.782307508499	
14724500	-0.333790487844476	-28.7177673465762	-59.2148669436679	-70.6344193006442	-59.2485603162398	-71.9071184548422	-0.218502859541963	-27.7972609976201	
14974000	-0.00189168436623715	-27.7513384590379	-63.7475914367216	11.1358416368148	-63.2391325144037	9.10389364552131	0.0239881071273043	-27.3545279338611	
15223500	-0.117764759967732	-26.4860967623357	-54.6517680193896	-52.2890392509583	-54.4917724135649	-51.983129204582	-0.0979894238656339	-26.4164052630701	
15473000	-0.502735187326454	-25.7237141592146	-50.5765160652137	-110.051297671775	-50.3785454741017	-111.148570309404	-0.560398263123509	-26.325008663342	
15722500	-0.866132893591537	-27.079998092284	-48.2125743752817	-164.41514581879	-48.2055149930914	-164.879818367925	-1.12523785938804	-27.4438957515147	
15972000	-0.94065087953672	-29.9014734067964	-46.8653644021067	140.81626132138	-46.866423200217	140.850111926951	-1.35174275089148	-28.5809978303513	
16221500	-0.681322837109648	-32.0843158437529	-46.2759470880828	89.7059920757699	-46.3535829147677	89.4152619330141	-0.994762629102909	-29.0691417906151	
16471000	-0.352503273989437	-32.1135068813176	-46.142901762603	41.9153531877785	-46.1449675000766	42.2204691681304	-0.426787389711303	-28.6810896827789	
16720500	-0.203324509663656	-30.1764106616131	-46.6058753613314	-6.00651777297983	-46.4733533322637	-5.13106387802827	-0.0877298967482573	-27.54987558485	
16970000	-0.302124518213208	-28.1446670899148	-47.6742148928334	-49.7880569716448	-47.6038669906474	-49.6632899919811	-0.148216374263877	-26.5205342473959	
17219500	-0.610481030226816	-28.0228925127421	-48.7461550320382	-86.1515119583321	-48.6248614624017	-85.951364041634	-0.488626545315389	-26.8511902349983	
17469000	-0.881214765985123	-30.1388969451922	-49.173654771962	-118.821553229605	-49.0589625596427	-118.359751376167	-0.810770088840639	-28.98530281591	
17718500	-0.830164227094684	-33.1259126190323	-48.5872541624009	-148.941173452438	-48.4052989383745	-148.103741548924	-0.818805136227009	-32.0816838635494	
17968000	-0.490090176507386	-34.998871630887	-46.8085050891842	176.902469191915	-46.7669487070528	176.119057380964	-0.529705437097775	-34.1581395590186	
18217500	-0.160159727892313	-34.7427888912468	-44.1763651490848	135.094874369417	-44.1897454712476	134.380246549116	-0.240883204341541	-34.170994370982	
18467000	-0.102112146365496	-33.0760125478633	-41.8857667842815	84.1117942499581	-41.9733423313025	84.1603869334253	-0.280247758084185	-32.7466496970593	
18716500	-0.354840118650411	-31.8519714127605	-40.8697729800034	27.5454782355987	-40.8964509187454	27.4961022934328	-0.675685470489871	-30.7922045632408	
18966000	-0.767371249355672	-32.4306567169958	-41.262420395604	-26.6309206782218	-41.1157779491702	-27.3916364353102	-1.1108592674603	-29.6126639107687	
19215500	-1.02512261231211	-35.0486822534534	-42.2078031572589	-73.4921168852995	-42.2010932034118	-74.4681850042215	-1.23182924391901	-30.9541014398454	
19465000	-0.937876139862666	-37.9922736561423	-43.0977789736097	-113.290149212847	-43.1373361198189	-114.202691128365	-0.993085506194088	-33.7146551079084	
19714500	-0.63464484368576	-39.0783480703965	-43.3521636325222	-152.886353527711	-43.5011913787491	-153.092565066059	-0.53450435494629	-35.3354698540148	
19964000	-0.421318221652514	-37.5045632617761	-43.4573162016435	166.357152975029	-43.5527919743741	165.774162492157	-0.191328612863122	-34.8659785754716	
20213500	-0.423756473196317	-34.7226266517277	-44.1072202489224	124.321807262843	-44.2775465053978	123.979153016145	-0.124259582411395	-33.6243276623187	
20463000	-0.645126302923296	-33.3008679938136	-45.2628711694132	86.5767990762853	-45.2959921922226	86.9208924721265	-0.445783012132965	-33.0443085907889	
20712500	-0.965674649359253	-34.4550366423153	-45.7641973697791	51.5551988165122	-45.88348406432	52.0887066398835	-0.91436044136926	-34.1561738873284	
20962000	-1.08251173317733	-37.524381377293	-45.3008692596782	14.2471097425797	-45.316511424747	14.4510676014992	-1.20070161987016	-36.4904085040718	
21211500	-0.848024469848285	-40.302457267722	-44.6840674185501	-31.4797290502652	-44.7671146874703	-32.263832513617	-1.093898824465	-38.0700774330986	
21461000	-0.459253876620429	-40.9727373840444	-46.1453343249839	-88.3025509599817	-46.3780098639856	-88.772270416853	-0.61802409500502	-37.7066910409156	
21710500	-0.273022692299415	-39.5118345831458	-50.8022203916162	-135.856506541988	-51.5385240591184	-133.822734898149	-0.221804988605416	-36.655248045808	
21960000	-0.369910706501454	-37.4376222674211	-56.0685493208416	-131.374833912562	-56.1504341451407	-119.17601468537	-0.236127915661918	-35.7800283348789	
22209500	-0.711745200571552	-37.1151865977489	-50.0939488262996	-134.568988090861	-49.5048779426691	-132.132289531365	-0.647458507737361	-36.1011604487812	
22459000	-1.13795189844252	-39.3184530312792	-45.3596676339157	-178.403362439612	-44.8720309440821	-177.882487012353	-1.16050806926614	-38.0275708446511	
22708500	-1.3258178224754	-42.3132223740084	-42.1717983363771	121.084519658212	-41.9161011622657	120.681326037672	-1.39591362551728	-40.121604038884	
22958000	-1.08227471460318	-43.4383131931525	-41.8332820132942	52.2862724561131	-41.7261536876562	52.2330283918844	-1.1012567417797	-40.8433183948553	
23207500	-0.624666486359354	-42.5665517894934	-44.1839342078816	-9.89398763153445	-44.1094467519762	-9.37064287955562	-0.578420517061583	-40.0819461466677	
23457000	-0.430396524849595	-40.7082435341768	-47.9941337450189	-62.4594362291439	-47.9543397803215	-60.2930410456329	-0.277645240046558	-38.5835269039559	
23706500	-0.622189165684902	-38.5956457965481	-52.4862846686455	-104.167773067089	-52.2999517192145	-99.8646661481084	-0.382554460222768	-37.4339043388652	
23956000	-0.966533707225768	-38.0938723582055	-57.4841614919616	-134.613885944079	-56.6899278565309	-129.118437221463	-0.784073120572509	-37.8099237944882	
24205500	-1.19263205326546	-40.2619845611897	-63.315533789293	-142.276402770966	-61.324986564019	-141.663179672661	-1.1461891984672	-40.2791264796514	
24455000	-1.06219680867564	-43.4983934792677	-64.2308217733138	-109.709648765354	-62.7724959048378	-124.814784364282	-1.19854503500177	-43.3538665907194	
24704500	-0.645060538635379	-45.4488255475701	-58.5755035140555	-127.412709991161	-59.1896645935653	-132.644973157723	-0.937331365071424	-44.2130842127316	
24954000	-0.282743817145661	-45.2348838207228	-56.2041205432346	-169.385078373082	-56.2599846764299	-173.826234555399	-0.562231891380371	-42.5528522410555	
25203500	-0.254854366504745	-43.7637930303366	-55.555622728315	153.110304842418	-56.6969526845777	146.050086330575	-0.357248334797948	-40.5026805646714	
25453000	-0.594247488931492	-42.3174131485618	-55.8635550116195	119.58276616193	-57.6148772463459	118.560768086211	-0.527746758849055	-39.4862913344825	
25702500	-1.04969777159144	-42.650813439459	-56.5584479244616	85.7423572124973	-57.6616806954465	94.0278178886235	-0.943869592486062	-40.6701612768543	
25952000	-1.2778589286591	-45.2059560406643	-57.2262083863034	57.2847099878665	-56.4719285619103	67.3719656282776	-1.25350349559493	-43.725699437985	
26201500	-1.10568389837319	-48.0684067092275	-56.3974290805706	34.0314305565221	-55.1524181819636	32.4622352679451	-1.1870446459836	-46.9443158554353	
26451000	-0.695578737884124	-48.9980032789019	-54.370746567161	-0.0849253306477496	-53.6543750225661	-2.20752540012224	-0.890301247315635	-47.9912008059699	
26700500	-0.427188727841661	-47.6603836737622	-53.2562936359961	-47.5481107247419	-52.9533270224989	-50.6274188742802	-0.649874903120869	-46.1073804372019	
26950000	-0.466562981554397	-45.2141890457084	-53.4407931223827	-98.7322916160176	-53.0566304063127	-100.67398564373	-0.598601668287435	-43.1701962226318	
27199500	-0.767576618775555	-43.8397817606793	-54.8864055151372	-146.24666125322	-54.866193577743	-146.717288016252	-0.805791743473366	-41.5757719644924	
27449000	-1.11011356733301	-44.8798247022408	-56.8578265183414	175.910393748575	-56.3867882444875	172.576177878038	-1.11437525243708	-42.7057642570866	
27698500	-1.19233351093415	-47.8906163301883	-58.2838187883436	138.145043736437	-58.2045321986607	138.508094225279	-1.22505646477379	-45.7721305178235	
27948000	-0.87962598419916	-50.6371314462875	-58.9353603074217	103.148945712685	-58.4440700179641	101.433289692314	-0.974385303322066	-48.8412448584047	
28197500	-0.43490539724735	-51.271216779852	-59.1525542572777	63.9884205626752	-58.9952214816387	67.91531402416	-0.575095752058611	-49.8001748439042	
28447000	-0.226085765150028	-50.1533620879429	-60.0557113287737	29.5775105668507	-60.083583115205	30.2475641204044	-0.403042887301732	-48.8450336299167	
28696500	-0.404743614080731	-48.6468906309855	-63.4375340321624	-19.1967295562346	-63.14776810976	-14.1511985802235	-0.623653612329122	-46.9847183745382	
28946000	-0.848396634021387	-48.290084552668	-73.1087091091601	-77.6214188876812	-72.5235437416583	-58.9346411424	-1.1061648931401	-45.7173528562756	
29195500	-1.23408395804275	-50.0899186819739	-73.4411712494832	70.8942572605456	-75.2035973291352	46.9152482301663	-1.49091535016266	-46.5220306338745	
29445000	-1.2518730276597	-53.2232629930475	-64.4008494527665	17.5119034996628	-64.0905565069291	20.0901488166093	-1.46571708001866	-49.0069111080081	
29694500	-0.889623542538148	-55.1859107649318	-59.60249422977	-8.22644956847933	-60.1564441455363	-12.6810953859454	-1.08933627714592	-51.0066044058861	
29944000	-0.530560876632695	-54.7920702590363	-57.4945837489146	-43.4197206066646	-57.7071724599074	-45.1133216905198	-0.624633205711204	-51.0553846308737	
30193500	-0.471439210144549	-52.7844395977472	-55.4465057759917	-80.7694776196869	-55.7093230941004	-81.3839103512894	-0.463568006085496	-49.8037519841745	
30443000	-0.75904916881622	-50.7214003545531	-53.7175684396649	-121.433123989689	-53.6813290564852	-119.690602237797	-0.721635498788855	-48.4336264946892	
30692500	-1.20180697395742	-50.3721251250483	-52.9910368168826	-160.145100288682	-52.9660532447645	-161.053832811445	-1.22398338523681	-48.5338126080127	
30942000	-1.48621479038618	-52.5951015192777	-52.9924435199405	160.797516902979	-53.0727105132687	157.880456446745	-1.61515564430129	-50.4678781578289	
31191500	-1.32678275352662	-55.8011145465152	-53.6730866428491	120.554498361557	-53.7576227483893	118.004775492034	-1.51341402059807	-53.053020966485	
31441000	-0.864911806887946	-57.4213496324185	-54.329298531189	83.1481366472838	-54.2507107705567	83.6872745093255	-1.02644559737366	-54.2507590021091	
31690500	-0.501374902664447	-56.6287196740604	-55.1728303662247	52.0355461077769	-55.5139256792371	52.2355843111244	-0.561955506644049	-53.5551458403168	
31940000	-0.482624434654085	-54.6246862802484	-55.6355665834181	21.8024236890194	-55.8862507497042	21.2719811368711	-0.473088383377701	-51.8924894987477	
32189500	-0.831594083391864	-53.1358658607135	-55.5466281533102	-16.9714003000531	-55.5616534564183	-15.8205310350767	-0.835836145315653	-50.5911205918494	
32439000	-1.30226633757617	-53.7994761327995	-56.7495366104729	-64.9149891537046	-56.6642716984439	-60.4057624897013	-1.30579145389843	-50.665417720236	
32688500	-1.51557209271298	-56.5841251393902	-57.4255254914621	-79.6018655687311	-57.383549256539	-76.1369160571264	-1.58178792616375	-53.8334218037173	
32938000	-1.29674053423346	-59.3346694074194	-54.8162993212545	-107.35759883206	-54.9554786044529	-105.963833264976	-1.5297762826105	-56.8803438380618	
33187500	-0.854673163300381	-60.0065922310677	-53.1113691501715	-150.230773327989	-53.3233857388362	-147.75161190521	-1.12158340196171	-57.2258046645042	
33437000	-0.568290350557074	-58.5399798242584	-52.5471096669609	165.900828850125	-52.2644098293931	167.393535546868	-0.720914472934594	-55.4515333072197	
