!Keysight Technologies N9923A: A.12.45
!Date: Tuesday, 05 August 2025 20:35:06
!Timezone: (UTC+08:00) Kuala Lumpur, Singapore
!Model: N9923A
!Serial: MY61181427
!GPS Latitude: 
!GPS Longitude: 
!GPS TimeStamp: 0001-01-01 00:00:00Z
!GPS Seconds Since Last Read: 0
!CHECKSUM:2138746199
!Correction: S11(ON U)S21(ON U)S12(ON U)S22(ON U)
!S2P File: Measurements:S11,S21,S12,S22:
# Hz S DB R 50
2000000	-0.103696762942729	-2.46107456010059	-83.4911627495393	104.948808152566	-93.0958712056371	164.336181430858	-0.144175795165621	-2.31487580787824	
2249500	-0.447283766964293	-3.19636338357362	-68.3450350025967	49.5366854785707	-68.4156117761323	42.6243493652013	-0.483941614731523	-3.07404270751927	
2499000	-0.605077632553742	-5.05337176058372	-67.6816137888167	-80.3284804615553	-66.7598411986339	-78.6514160055127	-0.635765491252319	-4.75498061765866	
2748500	-0.433544495279084	-6.8769919104332	-73.1273129527362	-119.762947996421	-71.3888287439684	-130.557877984986	-0.469192891128158	-6.65206818663195	
2998000	-0.0802721817904146	-7.48721649269937	-79.192812614483	-104.570692752087	-76.1672875043609	-115.83846730093	-0.120158593445959	-7.2812333333959	
3247500	0.153326771471631	-6.88451252279145	-74.2857546533074	-104.940551026954	-73.6973038082986	-105.255132566583	0.106031547818996	-6.64571448913108	
3497000	0.101095854159589	-5.95891438370455	-71.5532855339278	-113.310207264325	-70.6763607721336	-104.097874441015	0.0492908307914097	-5.67539837786682	
3746500	-0.227897417252522	-5.75667551057256	-65.9507239717493	-126.935964298339	-66.5657044572375	-126.196502561303	-0.258255378466059	-5.37054968036597	
3996000	-0.557358933914984	-6.71850679302497	-69.1141990997621	-173.650469484391	-69.3951084620741	-175.584688197671	-0.597570742260995	-6.54209654537683	
4245500	-0.605292299047126	-8.85291682743194	-72.0718207906379	-95.0058827691723	-73.485359433803	-94.9040736607898	-0.63182762148278	-8.46038880915604	
4495000	-0.34693061321665	-10.551355804066	-64.9407179206773	-99.2511757284824	-64.2834532944924	-100.742326139236	-0.380213025204944	-10.0322872876437	
4744500	-0.0194301274988504	-10.9425988433732	-55.6982736261394	-115.242644589996	-55.8121458794933	-116.079731925394	-0.0362737848982627	-10.2815576202528	
4994000	-0.070460406430449	-10.0212810820274	-43.7710751774176	-171.419431688997	-43.6306994658296	-172.027933361682	0.108506693686758	-9.48143105816764	
5243500	-0.0494822004394174	-7.65932357494899	-45.6004344799894	101.641114360763	-45.6015182755168	100.792375409563	-0.0373614055880294	-8.57438253317646	
5493000	-0.354669812615007	-8.13118036814192	-47.5452602712976	74.7839931946868	-47.5151328063068	74.5604801027021	-0.404143712744838	-8.84538327272145	
5742500	-0.62954416412829	-9.95163280076743	-46.2248178774868	53.6513699145108	-46.1291929302341	52.6999538538831	-0.730328142124375	-10.6362102396159	
5992000	-0.603807306790193	-12.3262529429301	-40.5657414866389	38.9823885938936	-40.6400209175273	37.354193600964	-0.727699864048419	-12.7432621872047	
6241500	-0.296198087860082	-13.4159989806848	-36.4591418943024	-32.9312353644309	-36.4155957804092	-33.2135172150876	-0.617846437737059	-12.6042943949171	
6491000	0.034408610519006	-13.2000186725027	-39.3969654579829	-102.028471697352	-39.3816461731373	-102.321323076848	-0.0744533510248343	-11.8108051408978	
6740500	0.0724165505335564	-11.8440927687447	-46.2194526830264	-157.382596987072	-46.0657775437295	-157.195249694509	0.0493744398022698	-11.0791011655207	
6990000	-0.105576417308173	-11.142269823862	-41.0519453206934	-149.93487726712	-40.934968119509	-150.285565916854	-0.411240866044743	-10.1558436197009	
7239500	-0.483446739480565	-11.8144720721861	-46.251084140778	161.297724988553	-46.2256260312545	160.581183657692	-0.602230054967298	-9.86922742829555	
7489000	-0.70028578695719	-13.8103176793617	-49.0635707658384	148.70398445261	-48.9940415865188	148.186928018599	-0.741306318450735	-11.9986057800442	
7738500	-0.572862475859862	-15.788567195575	-48.7810063848922	129.542832112628	-48.6979060831494	129.267339498759	-0.586412736834089	-14.1843773100762	
7988000	-0.190291500623935	-16.5087667113035	-49.4073124711279	102.184656800296	-49.318786356573	102.203759042689	-0.218063314331916	-15.1033782099354	
8237500	0.0859670004985987	-15.9114059837808	-50.8109527829125	78.0206638904212	-50.6056759306437	78.176008680239	0.0761278783020632	-14.541809807031	
8487000	0.080215906602156	-14.9088932158855	-50.6905033983206	71.1394467097688	-50.6426104860185	69.8363930264925	0.0743612943746025	-13.430057187836	
8736500	-0.324197298602253	-14.8008901242518	-48.1518772881758	43.8798760939482	-47.962592633617	43.8720337353573	-0.214166855387162	-12.9654323865538	
8986000	-0.802667829804876	-14.125032963248	-49.4594890750326	-27.0433234500764	-49.2917616978721	-27.8255498790574	-0.573606916776647	-13.9985102348719	
9235500	-0.70929011344095	-16.7489403534523	-61.1520384380901	37.1692203127969	-61.0039885720878	34.446898209749	-0.688933783427007	-16.2867759062915	
9485000	-0.547774813647442	-19.3366594853943	-45.5360375558234	11.9573640336643	-45.4686972588928	12.0997241767527	-0.483455647077255	-18.372898271155	
9734500	-0.123241848904639	-18.8997849503376	-46.6326337962767	-64.6350197844458	-46.5544714661433	-65.2740982861317	-0.108534508218097	-18.7590784182394	
9984000	0.145992620851525	-18.192311818117	-49.7718959460817	-90.9579860677911	-49.6701971921982	-90.8997085054621	0.1083101739469	-17.9970457518559	
10233500	0.0463643335175083	-17.2921143730472	-50.5670667497596	-105.739893034856	-50.4014157737537	-106.024569313251	0.00545332103534359	-17.0204446728025	
10483000	-0.320448823021871	-17.4081929636075	-49.7146893527344	-120.698476473701	-49.4959062389663	-120.91593048525	-0.355596652013696	-17.0537002676428	
10732500	-0.679594422253915	-19.1475396805598	-47.060476463634	-144.104470282007	-47.0174338763887	-144.446064963975	-0.69674606698212	-18.8305808689273	
10982000	-0.74265885134301	-21.4514147257343	-44.458571108503	166.84371746526	-44.2822829731906	167.08365102405	-0.77239664873807	-21.5944057007131	
11231500	-0.390612848884357	-22.8890994601197	-45.7427594786602	107.307435989811	-45.7366703663843	107.093546651949	-0.545504232769641	-23.2299652731763	
11481000	-0.00326687486005462	-23.1881195202896	-47.8962241465545	52.3625098371381	-47.8902442361728	51.928493520385	-0.422642676382216	-23.9776812246282	
11730500	0.0918313948050079	-22.6917700188115	-57.5002683755956	-95.6574488790299	-57.5355398699882	-95.3939768993921	-0.339767397968178	-18.3573680373886	
11980000	-0.30007813536827	-22.7966827657395	-61.8508006236767	128.345310573191	-61.9644659767653	126.384834566762	-0.13572494975731	-18.8632808106666	
12229500	-1.33198294698139	-21.5257722516854	-52.8996893432181	144.457238298986	-52.1933978762595	144.758447653046	-0.620969694633827	-21.2611220327327	
12479000	-1.21199625068249	-19.6458729071951	-46.0185467941388	45.3864954118456	-45.8474857774901	43.9771177226133	-1.56888282483715	-21.4300235699646	
12728500	-0.840096418171268	-22.5321068682778	-54.5775964265174	-11.0281989318649	-54.0598639794067	-12.5435349884024	-0.989291379919217	-21.2664993636339	
12978000	-0.362393013483922	-24.3392790587536	-54.0223284076507	-22.3134777607663	-54.084894787941	-23.3692036639581	-0.516548681952755	-22.7895519559617	
13227500	0.0126150003373838	-24.2857850293819	-58.3096629201303	-77.0243940989438	-57.8619297872163	-77.3242609410381	-0.046800332624638	-22.603343650796	
13477000	0.0589290143632401	-23.4008107943762	-66.2489790445297	-141.494251538938	-65.8616612978837	-140.133017559019	0.0601242421668345	-21.9575654613079	
13726500	-0.247622505658352	-23.0060486455342	-62.4211177424089	98.750973708532	-62.794051492343	97.7342042479946	-0.190907069172292	-21.6473472325401	
13976000	-0.707194369924624	-23.8568256704918	-53.3411749719752	37.7474294480835	-53.4401598147371	37.237740078779	-0.578115297121339	-22.8706805690374	
14225500	-0.87058074619733	-25.7468391333259	-49.1534665625426	-21.6483429331563	-49.2233738353872	-22.1076689949746	-0.793009502281492	-25.6199889092184	
14475000	-0.602554396567721	-28.2035784320152	-48.8503760574821	-69.6037474076466	-48.7586734376983	-69.3917047623284	-0.687444111307359	-28.4393476417484	
14724500	-0.233179390639033	-29.3396022233667	-51.4573309901659	-107.694587030075	-51.2909697202675	-107.833908020434	-0.530266075844537	-29.7609971743966	
14974000	-0.0665442987997824	-28.3935165607739	-47.4794976178932	-92.4110366451735	-47.5270923730212	-92.556334103158	-0.63382541202099	-27.3894027279147	
15223500	-0.165845373127786	-27.0256883643026	-43.5568739085699	-163.670795938548	-43.6044338347366	-163.536197947224	-0.540479311901622	-22.3405343242539	
15473000	-0.637437307353038	-26.7802435269235	-45.953465434758	145.652610357424	-46.0279904197216	145.769572804758	-0.525287026909872	-21.8421315954131	
15722500	-1.1690266374081	-27.6772105246333	-48.5758829787954	104.568296662878	-48.4736974154346	106.64916650948	-0.76623949853025	-23.8763145098184	
15972000	-1.34662451401487	-29.3289605045654	-52.3992366739341	61.6645887741692	-52.3436588427872	65.2416559170997	-0.817812548387437	-27.178235775849	
16221500	-0.989278042791684	-29.7712756119934	-62.9769535560656	16.0809048413203	-62.5279113782634	27.9117936657676	-0.588590780962147	-29.9485292061844	
16471000	-0.37688449297069	-29.3734407483131	-57.2286595028026	149.146650376314	-57.3158772044195	144.848802396309	-0.274740114992711	-30.7378981268472	
16720500	-0.0299198931848061	-28.4326485189359	-48.2243539023572	92.6770969375707	-48.2186917506001	90.9673388405081	-0.391497813180405	-30.4645080009982	
16970000	-0.115363704905254	-27.5508519893055	-49.5188380911131	10.5806617059268	-49.522480350064	10.1697662775033	-0.588596199308706	-24.7067581286303	
17219500	-0.47876050884708	-27.8805941194068	-56.249110492279	-22.4926869759783	-55.9243558288595	-23.2449973056479	-0.615371739062981	-24.8203679683149	
17469000	-0.79135134742924	-30.2966539147819	-60.3662580677036	7.12358850699836	-60.3006634020772	9.67326609620809	-0.844803999738168	-27.134297357072	
17718500	-0.843645675209563	-33.3823019139495	-53.2616995397788	-14.7697338249559	-52.7840246461435	-14.0249088295108	-0.803609841370903	-30.2215339402523	
17968000	-0.580746866079332	-35.0363084124048	-52.5612473235869	-58.1581513901512	-52.2010615496553	-57.2412357592865	-0.451827316366888	-32.2182414934079	
18217500	-0.323540366443829	-34.2449365538771	-53.339521834565	-104.136897928615	-52.7547102525136	-103.239448704289	-0.0632477682136087	-32.2862656311033	
18467000	-0.215083413731458	-31.6640938979457	-55.6375611789987	-151.272922047776	-55.1760385774077	-153.678673562606	0.0448072507250151	-31.2857050863574	
18716500	-0.335201299207193	-30.2240746084962	-59.2580504162457	165.865548046135	-58.6870488070592	166.173834309922	-0.19210240102953	-30.6248828571149	
18966000	-0.668002008806707	-30.969219165405	-61.5603557362036	113.302598307238	-61.3764044653418	112.939759201796	-0.626730338905548	-31.5887469774318	
19215500	-0.876238964947511	-33.65151938991	-67.4928151303102	-1.46892790696229	-68.7461124300404	-3.67800252771957	-0.979170969640654	-33.8792051987294	
19465000	-0.723231071252745	-36.6485853592344	-59.2674650952844	30.4084078673793	-58.8895573469471	30.4073011712003	-0.876594912387544	-37.6503504839286	
19714500	-0.31740926716984	-38.1187173767991	-53.0930493273343	-7.29937661204109	-52.9493846860573	-6.09456476241426	-0.690242189692359	-40.012412828972	
19964000	-0.0119329055528175	-37.7184655983111	-47.3618698547602	-51.5365403725366	-47.1320729617927	-51.9141815924843	-0.881748985107261	-39.4895618686454	
20213500	-0.0669958741768799	-36.6368949079985	-42.8444272923698	-105.480899098507	-42.7538865944491	-106.832789326846	-1.29893975213722	-32.9427614928364	
20463000	-0.487493632576154	-36.377933739405	-41.4095846205741	-162.666197965985	-41.4490292508172	-162.730246862622	-1.02170337917838	-28.1317718154804	
20712500	-1.04503519936822	-37.739586618999	-41.5874099508452	150.578021972342	-41.618812785366	150.566109397691	-0.990787310294446	-29.8206381123201	
20962000	-1.33453870004731	-40.1633054684091	-42.5656446777892	107.651681629344	-42.7277281073197	108.412276668344	-1.06372083900883	-33.6299945617073	
21211500	-1.15622090701909	-42.3255511963334	-44.2891045110362	71.509506465707	-44.1680786629828	76.0419027314924	-0.851209683086188	-36.7094388375166	
21461000	-0.827178198234471	-42.6627473857915	-46.8156991593158	37.9425096300403	-46.152950343849	41.2618975363901	-0.434864800598873	-38.4629451140124	
21710500	-0.753442207942173	-41.0715235440666	-55.535381620233	56.302067528388	-54.1854788904964	48.5861933112106	-0.378221587413174	-38.9262914564134	
21960000	-1.12709193713901	-38.0770688274989	-41.4716690562604	63.917527742934	-41.3782070319133	62.024024361823	-1.02634301029282	-35.7168511648591	
22209500	-1.61841511743844	-34.469612885566	-38.3557065925104	-7.14561058638979	-38.1650952520178	-8.63546410280476	-1.0791298977749	-31.0485605707762	
22459000	-1.72253110024078	-33.6450048334027	-39.9335031282274	-58.3024318778247	-39.7510420808608	-59.4859356572288	-1.08261400120957	-32.7470985180843	
22708500	-1.4521582832677	-36.3446422388763	-41.8701046409889	-93.2364327892487	-41.7489140423233	-94.9578171389516	-1.01320928392849	-36.1968629300589	
22958000	-0.941492327675885	-38.9980642599253	-43.2686402076287	-124.999865091766	-43.1011573012941	-126.552549443553	-0.65455680711644	-38.8867903951358	
23207500	-0.428631277837677	-39.2803213631257	-45.3581075268854	-160.424850537249	-45.0909326691563	-161.097048979598	-0.219254900387111	-39.4639473792931	
23457000	-0.132113591360749	-37.9863447864397	-48.6368438969233	175.613355610437	-48.4293039130137	175.193539014759	-0.00908095176228934	-38.6112296352655	
23706500	-0.230390961775919	-36.9455900814483	-50.8409986656687	166.50545680623	-50.6738841245614	164.975388704805	-0.16850274638366	-37.8227477835404	
23956000	-0.603851877115664	-37.40110604465	-51.6673576139246	159.172488283371	-51.565719273488	157.29736447117	-0.599613518368917	-38.4784604838613	
24205500	-0.912475121921288	-39.8885645987224	-51.4848774571669	149.238779101804	-51.1257782534168	148.957603276209	-0.977097396809691	-41.2425570074471	
24455000	-0.854861210881331	-43.100051662605	-49.9267094517701	136.90727880935	-49.781295936137	135.575341706754	-1.04641590873963	-44.857175399338	
24704500	-0.482381870614003	-44.9755005102094	-47.2102111857211	115.333408840119	-47.1427933150078	115.576738213216	-0.905308548414268	-46.829864427155	
24954000	-0.123191902734926	-44.7299057812061	-44.9401819791844	77.3523478524398	-44.7995257464755	77.355524368071	-0.945234066303104	-45.4323972947169	
25203500	-0.0513439736023261	-43.4158807738772	-45.5562669388924	27.0579625532881	-45.3766727077856	27.9390237283342	-1.0358037120702	-40.2195378515119	
25453000	-0.335424716209933	-42.5024971923144	-50.0876474373167	-12.1305722007542	-49.5727582437711	-12.6502988342645	-0.953626817176552	-36.4970934495763	
25702500	-0.783040710735454	-43.6104738282931	-55.7105763474582	-24.9466097998213	-55.1788478896401	-24.115665530203	-1.07852044463885	-37.0905683220843	
25952000	-1.05935553103186	-46.7947089064193	-57.0675836796028	-8.12484663615195	-57.2349891264967	-12.7752193626588	-1.17897933997345	-40.2598712340911	
26201500	-0.982294085657087	-50.1806970834816	-55.4032153031935	-4.55564645097288	-54.9413209452442	-7.12844483363503	-0.937051697390742	-43.9693119761006	
26451000	-0.786143784490544	-51.4816687357248	-52.2043591196934	-12.5936336308203	-51.9696452659027	-15.8046482312135	-0.478353644239361	-46.2605335340098	
26700500	-0.812894206445829	-47.874619176545	-48.2283691343698	-52.0826399698454	-48.0323961419243	-52.5659621441441	-0.198239579606107	-46.1648078390194	
26950000	-0.389039311495985	-43.9802735885628	-50.0872132214898	-97.0902956478675	-50.0095026955373	-97.0675918486992	-0.270170429202155	-45.6551288775631	
27199500	-0.530501280714165	-44.6970845469981	-53.3981888680754	-112.41566942404	-52.9773884635163	-114.735312042406	-0.967346622600434	-45.7611084717037	
27449000	-0.971583409546044	-47.5465558727656	-53.5236099195324	-121.249617982402	-53.3689990726792	-122.260959760374	-1.98824187059382	-43.5153251263589	
27698500	-1.3421553189614	-51.8751672085139	-54.503117720265	-144.188233425212	-54.1298896478278	-144.162440168261	-1.58865037666067	-42.3404406218479	
27948000	-1.523957245694	-52.9079997282387	-60.5445118833779	-151.148963070491	-59.8397856755704	-151.790896253256	-0.969684066923661	-46.4400692235079	
28197500	-0.730615616654159	-50.9528300957655	-58.4511435333506	-83.1908765009314	-58.002396479347	-87.9760670666477	-0.453293051961218	-48.7987113352165	
28447000	-0.45475401873595	-51.2561583304287	-46.6316582200818	-99.7723156360584	-46.7870859943765	-100.796742747932	-0.28565125726225	-49.3806367123269	
28696500	-0.839254480603259	-50.307782860947	-39.5037832995993	-146.963545708369	-39.5919848737301	-146.216029720997	-0.713754879298574	-49.1658770473193	
28946000	-1.62953672105938	-49.0982586056489	-35.3755471330151	151.793420103248	-35.2907538159472	152.713037630478	-1.72669061122367	-47.6157366574696	
29195500	-2.21018631040254	-47.8518012945167	-35.1875071888693	83.2855403902305	-34.9635942040974	84.5760514666493	-2.29598520951062	-44.3444020363715	
29445000	-2.00875049268714	-48.1276881799244	-38.5927087978953	27.184038016954	-38.2069009357211	28.0956957881947	-1.92889585765458	-44.6268044319805	
29694500	-1.26002525335653	-49.2681297384892	-43.034353365256	-9.34458635421818	-42.61360528024	-8.65605532772738	-1.23474381162318	-46.5631170285735	
29944000	-0.575610869420384	-49.2803114185873	-47.2447006697035	-30.5262429205464	-46.6126821593877	-30.824578674276	-0.568524259126305	-47.2119818545453	
30193500	-0.268716238669354	-48.192233757249	-50.3343372241202	-44.5381918534289	-50.0899031869765	-45.9621088399702	-0.259748344793998	-46.556696787805	
30443000	-0.403947647930307	-47.2745865818613	-52.7655180680556	-55.6579397452421	-52.2489376856152	-55.759821422727	-0.378781276834548	-45.8957597513832	
30692500	-0.804562833350524	-47.9934249482345	-53.8343099758724	-62.830944514226	-53.5508573461737	-62.3429408950958	-0.778734388314993	-46.9919923801909	
30942000	-1.12729173141011	-50.905950079898	-54.3017933709717	-66.6312955118012	-53.6469748776108	-67.2974208326943	-1.15690416262461	-50.2994589318726	
31191500	-1.03107180132345	-54.5204538338527	-52.3597018771696	-68.5710394392829	-51.9213516519057	-69.2616309665773	-1.31621539742006	-54.3925613228041	
31441000	-0.617600485592955	-56.4888115079604	-51.0825626864798	-103.832002251639	-50.71591804688	-105.612970761788	-0.882154729205664	-52.9217468511694	
31690500	-0.272591708398604	-56.1178182103146	-51.6938818803899	-122.501941219467	-51.0439148535647	-124.268193211473	-0.304128665151462	-53.4977245980368	
31940000	-0.27245544040967	-54.7032277369219	-52.1254782767804	-144.166949463554	-51.5736959866772	-144.923571994857	-0.234456320522855	-52.6060782222788	
32189500	-0.65104535198645	-53.7627977068552	-51.7605235928771	-169.807524579852	-51.3531586551356	-170.773924625305	-0.606557171744576	-52.3503352180709	
32439000	-1.1750526950679	-54.8689337705651	-52.3421582309408	161.623669039124	-52.0831093881946	163.410322874218	-1.22403320681376	-53.933655470574	
32688500	-1.46691833187961	-57.884030192309	-53.6050663640476	132.305987789582	-53.1339797821555	133.937709548663	-1.7440580734238	-57.3286707551615	
32938000	-1.34830767058405	-60.6286551168696	-54.8708756488502	103.23659024968	-54.4755057280719	104.836245106428	-1.92572678739195	-60.4166717761392	
33187500	-1.01164771916997	-60.9844964723478	-56.8618347326557	68.8381585898862	-56.1359876475724	74.6346788866202	-1.86195151908525	-59.6004586537116	
33437000	-0.80447774391115	-58.8737170068145	-62.3484285840187	33.8947081242597	-60.3344223949267	42.9361133003217	-1.63814526699321	-54.5954126673708	
