!Keysight Technologies N9923A: A.12.45
!Date: Tuesday, 05 August 2025 20:59:37
!Timezone: (UTC+08:00) Kuala Lumpur, Singapore
!Model: N9923A
!Serial: MY61181427
!GPS Latitude: 
!GPS Longitude: 
!GPS TimeStamp: 0001-01-01 00:00:00Z
!GPS Seconds Since Last Read: 0
!CHECKSUM:1860203379
!Correction: S11(ON U)S21(ON U)S12(ON U)S22(ON U)
!S2P File: Measurements:S11,S21,S12,S22:
# Hz S DB R 50
2000000	-0.0814696259014315	-2.2315068422534	-79.397719011057	-96.0364751963659	-81.6841211624204	-120.354129279983	-0.114438036827353	-2.08188646618514	
2249500	-0.424236905568239	-2.87977007601422	-75.7025493961428	-99.1874775388309	-79.5254973763608	-132.518850299556	-0.446871744420528	-2.65197669747942	
2499000	-0.583716082084686	-4.70465494963167	-68.3819656761536	-134.614213036199	-68.7298937859235	-132.72321562135	-0.603733366262583	-4.4125306407183	
2748500	-0.426951151892219	-6.55309646662455	-55.453764685453	-173.28913087925	-55.7481713391429	-171.591164780973	-0.461690480130312	-6.32067433473676	
2998000	-0.0760899316667837	-6.95253288230078	-48.1962631388895	59.3435734011019	-48.1579286440819	58.4839483898025	-0.152689506606885	-6.8200955538052	
3247500	0.174846579367567	-6.3708308936643	-54.9000013271598	-40.4689418535683	-54.7683467833991	-41.6717727116413	0.103172160073308	-5.69103892668639	
3497000	0.120613327726456	-5.58385662339187	-62.0185397422524	-77.9453671964146	-61.071200155759	-81.0853143758048	0.0833339274692995	-4.85896878085426	
3746500	-0.191056677796379	-5.24873586953719	-63.7248845840857	-78.9294642216749	-62.8716262858146	-78.7295071883356	-0.220891155074162	-4.71487336259645	
3996000	-0.585051570586916	-6.65376182742354	-60.1836913671868	-135.089265562485	-59.9546217514744	-134.246025147306	-0.540319401511471	-5.95329510264519	
4245500	-0.587589822172949	-8.55161758268723	-69.3171919325708	-90.4063847543033	-68.9071333527886	-96.4595218074858	-0.605110573453774	-8.2033137167417	
4495000	-0.320496568500325	-10.3304745840893	-62.7597276219087	-106.343346459591	-62.6559637909937	-104.681061963958	-0.351676056944977	-9.92460744024153	
4744500	0.0148154153144386	-10.7209877527146	-54.786109581703	-122.216802652583	-54.8407186284556	-124.808340243733	-0.00408043278128773	-10.2885720762332	
4994000	0.0590760600640143	-9.4301301680919	-44.609921260106	161.676435325206	-44.6445001549095	161.553893823258	0.137986185370701	-9.48776146125924	
5243500	0.0262837912327105	-8.23509384190804	-48.2372846549312	88.3674671587937	-48.2161201407472	88.7055129985616	-0.0058554098704878	-8.63977322794572	
5493000	-0.320863939341452	-8.55691242050495	-47.8783357099809	58.3496281766581	-47.9108946834207	56.7524092612101	-0.395539495591658	-8.91155822635071	
5742500	-0.616325810366122	-10.2654434259006	-43.6142792382918	4.92749147831994	-43.6650752993838	5.62573204334665	-0.797868305429554	-10.1119568860865	
5992000	-0.565862953551468	-12.4540865025768	-46.0888930458144	-78.9970564847022	-45.9648875143702	-80.034307182126	-0.625187869444423	-11.2220756274918	
6241500	-0.267454814532002	-13.896773598042	-49.0948621720982	-74.624564805318	-49.0070972650209	-71.5729231765283	-0.434220891974427	-12.7467049222329	
6491000	-0.0129748043047461	-13.1694688974362	-46.0153063965523	-155.351417340919	-45.934226499396	-154.899327922585	-0.00407375001020417	-11.9038973911966	
6740500	0.131575715170157	-11.7507867186289	-50.9321113024683	144.780651670949	-50.7214635239397	144.500855487323	0.124098792491361	-10.9193326431078	
6990000	-0.0781490298733286	-11.2088506031899	-55.0667853245027	117.005131451415	-54.8380547205173	116.052120057212	-0.0885674241927699	-10.3793117154	
7239500	-0.469606660554791	-11.9871567690056	-56.7609962156968	95.8812688743281	-57.0385156063367	94.0226013569763	-0.444393257490006	-11.1205706639755	
7489000	-0.699994487164669	-13.969475718599	-57.1216321371989	74.7646938890489	-57.4051745325839	77.0188793580287	-0.650489124483806	-13.3492281792293	
7738500	-0.549847123996723	-16.0553782063187	-56.4524070260738	60.7817716523275	-56.3060672687776	60.6553480916158	-0.520098970603924	-15.659937301872	
7988000	-0.188151611427833	-17.0688248712665	-52.6832014532888	46.2695849730235	-52.9086327050535	45.2646647432566	-0.174517740360969	-16.7433291098806	
8237500	0.0160316077427148	-16.5133718208559	-46.7394519162727	10.1620094644936	-46.8548890628869	9.86067426323001	0.0739075663603795	-16.3932297821962	
8487000	-0.0283910554289015	-14.4119755378338	-42.4389324347145	-58.5514747838746	-42.4950525473982	-59.1648932061603	-0.0208583656876142	-15.3875859207345	
8736500	-0.236306457614407	-13.8565828346315	-41.8579949856001	-125.770008221812	-41.9447866859495	-125.093079076533	-0.464208369391365	-14.6031883546658	
8986000	-0.57788768832089	-15.1955611451396	-43.0006677772735	169.434922327317	-42.9388597692072	170.37732382819	-0.875948661259312	-14.0276170039084	
9235500	-0.692099337307106	-17.7790860483171	-45.7744851420879	117.277039656927	-45.7335513944344	118.209706696758	-0.820506078894242	-15.6362929602702	
9485000	-0.482368282687968	-20.0173135083291	-46.8237471037328	78.7064836818836	-46.74609943397	78.6062635069681	-0.508081409290785	-17.8417161216849	
9734500	-0.198586592777608	-20.2854598835078	-45.9898612108189	28.3403711284048	-45.9511045355726	27.7574074816072	-0.105362613094231	-18.4732979638107	
9984000	0.0115660966188651	-18.3260255535004	-46.9207731297341	-40.0536922438325	-46.9300733803307	-40.5391026988003	0.117325775607323	-17.7021436822305	
10233500	-0.00457189088473458	-17.0834556773596	-49.3981688007532	-96.6768814054231	-49.324428949403	-97.1412646465621	0.00806007509583436	-16.7332849597553	
10483000	-0.351914156746254	-17.2321917690611	-50.0418390925119	-153.549677349071	-50.2250004363767	-152.444875645006	-0.387569026801738	-16.6072738487254	
10732500	-0.689389553095864	-18.8456748217788	-52.4383496007023	143.507622500973	-52.3482964515131	142.547594084285	-0.707368683102133	-18.0041217898088	
10982000	-0.699338070521776	-21.5000326217977	-54.4298958950191	100.157805655665	-54.4693071900477	98.5160660253534	-0.734096166661528	-20.8220545151859	
11231500	-0.42848421502626	-23.3477646651178	-52.6783800317513	62.0744765871364	-52.8399505576251	58.8063345557277	-0.519378481897456	-23.0343480189023	
11481000	-0.141291545819403	-23.1233994832542	-49.3464953406209	-2.70030150637242	-49.5895884078361	-1.50725624936876	-0.377130484491522	-22.5255437287336	
11730500	-0.0407257098886783	-21.2574714341784	-51.2240328096135	-84.4624381593759	-51.1912481655732	-83.9642641055478	-0.125160520440162	-19.4899153662254	
11980000	-0.185942006980511	-19.8766043946651	-55.0927361246443	-139.088260407359	-55.1149503045907	-137.644660213185	-0.141861062057212	-18.8106296811632	
12229500	-0.537745960213357	-20.3513450277138	-57.1423743311139	-176.88286775911	-57.2881972420924	-173.19878747523	-0.485206210465513	-19.6760457611109	
12479000	-0.805479413857934	-22.5735255337262	-57.0599829924728	142.419111918283	-57.0917304807757	148.075796717725	-0.778242041915285	-22.0651621962365	
12728500	-0.732773945928264	-25.220937360038	-54.60146215351	99.2538890892585	-54.2085266050995	100.384902839222	-0.797163187253638	-24.7476452964788	
12978000	-0.410559839365143	-26.3245649965539	-51.3771172034738	32.8138461647647	-51.0582447981334	36.900253227197	-0.610840285202482	-25.4281942976672	
13227500	-0.11464359717808	-25.3271593785824	-52.0458238413338	-45.1951409120465	-51.749991099569	-42.3737709334809	-0.260136095128753	-23.328259642326	
13477000	-0.0489138230691459	-23.5810335610642	-55.8745099746537	-108.157517585744	-55.6041074718977	-107.478758918264	-0.0603170210760332	-21.7338208473274	
13726500	-0.278579574476665	-22.8049150832076	-60.2359185981712	-157.050384820073	-60.2807836112472	-152.846010837471	-0.25101367794963	-21.140652634776	
13976000	-0.64939397395113	-23.922289730947	-66.461373313725	168.872492223986	-67.151372074577	179.956918837407	-0.605962738019655	-22.211257845381	
14225500	-0.840489492803566	-26.6244716437051	-82.9442998820871	92.8645666956695	-80.1659019529781	166.149977447556	-0.786812793183598	-24.8108708930509	
14475000	-0.712356981636659	-29.0689355266351	-67.8360850302252	-81.7272356476376	-66.1466385218373	-92.7480968488496	-0.619033707727547	-27.4071870620689	
14724500	-0.379848723742125	-28.8234380410307	-59.2809034712691	-162.608209606863	-59.2127257659914	-167.425711437242	-0.276041885483172	-28.501251795369	
14974000	-0.0512240554743157	-27.8779095673843	-63.7736875161002	133.994194817777	-64.1468774134365	136.12571354266	-0.08872114624657	-28.0124425128351	
15223500	-0.179740707254554	-26.2807644079075	-63.3966241160641	161.119283742449	-63.0712406684479	161.492866647134	-0.294143477886173	-26.6437740655839	
15473000	-0.512452897122029	-25.35896706824	-59.1331083271897	117.939482904948	-58.6676237176258	119.119263640072	-0.779898659387028	-25.3042301952164	
15722500	-0.845868600189592	-26.8613934165525	-59.2746806283399	73.2767021499143	-58.584938758155	72.2931497024495	-1.14068797979617	-25.2680870226507	
15972000	-0.914146090935841	-29.7902989972514	-59.7345663813459	43.2934383671315	-59.7363459784924	37.4802502947165	-1.11446822786004	-27.041865294013	
16221500	-0.648960020062514	-31.9629689804303	-59.3774269972755	15.1448725969843	-59.2239742075131	12.3254032725272	-0.723971299441204	-28.8556500180066	
16471000	-0.290660332276781	-31.9623456314929	-58.5885842745245	-11.9567566564073	-58.689749409914	-15.6821029810007	-0.242971600681117	-29.2044454822705	
16720500	-0.103588746758894	-30.2752003712121	-58.4530320104656	-51.2579044239393	-58.3574582366305	-53.3242988310023	0.00939482518340472	-28.287375835695	
16970000	-0.214422162685999	-28.6608348903304	-57.7506849768046	-88.871056472272	-57.9533918849425	-89.2898908986644	-0.113509916105555	-27.2925590767054	
17219500	-0.569357016990475	-28.7583086476061	-56.8323917341349	-121.219045255024	-57.256521987346	-122.848515747548	-0.500804057095985	-27.6472014857276	
17469000	-0.885339117090803	-30.9314408714411	-55.3930990673451	-153.417788160438	-55.4756507946352	-155.059684408993	-0.86760154866851	-29.826758424831	
17718500	-0.881013475199572	-33.8909715363923	-53.1143069039205	167.911551081563	-53.2154217564013	166.80770480972	-0.928472853315636	-32.9371849069347	
17968000	-0.591250333209258	-35.5736578060419	-49.5772700425534	120.486648181656	-49.6924097945718	120.925542075414	-0.70972611980098	-34.793870525529	
18217500	-0.289145229059929	-34.8756841201946	-46.5946756348992	65.5631429329242	-46.6811215743192	67.323559462942	-0.478202654550556	-34.0357177437316	
18467000	-0.20438682263598	-32.768351661036	-45.4098349436914	6.72963783887696	-45.3913176229892	7.40523240478708	-0.43941763665992	-31.3541896255129	
18716500	-0.405574307461612	-31.4050121457772	-45.7957125772762	-47.1053791077357	-45.6926295673053	-46.3654861838108	-0.584562479626739	-29.0839767531558	
18966000	-0.798419051123029	-32.0769168966717	-46.2980922930139	-90.044371290469	-46.2827270311902	-89.7230662007089	-0.868902212829349	-29.0567834566739	
19215500	-1.05920534947052	-34.7025027776621	-46.3813533565647	-128.489172178323	-46.428621225242	-127.98899642506	-1.03289704187521	-31.315194307611	
19465000	-0.967008887012109	-37.4661626274443	-45.8548448223772	-167.71442419234	-45.9184273491911	-167.035375911479	-0.862929040037456	-34.2964398451155	
19714500	-0.606138744071934	-38.2725063790911	-44.8625869949942	148.838081862344	-45.0073276518398	151.084142057871	-0.44801683409385	-35.9769250126247	
19964000	-0.277511903063701	-36.8919500867512	-43.8443517654928	101.230478464558	-44.1277236462438	103.997477577329	-0.140130578453353	-35.7922784713583	
20213500	-0.235678887801954	-34.9822212254565	-43.2057608753162	48.6703893066426	-43.3502405117791	52.7128823298262	-0.218171859142107	-34.581246373816	
20463000	-0.526956543166769	-34.2034317850144	-43.332861178678	-11.6362645377169	-43.3611228034315	-5.51870341487811	-0.65699010298806	-33.0999672110473	
20712500	-0.929026033608605	-35.5127965047818	-45.2924886567831	-69.2914755436122	-45.0103856957732	-61.9240406068664	-1.0444296528098	-32.9783037490791	
20962000	-1.11946817837765	-38.5358374008424	-47.8401305110034	-113.865551136265	-46.9083946647629	-107.937694083024	-1.1400416851324	-35.1784046935413	
21211500	-0.948808665316298	-41.0610960208401	-48.4191952330124	-149.896540624372	-47.4802040766018	-146.225303948993	-0.90008878230666	-37.7941044486198	
21461000	-0.601391754624055	-41.2293075972443	-47.5318108051575	163.271017576511	-46.8302860376639	166.590514714259	-0.487483751570925	-38.6832804311475	
21710500	-0.377062332899059	-39.2116578390136	-47.5533002107215	109.20736220908	-46.9759556791983	113.31399012455	-0.247279799460669	-37.9482194032304	
21960000	-0.42358368161082	-37.1360966302794	-48.8426415852157	55.2874445404543	-48.1610585952602	59.3807728989243	-0.390511331635924	-36.6511339728194	
22209500	-0.770929363931401	-36.7907200615124	-50.695528216671	1.57347855125538	-49.9226950705745	6.19926970812543	-0.856637789246241	-35.9946035372715	
22459000	-1.19021637519977	-38.7125622886487	-52.9712016234094	-53.4814791910907	-51.9224021466448	-48.2450169775517	-1.27887421760826	-36.8491803699853	
22708500	-1.3168254766548	-41.4763969552719	-55.48753823056	-118.433306917777	-54.4928527435561	-113.730592667753	-1.31889264313345	-38.8781396773775	
22958000	-0.991787398310735	-42.8061412927342	-57.3012599384333	155.034678883045	-56.2263870021287	163.839658973645	-0.951501565230493	-40.4508305194953	
23207500	-0.501574428732276	-42.433728522695	-55.8732992151981	71.2122155485617	-55.6852289033148	73.151291781981	-0.47458511331023	-40.2126088739011	
23457000	-0.316927983053288	-40.9617955683179	-54.2838916646496	2.18079559890956	-54.0587586784817	2.03834925277311	-0.223399348074452	-38.7504195359027	
23706500	-0.529182959540107	-39.1810965414565	-54.1273347006345	-56.6625273277	-53.9776946052069	-56.1219001482742	-0.344669095235485	-37.5205587061099	
23956000	-0.918899863104095	-38.9582926203915	-54.7920751922815	-101.938861522144	-54.1605012419843	-101.66601330644	-0.747895842790793	-37.8687163993416	
24205500	-1.21036303056905	-41.223474636715	-54.8224183421426	-136.486631626881	-54.546081239946	-137.702643126309	-1.10444207169685	-40.3441038496076	
24455000	-1.15162846514818	-44.3327225642122	-54.6727632377702	-176.581747329885	-54.354115690578	-175.149920786281	-1.1302752258788	-43.5403211265683	
24704500	-0.798420846274307	-45.8878730359753	-54.6828827530566	142.233730426738	-54.2613672431616	142.629410002092	-0.846022803416221	-44.9528163426857	
24954000	-0.458583252056488	-44.9404066540361	-55.3237712802215	104.436936356616	-54.7827738459593	102.758253283421	-0.582133267227195	-43.9838463545746	
25203500	-0.361157815559811	-42.7583605638381	-55.4656085866046	69.6048989410573	-54.8153552841484	67.2378243899173	-0.550795857795865	-41.5674943951116	
25453000	-0.581346238390297	-41.1984254878434	-55.8856775908037	24.7442355871572	-55.1565341334159	24.4080532251457	-0.781593071126253	-39.4237310170215	
25702500	-0.969600887631054	-41.8783423984653	-55.8416228061497	-15.7639740277442	-55.3123936605528	-17.4131337741917	-1.1278319751768	-39.597116525904	
25952000	-1.18944980400559	-44.7330353974348	-55.7649756025382	-56.5785955669585	-55.2948416061442	-62.2935736328993	-1.30512821578929	-42.125171572196	
26201500	-1.0193557477591	-47.7031920347366	-55.5435511562263	-95.8307615622279	-54.7393675213402	-98.1865682998779	-1.08802090491216	-45.3106600539177	
26451000	-0.59465693856359	-48.6655262042881	-54.9518743737575	-137.951091611282	-54.7425228836806	-140.511266840092	-0.645211495141869	-46.9257555027512	
26700500	-0.28444602363992	-47.512424689047	-54.079615811997	174.944822237971	-53.8021334957856	175.246174053336	-0.342369561095933	-46.3153553794432	
26950000	-0.29594427562636	-45.5519208959941	-53.7019025014892	124.902727646119	-53.4391432095023	126.439114692059	-0.415055841716812	-44.678545347889	
27199500	-0.624281432032201	-44.7485772301344	-55.2916791336459	67.8917918133786	-54.9671129087893	73.1905201234156	-0.847951904953422	-43.0659539695382	
27449000	-1.02906464694498	-46.1144314958811	-61.3364000335014	22.3124223216504	-60.3779484936964	23.0794111644794	-1.20539473747765	-43.2706202331461	
27698500	-1.18204123230424	-49.1740161694005	-68.5090474143701	55.205543518419	-68.4249486066837	31.1085864142767	-1.29135723003975	-46.2069985633783	
27948000	-0.935095227431021	-51.7555314741308	-61.9074110948682	53.0733116711116	-61.2256378972786	46.4208866829623	-1.06565916353811	-49.2970166319398	
28197500	-0.547451651164515	-52.0148154364253	-57.1201994831881	18.8361796348281	-57.4085430968093	20.3042654143784	-0.712142424088306	-49.9892399317596	
28447000	-0.362037716854585	-50.3581293921137	-55.4334715293382	-21.1770724535753	-55.1749818178569	-22.3054025257738	-0.542994241892323	-48.4778099438903	
28696500	-0.510603644176582	-48.3832154246754	-54.4735474921461	-63.4996253771374	-54.3915155097094	-65.467028049752	-0.689148762405837	-46.153896693817	
28946000	-0.903153356102343	-47.8813309394269	-54.5165865439313	-105.175895274212	-54.0669965728207	-106.897620277908	-1.07289980497458	-44.9779472926971	
29195500	-1.25710465100388	-49.7636279695443	-55.2187442754104	-142.158320979578	-54.2896154229755	-145.194815984234	-1.40875992372883	-46.227639754215	
29445000	-1.26662780047826	-52.9673955660216	-55.5772448533929	-179.053262910191	-55.3410933429735	178.259512733479	-1.39404185543796	-48.9829684570934	
29694500	-0.89613923314281	-54.8678704928823	-56.3783314041648	138.551426532983	-55.6814788713053	135.848499245838	-1.01640923829098	-51.0105691710404	
29944000	-0.507340479525258	-54.3578328204817	-56.9052009392447	97.9850131415314	-56.6181807733166	97.4795601925734	-0.547442716835492	-51.096206418805	
30193500	-0.387258023630213	-52.395482533481	-58.4011188718358	58.7636700412541	-57.7359239295031	56.8879964648359	-0.378338397748496	-49.9114808027554	
30443000	-0.618654232007105	-50.7254706547154	-61.071255136854	13.7238562525509	-59.6232485207693	16.3949029997826	-0.633971249973815	-48.6864753329232	
30692500	-1.06090587804354	-50.9753030298816	-61.4614582292924	-27.5386610715622	-60.1212667341672	-28.2512964258076	-1.1441532252527	-48.9945266243584	
30942000	-1.39936981166121	-53.6304355778618	-64.174478612494	-66.9677812279847	-62.64613652317	-66.6091271880618	-1.57419890389569	-51.1639673311589	
31191500	-1.31471064271903	-56.9227419769043	-65.9024399512922	-86.4703190299165	-64.1774727413767	-90.3322911401047	-1.54176021329026	-53.7556467255879	
31441000	-0.922471512390578	-58.3178223259417	-66.9358633101974	-84.261926688969	-65.6230934097954	-97.082754935178	-1.10068779882141	-54.6318244177976	
31690500	-0.599303428854353	-57.1163894960878	-62.6655372613394	-102.089988198528	-62.1966016417133	-111.018437445633	-0.633869108567819	-53.6550315697349	
31940000	-0.585081056337385	-54.7044544360802	-59.034540039986	-145.092748338185	-58.7118910055722	-150.331955880436	-0.545031378727403	-51.8855053732344	
32189500	-0.914318503995029	-52.9480846779561	-57.196105313739	173.678017093683	-57.1542211971683	171.774859188145	-0.897029991287818	-50.3350699599124	
32439000	-1.3622256880626	-53.5211260966852	-57.1864781376116	138.633178663597	-56.9624092953039	134.923490853966	-1.36244306376089	-50.4558553134784	
32688500	-1.55811221334593	-56.2772335276744	-56.9470158788201	106.303727515837	-56.9127034841752	100.086935285047	-1.59620669464441	-52.8798007323761	
32938000	-1.32245303809009	-58.9979111159898	-55.8654274936721	72.4142491728594	-56.0990351444298	69.7344253527034	-1.37620571303059	-56.0514694376943	
33187500	-0.856221716586743	-59.6200187423155	-55.1801473299579	39.450282797199	-55.1527375771175	37.328862526436	-0.891383820204757	-57.3707579940742	
33437000	-0.531191909901797	-58.1507013705922	-54.7288098378361	9.55760800393677	-54.8670063159657	4.20803037854512	-0.549478068310311	-56.5425146789479	
