!Keysight Technologies N9923A: A.12.45
!Date: Tuesday, 05 August 2025 20:43:51
!Timezone: (UTC+08:00) Kuala Lumpur, Singapore
!Model: N9923A
!Serial: MY61181427
!GPS Latitude: 
!GPS Longitude: 
!GPS TimeStamp: 0001-01-01 00:00:00Z
!GPS Seconds Since Last Read: 0
!CHECKSUM:0028035385
!Correction: S11(ON U)S21(ON U)S12(ON U)S22(ON U)
!S2P File: Measurements:S11,S21,S12,S22:
# Hz S DB R 50
2000000	-0.102195353974818	-2.51944152386357	-77.542741554467	-112.299061170929	-80.2285679134169	-122.277328727052	-0.141554386074123	-2.4010490524871	
2249500	-0.4454096891716	-3.22429573377341	-79.3970286750585	-136.005005672843	-78.9548630291005	-104.75109117847	-0.47742130908747	-3.1284455519013	
2499000	-0.602304646408354	-5.06879448890922	-95.7096786199893	-71.2293672117548	-95.8036324255787	-50.1907120894797	-0.629450349106252	-4.79820380574103	
2748500	-0.426701260692878	-6.85450152104346	-87.4250330201885	2.63163941558707	-85.1947938371571	-99.3903471911386	-0.460718406267715	-6.66769093554851	
2998000	-0.0736101451551668	-7.45351457700968	-83.8951050750509	-54.9872144977013	-83.2423955632117	-126.877416072053	-0.110618294651592	-7.25622957409448	
3247500	0.160652127570197	-6.83387389856547	-82.4451269861312	-89.0349191499125	-81.3858576612022	-123.109981835807	0.118288002193952	-6.57766037744963	
3497000	0.105556070094667	-5.91729602660608	-74.9001497215735	-93.6948208340487	-75.1071221391053	-92.7901904562574	0.0645826601563176	-5.56476978538283	
3746500	-0.239112481579844	-5.75025288912426	-66.3978210834649	-114.354803905682	-66.3072926943448	-113.736854327503	-0.246740032173861	-5.2459598312235	
3996000	-0.57497303394201	-6.59099795452672	-66.0994572880043	-153.408438269008	-65.5704694804209	-148.980872332127	-0.571649831820524	-6.34889194404153	
4245500	-0.657310258993529	-9.00491019242467	-53.8706603211246	-140.935429739443	-54.6265261904885	-137.634832397732	-0.66072211131219	-8.56229247406944	
4495000	-0.507343323869216	-9.56509134017579	-43.4050030320951	114.206856366954	-43.3672187418299	117.712771867093	-0.495587379459153	-10.0287967477438	
4744500	-0.0274426127556102	-9.62025514013496	-45.3107657329201	22.6702563183707	-45.0926591564347	23.1423403150554	-0.204480958043203	-9.36880112570704	
4994000	0.167895909354305	-8.82856369810553	-50.5525037465442	-38.8605628662059	-50.3593700674699	-38.1036205739077	0.0738672782862655	-8.058456134215	
5243500	0.0297744272958935	-8.00846882290985	-55.4921933539944	-68.9103638067498	-55.0868081101753	-67.6922087439222	-0.0204311643215337	-7.37656506573281	
5493000	-0.3262555041876	-8.20986769432485	-57.5628934097771	-70.7262645360891	-57.7260279487873	-72.2886990555741	-0.38811837869083	-7.7177652916416	
5742500	-0.609170556922963	-9.91006796267875	-57.4507531356492	-91.9893325870573	-57.5593896755532	-88.6866388848975	-0.643704184936695	-8.93341159216818	
5992000	-0.571537938851752	-12.1424295432315	-51.0731528914016	-88.2196275567124	-50.5194573186116	-87.6056786331991	-0.61713088989706	-11.1658913024666	
6241500	-0.256370065108614	-13.5151424146582	-48.7759460787071	-145.417300575014	-48.8906968174262	-145.902171600529	-0.307273855485853	-12.4232553356216	
6491000	0.0590917770106911	-13.0147005091195	-50.7511587467464	149.447514538487	-50.9235249713158	148.612734377909	0.0299310902407942	-12.2285785140744	
6740500	0.160138843272188	-12.0445276382766	-55.3704461557877	120.005703800983	-55.6334976057338	120.734920300151	0.117422705353251	-11.3010477109117	
6990000	-0.0736187270361828	-11.4696875485725	-58.1626270068271	108.343003119399	-58.0780099767628	109.932302934055	-0.108857975754955	-10.7152473096123	
7239500	-0.46020348117157	-12.2235488746795	-59.0178018806122	103.953450316048	-58.8227320758039	106.11302836317	-0.470513433905263	-11.4439463072697	
7489000	-0.685915593400565	-14.3051216703675	-56.950700745359	101.948426113858	-57.0603725544315	100.077627776078	-0.67766177640752	-13.6012192880985	
7738500	-0.551902038242016	-16.3880758873284	-53.6497032184602	84.1821096895575	-53.7928341021899	84.3875480753383	-0.547411594626702	-15.8262045988624	
7988000	-0.187393756764699	-17.3532386120176	-50.3428746662059	66.496124886537	-50.3699026222235	65.904454557429	-0.202862246943658	-16.8274760894259	
8237500	0.0410064441736458	-17.0896709101752	-44.9162735848075	45.0024895887622	-45.066208712661	44.7659078977715	0.0420540426968388	-16.5263827666281	
8487000	-0.199440641460204	-15.8767716366515	-37.650008840567	-10.0042826999332	-37.8259996620199	-8.33115604124385	-0.114288399271361	-15.3918252544949	
8736500	-0.510925822557797	-13.2577536730965	-34.9794881601037	-97.2319175367358	-34.7656801436618	-95.2278323132316	-0.553737114131331	-14.2992152018192	
8986000	-0.717606505944987	-13.9474947082173	-39.1604642387871	175.396067000926	-38.7591207651977	175.658804079201	-0.881211163379858	-13.1788918425403	
9235500	-0.736249695699095	-16.6080041192886	-48.2923804446332	125.539284875776	-47.8060290990921	125.679641671016	-0.766389517112479	-15.6148380130384	
9485000	-0.465058090340153	-18.9814969193479	-58.2832568342131	105.809368546585	-57.5438394376265	102.196956094071	-0.489114019106172	-18.1812270138361	
9734500	-0.0860570573976829	-19.7380728377872	-62.6203726833246	-143.255705276171	-63.6472441998406	-142.0771032709	-0.112561367117049	-19.0676668316003	
9984000	0.0525394692556493	-19.099592843435	-47.3086720689506	-160.958166087365	-47.1828967257538	-159.935577073106	0.0460172988572435	-18.699683672647	
10233500	-0.141962419501535	-17.0349687683891	-39.5666038073147	118.63828199796	-39.166580031398	117.824327691709	-0.249839763616092	-17.5305248791235	
10483000	-0.394901106997736	-16.6394730758415	-41.3443407883281	34.6581100194278	-41.0623249911868	30.75766265533	-0.683069359886824	-15.6638778924353	
10732500	-0.676223766763038	-18.3566302067462	-45.7907839901932	-15.9691308483116	-45.9716342272299	-19.2019980576362	-0.870725854644668	-16.3315807088187	
10982000	-0.670325569855784	-21.0272460851462	-49.95467316412	-52.8127424659143	-49.9694200934943	-55.1563324459501	-0.779370732895954	-18.7069607551109	
11231500	-0.358597616855012	-22.8179138868106	-53.0033510431834	-81.7425934743476	-52.8694756406798	-83.8831011657246	-0.426443187966668	-20.691363473751	
11481000	-0.00460167495057231	-22.9090848868654	-54.8486433983983	-112.997245351203	-54.9062291336082	-114.764208267969	-0.0337151732701063	-20.9717447912095	
11730500	0.0951643854203582	-21.9057742454126	-57.8272706415513	-158.328242294783	-57.9098736066523	-159.731937832551	0.106718312702077	-20.1405563231626	
11980000	-0.182648602404883	-21.2547170261125	-66.2266641814159	173.301615573077	-66.2481623975436	-175.816706623389	-0.0850668435036943	-19.411050064829	
12229500	-0.806932560568311	-20.3225689315223	-64.0765439827169	-150.669306210777	-63.1351920684644	-145.234198872207	-0.474312382354197	-20.1489601440014	
12479000	-0.882197014237341	-22.4791349596762	-62.5358618183237	146.195175750527	-59.7814399884459	150.81941330373	-0.853707183717876	-22.6504009376197	
12728500	-0.876661835212254	-24.7586097039583	-52.8025552035707	77.7753033258275	-51.5579745513475	81.1207748458711	-0.955054049031002	-25.5086987524474	
12978000	-0.465820333685545	-25.2579135434852	-49.0148046275409	-49.7907176303537	-48.3504746814895	-46.1804846425204	-0.820888968769488	-23.7413396883728	
13227500	-0.0525789298707524	-24.6500500323279	-52.2270863807062	-133.629016499065	-51.93204913012	-131.044085003217	-0.165248292759602	-22.5829233830673	
13477000	0.0213850426772808	-23.6271331849894	-53.9740907767046	176.896705092764	-53.9488853125726	179.34545561929	0.012238663717841	-21.9399058659362	
13726500	-0.265704841737671	-23.3007617630133	-54.4856478214252	141.616589206001	-54.4537505072145	143.504971379432	-0.219777901442827	-21.6868524989555	
13976000	-0.728362931641267	-24.5866039576613	-53.787071103437	105.236187487782	-53.9021652809842	105.143295133546	-0.601315786428771	-22.9272030659879	
14225500	-1.06269334836056	-26.7291272839144	-52.3943421729347	57.7174644749436	-52.383028823171	57.6514113612879	-0.806877377187981	-25.6577142077194	
14475000	-0.791679170461572	-27.6803096052128	-55.7249077142262	9.56070359946101	-55.7260647092899	6.6116473731187	-0.686474972603015	-28.4295560433971	
14724500	-0.32188186073125	-28.8947576952973	-52.740630268183	12.6876722909364	-52.589281041875	10.6347360039379	-0.484068951526217	-29.6834255467527	
14974000	-0.157595012396812	-27.7665118060018	-47.7711665544856	-62.5823981786468	-47.3905741015199	-67.2902947280051	-0.559789585828702	-27.5559013769938	
15223500	-0.209645257574752	-25.926320728228	-49.7416027234854	-143.723419933434	-49.8556096594382	-152.874090803779	-0.510903970428967	-23.4324337444293	
15473000	-0.581211488145988	-25.5839781671851	-53.0922465337277	143.461442464623	-53.3501280735192	134.91244628281	-0.608338747910386	-22.2869366583323	
15722500	-1.06081082075853	-26.7081604329753	-55.91005014362	47.7993525877968	-55.5473867255626	39.9345692304487	-0.803021738002985	-23.8707282383396	
15972000	-1.16313725465148	-28.413235665233	-55.0569549022611	-45.5348918439537	-55.238469171617	-46.3899487084873	-0.810778254680252	-27.0676149384408	
16221500	-0.718264489564831	-29.6561063171961	-54.9116028622862	-117.00727735011	-54.8145144734908	-115.217605596335	-0.522614230153199	-29.7838638358834	
16471000	-0.164810621550695	-30.1256692454813	-55.2700017318036	-169.098597121288	-55.4436311595231	-165.268447562917	-0.16250966241257	-30.7953151083157	
16720500	0.0984417420952811	-29.428068944517	-55.1114281014394	154.233978849916	-55.3304861474993	158.877655757906	-0.107335701997151	-30.3290506582485	
16970000	-0.0315533024770753	-28.5795486654905	-54.6603220922498	114.034355030725	-54.7653171415087	116.937397257531	-0.441274267531558	-28.7965971053919	
17219500	-0.428958853140726	-29.030902696626	-56.0586310179915	64.9620849406543	-55.7978428305056	67.5832962221178	-1.03189296860683	-27.5672969534186	
17469000	-0.777471906400386	-31.3218434102584	-61.8579853763046	5.39324887425584	-61.5442893112373	6.83761146740632	-1.29580142702036	-27.2780169890561	
17718500	-0.790144302310378	-34.3386389453397	-71.0761499550337	175.754839184362	-71.5540606442445	162.603848260685	-1.08359857366755	-29.4459185591654	
17968000	-0.50668395403798	-36.2126183835639	-58.1971352331413	85.9233724415825	-57.1455477652578	83.5061329884474	-0.607338132570474	-31.3675829403448	
18217500	-0.237756209888359	-36.0728528351003	-56.1223958218702	38.2685013673858	-55.4774869654684	35.122114547512	-0.148360027185959	-31.5624050823001	
18467000	-0.317352593719183	-34.5154741257767	-56.525725788264	0.271361660759919	-55.8836589079625	-4.40377276462193	-0.00456162825934053	-30.6728722335062	
18716500	-0.772173991618573	-32.4238797956782	-58.1249262760261	-33.4029856842418	-57.416585793732	-39.4992696993431	-0.226935824637229	-30.1122607677454	
18966000	-1.23327984932268	-31.0895664041338	-63.8442832387723	-44.7197863896711	-64.8918147104543	-55.0012686000018	-0.672513580005005	-31.2513874882658	
19215500	-1.3418570658647	-32.2976562589006	-53.9429587377498	-6.0216590070006	-53.7397470054836	-3.123204065898	-1.15932683755408	-34.5441496500795	
19465000	-1.04478632206041	-34.7522636394137	-50.6546579190626	-114.853724335538	-50.0938224896303	-114.91991551279	-1.04132383662432	-33.9291733733209	
19714500	-0.523219616920244	-36.0946609729042	-68.8932146786807	-178.873862618157	-66.5393765515726	169.400149478365	-0.525940847935438	-37.2729267169876	
19964000	-0.125812138001204	-35.6179265761113	-53.4549655146832	-29.1089905629575	-53.3347076250742	-26.5932023860816	-0.522397215239878	-37.5777118978739	
20213500	-0.0994606780940741	-34.3923591502305	-45.9932704084578	-97.5093409027899	-45.6578176795794	-98.5425029788468	-0.724959860575505	-32.5642133528999	
20463000	-0.433720740465404	-33.940233133371	-44.8278058870105	-146.434913039608	-44.6926287425385	-148.504946158558	-0.698779678656653	-30.5319121358319	
20712500	-0.891235866185164	-35.1980873405674	-43.842832452428	175.726376903029	-43.7175887416855	173.970025270532	-0.94637541813519	-31.5773939865071	
20962000	-1.09285295092616	-37.7718481607538	-42.9629759417162	137.528234620439	-42.8881773732715	136.266780849558	-1.03835601897634	-34.3224408984553	
21211500	-0.842001783527113	-40.0679047385102	-42.6253743326974	102.190627510652	-42.6029893831209	100.807088136859	-0.793247773221674	-37.1750584641587	
21461000	-0.394475258568052	-40.6920577277521	-42.0007231864704	68.3312641100377	-41.826665397081	66.7961835418851	-0.37191337030114	-38.3868481851334	
21710500	-0.148902660593203	-39.8195665652588	-41.7954573030927	33.6275816298523	-41.5204826233713	31.4193266006431	-0.150677049279904	-38.0772811878625	
21960000	-0.316707410443098	-38.6771617046969	-41.3641835641302	0.482494717684333	-41.1244792848542	-2.40757380461893	-0.345548717028788	-37.1873755433663	
22209500	-0.833241969001732	-38.4223608782692	-40.6406041627756	-35.5467694029696	-40.4231489165139	-39.2444624806402	-0.911761772234144	-36.8089800895219	
22459000	-1.36619726942718	-39.673015544792	-40.1287439816925	-75.5228998340491	-40.1498383647917	-80.1915000396212	-1.47219442810722	-37.443703324085	
22708500	-1.48037482748802	-41.5777870819907	-40.4813162287424	-118.984008448504	-40.6767356560037	-122.790548340722	-1.60014603899104	-38.7493004975275	
22958000	-1.09369859755088	-42.7553378379393	-41.73431050646	-162.657938805479	-42.0962560776691	-165.530425264577	-1.24487141767598	-39.5367385711633	
23207500	-0.637436153839264	-42.2942486370823	-43.9332768269009	156.314918352907	-44.2971093050049	155.500755729041	-0.696210588681475	-38.636631255628	
23457000	-0.427591348432326	-40.0807812014577	-46.9482318532152	119.266775647567	-47.1681947781347	119.737155826403	-0.350008919774545	-36.9994378066276	
23706500	-0.5228248132296	-38.1571199482396	-50.9036160400037	92.5902081715257	-50.877508178176	92.1469723348103	-0.399013795918516	-35.7356294365711	
23956000	-0.860292355297174	-38.2181371649155	-55.7450032930702	76.2917132860364	-55.2551666090852	77.0990637248191	-0.736564857250624	-36.0312939021721	
24205500	-1.13828717131494	-40.6179525311019	-59.1187396404617	82.3686148818937	-58.4985810261809	81.1408236495511	-1.02239298248299	-38.4755130601768	
24455000	-1.06178416293871	-43.8378351826711	-57.4053283573387	95.5329439448902	-56.8106293078004	90.2397817135186	-0.966422878910732	-41.7613979172931	
24704500	-0.691100924132245	-45.6567200921433	-53.3368240874346	79.9282761502554	-53.2848461865206	76.9059248822974	-0.590546784511229	-43.5922130608915	
24954000	-0.354394457191358	-45.1473771521692	-50.9865279165211	54.6487135276436	-51.1464205652849	50.0239963264337	-0.255014509729024	-43.5311601267061	
25203500	-0.286942855855969	-43.3476941921802	-49.73491889464	26.1766667870358	-50.1015063324555	21.8962128610117	-0.227072115832747	-42.4187460377363	
25453000	-0.542840652727127	-42.0646056432275	-48.8390816285389	-3.95886330533809	-49.0193991842516	-5.00237847011258	-0.582585856209676	-41.5358509511466	
25702500	-0.967734744972942	-43.0008923586647	-48.0289809175888	-30.5031330456717	-48.2369717899848	-32.5969344048488	-1.14565193766538	-42.3365212501761	
25952000	-1.22765465884432	-46.071357690731	-47.2530872612175	-58.9510848426228	-47.591470123939	-60.7119347288576	-1.5475050231235	-44.6773947305339	
26201500	-1.11507757140643	-49.2295548828451	-46.7131309949231	-85.024761048032	-46.830555448881	-87.855553967759	-1.52062684215581	-47.0111846106993	
26451000	-0.78020243129436	-50.2982892850464	-46.0150987077944	-115.545033382245	-46.1370556857416	-116.873412437055	-1.20115648520056	-46.8969953574586	
26700500	-0.614491137752501	-48.9337768099259	-45.3808678134762	-147.987660564447	-45.4357836344863	-149.061351793757	-0.788228685051612	-43.9489076231398	
26950000	-0.778008419867108	-46.0590161359712	-45.1068147266482	178.372099231578	-45.1826755722731	178.089890575141	-0.471193675802475	-41.3658241439259	
27199500	-1.16174524943371	-43.7001462979573	-45.6314658117931	144.648325479003	-45.6391112664574	143.057248254724	-0.580163183390008	-41.5564941608806	
27449000	-1.49178785207409	-43.6857889875377	-46.9804839205217	112.942895819418	-46.9339635262062	111.084670861728	-1.11442010103801	-44.3319139495466	
27698500	-1.49812477876881	-46.0244566612283	-48.6439429440538	84.1418758799585	-48.6779739710825	82.2953644126261	-1.58999057849723	-46.8073660398817	
27948000	-1.08869494942214	-48.4766226042132	-50.3450582140969	59.003886853363	-50.5826815901437	56.2011531300399	-1.43674954440591	-47.8486952423605	
28197500	-0.521824664139775	-48.976718281132	-53.1031092914146	35.0431359954438	-53.3908845085467	32.4644409325915	-0.922399526446721	-47.0726154013093	
28447000	-0.176688482626241	-48.3017175654001	-55.8954659294523	62.1252797506855	-56.3997303432915	64.0597731300517	-0.482294876697354	-45.5173464271265	
28696500	-0.313088297777025	-47.4504779433042	-50.8671580092533	48.7397478563074	-50.5432866324893	48.2031427880809	-0.461847462103809	-44.0129684704574	
28946000	-0.786048175989869	-47.4748845833069	-48.4481274058831	16.8418753841732	-48.2353748159167	18.2082330029193	-0.787040869500214	-43.7696421167647	
29195500	-1.22278089434875	-49.0485598811821	-46.9177241549742	-17.4786988892079	-46.9529244196261	-16.9633497166206	-1.14339006061712	-45.7154462177116	
29445000	-1.2177469897764	-51.6776745130478	-47.0019275454084	-51.0020937217707	-46.6942473760716	-50.1853412618354	-1.18162994060889	-48.8993038639494	
29694500	-0.770996968286722	-53.4989454892529	-47.5053776291516	-79.4254523186099	-47.3259204640526	-79.0764600070259	-0.880309206726174	-51.2663932152585	
29944000	-0.313416289823171	-53.4489549678734	-48.177535411951	-103.873256330331	-47.8517958239609	-104.116116812982	-0.484376683780337	-51.5385246081225	
30193500	-0.173341993956362	-52.2272316790267	-48.1179956977956	-126.799768608416	-47.8203455112255	-127.838948560073	-0.378732774617443	-50.4598857618543	
30443000	-0.445766601650092	-51.2792208267671	-47.8022768814812	-149.373293949907	-47.3842451710312	-149.44264328538	-0.689176504055536	-49.2861463832648	
30692500	-0.973476453984579	-52.0522695860063	-46.7645910291147	-172.551305183925	-46.2520105984493	-172.82740376872	-1.26423125280242	-49.6258807795963	
30942000	-1.4337423632624	-54.907773234543	-45.1568727529237	156.389812071169	-44.7216599913729	154.278422970385	-1.79631213872797	-51.4839736620678	
31191500	-1.49388369289758	-57.9552039457348	-45.3410397688686	112.365916550294	-44.6196394240046	108.530565194347	-1.72942892612681	-52.6815456763757	
31441000	-1.21324546353695	-58.3569296582836	-45.5984349124066	87.4840164707459	-45.1757934065875	83.237774311685	-1.20135679322699	-54.7013959730298	
31690500	-0.821046852354766	-55.7501181481379	-47.8898820256505	39.9747033965851	-47.8019091851682	33.8637736402288	-0.726274110206173	-53.0630410748309	
31940000	-0.551921605473146	-53.2485021290446	-51.2424919501781	26.1272266939048	-51.635516159076	24.7133769708393	-0.655438662719973	-51.7564421522117	
32189500	-0.856660491425234	-53.0597351699799	-51.1246917880382	25.102788230538	-50.7211376958456	24.9055538761936	-1.11216353981388	-49.6920472977938	
32439000	-1.46422332817129	-53.8351386091552	-47.9626122218652	-9.67936526467904	-47.383228825629	-12.4724563458722	-1.55553818416298	-48.8212138726749	
32688500	-1.74928595178713	-56.0887505444236	-47.7331790042512	-52.1125746549969	-47.2665271787777	-55.6785549812108	-1.68527853043745	-50.7643317661709	
32938000	-1.52371642390954	-58.1314879591572	-49.0987186346258	-89.9221514567592	-48.7197364912495	-93.0912196527261	-1.36642061259423	-54.049793617944	
33187500	-1.00014887457724	-58.2845549997819	-51.5579150713968	-125.102948266226	-50.8972093769595	-128.210646442566	-0.813110633132743	-55.7906749269439	
33437000	-0.599094019743249	-56.6717061264649	-53.5933305185257	-154.518906463119	-52.967295542314	-159.096364753138	-0.426045863592107	-55.507258188713	
