!Keysight Technologies N9923A: A.12.45
!Date: Tuesday, 05 August 2025 20:19:07
!Timezone: (UTC+08:00) Kuala Lumpur, Singapore
!Model: N9923A
!Serial: MY61181427
!GPS Latitude: 
!GPS Longitude: 
!GPS TimeStamp: 0001-01-01 00:00:00Z
!GPS Seconds Since Last Read: 0
!CHECKSUM:1555700969
!Correction: S11(ON U)S21(ON U)S12(ON U)S22(ON U)
!S2P File: Measurements:S11,S21,S12,S22:
# Hz S DB R 50
2000000	-0.102693835301909	-2.23513551702119	-76.9245348035723	93.6292216516879	-75.4479989703555	82.020749369609	-0.1413608222921	-2.00243290275638	
2249500	-0.444652992286335	-2.95341987269087	-64.3111412141472	63.9748891761436	-64.6053542586104	61.1137595615911	-0.479541655352082	-2.76748517683951	
2499000	-0.603442584787983	-4.76808379770627	-57.5284747206964	-76.9106613976242	-57.2432275539414	-74.5097042430994	-0.654203786628056	-4.19508352681248	
2748500	-0.43777294392044	-6.56662174078749	-71.1260347595282	-122.994332371819	-70.661023937909	-126.828031159375	-0.474196343743793	-6.17832505354492	
2998000	-0.0868434686087743	-7.1854074683943	-75.1368205298239	-82.4696330918995	-73.0038858635305	-76.3152479399148	-0.129168745575704	-6.88449458763494	
3247500	0.145565326833107	-6.5859137363234	-71.1329900983887	-106.829891651737	-71.6643109136289	-101.5734806174	0.0984426092946928	-6.13370518540172	
3497000	0.0973496792392915	-5.65921471708268	-69.7877041114386	-113.704356019306	-69.3315320457681	-112.023959582632	0.0457473349807694	-5.19999691173879	
3746500	-0.217799300688088	-5.42142117273846	-67.7671894463763	-122.468935517802	-66.1831773182959	-125.240911702597	-0.260438255255124	-4.90818742600943	
3996000	-0.557351281899279	-6.47040919889455	-66.2381905408045	160.944454125093	-65.0372118533442	151.884809799746	-0.57752499346025	-5.95331671938061	
4245500	-0.603325321934846	-8.48047776897408	-78.571947050136	66.5279041326138	-80.8872478191746	118.830326013345	-0.639449390241139	-8.02144338433321	
4495000	-0.345981060254562	-10.0586184665478	-91.7795811884597	34.2666351987903	-92.7479836062889	52.0317756026103	-0.390757409193437	-9.5883770131992	
4744500	4.61557629668363E-05	-10.2099915342856	-85.5579410030552	-86.3060896063051	-82.9281008826805	-48.2319480205226	-0.0479130419388792	-9.85022770280029	
4994000	0.155571641996814	-9.38299471192262	-69.7716186053176	55.3713523118054	-70.3405148510987	45.6261483254549	0.103272267151587	-9.21896835958027	
5243500	0.0131094169225637	-8.2776871578477	-61.1928188728447	-112.020343318045	-61.6834194986874	-109.485586490144	-0.0297261735529855	-7.63617343286142	
5493000	-0.345390755387834	-8.54636713665144	-58.266802752002	-119.276144369081	-58.6720942442244	-117.751931513903	-0.376396138195827	-7.99863411915214	
5742500	-0.648738418083706	-10.2969300315117	-51.7434520484865	-139.39643408342	-51.6288940540833	-138.128322322092	-0.650509968465847	-9.56810219146337	
5992000	-0.637946688009918	-12.3760618431546	-58.5884317217014	89.3121476459449	-58.3707548511658	86.2931010012246	-0.612962037707951	-11.3932301705764	
6241500	-0.289274104922074	-13.1469748671241	-55.0220164460487	112.294147849649	-55.2014136418486	112.41507643537	-0.310871559336944	-12.6190281338011	
6491000	0.0591593464815642	-13.0231634717499	-56.8381112132824	97.4019323334766	-57.1403430398321	96.2857564026403	0.021595034442948	-12.4120319735115	
6740500	0.13911116203038	-12.0928805895039	-57.9690937033259	87.038818693604	-58.026377513629	87.9690636787531	0.0991954674775671	-11.383292201288	
6990000	-0.103921103155453	-11.4966919488314	-57.790833940029	77.7955431091518	-57.7614115061689	78.119997125834	-0.126822995963496	-10.6669417597797	
7239500	-0.507411808707447	-12.1598021144368	-56.6174847294597	63.5538390329302	-56.7122322889753	64.2013787528052	-0.483407663137108	-11.2377428522022	
7489000	-0.739536204574245	-13.8957062842001	-56.0130746797151	44.6433536910687	-55.8789532905354	43.8265207912246	-0.68597097202551	-13.1884957686563	
7738500	-0.585291650850372	-15.8413325122831	-55.7986215507658	37.7391539968723	-56.1317791519944	38.4412246337056	-0.556309403590926	-15.189426663183	
7988000	-0.243166374243543	-16.7156774556714	-52.6313049071991	28.7745969850408	-52.4301637260981	31.143585885603	-0.206428133499637	-15.9587691685438	
8237500	-0.0325852246681816	-15.3645861480467	-48.2084320859987	-23.7327416314632	-48.1412011693649	-24.2821600268774	0.0685008255895792	-15.2520348929119	
8487000	0.093407492414619	-14.0576699091698	-54.685700691971	-80.7312595491085	-54.4466385486971	-80.8621458982735	0.0635311397599341	-14.0315727117968	
8736500	-0.188777928199754	-13.8940232945376	-62.2087043669579	-93.0646393553506	-62.4882541464419	-93.2142576852659	-0.224922780396103	-13.4954204864928	
8986000	-0.552831482342426	-15.2087205371743	-75.4371707186842	16.5396532278346	-74.2672422506935	-1.27011801705103	-0.582043304485217	-14.4896837981449	
9235500	-0.707729426650392	-17.8098375661205	-54.3812153832644	22.5401523076557	-54.6688503079571	24.2664992436391	-0.701262410470359	-16.6638010082525	
9485000	-0.515873517938061	-19.1046379249824	-47.4869450962742	-61.063810453453	-47.4383088684488	-60.7694851874287	-0.487603945157566	-18.5159619281988	
9734500	-0.0698929161215781	-19.6638378502242	-52.4227061500442	-94.9653297248845	-52.5127670800461	-94.6446555431443	-0.111977019791899	-18.9309708702991	
9984000	0.149401220906036	-18.9307747526421	-54.3400898522215	-104.416387814136	-54.3535037978879	-103.926353524904	0.0983083686369719	-18.061129953155	
10233500	0.0372841570643303	-18.0321188258297	-55.1254361888164	-110.702908426763	-54.9628484737154	-110.166853978226	-0.00337280409781107	-16.9689995668208	
10483000	-0.326408266030672	-18.2589742505029	-56.8060920711402	-102.487207491174	-56.6963434433707	-103.579013883397	-0.363220962019084	-16.8473625766907	
10732500	-0.669493931878731	-20.2728522804203	-50.682692099539	-86.5307765589805	-50.7908480943635	-87.2281026849095	-0.68756859106254	-18.2156449591613	
10982000	-0.722400891342143	-23.5364335262026	-46.5327486126206	-104.272818610766	-46.4525864421423	-105.084292731148	-0.700968300971274	-20.6254199465765	
11231500	-0.639302321066363	-26.6813807099421	-41.102156349711	-127.769458207699	-41.0259958840394	-127.74058300303	-0.412120481245927	-22.4159525310734	
11481000	-1.10633562380157	-24.0217662299111	-34.2690714113343	171.440743748911	-34.194436643641	171.44729873658	-0.11988208825736	-22.9121664282285	
11730500	-0.511370450257051	-18.5288315500499	-45.7481354820696	135.01158065066	-45.7626580308693	134.700521251102	0.0742489652536213	-20.2943882980918	
11980000	-0.422818164030196	-17.0008404320163	-43.1619106778145	110.811689892565	-43.1597843163617	110.497673761558	-0.114697344658732	-19.9561558787332	
12229500	-0.599685276613436	-17.6310877003332	-47.1541193024432	93.956690130271	-47.1809060720709	94.5170686947986	-0.479301771219908	-20.2131888272838	
12479000	-0.792747396389807	-20.2578308069119	-47.1300403819146	87.7863210655544	-47.0481154997939	87.4274164976947	-0.743099299920263	-22.4102996543478	
12728500	-0.673050752308724	-23.1872304318812	-46.6436766866647	82.8334003055695	-46.6700547647901	82.5316013502977	-0.671571928766326	-24.954909496449	
12978000	-0.298545779343262	-24.709407767288	-45.3722793099734	76.3405589417007	-45.3882080191838	76.089303813095	-0.323563718403522	-26.3691736719802	
13227500	0.028815074757433	-24.4659214164562	-43.373835507323	67.4582401920723	-43.401982992608	67.4911524395262	-0.0239362814568147	-26.1982282814885	
13477000	0.0485377045173592	-23.4544962877869	-40.6969501172453	55.5275123382157	-40.6289583352793	55.3663628147535	-0.011075577865253	-25.4779236036059	
13726500	-0.286010073759244	-22.9983305923398	-36.8836362715598	37.0276402972025	-36.8164885640758	36.7057791042572	-0.345886866298689	-25.4992181895544	
13976000	-0.839011201373717	-23.4423149198695	-31.9484761605137	-2.25923293194507	-31.8774328282853	-2.45616141858759	-0.913656620236182	-27.1974918228678	
14225500	-0.890572750686176	-24.2513707391075	-32.1467889383594	-67.7149323167334	-32.0811360890632	-67.947287332461	-1.19621710555501	-28.8767996689427	
14475000	-0.568120855120692	-27.0381315405722	-36.5568737747129	-103.242080167042	-36.4299219218807	-103.776438612005	-0.99553679899546	-32.1772047402702	
14724500	-0.190106359422724	-28.1589834436455	-41.7603416218204	-108.562517200806	-41.7006510229664	-110.230582705499	-0.893820037259245	-35.1601673699569	
14974000	0.00880828547255544	-27.1418162873445	-34.1184307704291	-92.9120401137566	-34.1913585575778	-92.9026268105447	-1.95209330740933	-34.530356023435	
15223500	-0.0458760572431166	-25.6090903601505	-32.9914642417834	177.164109054395	-32.9641718517448	177.032757734898	-1.52690683534205	-17.52633424341	
15473000	-0.362245836944884	-25.2021836435948	-34.8727594117372	-152.744348515619	-34.925172977848	-152.737911556023	-2.31855815813988	-29.4927630777338	
15722500	-0.681089152278688	-26.6332148570794	-39.6786713574766	135.306203276047	-39.6711030844795	135.10835982485	-2.46023175196821	-14.3654114959695	
15972000	-0.762188887850797	-29.7365789570487	-40.2509156312372	123.626697666649	-40.30287352959	123.256183903067	-1.52575456978414	-17.6209106716941	
16221500	-0.485197755264332	-31.950371929542	-41.9994387190676	105.486827815855	-41.9536432030985	105.61924250528	-0.878563514281277	-21.9869591110569	
16471000	-0.0948655846890863	-32.3859339241627	-43.1773861462944	91.5156157573682	-43.1684995832215	91.3129884108147	-0.308569186566043	-23.9140259549636	
16720500	0.0730194897066443	-31.5354934745235	-43.8512986931213	78.8799563030635	-43.83569383023	78.5391260598114	0.00265249642850458	-23.889338804907	
16970000	-0.125073563386236	-30.6681560871113	-43.9049900880668	65.2763817771728	-43.8539837782876	65.1984293825075	-0.0680353736222859	-23.3497944909306	
17219500	-0.598920670142146	-31.2380009094179	-43.2522435312408	48.7374325105942	-43.1143588661436	48.3307274116814	-0.409303833978854	-23.8457438568338	
17469000	-1.07861014194975	-33.5468337057183	-42.0382270606485	23.5908495636928	-41.8966680861831	23.2150293405272	-0.735464724111148	-25.9576155784196	
17718500	-1.23984630214914	-35.495724595408	-41.6613270831241	-14.8464329564039	-41.591550922943	-15.4473676030892	-0.742293581028116	-28.9305824301982	
17968000	-0.853116478675561	-35.8689756659267	-43.9406902173719	-58.6794870156846	-43.8361791816898	-58.6132890187829	-0.410891511171956	-30.9873060098611	
18217500	-0.392139320714367	-35.6035840595253	-48.1156444508599	-101.367853334424	-47.8789887260107	-101.046225951599	-0.0325455524563431	-31.3183125143494	
18467000	-0.327938695210534	-34.933639166793	-51.8022092734203	-175.439825793914	-51.6184079058701	-173.108628853513	0.0426906182689082	-30.8837057165643	
18716500	-0.782686744748442	-35.1482482120635	-41.5022243088048	71.9088395343243	-41.6780315355825	73.064661543378	-0.52221544224181	-31.4969353674921	
18966000	-1.84624382474664	-36.3834115157092	-38.6434219146309	-86.0279089197096	-38.6717034175905	-84.7947953664111	-0.74946346582492	-26.475990982909	
19215500	-3.05229574720027	-32.5876378167507	-51.6021904185722	146.795066908097	-51.0895752931997	149.538241571675	-0.850924870317648	-31.731722921901	
19465000	-1.67061108354104	-27.2822527513351	-41.2176381422089	-41.84904708978	-41.0623838997906	-41.135584066658	-1.10413027809507	-37.671443266182	
19714500	-0.474011203242239	-32.1309509019129	-41.9365224637468	-166.595453425796	-41.8400829004742	-166.391768520342	-1.45094752198721	-30.0617425637753	
19964000	0.00811688489861011	-34.4029201943625	-60.6931862313999	-168.84836167204	-60.2948397936812	-172.818498845477	-0.124448411952021	-31.6022340179399	
20213500	-0.0925910332419083	-35.6385928179032	-54.2603341022254	6.73903806224101	-54.3171925148803	6.31011013339336	-0.201600258930611	-33.9914304657908	
20463000	-1.09914027710705	-36.3174601967568	-31.2235351903337	-120.250782799779	-31.1949096761753	-118.790098504019	-1.02670801029116	-25.8166389125391	
20712500	-1.91513549747485	-32.1175403076121	-32.232367580304	148.63474720594	-32.0281649941993	149.530266820351	-0.795010927359156	-28.2388633199181	
20962000	-1.61902217513833	-32.9108522018154	-35.1183107323473	93.1981288236599	-34.9688742923642	93.5319627286019	-0.864529716625362	-31.5988113062019	
21211500	-1.24063814095936	-35.9993452045636	-36.915235013157	56.1804159221242	-36.7924621728629	56.57603619299	-0.64163341922883	-34.7866341943237	
21461000	-0.804713185211223	-36.5621709142166	-37.0829025940261	20.6533021179805	-36.9232262114078	21.4081787425463	-0.235642798983716	-36.1805897337117	
21710500	-0.500515286618455	-34.4233107415973	-37.1214486511164	-22.3491994108651	-36.960399839384	-21.7604761361134	0.0222136672908814	-35.8750256907326	
21960000	-0.367715503591155	-32.0543848174614	-38.0176135998464	-66.7860126199648	-37.8515836733637	-66.1373963988027	-0.0550107255764215	-35.2419149882323	
22209500	-0.533933763352421	-31.8667053911805	-38.8635947256248	-105.608059828523	-38.7871332162032	-105.090996490547	-0.478112217826662	-36.1719809496501	
22459000	-0.814946864306831	-34.0643847014358	-38.2585804603374	-145.234870415147	-38.2861863752375	-144.801083512151	-1.15504752327636	-40.1918129393182	
22708500	-0.836704216043555	-37.4675440652902	-36.8371132149805	148.583414900166	-36.8455430665385	150.161317714137	-2.7113707974826	-41.5324785348967	
22958000	-0.505970664296485	-40.1092396534752	-42.806386328707	71.7611088845754	-42.8754393534623	72.7027841339547	-1.58444332802469	-32.5078476578387	
23207500	-0.116488715185842	-40.4980171981366	-50.526290552605	37.1177385039019	-50.6965838923246	39.0343441771657	-0.489277587611544	-34.0706984837802	
23457000	0.082724072391905	-39.2805251223402	-55.5281812983471	21.1301739611319	-55.6311316592928	23.9331411017806	-0.0799024604940227	-33.9786138291395	
23706500	-0.0757576164379347	-38.2898951908622	-59.1986555869861	2.43581008124972	-58.724058073773	3.12306251617892	-0.135361633150789	-33.3346980314867	
23956000	-0.487020383371833	-38.8044258262229	-61.6909142831697	-26.7933211821479	-61.3383983628834	-25.4651928096512	-0.489157840793491	-33.7444377685509	
24205500	-0.822553225055036	-41.3699331693019	-64.2221972244198	-50.4844659756195	-64.4411249363858	-51.6864502134945	-0.798574059107566	-35.9786673152794	
24455000	-0.797710909548817	-44.7277286765663	-66.3263426907783	-88.5556795585853	-66.4466010094146	-87.204123958603	-0.770536571183162	-38.9587541576311	
24704500	-0.482275235497854	-46.9097042822407	-69.3195546616197	-141.373141510483	-68.8366640172079	-142.291378679383	-0.400957374613747	-40.5166882412842	
24954000	-0.252370279714817	-47.3086647801727	-68.4753745636368	150.329114062324	-68.2051731372324	147.447504552871	-0.0277387614063045	-40.2763707034716	
25203500	-0.610771794278294	-46.749891848077	-65.8894218496831	76.7026701254298	-66.3570742974496	81.259811151206	0.0790065247533466	-38.9862855249644	
25453000	-1.51238695721772	-37.685836269964	-68.0985242644551	-59.9055989326879	-68.0357074857543	-52.8893581473127	-0.152638278304206	-37.9009101416087	
25702500	-0.76162572853862	-38.358106521783	-79.9707313456785	141.076181707935	-75.9926712335084	141.215729687605	-0.56257659564045	-38.574705259659	
25952000	-0.869412275414993	-43.3301926470256	-74.6409558723011	56.2403810945787	-85.9621335205724	31.9206142915844	-0.820679414968107	-41.0208113918806	
26201500	-0.71219768445427	-47.376265480697	-76.4479699122301	51.5140271135031	-74.0976582455456	43.1051679950978	-0.681035773829944	-43.891026567819	
26451000	-0.324347328046945	-49.309708448726	-73.6168967808755	47.2606513342692	-69.9326983928376	48.741536588026	-0.282299140237164	-45.0888038438597	
26700500	-0.0944642042265707	-49.3035022249628	-70.9421869811419	31.3121534843047	-70.9283441133913	31.2420095569498	0.0555353345711372	-44.4350484582656	
26950000	-0.276407019823445	-48.5403396351305	-71.2392585313767	12.0846625057927	-69.9814096286127	7.59362089825226	0.0757832887044259	-42.9921602443027	
27199500	-0.878280368695948	-48.6379728110651	-69.1957854396911	-26.1102322449641	-66.5861529450252	-16.7701460687135	-0.243983929127059	-42.181106322596	
27449000	-1.66177693848345	-50.3456645690598	-66.9437480798989	-54.276018477776	-67.6873351584932	-45.463225623529	-0.64230145032033	-43.2894113999844	
27698500	-2.27682028075743	-52.540266095423	-66.3231714499259	-81.939029450906	-65.1450229337229	-85.8759136476772	-0.808915465015838	-45.9345788235646	
27948000	-2.41392364866969	-52.1294098812614	-66.7192779177862	-159.655383813121	-64.3301155616995	-158.882969816531	-0.591524265299667	-48.4979136536924	
28197500	-1.99380134806189	-47.4595238071799	-68.4941814454629	133.000800837773	-69.1343382220448	133.787485527499	-0.177932921042553	-49.1662595493109	
28447000	-1.27686640585475	-42.5880816629765	-62.1761299088784	91.2885800739071	-61.6696426960576	99.2503413569751	0.0610371780491332	-48.2698090983416	
28696500	-0.909757285605652	-40.0107396361174	-58.1654931607737	43.0590441401339	-58.2813271348031	43.8175413063399	-0.0475599119637125	-46.946181069067	
28946000	-0.992807096855111	-39.8160521345585	-56.0771454831555	-8.3581702897174	-55.7953958645508	-1.40709387395122	-0.439429587580012	-46.7241301489854	
29195500	-1.19596804597214	-42.0148189889096	-55.2167565885588	-44.7402283792779	-55.1582066978192	-42.1313312214433	-0.810255941215254	-48.5524260501024	
29445000	-1.12972366690494	-45.5523468194777	-55.2930216586754	-72.8221268880864	-54.8173942396079	-68.8665535694215	-0.848566226958206	-51.5145816176103	
29694500	-0.686626065626178	-48.0506520467586	-54.9266648521402	-92.6454122809437	-54.7315682782116	-90.402067528195	-0.551917966208323	-53.6692818521049	
29944000	-0.203329880003612	-48.3502045845161	-54.5780865918328	-112.306409647117	-54.7297560304525	-109.528182922994	-0.167688995105975	-53.8837296972326	
30193500	0.0103350303704864	-47.2406213750568	-53.6649954565356	-129.350258918548	-53.6908177728991	-127.176809046501	-0.0594541213787356	-52.9603207478515	
30443000	-0.155293368357147	-46.2133865236007	-52.4466592503839	-145.192121898308	-52.3663559783412	-144.621267896749	-0.33980976791361	-52.2183803320051	
30692500	-0.55616540770323	-46.7362893308637	-50.8567318442114	-159.022848196563	-50.9660718420919	-158.555150827546	-0.843067477379819	-53.3141399019147	
30942000	-0.872676156625615	-49.4257732712021	-49.0640875717921	-176.225881604861	-49.0567142611514	-174.817448298821	-1.27283090911584	-56.6001320817659	
31191500	-0.779258656769442	-52.8720789760648	-46.8065349999249	163.930911449695	-46.8908506233969	165.334926545247	-1.36489192740002	-60.589289109896	
31441000	-0.358608145593959	-54.8432789619166	-44.5696892631109	137.03817120733	-44.4755976983023	138.853561910556	-1.36075115256247	-61.0007622399393	
31690500	0.0100553112225416	-54.6556677392969	-43.45539143545	103.681753728462	-43.529115517043	106.412638728135	-1.0424979523822	-57.3599638131274	
31940000	0.0537542791325366	-53.488048672549	-42.4837571134439	92.9326467527049	-42.4784743601187	95.1920137037859	-0.656193450323817	-56.4033707212497	
32189500	-0.290343537340187	-52.917028642484	-39.5856427380271	67.416545993729	-39.6336432949407	69.8772494861241	-1.17327571170768	-56.9295029061204	
32439000	-0.802253370187786	-54.3655815370694	-37.1324696251808	34.197495061476	-37.2147316117531	37.3721530629363	-2.06763724706555	-58.9214378985777	
32688500	-1.12199247532456	-57.6283623292275	-35.6219543482378	-15.2842978762174	-35.5244383659225	-11.4786612177573	-3.07881899157801	-57.4237101576799	
32938000	-1.06024992984425	-60.6550680826136	-37.3374768579383	-18.1686243315431	-37.1918988854753	-15.538554346132	-1.852817982635	-64.4239924686025	
33187500	-0.881772407081593	-61.4102394891697	-32.961183329099	-57.8561958329298	-32.8789288225653	-54.3708684554213	-2.37994131022456	-67.7778219732639	
33437000	-0.919349636720675	-58.2766600513677	-31.3102192968567	-112.069305640285	-31.0945816387596	-107.910476559434	-3.01049345675142	-62.5369392018092	
