!Keysight Technologies N9923A: A.12.45
!Date: Tuesday, 05 August 2025 20:28:47
!Timezone: (UTC+08:00) Kuala Lumpur, Singapore
!Model: N9923A
!Serial: MY61181427
!GPS Latitude: 
!GPS Longitude: 
!GPS TimeStamp: 0001-01-01 00:00:00Z
!GPS Seconds Since Last Read: 0
!CHECKSUM:0200465580
!Correction: S11(ON U)S21(ON U)S12(ON U)S22(ON U)
!S2P File: Measurements:S11,S21,S12,S22:
# Hz S DB R 50
2000000	-0.104101949997594	-2.37064774668186	-76.4563032056997	84.2804140198794	-78.7082385884263	40.2407081302971	-0.143812889143438	-2.18992573577373	
2249500	-0.448114696807842	-3.10379115501792	-62.7303047240165	44.3945478464763	-62.4463878080229	43.951910253489	-0.490270127144082	-2.9805403279116	
2499000	-0.60572641560228	-4.94722992254338	-64.9110162995078	-87.7623975723491	-64.9656450468304	-78.7643422354667	-0.638746621590005	-4.60758735455391	
2748500	-0.436803403868938	-6.76142905994546	-74.1545639382374	-107.346171722587	-71.3860630335389	-131.010063142513	-0.473871051903274	-6.51483453770521	
2998000	-0.0834507121141191	-7.3771500997282	-76.2741126217459	-76.0059013818939	-76.2171806886911	-121.061661927691	-0.124893769336408	-7.16325166924321	
3247500	0.150266854625923	-6.77917303245674	-73.2314724071043	-131.298326287769	-70.2638609953922	-123.478011846354	0.0978006079100492	-6.47279326542983	
3497000	0.100122357630094	-5.85561361520047	-71.7303074683256	-113.578927125979	-70.602066460289	-113.158991894929	0.0459054697925161	-5.54401658042242	
3746500	-0.222668843318648	-5.64321516223769	-66.8845142776286	-135.577941446357	-67.2942823606006	-133.19140145283	-0.262402684735825	-5.26028647323487	
3996000	-0.557000522583847	-6.64274810918027	-72.9943665489787	147.082229115541	-75.5126441633897	146.777742298658	-0.578772059988941	-6.33448900092645	
4245500	-0.604488777285504	-8.73477714004355	-77.993325642268	-86.0156250008322	-82.3807893886213	-71.6218605817816	-0.640277320587174	-8.41862903319104	
4495000	-0.344293155301091	-10.3604152794197	-72.3979805983613	-83.1689045265234	-72.0745191618211	-87.9166738082673	-0.388178739506262	-9.98370918432003	
4744500	0.00189708258205409	-10.5715512109582	-66.1202248809764	-103.94169240773	-66.0076264404444	-100.64388337441	-0.0426797340978367	-10.2095888602231	
4994000	0.149909229994595	-9.85297432262097	-58.2259738467368	-115.325700987945	-57.7827296806338	-115.323626831174	0.117749000375815	-9.37930877582239	
5243500	-0.144284115592924	-9.15920653921886	-47.9351379861098	-160.585441812216	-47.6379535367297	-162.865679264072	-0.0349510088941879	-8.5280019721574	
5493000	-0.415182898928095	-7.86904189455111	-49.7154685340632	108.862133823269	-49.8533874868248	106.144545637163	-0.385841104599653	-8.6157408891972	
5742500	-0.636032746301646	-9.83419663749184	-55.3645986599725	84.9436303117355	-54.9777795727471	85.3046390624071	-0.653861639546486	-10.1872170215288	
5992000	-0.583331862412195	-12.1706278161277	-51.6657390140738	77.6687289752065	-51.7777344360816	77.5004351951155	-0.610184058969862	-12.2324813027721	
6241500	-0.243581149230234	-13.5936130485748	-51.2508159493715	63.6957336008981	-51.1183435751699	64.0107854646888	-0.3142742104777	-13.4753466969818	
6491000	0.0546420931638889	-13.4848964939399	-48.9412825600596	43.5435330294127	-48.7548639480539	42.4943963532345	0.0052331372568724	-13.3332381026688	
6740500	0.111292694195298	-12.3081237935551	-47.1109162215088	-17.2218896407883	-46.8921401241959	-18.2999516952314	0.0459216168877989	-12.2661127828838	
6990000	-0.10003278517309	-11.830926231796	-56.1856183747958	-60.6591578173581	-56.2004029376812	-59.9734986170418	-0.184402005015116	-11.6426797418556	
7239500	-0.513887898096803	-12.970757235044	-58.6812613024512	71.0745307624183	-57.9809829597499	69.503858862198	-0.576232561471087	-12.54880503737	
7489000	-0.93871963560653	-15.3566456694736	-40.7828279005255	40.6856801382052	-40.539040408853	36.886343990911	-0.868013700706574	-15.0651614605575	
7738500	-0.862966397000571	-15.3258070864308	-33.3096942528162	-41.6876711451515	-33.2816902766844	-44.7014106840762	-0.990679773927616	-16.7465379719899	
7988000	-0.349464569062671	-15.7857836153482	-32.0461806568589	-117.567423169005	-32.1005860597093	-119.52984000368	-0.681304359678279	-15.8579691847288	
8237500	-0.0194134076733426	-14.8432581725693	-34.0384937138237	174.985533769694	-34.0949100405774	173.378347011077	-0.319704860413077	-13.5240939747182	
8487000	0.0598112666356277	-13.6770222504331	-38.8415397513197	128.228502945556	-38.8911025974778	127.242537500818	-0.0974006579814256	-11.9156990002314	
8736500	-0.208656828816307	-13.4771662504016	-42.969499404825	104.356578710699	-42.9789305411653	103.929804397508	-0.28460347272101	-11.7204999489061	
8986000	-0.569431156740665	-14.8368761660423	-45.2034559471529	88.9931330670777	-45.1570574557379	88.2706275133945	-0.610378197171791	-12.999028202455	
9235500	-0.704899412667161	-17.5044168679205	-45.5106918383126	75.0608653640864	-45.3099775023455	74.4568581104177	-0.716717810787479	-15.3964345359864	
9485000	-0.553224473884976	-19.9645458416628	-43.061401636502	51.4267400095662	-42.9448407527307	50.1514256687058	-0.494324033587996	-17.5712312584657	
9734500	-0.364096496028176	-18.8892401953475	-41.9890251400518	-18.6940640970364	-41.9146828271353	-19.6120503258021	-0.128220159632532	-18.0549083089778	
9984000	0.0800068948169359	-17.260848897043	-49.711586135705	-73.2151616505989	-49.4792473802633	-74.0405845966769	0.104452255273898	-17.2966848487797	
10233500	0.0454867551161642	-16.5585815470457	-57.9180218874009	-98.2158906671135	-57.4388155085683	-98.625385056516	0.00945177518534269	-16.3854931182483	
10483000	-0.29667979310219	-16.7100769832142	-67.5264819756546	-115.200763320893	-67.6943551939305	-115.219888414284	-0.358151665554488	-16.597472899376	
10732500	-0.624961446701755	-18.3790480480106	-59.0395904618077	110.511789738022	-59.6140759365726	110.887929643044	-0.85806172894872	-19.1040550054094	
10982000	-0.639334015112795	-20.9300846374574	-50.2386642234149	-8.65262801626275	-50.3231502633012	-10.418950655717	-1.02467864801041	-18.3422781173578	
11231500	-0.337167226415857	-22.6122170199002	-52.2661682253889	-59.7722712013646	-52.850828864234	-60.8454247008304	-0.492030866000095	-20.123307108421	
11481000	0.021635120579445	-22.6419300125021	-53.7465119177826	-89.1494904664269	-53.9195261611253	-87.6315008341591	-0.0595510856637476	-20.4737318794884	
11730500	0.134525828014867	-21.6100618796516	-55.5116264235969	-120.608790368469	-55.6949107344526	-118.979407815066	0.0994901041909385	-19.8064618478475	
11980000	-0.0842053148313295	-20.7168352647077	-59.9770923151089	-140.931652459369	-60.3587561780771	-146.20420241666	-0.0963130205349567	-19.35269526762	
12229500	-0.500136754476611	-21.3646542194108	-66.950954351259	-122.449610801382	-66.0849870649751	-91.7702416557492	-0.629632076853259	-20.7784077919587	
12479000	-0.833316025591327	-23.7124394890085	-53.4963385224224	-75.8375492899223	-52.899296022674	-77.4810474038499	-1.10273643914646	-18.5930959333833	
12728500	-0.871377686583617	-26.341987859833	-50.1175778744305	-120.06250296029	-49.8036583208089	-121.184505705721	-0.725370112119464	-21.8532173298235	
12978000	-0.667515995267244	-26.6990715255474	-47.4056030944349	-158.109721301931	-47.2189522993856	-158.717944893372	-0.325291991717305	-23.6111989850785	
13227500	-0.328604236326566	-24.5731450746026	-46.0185105876543	159.891341006026	-45.8158906558877	159.839034583983	0.0119666930742835	-23.4831368745749	
13477000	-0.140697267239493	-22.6701234275809	-46.1615661317019	124.056558024389	-45.9737490070237	124.053311183535	0.0716313862387687	-22.5594864925053	
13726500	-0.328132689659583	-22.167093768693	-46.3188171637535	95.3209322674073	-46.1417670200455	94.6266834272819	-0.193861204372594	-22.1046779048272	
13976000	-0.718343017487185	-23.4794491794659	-45.3577779744848	65.1506880530791	-45.1039785901037	65.384187840587	-0.585970203544587	-23.2886628752761	
14225500	-1.00741940797326	-26.0417123402482	-42.9042809055499	20.8266660747745	-42.6454720128585	21.0416089469382	-0.811105327799859	-26.1844348624024	
14475000	-0.869325312924005	-26.8649354567553	-41.1168705811297	-64.8873303967838	-40.8420180542959	-64.2067449092621	-0.823060953167833	-29.6576465588054	
14724500	-0.290759970701049	-27.2296725224227	-45.4660084324015	122.748772312549	-45.1585322246983	122.258960803343	-0.863255483359367	-24.9515390694756	
14974000	-0.000860587810303721	-26.70190565887	-50.7380714211136	34.1804032858579	-50.5299364100866	32.6429233172147	-0.0443874169735147	-25.0181742452154	
15223500	-0.0427560416495302	-25.2468378546052	-51.5957343666798	-16.0239700806777	-51.3232586768717	-17.3308245725116	-0.0153426805611128	-24.6456168311091	
15473000	-0.339986777032344	-25.2145592802549	-55.721975243558	-42.0126059036916	-55.0112029820623	-45.405419846748	-0.343761603417531	-24.9577823612051	
15722500	-0.874544763829844	-27.3948004635193	-48.8064706508608	-4.18242890942953	-48.9583650825818	-3.55288891059213	-0.734714986506676	-27.1280535025134	
15972000	-0.897760967307288	-28.7399801619339	-44.4775345160771	-74.8201137582563	-44.3117271131389	-75.2672664214113	-0.909763439795994	-30.782508832909	
16221500	-0.528498066569826	-31.130390517212	-42.7963766599378	-117.204045433557	-42.7247659786978	-117.698859571027	-0.96618933795615	-34.6124184512606	
16471000	-0.117933608782314	-31.7225676406107	-40.5507987920906	171.99070777804	-40.3701125872524	171.147668760881	-1.58892223374985	-30.5327628280237	
16720500	0.0669490864191886	-30.9087147094849	-45.5106798990737	98.9769829394013	-45.565359270112	96.9752798227899	-0.46338632854619	-24.4565291505864	
16970000	-0.123593539869146	-30.0892236918857	-50.3900641992465	50.2990867024412	-50.4497655565121	49.6212498187142	-0.24565678378883	-24.3501225756406	
17219500	-0.59950129037753	-30.6690015434051	-52.2914202079162	1.6524858931076	-52.4073718392137	0.384621768103445	-0.506240734217492	-25.2960322720287	
17469000	-1.067938721439	-33.0128662127906	-50.8817370552809	-49.9932750203822	-50.7285241861582	-50.9288698513263	-0.800564210061145	-27.6966999760078	
17718500	-1.24667065550948	-35.5160163964053	-48.174943310258	-101.086491772725	-48.2878147003922	-102.226768686977	-0.782646827628328	-30.8587347367597	
17968000	-1.04890612171081	-35.7243709330467	-46.5854708353154	-148.145994864997	-46.854250871372	-148.838431822387	-0.449013131664611	-32.9791696152044	
18217500	-0.608075476018473	-34.1963776499243	-45.008293099444	172.590273039081	-45.2332067758296	173.079471340675	-0.0897696379145121	-33.1877080298659	
18467000	-0.535442814214469	-32.4502679304818	-43.361792282265	134.998233574386	-43.4836898017144	136.97064329666	-0.0273248873097967	-32.3372991117123	
18716500	-0.893366168479783	-30.1651782681716	-42.0712700336623	91.9158748139617	-41.9477663675471	96.3593104541018	-0.338888888716742	-31.8325610077468	
18966000	-1.26672719274736	-28.6208647991502	-41.8161953288898	43.0561812633823	-41.1118769610832	46.1296240971587	-0.895127932481952	-32.8685143204622	
19215500	-1.17838762234408	-29.9484946325183	-43.8070522486607	-4.98400689045954	-42.8760708924143	-4.68053235914504	-1.34506704383938	-35.6766968422347	
19465000	-0.814797030386741	-33.5556308794099	-47.8775570407874	-43.3935814143926	-46.9486181607064	-45.2555571513159	-1.61845066931619	-38.0759423698636	
19714500	-0.323184397389328	-35.7074197943535	-53.630686747982	-62.0172888585145	-52.8032764219181	-69.3730714516885	-1.52337709128558	-36.4621820043304	
19964000	0.0322299005517354	-35.7780519326222	-55.5038508258447	-45.7370440801279	-55.8854909052545	-51.7164572748415	-0.992898042116672	-32.3417861252603	
20213500	0.0146407645299885	-35.03732491798	-52.377826271278	-67.7813768627482	-52.5870325362555	-68.0786196798937	-0.519078368656717	-30.0529473249539	
20463000	-0.380260107917492	-35.0850645719057	-52.2000364133804	-65.6406076720014	-52.6009286075613	-63.351995214531	-1.05912457768185	-29.214075008888	
20712500	-0.949407370435482	-36.83342407678	-47.3207606611388	-116.905844268512	-47.5446364337957	-115.322586858856	-1.12848654485614	-28.6598912618615	
20962000	-1.32073700438211	-39.4257958881085	-46.4296496233442	-177.404819969006	-46.722127204606	-175.697863775741	-1.14315824025797	-31.3735480054872	
21211500	-1.21934117868182	-41.2371447436057	-47.3637501903935	122.29006832624	-47.6570884516283	123.161766287677	-0.860344067581973	-34.1554172365134	
21461000	-0.918805755819028	-40.9316032424052	-47.1699174878911	69.5136355023451	-47.5334825573768	70.1876415485259	-0.377833242004795	-35.2758575936814	
21710500	-0.779852855434542	-38.154893529519	-46.0935183548953	15.4667121149356	-46.4257402724497	15.6413996726659	-0.0559382612076859	-34.774517177169	
21960000	-0.815050473667117	-34.3990713478534	-45.4823031088782	-33.6268687914412	-45.779548577814	-34.9011168168472	-0.0857242607799642	-33.7534604453183	
22209500	-0.959307133996889	-32.7019940426158	-45.2380804265408	-73.8288278090207	-45.4592167779141	-73.995379255688	-0.426545681423197	-33.6943994795114	
22459000	-1.13531946786895	-34.2514542467567	-44.7867313381945	-103.876047134865	-44.9050458023491	-104.470033572626	-0.790492789223489	-35.4852071776845	
22708500	-1.060359497528	-37.5617884800035	-43.5132480421263	-131.334103884	-43.5202920011288	-131.872202086329	-0.879830370389227	-38.4453236425547	
22958000	-0.675291214514918	-40.1107343871251	-41.5988788898399	-166.29384964313	-41.6626874200952	-167.55214810066	-0.637116852917803	-40.6082869207305	
23207500	-0.230358258773176	-40.3260980257264	-41.4904718504957	146.693048548477	-41.5955599576507	145.400037801011	-0.25353342497265	-40.4089146169121	
23457000	0.00585082674295245	-39.0602491939943	-44.3269339554711	111.235141431895	-44.4111775374241	110.42069421568	-0.0183835638230969	-39.1974284086024	
23706500	-0.137101427318485	-37.9675012021147	-47.2411460493506	93.098455667143	-47.2393939392895	93.7468324366674	-0.164112970814753	-38.3539781811113	
23956000	-0.532520364774765	-38.3619894132569	-49.1299218169768	84.4672709398473	-49.0888962173875	84.9203436101903	-0.584523508056333	-39.0133284460369	
24205500	-0.849485887364407	-40.7876361831479	-49.6976739854348	82.1070557292941	-49.6404178673929	81.149603065243	-0.943479916637902	-41.7745233112023	
24455000	-0.795630076536908	-43.9353743643022	-48.6890017277148	79.8023410793704	-48.3700475886948	79.8301239013655	-0.970371541107762	-45.3446152941935	
24704500	-0.430750623400928	-45.7744458479585	-46.0928884908782	73.0740242647444	-45.9041328380605	71.9942740263873	-0.717047918477445	-47.4290372728638	
24954000	-0.0856641161502665	-45.5392323917761	-42.718937093523	56.3524923198173	-42.5809219497351	55.0911268507867	-0.583180910648565	-47.626362659771	
25203500	-0.0351640492500308	-44.2655136969126	-39.7438043146083	28.3271138751905	-39.6519441510232	26.8971340640228	-0.91856217174962	-46.3628380424394	
25453000	-0.347478004394596	-43.4023661483774	-37.658704155761	-7.35848626573044	-37.6098150080675	-8.52937782517784	-1.7989249271976	-43.2100833023879	
25702500	-0.825476136478809	-44.450003890809	-37.1078150823315	-47.2121087249054	-37.0668383293442	-47.765873085045	-2.49759680224042	-38.2392898946593	
25952000	-1.11427476831329	-47.4516054409633	-38.357008205157	-81.3756579572575	-38.2609459595618	-81.7373805613135	-2.24291513734614	-36.9557896014768	
26201500	-1.00694883381	-50.4864677154383	-40.9678303207714	-103.171675112841	-40.9389019991692	-103.818127076752	-1.48568211628011	-41.0546322457662	
26451000	-0.658241402131733	-51.6691627162378	-37.3351147169533	-112.352194400254	-37.3171269459611	-112.056553361151	-1.4563426025147	-42.4638957510855	
26700500	-0.532899391215577	-51.0762536520639	-37.3482356397669	-147.334841442746	-37.1943342770946	-148.013413311338	-0.695587437252456	-40.3390087814217	
26950000	-0.935999394911497	-48.8380566857546	-37.0487181301699	179.877604033806	-36.9276982910674	-179.190404963464	-0.430670915573779	-38.9294213959703	
27199500	-1.62018380644297	-44.8461833036832	-37.4624905432625	142.311101303012	-37.0398581057002	144.083050895613	-0.626071290583526	-38.3344953977796	
27449000	-1.78625072407756	-42.5480263612808	-39.4684791854375	104.026175755443	-38.8835264748397	105.003408787619	-0.966892105569705	-39.7098835998761	
27698500	-1.53940582758944	-45.1015059132018	-42.5043640900339	71.0022224106181	-41.7034856670443	70.3922119815311	-1.11060744368257	-42.7679786629283	
27948000	-1.07206794086085	-48.117967551773	-48.0441558856742	31.7985277679191	-47.206492206111	27.4785985475252	-0.872159790192611	-45.6977139326586	
28197500	-0.433382046037931	-49.3893273077264	-54.0849484044857	57.1103055928399	-53.512660063833	53.5144030052237	-0.406999338967766	-46.6730844541777	
28447000	-0.144073586276221	-49.2389008144525	-56.0438431633306	75.2079303256148	-55.2709811283458	64.9141145961177	-0.129356172046416	-45.9854069596281	
28696500	-0.300089541982607	-48.7175392318651	-53.0238103226454	94.3642444643831	-53.6541862488454	84.7059087120325	-0.213200060276681	-44.7124808083199	
28946000	-0.786862866450005	-49.4207668154634	-48.6235038596372	82.3061783855196	-49.2330972160757	77.3245145772514	-0.592348166386511	-44.4616615955673	
29195500	-1.30518771002159	-52.2602544154573	-45.9980513291064	58.618147494481	-46.469253801031	56.1739030845394	-0.968816339000752	-46.3237201588777	
29445000	-1.57220781474876	-56.0622648121517	-44.4845074916108	34.2981513810087	-44.9791526938909	33.411719123561	-1.01623410901138	-49.4372689087716	
29694500	-1.51933011242119	-57.5280456870227	-43.1823011145353	10.5802682079315	-43.5232578732927	11.1101616237113	-0.732034074946311	-51.7989598892182	
29944000	-1.44881331311299	-55.2963206664597	-41.9479487662653	-15.3825191638428	-42.1393168935659	-13.8198820899471	-0.380774629727257	-52.1234584384726	
30193500	-1.45094842146213	-49.6629147965094	-41.2813210212867	-45.2372473381333	-41.1661375160647	-44.3321307454006	-0.361593821352536	-50.7860979561575	
30443000	-1.36747264922339	-44.7684758320722	-41.6307021164405	-78.7718093764644	-41.3925167407007	-77.4228976700154	-0.438002844161899	-48.6984703876096	
30692500	-1.41829895996616	-44.0860541231264	-42.8129670262316	-104.365690476814	-42.5666017423777	-102.626003880329	-0.885145202450351	-49.9322553504453	
30942000	-1.50831269053883	-47.0246954268659	-43.8915558875652	-123.455948443268	-43.5085988941222	-123.048868032095	-1.29655484499929	-53.0135761315929	
31191500	-1.27453258397944	-51.0710749695764	-44.3685573889301	-139.180845079515	-43.9421642635018	-139.450322485257	-1.34414099926388	-56.7471920650077	
31441000	-0.763234187220779	-53.4715081595112	-44.4641060111837	-156.672153892385	-44.1784495275139	-157.727952087202	-1.21132157798418	-56.8626244069498	
31690500	-0.339480239785646	-53.3805373669901	-43.1359504224591	-175.390726155156	-42.8131888757133	-176.466607775255	-0.58121817561575	-56.9360180943293	
31940000	-0.26204375128167	-51.9884373434153	-42.3979083410789	157.503553095739	-42.1220327257794	156.903293888	-0.733740915612636	-55.8843787418927	
32189500	-0.565983283215552	-50.9966792675006	-42.2309814329903	128.204811435988	-41.9342152569929	128.10832183183	-1.36969477500257	-54.7151021380783	
32439000	-1.00804845638569	-52.0398598938541	-42.7681888553178	98.2121914143067	-42.538275632495	97.5003686640527	-2.22919191306368	-54.6505666838706	
32688500	-1.21770973808742	-55.1703782581533	-44.0111517891485	67.894961261923	-43.7930326407327	68.4156073887891	-2.87216494950942	-55.396080096662	
32938000	-1.02516400749824	-58.3583629884373	-45.6412649966541	43.1720344926719	-45.2730810725164	43.2591466724926	-2.84251987117326	-55.3725640742062	
33187500	-0.634272653072658	-59.5752168045258	-47.4240134172961	22.0931450938725	-47.1074822050242	22.6333960979637	-2.19264345012086	-53.1118064401765	
33437000	-0.424817940239378	-58.554521629714	-48.8553871437556	5.7698194577597	-48.4743649204969	6.98754538039762	-1.42722759523387	-49.7862132345179	
