!Keysight Technologies N9923A: A.12.45
!Date: Tuesday, 05 August 2025 20:21:45
!Timezone: (UTC+08:00) Kuala Lumpur, Singapore
!Model: N9923A
!Serial: MY61181427
!GPS Latitude: 
!GPS Longitude: 
!GPS TimeStamp: 0001-01-01 00:00:00Z
!GPS Seconds Since Last Read: 0
!CHECKSUM:0341862059
!Correction: S11(ON U)S21(ON U)S12(ON U)S22(ON U)
!S2P File: Measurements:S11,S21,S12,S22:
# Hz S DB R 50
2000000	-0.103030565178067	-2.26699717785322	-75.8584781253497	75.3883741589063	-74.6473897457874	69.6821182504655	-0.142492869331225	-2.03337217964612	
2249500	-0.446644281662003	-2.9891619805493	-63.4795371832944	58.6536542860201	-62.992920227717	54.2326961446201	-0.485515549140513	-2.82596405085682	
2499000	-0.604009792080485	-4.81931981830572	-60.9356243208072	-79.9382331037811	-61.0660252069908	-82.5016111518582	-0.644402105573938	-4.30940174083011	
2748500	-0.438177585782237	-6.61814976403645	-70.5832739525734	-125.617035479219	-72.260845814733	-131.452872282261	-0.475491477470891	-6.25872712296466	
2998000	-0.0867875000436725	-7.23770414689329	-73.481156925595	-77.8759359001774	-74.8416896806293	-73.6524821134506	-0.128660720451105	-6.93184847270815	
3247500	0.148706662282595	-6.64827178460789	-72.0020624254429	-114.892462913159	-71.3064420692931	-109.513424557002	0.100001906066332	-6.21934677964433	
3497000	0.0968797085528038	-5.71308053276569	-70.2254867026874	-115.549926457066	-69.7526362556948	-113.030050491504	0.0455094361453518	-5.27402135111799	
3746500	-0.219149374615242	-5.49081733889342	-66.1017194230336	-128.691055074594	-66.9987459336851	-123.146783580883	-0.262074817596551	-4.97844799294486	
3996000	-0.558641888753714	-6.52405758556003	-69.7882710283572	161.538331981464	-67.879188955824	154.557299149635	-0.578718932103698	-6.03260031188278	
4245500	-0.604969799352574	-8.55993723662499	-89.9363287359389	-162.547786223292	-87.9828939888498	-79.4150055871358	-0.642370921424032	-8.10564167863357	
4495000	-0.346184937720372	-10.1506375872899	-76.6472379326761	-75.7411744424872	-78.9825017557377	-85.5249655800755	-0.392024699464162	-9.66544594755347	
4744500	2.26725612397574E-05	-10.3116369685436	-71.292279071795	-98.0182760480561	-71.3892747433073	-97.7824351929756	-0.0457632624188205	-9.90094556394675	
4994000	0.159703515034565	-9.48953637666047	-65.0935443511639	-114.036471668408	-64.911640605836	-108.885374830793	0.114203333564968	-9.06806640118759	
5243500	-0.0181952925835086	-8.75795246350017	-57.8847375048531	-129.016557492349	-58.0974315161366	-130.851304166788	-0.0315434761102739	-8.21999432217114	
5493000	-0.435984158965661	-7.80561288874855	-54.9488695018484	125.964857478659	-55.3257893224206	124.571806185431	-0.39009831328607	-8.4153820098062	
5742500	-0.622572464310898	-9.8524522421098	-60.009035355038	99.7324394176451	-59.8667791585038	96.734494193933	-0.654885398575425	-9.72273692560666	
5992000	-0.580084723739981	-12.2528432617626	-49.6370590429009	119.954454848214	-49.4531718961976	119.477140834242	-0.843801444352778	-11.2911496903802	
6241500	-0.279355063162156	-13.414226715043	-54.8472267329692	126.150988450796	-55.0045302547979	127.963066649571	-0.32220735129423	-12.8395144652771	
6491000	0.0607031070969626	-13.1863997318168	-62.5010934331264	87.1865176756306	-61.6014726890743	88.2052512308036	0.0132214600852892	-12.4106301752863	
6740500	0.138663584185588	-12.272389856338	-59.5975396745238	89.0243775090935	-59.2900570691062	86.2751573391735	0.0970831363215058	-11.4941146715461	
6990000	-0.110461857431104	-11.711855065501	-58.5336978132678	74.2607509130288	-58.1263498429458	73.4749807562976	-0.13712071640357	-10.7791095461389	
7239500	-0.527843339986294	-12.4042196417603	-55.7107365188429	62.4187995748117	-56.059130640807	61.5879227520592	-0.487477245533209	-11.3785670171525	
7489000	-0.762736678763661	-14.0957902612104	-55.0082035071503	40.8632011373054	-54.9280471165839	40.8083690808189	-0.690622710352226	-13.3762990035061	
7738500	-0.60645075751788	-16.114138473793	-53.8131599228813	36.5848225280597	-53.9635999206479	36.2328147911996	-0.559078794251033	-15.4095479556444	
7988000	-0.282087089826141	-17.1003013067993	-49.7208089272434	27.8568844455234	-49.7818827224813	28.1846824543344	-0.208952002609749	-16.2039592516249	
8237500	-0.147512712866685	-15.6540492822989	-44.3122386250451	-17.0883838255695	-44.3281645898278	-17.4725460335117	0.0634884350223213	-15.5182741632974	
8487000	0.0203542939553903	-13.5950497735229	-46.65108620138	-73.7401370708413	-46.7115370512855	-74.0962088128322	0.0557796078997924	-14.2941666971059	
8736500	-0.212003698628982	-13.5244245591686	-50.0953193343567	-94.6205703024536	-50.0644931115235	-94.3925277707483	-0.233720596755493	-13.7931291409036	
8986000	-0.564208732390571	-14.8783413490593	-51.8338726580734	-101.461931872567	-51.789659559173	-102.710609383697	-0.592248506257576	-14.833284884459	
9235500	-0.680975662272521	-17.4063979340067	-52.1878636557015	-106.85337334342	-52.2810928134086	-106.876989110845	-0.707878706853957	-17.0517559961991	
9485000	-0.446773045407414	-19.561545007342	-51.157335690607	-111.067536141261	-51.1430585610033	-111.460618218824	-0.487466586728174	-19.0590014094038	
9734500	-0.07970235775517	-20.2302765254466	-48.5114770601132	-119.180855194926	-48.4580116502196	-118.894566527199	-0.122363318386691	-19.5412816980096	
9984000	0.0204262715170487	-20.0116243540319	-42.293612212684	-139.705999061657	-42.3256406913046	-139.641564578349	0.0732088237306545	-18.7757338127123	
10233500	-0.0247521081035684	-16.6063345948744	-47.743861828846	109.29070203557	-47.9051913817795	108.977935104183	-0.0402598486206738	-17.6801887587978	
10483000	-0.340732083767775	-17.5680851215098	-48.1971832839305	-176.47001325352	-48.2394915226209	-175.677201481914	-0.442496732773434	-17.8078683585486	
10732500	-0.682649853059283	-19.3429351210375	-44.5748161936975	125.885777619301	-44.7325065977123	126.776158115568	-0.792085108185823	-19.0318870065047	
10982000	-0.691377824210888	-22.2468249027284	-47.0269319398403	98.4178550477581	-47.2024752420858	101.388748549194	-0.802598575826441	-21.6871610823722	
11231500	-0.450520529853357	-24.5036762891573	-47.8666420244792	89.2272448685673	-47.0483379057858	91.5421285073757	-0.552772614420537	-23.8345450838998	
11481000	-0.152761176342491	-24.6287067114305	-43.7001419817612	62.8911698836936	-43.2685572890855	60.6203983341678	-0.43203436261229	-24.6251688202739	
11730500	-0.240820109253653	-25.1077898082637	-55.2459679266325	-49.2124645385974	-55.0133674101668	-51.8084174877293	-0.0545481911766503	-19.4863809327366	
11980000	-1.69684851282615	-22.8799941161702	-58.7778647088085	-1.37411257339887	-58.4608928085268	-12.379718423874	-0.352541807531035	-21.7092088748725	
12229500	-1.06587590979773	-13.3830865320543	-45.9940174293461	60.4836784489746	-45.9405569006057	63.8499401449782	-1.46811842034494	-21.2736505668014	
12479000	-0.867359986821651	-17.9192636477461	-54.4790308263391	-41.5193615668997	-54.5795724539326	-39.7188385261015	-0.912474687330654	-18.9224294543223	
12728500	-0.688951490739744	-21.7311730915692	-54.0080170059574	78.00759250781	-53.9949627585799	79.0826468740669	-0.750224060748451	-24.8415987600335	
12978000	-0.293270906891924	-23.6814833480189	-45.0120974392609	53.5867470387601	-44.7995398842464	52.9292555889358	-0.665187177080877	-28.2872945078812	
13227500	0.0420886337477859	-23.6406713444685	-38.7096898294927	11.7470209190026	-38.5241710283499	12.3018066271074	-1.08497916254284	-27.8510059646499	
13477000	0.0700330500694599	-22.5909546628974	-35.8551337211443	-48.0834623386657	-35.5707703589802	-47.7711962141053	-1.27077545542355	-19.1637225824558	
13726500	-0.216685070046605	-21.9435143110759	-36.5969374078645	-98.1720676625591	-36.2388718397845	-98.9697562484693	-0.809080831179359	-16.7154441548392	
13976000	-0.612877201168496	-22.6528938869927	-37.5279172250612	-141.92449601936	-37.3006994143551	-143.795920437581	-0.996914229388659	-18.4295651023972	
14225500	-0.756480837710733	-24.9148812235795	-40.5225592643904	172.284663495217	-40.4532945104317	170.149784091147	-1.13847498815005	-20.764348885714	
14475000	-0.533141828497999	-27.3777698512282	-45.5418821266289	139.230340544189	-45.5664367154602	136.895404153817	-0.871286310560934	-23.0158781992353	
14724500	-0.165918935331037	-28.3092064507494	-53.1494625241743	140.479452677558	-53.2037006379285	137.397527104652	-0.37884676338528	-23.9503078425295	
14974000	0.0490787031556006	-27.2729356994975	-48.5351977043256	152.459340147857	-48.6068213665877	150.64327454481	-0.0148699722228948	-23.7294509627254	
15223500	-6.46722418811968E-05	-25.9306270261886	-49.3845562063798	115.144419330084	-49.685972732445	113.98518872064	-0.0160543752013507	-23.2907140869578	
15473000	-0.368544922409728	-25.8057929234815	-45.6624828097998	165.757693501142	-45.6310053670723	166.496187579566	-1.03828269789635	-22.4145900237965	
15722500	-0.849150268000334	-27.3023581167094	-44.2317433365007	77.5353504789103	-44.1658707224771	77.4922918197165	-0.807869248363015	-21.9799160451478	
15972000	-0.819450719933513	-28.9003831335406	-51.4498312605828	6.601756541307	-51.4385698704158	3.16193838200808	-0.826885559130927	-25.0246532659615	
16221500	-0.461745531231275	-31.8707483720773	-60.2996438083389	57.5564101326834	-61.0061582089375	54.401563131243	-0.541008216860174	-27.3574975946888	
16471000	-0.0985726850588191	-32.7466234982812	-55.7772903778109	69.9164780311849	-56.1076834335031	70.1061313258724	-0.133017585801641	-27.8876876268235	
16720500	0.00806517326826352	-32.2420946774046	-52.8320954793783	60.7507523456948	-52.9221733636599	60.8527641279733	0.0889254700313787	-26.9944219659987	
16970000	-0.333605825526081	-31.6719396496281	-49.7863644414176	41.6120649544557	-49.8460886845064	41.0176455533629	-0.0311268306454253	-25.9023461851003	
17219500	-1.11814262602308	-31.5633715707072	-46.5624890324561	8.48739318944568	-46.6065450049208	8.2334714256871	-0.39341896417873	-26.0302088869182	
17469000	-1.67357438220843	-30.3269410928908	-45.2939297695924	-39.5507970477161	-45.338550052365	-40.1843611417073	-0.718724138262655	-27.8409792882126	
17718500	-1.39593898229183	-31.4316286482641	-46.9928405138092	-85.09716461241	-47.0329850480786	-85.0781837248654	-0.715629713264847	-30.5837747936018	
17968000	-0.952321084577075	-33.1038584200938	-49.2518841013265	-127.683431566186	-49.1851927499468	-128.361140375021	-0.388616278947863	-32.4184151496365	
18217500	-0.602842712307325	-32.0704083303432	-51.9081425170527	177.878964233182	-51.9064870653783	176.802877468082	-0.0217969229876965	-32.4894372187473	
18467000	-0.376419092362837	-29.2512982138758	-54.7835541856238	99.272582141841	-54.6707685466274	98.1679016057846	0.0543773216459364	-31.7242835144587	
18716500	-0.400533790499704	-27.7878582435963	-51.046532014944	2.67474103738772	-51.0974636284466	2.63696023315923	-0.342251416872891	-31.8300424285335	
18966000	-0.66101931827495	-28.5927759916663	-47.4054193699804	-126.742857762323	-47.1389951879483	-125.947833413152	-1.209340225569	-28.1900953249653	
19215500	-0.839150810183275	-31.3861367503796	-62.9822108117941	126.884924783677	-63.3623375250951	132.397870422503	-0.875131396733125	-32.0389303092842	
19465000	-0.666050098003018	-34.4739913574671	-56.6059489756401	-55.7372495639854	-56.5633294168546	-57.3638412511046	-1.05033318642827	-37.6639110440495	
19714500	-0.23728563811032	-36.0997458768663	-49.962036811041	-141.98497910357	-49.7320031536954	-142.175227123414	-1.55934258458181	-34.8186315886013	
19964000	0.103158748524983	-35.8157150588112	-53.0801550142683	157.696157136961	-52.7069890511375	157.283715211859	-0.488659247279061	-30.716359509661	
20213500	0.103142392145294	-34.8097418890823	-56.188500977163	120.015777751816	-56.4879727852542	119.939944322929	-0.162857577110985	-30.3600290474638	
20463000	-0.23672356286852	-34.636312643705	-63.407732330261	137.713122130181	-61.5345449096179	133.262260355111	-0.468814611937339	-29.0754039816424	
20712500	-0.693657972066503	-36.2837622626451	-58.7461876083131	143.692196091112	-60.5252160603578	129.828864517848	-0.728407760845622	-30.3069209378877	
20962000	-0.904370445883924	-39.5543150735838	-57.9606406807976	109.003924875074	-59.7625207116001	114.537424685545	-0.875678206951553	-32.9891825516968	
21211500	-0.785497622362211	-42.9699693697283	-57.7377190067932	99.5269408670451	-58.5432314119597	110.265339135152	-0.672779969532225	-35.5921724242481	
21461000	-0.676090827492148	-44.4068977931447	-53.7172887939115	86.6792573223167	-53.417550626788	94.4958694026725	-0.256474619603078	-36.4928184404764	
21710500	-1.01457029806622	-42.0501048808045	-49.6506467456977	48.0896834462144	-49.2227814157305	52.2067974674451	0.0217709656603809	-35.7827520010318	
21960000	-1.32559618704491	-34.9799678955718	-48.0161354793779	-3.33369205121411	-47.7718604948184	-0.556410102274108	-0.0321759359720909	-34.613055073845	
22209500	-1.18733282864073	-31.49619859738	-48.4429985184604	-50.1813569592023	-48.16370034496	-48.530543500384	-0.384181835031771	-34.4279648791722	
22459000	-1.18498447946639	-33.2848779214125	-48.7381388319727	-86.8850771845926	-48.4698136099516	-85.6307137824739	-0.747905923840298	-36.0844522193541	
22708500	-1.05424861873687	-36.9893497062233	-47.999655425133	-122.410685027589	-47.9913800999575	-121.875685489176	-0.833127697324418	-38.8386403174079	
22958000	-0.654237622702589	-39.818193249495	-46.4112326551584	-167.56847910146	-46.5842512025624	-167.544398068319	-0.560164997140007	-40.8157130180837	
23207500	-0.203901973464749	-40.2152351383027	-47.0193676320613	139.120769181656	-47.2901586680318	139.385632070876	-0.156953173944898	-40.8016475194778	
23457000	0.0331823835669539	-39.0912223569109	-49.7407621506712	100.762711073091	-49.8542539376914	100.791245768729	0.0460514697106131	-39.67232917158	
23706500	-0.106700805739312	-38.1042020486648	-52.0792284267745	77.6956667123613	-52.1960936998338	77.824216261722	-0.111776519800995	-38.708708170913	
23956000	-0.497130593498726	-38.5996649766033	-53.2131806579526	62.7792576450427	-53.4766367450865	61.3738971258274	-0.52034218979997	-39.2064181352365	
24205500	-0.811185534370775	-41.1440009406704	-53.0460086526523	50.9457047584287	-53.6109910402889	52.3157843939025	-0.849295699045958	-41.7440104496646	
24455000	-0.764224816009722	-44.4583751161232	-51.1978349880854	41.1518734072393	-51.6093063712779	40.9919274195531	-0.831512533741713	-45.0305259434839	
24704500	-0.423764766740244	-46.5155056846404	-48.2717027730192	24.1423180157594	-48.674995473038	24.7661535607007	-0.502048139286532	-46.8630154577083	
24954000	-0.136244800917862	-46.5057624361406	-45.216331204959	-2.41049980442016	-45.6049015518079	-1.38423380232321	-0.228272313135615	-46.9845665918369	
25203500	-0.169351309208764	-45.4097761646734	-42.5640115363458	-37.1152098257731	-42.9326200103987	-34.4817111833668	-0.296082661223694	-46.4387571198171	
25453000	-0.651136138507588	-44.6989403791816	-40.2370025470746	-74.9795759487145	-40.3201262137674	-70.5035912720053	-0.850445713154286	-46.6787223944414	
25702500	-1.64342795653296	-44.7024224871465	-36.3538881592608	-127.681838855158	-36.13915603714	-124.904506808738	-1.98555747096966	-48.7786327364017	
25952000	-1.62804906814912	-40.9857801266399	-38.8799306633358	131.271702687022	-38.6213647367017	132.744658500667	-3.24030527298713	-42.0808527601817	
26201500	-0.932912873543564	-44.7076091651789	-57.4086833914802	106.240439140905	-57.3968024242346	110.48395938201	-1.39200848718391	-46.2874707494351	
26451000	-0.353854053691998	-46.8368121529832	-53.872413565529	139.745967372948	-53.4278453226422	141.314004262355	-2.27702527801937	-52.3806969471176	
26700500	0.0201544026648605	-46.7516366167618	-56.9107806800779	117.772890456214	-56.6104329058802	113.344307948663	-1.87840188618659	-38.1840743806271	
26950000	0.0148292973920855	-45.7957806605179	-58.5208012236055	125.097550713043	-58.9135736359026	123.878478680142	-0.721427288011528	-36.2214551251957	
27199500	-0.334371130752074	-45.7494295576452	-58.3154367079371	125.210552708419	-58.7529947072958	123.804842590214	-0.632679413520734	-37.3197531909967	
27449000	-0.754315715324862	-47.6639531511024	-57.8065462468458	119.497849260988	-58.3156978710667	113.403904267162	-0.892518505332076	-40.2602396141561	
27698500	-0.917329973593228	-51.1710469675547	-57.1883609521383	100.170726458698	-57.2844994895755	99.4713540097174	-1.01156469617316	-44.7725380061039	
27948000	-0.678196962222195	-54.2496513228548	-58.1475445407581	70.7307000088696	-58.5459077547748	68.6166938496774	-0.789725735657005	-49.4109360250873	
28197500	-0.315446643414177	-55.6583547038659	-63.7689932398913	86.0575007379829	-64.2037014450049	87.2150663405504	-0.492089541740459	-52.5386579968585	
28447000	-0.301025715676621	-55.6576891533609	-67.4103189754834	-149.374790669821	-68.5695080821654	-149.713775993852	-0.75020071649475	-54.6649050125133	
28696500	-0.8199319344436	-55.7221233885449	-44.4655970862533	161.850130299449	-44.4881071199455	163.699379065003	-2.29975296163327	-52.6181982183826	
28946000	-2.07227035751112	-56.8991331754466	-36.7957508252606	81.5416911223493	-36.6971515146536	82.4524169385897	-3.28378430029505	-38.7176001857657	
29195500	-3.93415043449415	-52.0350670237643	-35.2839136238093	-2.67200515938269	-35.1512424401	-3.16249692758927	-2.4538229378774	-34.6707195617735	
29445000	-2.95175342604277	-42.9661547977794	-39.4233633307897	-73.2626893414253	-39.4823672491394	-73.9491150227705	-1.75468895759136	-38.9711160784773	
29694500	-1.40921737504736	-45.7805339193471	-45.695784272331	-115.093730412287	-45.7103001384066	-114.538374643899	-1.12975031889263	-43.1285346460661	
29944000	-0.528326716668255	-47.7276641524581	-51.5231336798787	-139.934098296506	-51.4619687420858	-140.26399172792	-0.519426726473153	-44.522934982411	
30193500	-0.180309875229436	-47.8418431498243	-57.582408146424	-156.256519731839	-57.7186784462774	-157.36651367382	-0.217840452668353	-44.8506684587306	
30443000	-0.31854463154905	-47.8105802817647	-62.7062354116273	-135.28094624987	-62.5019971798403	-143.023029590699	-0.819185383316358	-45.2425549602282	
30692500	-0.735048327788079	-49.3602696235222	-67.7729250805256	-158.365235119398	-67.8976946552235	-160.637020005181	-0.980469581723772	-41.8147034913844	
30942000	-1.07790256675866	-53.1807629489649	-71.1700038111381	-28.6161518102309	-72.2961262612668	-23.7423636224248	-1.17049938612341	-44.9631871750896	
31191500	-1.02175735251368	-57.8368419245202	-58.7510707665687	-31.8030759798796	-58.8640629037742	-26.0172502556623	-1.10742597221338	-48.8879830815951	
31441000	-0.721356670781829	-61.0462278287182	-53.4340545910373	-59.8253587783367	-52.8297590635947	-60.3080611066558	-0.792874913640147	-50.6496581080685	
31690500	-0.675910698604841	-62.0769372790483	-49.8159668094271	-82.4706258216862	-49.6566015468942	-81.2210130591901	-0.342981443083939	-49.9680943228315	
31940000	-1.3137963839164	-61.2106572621067	-45.5455120316824	-108.993748007048	-45.4643003747378	-108.490631799092	-0.1462131779194	-47.9175016748799	
32189500	-2.65533674420355	-56.8250875477308	-42.473505407621	-151.668245795026	-42.4035287433586	-149.843616858066	-0.39036570163066	-47.0761548123756	
32439000	-3.44633918410098	-48.5774155778176	-41.6872914615528	163.341760651203	-41.506871249273	164.546869762416	-0.798322636103378	-47.6683336444652	
32688500	-2.86212579454837	-46.2313099927211	-43.2652852604881	123.565376389148	-43.1237304646012	123.519740374211	-1.04969279329958	-50.4523026177152	
32938000	-1.94849309691378	-49.0248820661031	-45.2926457826901	95.1665134325167	-45.2458086060814	95.5418708528778	-0.885527762577635	-53.8219273118254	
33187500	-1.02504635475879	-50.9520857950667	-47.147935256084	72.0455129734228	-47.299612012087	72.4063142179776	-0.451592289817529	-55.3597280469281	
33437000	-0.414687651700892	-51.051588468055	-49.2835767141008	56.8012642630352	-49.0786559611994	57.3029732342048	-0.110959663967778	-54.8041355500767	
