!Keysight Technologies N9923A: A.12.45
!Date: Tuesday, 05 August 2025 20:54:13
!Timezone: (UTC+08:00) Kuala Lumpur, Singapore
!Model: N9923A
!Serial: MY61181427
!GPS Latitude: 
!GPS Longitude: 
!GPS TimeStamp: 0001-01-01 00:00:00Z
!GPS Seconds Since Last Read: 0
!CHECKSUM:1149632870
!Correction: S11(ON U)S21(ON U)S12(ON U)S22(ON U)
!S2P File: Measurements:S11,S21,S12,S22:
# Hz S DB R 50
2000000	-0.0906665934838624	-2.39329519415839	-72.6099918593036	-105.319461386287	-72.3801518699431	-97.3543951276864	-0.124889044246066	-2.26484861456592	
2249500	-0.432391803789715	-3.05263201066552	-68.6971693155434	-111.091406491767	-68.1663356134329	-96.2456861272858	-0.455051874600073	-2.87535901241552	
2499000	-0.592873947213416	-4.90045772726843	-60.4622697857274	-117.586709303116	-59.9196343912105	-115.799629102715	-0.609170379773747	-4.65125269801424	
2748500	-0.418144627365849	-6.56016759602074	-55.7735451198593	93.0254769297573	-56.1202568960949	90.6811070585278	-0.442743584600109	-6.28200003346271	
2998000	-0.0917176236671779	-7.21714917953323	-62.0775500733668	116.482045094713	-62.366684159413	121.063344004903	-0.0942314837865552	-6.95207321479893	
3247500	0.170375232599063	-6.45206468998835	-55.7972307401154	68.2675983219126	-55.9121994090698	67.4124101770867	0.122334617812465	-6.38150477666518	
3497000	0.120070066962112	-5.58762007344441	-50.9153855721627	12.996335345766	-50.8881557329614	12.027126663972	-0.0111360059299493	-5.33761917229467	
3746500	-0.208173304524794	-5.43383050940232	-50.9028318684961	-73.1581171498339	-50.9114123190475	-75.187747629119	-0.289108703926781	-4.28479823090077	
3996000	-0.600053103668974	-6.23331108905964	-57.4638650554729	-173.513784731215	-57.8634641209209	-175.478430963236	-0.561256073170972	-5.40480493061575	
4245500	-0.593837601827782	-8.32727905088112	-70.9286899573963	-89.819615063058	-70.5946734552988	-86.840214196642	-0.612733180678016	-7.64126870798367	
4495000	-0.327309927437107	-10.1316495067634	-63.2160394399667	-99.5295392360336	-63.6562774996952	-99.7708836215456	-0.35975820596851	-9.35492768142393	
4744500	0.0105836463822825	-10.5238900015891	-58.2505164072642	-120.91995525936	-58.2467472221568	-120.837649510361	-0.0114111122645693	-9.72977977477385	
4994000	0.0670702644427548	-9.61426919553254	-50.1439653569481	-176.86616345771	-50.276900093895	-177.292169582447	0.147240461812666	-9.01319951777119	
5243500	0.00129993404476884	-8.05670200570991	-54.2103745386143	105.130362539857	-53.9338341783643	104.593437178767	0.0041432712939089	-8.23580360663187	
5493000	-0.328962327910643	-8.41075931435186	-57.7641152156457	83.5989433213722	-58.0898181393929	81.1908203642908	-0.35039997487421	-8.49033704545475	
5742500	-0.60469954034002	-10.1828029083213	-59.0031281076518	67.7917212155129	-58.6093489707928	67.973265708124	-0.62121281069665	-10.1279017086191	
5992000	-0.561996158003657	-12.4706919008152	-55.0603315396351	78.4243781299541	-54.9600131922574	77.3841445776813	-0.590174261845878	-12.3375514084384	
6241500	-0.23145871155006	-13.8847507473528	-52.4699479273645	43.6132630113013	-52.4093177535216	44.4564848650667	-0.292586193023515	-13.6776496359507	
6491000	0.0547665091421702	-13.772674345287	-46.2585579671475	9.75282747311053	-46.2013235248871	9.55861718722221	-0.0287720036132433	-13.6322236349743	
6740500	0.0871502494188624	-12.3932331701649	-41.2628568382805	-67.2909030769294	-41.0743296334097	-66.9339351421651	-0.0679229155742802	-12.1503219222962	
6990000	-0.134495694284638	-11.5721319731696	-42.5324586144575	-146.00898925036	-42.3499774971528	-146.547056079792	-0.328638302904138	-10.3845964587437	
7239500	-0.527640090287668	-12.2269453238721	-46.6310253287495	158.591744145837	-46.5216214401832	157.789509626443	-0.576057121391064	-10.320416730942	
7489000	-0.781562810229124	-14.0993466429076	-50.0505047604486	122.295907911887	-49.9721702788386	121.656207990891	-0.70445643769223	-12.4402057943601	
7738500	-0.631762045806776	-15.7467916614611	-51.6289357224452	96.2306180657386	-51.5863022959179	94.9685709744423	-0.547824790254977	-14.6903644894468	
7988000	-0.22659899536644	-16.5455768471244	-50.9549397671479	67.0573991552342	-50.9737164210423	67.1572748156087	-0.183737585487219	-15.6416948178277	
8237500	0.0297569194375591	-15.9009849302618	-49.5779134521687	26.275372270298	-49.3899554747839	25.7670672482178	0.101752184895514	-15.1868256539575	
8487000	0.0255014652331052	-14.227940570824	-49.2792660353837	-29.2364645090156	-49.4633582520987	-29.7054798601614	0.0741416874557919	-14.0627890691442	
8736500	-0.215256825316263	-13.7364883816776	-51.8364069040424	-74.8872758962116	-51.4725483106313	-74.6962311473022	-0.237948588823595	-13.9062911465239	
8986000	-0.555831738511442	-15.0314213362837	-58.1254279793811	-131.219315253525	-58.4678482925159	-137.947416897553	-0.719527017475758	-13.7562371819394	
9235500	-0.664888693149272	-17.5734995940296	-59.7099917384233	-116.198032308474	-59.6074019277655	-106.654333180396	-0.687651326879885	-16.5089953173569	
9485000	-0.424888746846218	-19.7333513223726	-57.8469089010182	-119.857271292706	-57.6216237912214	-117.504531867551	-0.459064919163992	-18.8960690051363	
9734500	-0.0552927328427428	-20.3349897341584	-54.7220920083966	-137.170789222811	-54.2912099417208	-137.336352981371	-0.101787515664347	-19.6281684288189	
9984000	0.108924656271814	-19.6572058515442	-49.4477532078448	-163.681433398944	-49.2438867380408	-164.511194674589	0.0658291988338314	-19.0509990132611	
10233500	-0.109488572313879	-18.4530964536299	-43.617260849006	144.575785748305	-43.3344688685219	142.740595836219	-0.143075830419366	-18.1004607433836	
10483000	-0.50174999708877	-18.0353989646238	-41.5185034080323	70.3528600033445	-41.3675754287217	68.2628459665886	-0.64573169367243	-17.5723786968373	
10732500	-0.926178466991887	-19.4909670835234	-42.2741961253239	-1.63220923511383	-42.2856970029571	-3.85311552937923	-1.07893739471416	-17.6750131305045	
10982000	-0.983160873231477	-20.9550836873388	-46.1212228991455	-65.3561202497006	-46.2605324350408	-65.7071808880816	-0.976561535168549	-18.8292563312552	
11231500	-0.588274032087719	-21.8904223742473	-50.2097281677746	-107.645230815381	-50.111159225273	-107.770934212916	-0.537870313640511	-20.3613536701843	
11481000	-0.115756932291675	-21.5421746069316	-53.3090939536962	-152.41345068378	-53.2327017111773	-153.211036425915	-0.0910587745841691	-20.5353954260919	
11730500	0.0981409377606859	-20.4840041899036	-56.7422888673628	172.498207811535	-56.5084849377354	172.558870092955	0.0842713706782632	-19.6359012108527	
11980000	-0.0640342263984332	-19.6888085221578	-59.8319757700268	148.753601825464	-59.1711455907646	148.491746596495	-0.0817960356551251	-18.829367571928	
12229500	-0.438382083665584	-20.2954051489261	-61.2725877068485	125.9517935385	-61.554047741235	125.221807576142	-0.450019699097162	-19.3191154011922	
12479000	-0.705486190608504	-22.497727188823	-61.4551410420777	103.054053475588	-62.1400254364034	102.988561802186	-0.718889838087765	-21.4510897786129	
12728500	-0.605589302245093	-25.1730957611053	-60.6679684941661	79.923162620245	-60.3175793936415	80.7099998873161	-0.654722907475827	-24.0968204223053	
12978000	-0.247968352677433	-26.5988731616598	-58.7078366933588	60.4926952435895	-58.2363165056838	60.6467520481918	-0.322454162831473	-25.6394808877178	
13227500	0.043498400064631	-26.385478897559	-56.0195697485525	31.5976795869773	-55.9501911840891	29.9564152402212	-0.0589825404613393	-25.5612683443138	
13477000	-0.00770392715635657	-25.4913148791373	-52.5554477447717	-9.20889245539525	-52.0323888946232	-8.97327464510771	-0.143984558580551	-24.6449480006141	
13726500	-0.450835438413774	-25.0370254681991	-49.0814746506241	-67.9422800992935	-48.7807735812502	-67.0691446973231	-0.645666875012265	-23.3143634957973	
13976000	-1.08543394265905	-25.4065902160811	-49.7124291383363	-149.759298389502	-49.5451328165867	-148.894504918856	-1.07031300587191	-21.9090418653351	
14225500	-1.38425197566959	-25.7003645493984	-65.4604916482643	107.281099010549	-66.068815219855	104.573095197855	-0.98906741253192	-23.3039722539226	
14475000	-0.961933163685812	-26.3723762873282	-56.9002833554977	-126.549154328449	-56.3087261035643	-128.114783298245	-0.642864418593916	-26.8096198969238	
14724500	-0.353633651220832	-26.9393297892943	-52.4886642441278	163.311314609197	-52.0506007668041	159.613535124556	-0.57959496567448	-28.0983485905476	
14974000	0.0252367275111314	-26.3274308787197	-53.7436195866427	103.703943329695	-54.0856247981875	99.9930090738151	-0.236619253271359	-25.3541241681555	
15223500	0.0222666572653572	-25.3318601012941	-58.0536382743668	58.7329148506136	-57.6943918652011	54.8174768371696	-0.156860118922485	-23.6153737560886	
15473000	-0.301168856717558	-25.27738243575	-61.5255219702454	27.8533777640685	-62.0106891066546	20.8506411161091	-0.390697773655449	-23.4129774874266	
15722500	-0.66776104533882	-27.102530744028	-63.05736927411	-0.688834686263246	-63.7796511387883	-8.66534604611942	-0.717718303536741	-25.0880106187743	
15972000	-0.743939526163477	-30.0839494505959	-64.8656663015596	-17.798753773108	-65.1949808244584	-17.2016606054383	-0.798065908769088	-27.97447593714	
16221500	-0.462099364340104	-32.402589685933	-65.5499839492331	-38.8815385358623	-66.1001393096235	-44.3502397214245	-0.537378964813797	-30.3447850491331	
16471000	-0.0919616182017272	-32.9244157368162	-66.5239502208486	-74.706606414885	-66.4438333857921	-76.8988046260776	-0.173729950535136	-30.9953888670674	
16720500	0.0309623246480434	-32.1219624805103	-64.6253378830506	-113.172904078219	-64.4239344578401	-114.18075226266	-0.0399125810397667	-30.2951547998258	
16970000	-0.256290176523934	-31.2077455059906	-61.8122225420677	-156.649465242312	-61.315834114182	-159.389162457639	-0.310659599836121	-29.3376543625202	
17219500	-0.876623548097932	-31.3077548185781	-59.6475057771222	155.689271512828	-58.8405149828062	151.520916390747	-0.876059581749912	-29.1444479732055	
17469000	-1.46415381450749	-32.1001457495517	-57.4241354614217	101.388300258546	-57.521112932997	97.0331157883063	-1.35445034607531	-29.8770717301463	
17718500	-1.46496713112521	-32.4970778873461	-56.1992577332942	48.5496694527832	-56.2254323183036	46.0033816843785	-1.35739026787406	-31.0986569477627	
17968000	-0.890825944488546	-32.7382480331696	-56.5921217968433	-1.62842095213414	-56.6106368672171	-4.6267707693101	-0.877522846260422	-31.6375311742344	
18217500	-0.302197224692857	-32.255964130217	-58.5496978499034	-44.2150444171532	-58.4541887885643	-46.9731107964269	-0.327210126505945	-31.117668473362	
18467000	-0.0673471093095148	-31.1074887281093	-60.9086130075553	-83.0629524395257	-60.0580814674065	-87.6043287048773	-0.108050029414097	-29.9280676737611	
18716500	-0.237505260856091	-30.5230059073509	-61.8731930761485	-117.650571959639	-62.7115668823562	-118.71411021191	-0.280320918862672	-29.1646922455363	
18966000	-0.620118492217784	-31.5222625687291	-64.9734590798994	-138.289001496425	-64.8862844251866	-134.157361799755	-0.691442515456657	-29.8743519844967	
19215500	-0.851060153829906	-34.3031295565851	-65.7720630396124	-142.842943556749	-65.1707241116098	-144.596553779864	-0.96725830766487	-32.1149448092942	
19465000	-0.712397364950476	-37.3272720067874	-63.6783847897033	-173.474609004911	-65.4082050737598	-172.862116367563	-0.848344691836909	-35.0611393394237	
19714500	-0.322012633044198	-38.7761648840906	-64.1670603803985	162.043079632441	-63.4237767438532	158.506732260316	-0.499836214469329	-36.8130709398652	
19964000	-0.0422748798890143	-38.3312954657018	-59.8583000937683	153.260275143075	-60.1909365312968	151.048332887056	-0.21429136426918	-35.4548982728986	
20213500	-0.139722186784631	-37.1595420496731	-55.2752998469385	93.8299138251975	-55.4936601506214	89.6073481698203	-0.232762929364732	-34.843558290557	
20463000	-0.620243138958094	-36.685147183698	-51.8993925368975	32.916874718716	-52.4556975493394	27.4897082785654	-0.686344767651076	-33.7245866774425	
20712500	-1.24592677792338	-37.6332254289743	-49.6617622606205	-34.6082591335352	-50.2020004650537	-37.5133912669599	-1.16984660641537	-33.9256965857723	
20962000	-1.60657447191563	-39.2785610554975	-48.6490370624526	-97.5776246645385	-48.8796337487388	-99.5337271718152	-1.39296195488409	-35.6896553287826	
21211500	-1.40122251501772	-39.8753953505649	-48.7391626459446	-154.166483492406	-48.8458042070551	-156.558421073766	-1.18863805706547	-37.176233477226	
21461000	-0.820142394407632	-38.9281184937421	-49.3283606934185	151.833091291615	-49.5107118174224	150.931241469969	-0.683713734591382	-37.0504657483627	
21710500	-0.368027908722718	-37.1911968251115	-50.8929180311174	108.124706965488	-50.9772270439119	106.325030051574	-0.280831088047144	-35.8658717189134	
21960000	-0.319138193930777	-35.785623598186	-52.2892515999467	72.9079532279998	-52.6210807370651	72.1941618826472	-0.255216077643071	-34.7284316296195	
22209500	-0.621371721751672	-35.7962046517268	-53.6154040844666	42.1243503572803	-53.740363699899	41.6918552306169	-0.582953626592041	-34.7984797942437	
22459000	-0.965349589220715	-37.9614256694722	-53.7181289894397	13.4937799711694	-53.9120011017158	12.8116340198704	-0.962939256936284	-36.7936613430429	
22708500	-1.00065156630473	-41.3620245597987	-53.4562580099142	-17.9973832670335	-53.5255934433297	-20.4433052906622	-1.09118774569426	-39.8331097680878	
22958000	-0.680855237386625	-43.8476877891528	-53.9729419036668	-59.7505798923195	-53.5835743337764	-61.836788475202	-0.880306277564413	-41.6942570559207	
23207500	-0.318539924063822	-44.1988980968896	-56.867450159583	-102.406587479081	-56.5743194716943	-105.953244980479	-0.489188298246301	-41.2498515965743	
23457000	-0.253426454101812	-42.9954420454627	-61.7198697490907	-124.365170499519	-60.9984569731682	-129.340265233206	-0.301962649578897	-39.812961194158	
23706500	-0.616106083977275	-41.5315042457412	-62.086143849165	-124.059252100027	-62.7415199763523	-129.646790439696	-0.516911806587195	-38.4839712748137	
23956000	-1.22953491549411	-40.9623009364911	-60.435886850433	-135.003453680571	-60.8300800862626	-132.726199745477	-1.01849580275785	-38.3752064935961	
24205500	-1.66907328982696	-41.8562458616394	-57.4716157802639	-157.214456177917	-57.3850861961418	-158.196606844045	-1.43937327880621	-39.9242894221642	
24455000	-1.57219339928385	-43.3662710357083	-54.6204463516914	158.886919933015	-54.4747328094335	157.665108468209	-1.41778544262142	-41.8801745564776	
24704500	-1.03664548053844	-43.9605334803433	-53.3782177610657	103.282916877937	-53.5160033030349	102.880852136293	-0.953608610598018	-42.4982565545138	
24954000	-0.486977440239025	-43.0861405214353	-54.3539881465863	52.7125944022645	-54.2900020618636	52.7216510513857	-0.473386303125287	-41.7249840094281	
25203500	-0.273917805259612	-41.6018495899268	-56.0231846771703	10.4174695573658	-55.8346617144672	7.54713238329049	-0.299897858324386	-40.2774725630421	
25453000	-0.472352431399544	-40.69464260806	-57.2300230345788	-27.1073936853578	-57.0901577404361	-27.4243723872827	-0.5112358050727	-39.313408518722	
25702500	-0.869849182284004	-41.732685056669	-57.8139952530081	-61.6291004854104	-57.6658063317542	-62.0186183202943	-0.932917988768662	-40.3112362370884	
25952000	-1.09280767962189	-44.7494473057324	-57.5571692671227	-86.8518871915002	-57.3730003106106	-90.4658203557222	-1.21190031964699	-43.1676183556994	
26201500	-0.916086991556341	-47.8622087810908	-57.840812480465	-121.105862279763	-57.0183349539439	-120.201191236772	-1.08737780916606	-46.3137286475437	
26451000	-0.485079836473654	-49.0793954056841	-57.5303660634008	-153.551268699243	-56.710191379425	-152.147424550383	-0.709842907526818	-47.7305626220037	
26700500	-0.197820496186685	-48.3326449499957	-56.7237854485729	177.590869401043	-56.3541342964632	174.322874956847	-0.460939647085953	-46.862061360735	
26950000	-0.285488078994599	-46.725393402166	-55.5999357237598	147.328080634037	-55.3625173495587	149.255036095092	-0.55981787519957	-44.8239858393881	
27199500	-0.726672921783524	-45.9225479872272	-55.0006517390171	117.092047311305	-54.6296592382924	116.201100565997	-0.979234577783857	-43.0482722908065	
27449000	-1.23384242301186	-46.872148313344	-55.0996142389963	81.7712711563391	-54.2168668872581	81.7753766916488	-1.41371580611296	-43.1532583460148	
27698500	-1.43375958603504	-49.2072924715946	-54.6151346460317	50.231010646337	-54.1209333739537	46.9674340346821	-1.52627164768172	-45.089165354187	
27948000	-1.15116210666935	-51.0250990978388	-54.6526867460478	16.3529876934037	-54.1509912758991	10.8363307471117	-1.18616505952805	-47.3633786224746	
28197500	-0.657005298300524	-50.8477604364609	-55.6302287355435	-11.5539794452336	-55.3775465362038	-15.2689933666356	-0.655420529726249	-48.0349635944592	
28447000	-0.354236206963339	-49.2703377152874	-56.8760176292943	-32.1671246279687	-56.78786226658	-32.9675316793711	-0.379337345206678	-47.4890323169239	
28696500	-0.432339355123408	-47.7249440294473	-54.7704667990082	-71.3010069128717	-54.6386597572214	-72.7986972305394	-0.538189165366922	-45.0257293801571	
28946000	-0.807951655425454	-47.6497950289117	-55.990247343773	-105.624837802053	-55.8090968346807	-110.582755335	-0.823614510375105	-44.601089593928	
29195500	-1.17097389982588	-49.7973994961017	-57.2394989973835	-135.585324708921	-56.8515799166417	-137.25521465004	-1.18661695495675	-46.6351204911712	
29445000	-1.18935320068723	-53.1613303148232	-58.3661535768735	-165.103272415942	-58.0528132396255	-163.519436057375	-1.24926427624191	-49.8735903504436	
29694500	-0.826186179009632	-55.2480055329235	-59.6718246793199	166.787220566397	-58.9321279504188	161.673419452123	-0.986633071009954	-52.1987566359692	
29944000	-0.460919933838397	-55.0130567904763	-59.698039316803	133.041489420553	-59.0184008789554	126.613215282459	-0.643790375420608	-52.2299788397191	
30193500	-0.400342195592603	-53.2964783527525	-61.2473923449568	97.8567916775481	-59.4317781577034	88.4019043317077	-0.587526506480045	-50.5931860268113	
30443000	-0.720965304398988	-51.6052623088611	-62.7021148453541	58.0093445081695	-61.7723532130869	40.0409586026685	-0.90177695413492	-48.5192932488644	
30692500	-1.23908437554883	-51.4751337305846	-67.7153057331789	-4.78708462560588	-65.98609625817	-32.7400616741587	-1.37777560317013	-47.8618448543432	
30942000	-1.61329948569369	-53.553488737199	-83.9910047815245	-49.156297684699	-80.7702068676035	-125.170752289461	-1.68217472154785	-49.4259159636496	
31191500	-1.51031692636563	-56.2411878182958	-72.571949235774	55.6436350877241	-71.9047053314494	59.2466309389523	-1.50826912878966	-52.1355196652727	
31441000	-1.04074960431802	-57.2031070226085	-67.5476758073442	15.340391961201	-66.6864329073185	16.3606033489744	-0.990435957261187	-53.5772902789348	
31690500	-0.610826846780098	-55.9504107720777	-64.7354155391918	-21.5106941669748	-64.4732637536772	-26.3059684425735	-0.508584900659156	-53.1200667166535	
31940000	-0.506400422326283	-53.8809013572893	-62.6421705181542	-79.4303490230562	-62.641301233586	-80.6350011751944	-0.423877607911175	-51.7135038622579	
32189500	-0.796310707484539	-52.6381484561785	-61.3397252795944	-129.082675270623	-61.0002769334104	-125.747495777119	-0.778964816706227	-50.5728759344562	
32439000	-1.24738210119271	-53.6381766494524	-59.5178724456294	-171.297354600998	-59.8194648482213	-167.865294995839	-1.33231527783612	-51.1019728918602	
32688500	-1.4685117249396	-56.6702923651799	-58.8481290278411	138.629516725942	-58.3212209015135	146.910908780575	-1.68899163121735	-53.1109628294117	
32938000	-1.2683892226776	-59.52729124486	-58.6303514384597	89.9911812000096	-57.7426161648567	91.0609108954464	-1.47581424749915	-55.463367729137	
33187500	-0.843410946879709	-60.2230599324205	-58.7713777370334	44.7812196775175	-58.2653010448934	43.3907895082093	-0.923633537533559	-56.43152925871	
33437000	-0.562080825359785	-58.7254292427176	-61.1119177209193	1.03384419941088	-60.195076809389	2.19580547196999	-0.510773191307855	-55.6540949762669	
