!Keysight Technologies N9923A: A.12.45
!Date: Tuesday, 05 August 2025 20:47:30
!Timezone: (UTC+08:00) Kuala Lumpur, Singapore
!Model: N9923A
!Serial: MY61181427
!GPS Latitude: 
!GPS Longitude: 
!GPS TimeStamp: 0001-01-01 00:00:00Z
!GPS Seconds Since Last Read: 0
!CHECKSUM:0077877961
!Correction: S11(ON U)S21(ON U)S12(ON U)S22(ON U)
!S2P File: Measurements:S11,S21,S12,S22:
# Hz S DB R 50
2000000	-0.0991093308381905	-2.49167073456885	-71.2538452278277	-114.283988655582	-69.732488557208	-96.6303318234802	-0.136976159883702	-2.39021368426465	
2249500	-0.442800620101545	-3.18700236948142	-65.8273223734865	-105.580358600949	-67.4058091728831	-114.591967676871	-0.469787342676037	-3.06740928342892	
2499000	-0.614001821064999	-4.92816939403462	-49.4190838213505	144.473095063746	-49.4988725619981	144.719103995068	-0.66821726700217	-4.65847422488017	
2748500	-0.42385892372512	-6.76622180493048	-73.3159270160033	85.4742610950373	-74.165703945866	104.549301306486	-0.455768658235592	-6.59976206864426	
2998000	-0.0771253025473048	-7.33019544190915	-63.8429976529207	143.270062307914	-63.6984666647518	145.115729453802	-0.107109075311562	-7.18236843906767	
3247500	0.166504502696889	-6.67231776875364	-65.0184558414471	85.4052583417234	-65.5591576367653	83.1481970613007	0.123365908230203	-6.49909104426079	
3497000	0.118268266546848	-5.74138968192844	-65.1515615713556	61.6686541052242	-65.0663810628596	60.4065188510079	0.0646649591890667	-5.51885023377399	
3746500	-0.204973928567759	-5.53570212177071	-62.4282947204548	32.6935283376291	-61.8141915805554	28.1319497898558	-0.262500401875388	-5.28455093096166	
3996000	-0.560123972629483	-6.83592690262894	-58.1196730327583	-34.3092983776241	-57.4215811046103	-30.6592455614989	-0.665946451485684	-6.36545297184051	
4245500	-0.706703781853146	-8.80763408969643	-51.890596858238	-48.189617334018	-52.4065224618931	-48.7428269394505	-0.742823143326378	-7.66390669103996	
4495000	-0.485365826574463	-9.45883941761848	-50.7008354531942	138.325218648647	-50.3659904107383	139.288921451608	-0.440621129961227	-8.81912080742813	
4744500	-0.0156391184057937	-9.56704272269132	-61.3196313759541	44.2374585250588	-60.9059183715979	47.269284881431	-0.0395646175192325	-9.1871055117131	
4994000	0.177950293638635	-8.84625147407715	-67.5323733041074	-8.32608503220531	-66.9239396242563	0.989352203534438	0.139329727398545	-8.46589244576289	
5243500	0.0374025328008576	-8.03862088820532	-69.0710611118122	-50.3994478187503	-69.3356060127523	-42.940331450303	0.00066269777355772	-7.68781023462422	
5493000	-0.319495702105276	-8.24676103734614	-69.864017185926	-65.1376847102434	-70.1119646469948	-65.7194211695866	-0.352209518103564	-7.90737351106511	
5742500	-0.600619907940324	-9.93787093669656	-67.4209787390568	-86.6644629953142	-69.0117448861704	-78.7634580412514	-0.623754072932966	-9.54228566514512	
5992000	-0.554567067221067	-12.2023209835934	-64.7306384674386	-93.3838704010627	-64.2592117159254	-93.1898820148771	-0.600322141482322	-11.7213357184301	
6241500	-0.21989022341813	-13.5741606534942	-59.5135652402508	-136.898111237464	-59.7678384066917	-137.810328064394	-0.299448189938406	-13.1632452522676	
6491000	0.0876004515379438	-13.3566936492326	-55.8840846305359	173.254233071016	-56.1596142075518	174.503465765434	0.024943097869007	-12.5455942389998	
6740500	0.167129472939805	-12.3924196821104	-58.0057861409444	123.296194832515	-58.1999033414357	124.737384424056	0.115134359892289	-11.7753995629604	
6990000	-0.0779969384000006	-11.8641954705508	-59.408921150702	108.301520324242	-59.8056577652249	106.78705891279	-0.117168800974054	-11.2482112751443	
7239500	-0.48010731369941	-12.7319315976566	-58.2267588940058	106.016710022835	-58.4244385889221	105.268916486035	-0.487708016582746	-12.0445965864002	
7489000	-0.74799277533159	-15.0034874206673	-52.3572275103339	93.961294562714	-52.5321659147953	94.7479395767942	-0.707421826429536	-14.2953648423506	
7738500	-0.702364040882122	-17.0555324740731	-45.0095163528315	56.7872791021068	-45.1275928691139	57.6442781347129	-0.61375130508096	-16.6700134973975	
7988000	-0.485928386748318	-17.2646397086835	-38.5750795386481	-7.51101546078444	-38.6269406192401	-5.91745797880613	-0.395598425346537	-17.6807024717393	
8237500	-0.13604005663078	-14.9388884528661	-37.5195779760653	-95.4564916985579	-37.4384171663083	-94.5315279587108	-0.273785934754451	-15.8942059732578	
8487000	0.00996229895125827	-13.5260941442433	-41.2569171661257	-163.713601920096	-41.2175757151956	-163.214781356194	-0.216808844515746	-13.0699084033288	
8736500	-0.221917988998629	-13.2889021508318	-45.855059272411	151.718793899761	-45.8221424993079	152.009896810746	-0.352080250296261	-12.1288017783483	
8986000	-0.559801917708137	-14.6307881910201	-49.9135539764809	123.56305620551	-50.0521022581806	124.676901391103	-0.629541644751353	-13.3184717332533	
9235500	-0.667741788276546	-17.1800710853619	-52.1771708867498	103.369820595197	-52.2759202186749	103.727441046595	-0.713588971687863	-15.7355635718857	
9485000	-0.426745188296247	-19.339268446352	-52.5412412731799	84.8373398834687	-52.5834431443362	84.2087713315166	-0.476286623883924	-17.9080702833591	
9734500	-0.0611538294923262	-19.9242245568675	-51.1321085843794	60.5098157160182	-51.0928629069282	60.626650738395	-0.0959957020393257	-18.4957793901391	
9984000	0.0878248597060131	-18.9372071856782	-48.9979869755219	10.2842023155692	-48.8847538830161	8.67331950904805	0.115220578540597	-17.7407064749798	
10233500	-0.00403271766441893	-17.3800908086875	-51.9403630331602	-56.9174527058626	-52.1014996248511	-58.9840798551744	0.0165618556732646	-16.7391014275781	
10483000	-0.334090636065888	-17.4516802545157	-58.3195993492998	-108.013752924213	-58.3790398481314	-110.372926997603	-0.360981591601585	-16.8653628764185	
10732500	-0.676241450447403	-19.2467701632595	-63.2313467044776	-93.0000949850354	-65.2774682483592	-94.0233351949731	-0.708312837764055	-18.2985069778244	
10982000	-0.712757429945898	-21.8266899143131	-65.09350850035	-136.349435652235	-65.6386350760085	-125.605172217178	-0.77899997529314	-21.3700758658757	
11231500	-0.431613056441037	-23.6575879344872	-61.1295241696677	12.5604279763211	-63.2457016930212	19.7591532903901	-0.805226788435974	-22.1112085683989	
11481000	-0.163361716645117	-23.7213846352019	-54.4376014897422	-107.461629790334	-55.5708266180744	-96.6464999473437	-0.089036679177703	-20.9874348401322	
11730500	-0.195033579081113	-21.9441935232466	-52.6701125673194	-163.155139715607	-52.8932616700871	-153.495160959173	0.088420745245619	-20.8204502028036	
11980000	-0.405721892487209	-19.3963872924476	-51.8702393216598	145.431823199165	-51.6907504240761	152.018125934154	-0.145873499612136	-20.5507161307458	
12229500	-0.664721091450787	-19.1473762740162	-51.5670433523559	98.7970211413441	-51.4522623793701	102.791015736721	-0.664265075126583	-21.5915855711036	
12479000	-0.841141686246498	-21.2735621367717	-50.5390132578396	44.2406457354688	-50.536048324993	48.5873519104752	-1.26819786828191	-23.2848859623256	
12728500	-0.695632452746034	-24.0516658643357	-51.8229162908326	-16.8590735137419	-51.5112243489031	-12.7691793190638	-1.28546779432233	-22.7015718378979	
12978000	-0.308114494788122	-25.5457841253893	-54.5573973365404	-66.2036258896011	-54.3480219765949	-64.4436023886262	-0.645597596708365	-22.6460415791339	
13227500	0.0106663639051931	-25.2922875040189	-56.6700032319988	-113.757209000928	-56.4171689694639	-110.583189704619	-0.121735549166003	-22.3762980392012	
13477000	0.00247964693332416	-24.1874480333874	-56.7281715433131	-162.239881479614	-56.7370137210418	-163.48261330305	0.0215298996640138	-21.5604468727589	
13726500	-0.333474152259638	-23.3341239429956	-55.9185639076286	139.371002436671	-56.0275065581118	137.520372851088	-0.203798333050996	-21.1231108024565	
13976000	-0.717660259298186	-23.9386441782339	-54.8450123476781	75.8262703839634	-54.7594243147588	74.4465096795335	-0.569408402019804	-22.1697251514124	
14225500	-0.859149331189037	-26.5315687241624	-53.1661575071193	26.5560682524528	-53.379277760853	27.3484345134585	-0.751635127570527	-24.6844932041118	
14475000	-0.709827383566382	-29.2830159813102	-50.140870270128	-15.1533072600304	-50.3332905928514	-15.7147343395011	-0.581036287509279	-27.1810538343724	
14724500	-0.468083569434298	-29.2357506194867	-47.1218595089999	-69.3530263232151	-47.2689220800712	-69.4368104499775	-0.232708509930224	-28.2363159674487	
14974000	-0.164009608864228	-27.5560245815403	-45.5377179835533	-120.003105611235	-45.9279900395032	-118.428550233197	-0.0522105433361007	-27.8023361916889	
15223500	-0.248156799698794	-25.6067641307249	-43.8716176640108	-176.062801666323	-44.0905499184156	-172.755857640958	-0.243209376478081	-26.3903664429815	
15473000	-0.529814273841703	-24.4753977398645	-44.2267205525331	125.410663614276	-44.2267937712755	130.020272358455	-0.748793979135548	-25.4558253459625	
15722500	-0.812048445233627	-25.8783213551801	-46.1055223646733	64.4442969216542	-45.8537375964171	68.3583095290678	-1.16507228122296	-24.7600675074915	
15972000	-0.82809745805817	-28.8053857609514	-51.1339758919301	14.6184294384481	-50.628236113743	16.1970350902518	-0.973415436981233	-26.8504838971498	
16221500	-0.503632953706478	-31.1672870147206	-56.4795368871725	-18.3046344628853	-56.1628505923306	-16.0404893068583	-0.581403783778432	-29.8177429060619	
16471000	-0.0923099387304566	-31.7277094580781	-64.0024518636198	-54.0780212635568	-63.0846153381254	-48.9558387027255	-0.191115019509375	-31.1470692108741	
16720500	0.0840437756107928	-30.931889851187	-65.3710379515498	142.072543720113	-66.5281484047053	148.933236563109	-0.146654541708246	-31.1735206395831	
16970000	-0.121536056015163	-30.0678210303787	-51.4317459474374	66.3395426219724	-51.8810868010552	67.3312995312742	-0.733615111321673	-29.6137973773432	
17219500	-0.613597715354097	-30.5401685172619	-45.9278053124539	-6.76546515885473	-45.9931715234861	-4.83206733906334	-1.21393980762323	-25.7907184985883	
17469000	-1.07187231502784	-32.6957631945481	-44.0401496274724	-72.4546199247164	-44.0687879776647	-70.6146893634594	-1.19374562369594	-26.2152917501817	
17718500	-1.23116097692546	-35.5071782212596	-44.2794180659341	-132.989291789873	-44.1202518501808	-131.648416604276	-0.968995528095991	-29.335562862055	
17968000	-1.16846756599946	-35.42229200887	-45.9493487687886	166.203939453668	-45.8232682530386	167.735027954864	-0.532771994132366	-31.62510206192	
18217500	-0.619426312603425	-32.3058025341508	-50.0172956868194	116.515081642426	-50.0352787601827	117.851567969568	-0.106898018414711	-31.8987342392478	
18467000	-0.255867780255217	-30.4047738748564	-54.3146507707689	88.9498731953315	-54.5338957482731	90.0387034682342	0.0120611938675395	-31.0023050229485	
18716500	-0.354662620097237	-29.5153866289294	-56.9006478946075	71.2843176063085	-57.1928952397235	74.2501588445361	-0.236192669936226	-30.365432919996	
18966000	-0.687317233291706	-30.3804769722751	-57.7247446894126	50.4662604685221	-57.4717478107461	50.2379579434073	-0.72424244123316	-31.2617337563122	
19215500	-0.886310297379275	-33.1175059818376	-59.4857411454625	3.12255071113954	-59.2325941756995	1.17301457103617	-1.21341265258406	-32.965057487267	
19465000	-0.720464598298243	-36.1528680295027	-61.04055948702	56.0157863287375	-60.9572782452267	57.2716976896925	-0.823788308613258	-35.2082647695324	
19714500	-0.297463380250794	-37.6576639022057	-56.7573681449616	23.5879115282096	-56.7652074898158	26.5188751508257	-0.535356416435093	-37.5738471614333	
19964000	0.0235399307514974	-37.287364146334	-54.4605552169463	-4.76367604188088	-54.1984105654387	-1.68709532005519	-0.371625790238071	-37.0544662452584	
20213500	-0.0182705009746821	-36.2318693233967	-51.6952814981756	-39.338697696734	-51.4243767912324	-35.9958912046076	-0.514540446079223	-34.8878636841241	
20463000	-0.425205174372946	-35.9979359177661	-49.8396236357545	-83.2900802434159	-49.4652249239025	-80.5319048549225	-0.892276307985313	-32.8399217524076	
20712500	-0.972997500668779	-37.5514464968253	-49.5996961324424	-126.510679896125	-49.3120763259079	-124.728287487644	-1.31934744502964	-32.5987946462906	
20962000	-1.33093401171154	-40.3342405737635	-50.4016953145733	-164.715694743145	-49.8877542150684	-161.257792506951	-1.41484118044753	-33.9419174977413	
21211500	-1.30298311865773	-41.8211573000802	-50.8164073780616	156.288512654276	-50.1430987165243	157.898490625443	-1.08084199500949	-35.9652206404907	
21461000	-0.927373178896186	-40.4040327275882	-52.099161769813	112.205162757351	-51.5536286586214	113.448168520378	-0.548203980957127	-36.6366697990955	
21710500	-0.536166370207064	-37.7258868853528	-55.2898311088604	76.0764275662154	-54.8237633199898	75.6625346427973	-0.189685040825291	-35.9857463683549	
21960000	-0.474570813401464	-35.7421483918242	-59.9782514446686	45.4030090688868	-59.0069408590254	42.7867297439244	-0.21344245523477	-34.990625081656	
22209500	-0.767240745468038	-35.3870125890733	-66.7267437293322	13.9010536929027	-64.0515244163727	11.3827240480078	-0.571987530260428	-35.0482430779648	
22459000	-1.09417346860073	-37.222853405101	-72.0255413867009	-143.416678984933	-68.4136020448175	-120.963177048787	-0.965763012874936	-36.9954759884556	
22708500	-1.10327961084006	-40.4584361208594	-55.8783394331648	135.854115732881	-55.1958071568596	141.986474489957	-1.09322659255859	-39.9373525265846	
22958000	-0.752115861653161	-42.8114905149184	-50.4401555515807	68.158168988307	-50.2794678468038	72.1956507860528	-0.839590686071707	-41.9764486154543	
23207500	-0.341295882424875	-43.1161308374082	-49.1808869044016	15.1763796900524	-49.1871350983406	19.5367616208285	-0.504138743813646	-42.0705646790825	
23457000	-0.215295910258082	-41.8978570624941	-49.1052417126679	-32.8802855028334	-48.9731275154088	-27.6796013518986	-0.436437813092387	-40.4434343593232	
23706500	-0.488089864273911	-40.5142992520547	-49.7606784010927	-85.8090842554968	-49.5790426445265	-79.5402023617467	-0.707590045624466	-38.3021329368896	
23956000	-0.992423792304889	-40.4890440689049	-53.3732555610575	-146.106911469719	-53.1139310699215	-136.504577414878	-1.18293936839492	-37.235271087576	
24205500	-1.40703959812002	-42.4531972361853	-66.7299676890517	109.959310756323	-67.8681798231802	155.770566184661	-1.43383841984556	-37.8956330849334	
24455000	-1.4186655533532	-44.7820638557844	-57.1846121606061	-48.9818156313871	-57.6555702610516	-54.1420818436117	-1.16537237492163	-40.4709177323798	
24704500	-1.03746915242302	-45.4413261006375	-53.0707390588447	-100.893753812402	-52.623920081452	-104.17530272175	-0.635049293441242	-42.6672652363533	
24954000	-0.601246700737427	-44.0953008691984	-50.8616613503485	-143.570950490402	-50.5626420275605	-145.305881942991	-0.246780656468375	-43.2860126710457	
25203500	-0.434208733117073	-41.9901643998877	-49.192911211543	176.463613679717	-49.0174853350562	174.622625088789	-0.284999129356614	-42.6975818207566	
25453000	-0.634246529398531	-40.5469853604465	-48.6661757886414	135.999497324061	-48.4077480101824	137.203649682552	-0.771459750106063	-41.551885226085	
25702500	-1.01856953067386	-41.2398227310268	-48.8443957873491	95.3851219340505	-48.239118394711	98.3395064371442	-1.39797018919575	-41.1748592589154	
25952000	-1.23511858991622	-44.029948900652	-49.5880504383828	58.6689790360543	-48.7007242222063	58.171430997926	-1.68663317330248	-42.2712432347018	
26201500	-1.04912434415311	-46.9109912689731	-50.1313740827477	26.2863398043807	-49.5572165915181	23.7752780519484	-1.42553625564459	-44.2976820282113	
26451000	-0.579912375709416	-47.8622998197535	-50.7668038498605	-7.97459224298054	-50.0603214584348	-8.73294371126251	-0.875337476958848	-45.1964142576935	
26700500	-0.21704799334971	-46.9936766042871	-51.6704177208071	-40.3688605449754	-51.2760939752199	-40.6556672375892	-0.421403765004127	-44.2246770723062	
26950000	-0.220022317613482	-45.5313669106463	-52.8799669986155	-71.5543639973481	-52.3492759746288	-71.6962444540904	-0.316809607508314	-42.7775046691547	
27199500	-0.587745447936265	-45.1112980045813	-53.480232030559	-100.650875780256	-53.0250265487444	-100.593540634317	-0.610175815049142	-42.1764377685161	
27449000	-1.05091412960561	-46.6692532479314	-54.0134889108923	-124.978807784615	-53.3607264102	-125.75773158421	-1.02378471402569	-43.6397666448814	
27698500	-1.26520757856213	-49.7629604684273	-53.7953535703165	-152.688139556574	-53.2745215396857	-150.879829181944	-1.22327963961761	-46.7485477030531	
27948000	-1.07557974120897	-52.195581636015	-53.6904160536119	179.055449761998	-52.9399457017579	177.532334039706	-1.05605222153015	-49.6779230584839	
28197500	-0.722660666210017	-52.1237961921073	-53.4220487833605	143.198465178276	-52.5045709970821	143.794931588319	-0.733062080995932	-50.1227572852437	
28447000	-0.54090888532732	-50.0521962570283	-53.878601592602	103.933971133789	-52.9328269719837	107.91107039635	-0.533301697299501	-48.4895084488684	
28696500	-0.671680559301294	-47.7301763766578	-55.6913456663844	71.1736934140267	-54.3386193676269	71.6374728120256	-0.693819894774436	-46.4791309093973	
28946000	-1.04544273805627	-46.9531023708076	-60.2061109349036	31.5117256706042	-57.9615079204188	35.841235459917	-1.16422664510692	-45.238765522068	
29195500	-1.39103105301572	-48.5733985940424	-67.3499448308656	15.6418287472419	-64.0147910735416	19.4576225724742	-1.54625294338756	-45.7790202357445	
29445000	-1.38571351122761	-51.4882089502914	-64.0257113076311	77.6662374789326	-64.4364608804611	71.7844534068851	-1.45250444892931	-47.9626069368634	
29694500	-0.968591918858818	-53.0974685182691	-56.648812905455	52.8819426918363	-56.483259473042	50.3285392486883	-0.980147175886801	-50.2888440607989	
29944000	-0.486286337806429	-52.4918771381741	-53.8056371538181	13.699991382408	-53.4782379982532	13.160766755727	-0.496476163165701	-51.1874943333773	
30193500	-0.266793988331719	-50.819606121098	-52.4046161752689	-31.2197138660485	-52.2328565332816	-30.3006780946455	-0.441359411843627	-50.6919346587294	
30443000	-0.440867649390518	-49.6178980689195	-52.5845729961198	-79.1804293466947	-52.1594474350504	-74.9551331235336	-0.872590202677399	-49.2678788435633	
30692500	-0.862976629877607	-50.258428744655	-54.3330706085355	-118.434586372596	-53.5523492729284	-117.10565867933	-1.4817100174246	-48.4109841887099	
30942000	-1.19761297236702	-53.1806278496919	-57.5672464263395	-155.415429862986	-56.2608028251388	-151.010908460857	-1.83558918119347	-49.3966174914256	
31191500	-1.11659439436831	-56.765923109843	-63.9786851877161	164.66675199573	-61.2794320475313	176.911491076339	-1.63580622311733	-51.7348983135024	
31441000	-0.735284997546624	-58.5991182510093	-68.4714761302151	-154.499690632908	-64.2940691693427	-170.852835339491	-1.12438028322687	-53.1581770319997	
31690500	-0.452258859728672	-57.9908074995148	-75.7032560850829	-152.432595994305	-69.6215752625034	162.578069959519	-0.602817964909951	-52.2951069010068	
31940000	-0.525854282031517	-56.1141751228029	-63.1655425777351	-119.028105439939	-65.0647180931486	-138.29779025368	-0.453401158180876	-50.6989948711531	
32189500	-0.981449798548419	-54.551341419391	-56.9011958373178	-159.03137310945	-58.2265478393768	-163.646724382602	-0.734756708381564	-49.4955844203411	
32439000	-1.54372750355469	-54.8431333122006	-57.0200241232752	153.628420474575	-57.3566795420991	143.762541237363	-1.17748206880165	-50.1308172790888	
32688500	-1.80336744280783	-57.0913565927643	-56.4713815643317	143.082208434047	-58.0976892375408	133.726089274549	-1.41960635428505	-53.1045094239785	
32938000	-1.58893397479701	-59.2235889699865	-54.21473473662	110.946075006281	-55.9148512208711	106.002955590633	-1.26098395890323	-56.634152655612	
33187500	-1.11080270171324	-59.2341546850784	-52.9876088966855	80.7929509983147	-54.067186968275	77.1652870781419	-0.844262989272655	-58.092660974411	
33437000	-0.738118135568513	-57.1865917957109	-52.3799591696086	48.2923370181655	-53.5416770807999	47.7149278843239	-0.56111266999516	-57.2974044993489	
