!Keysight Technologies N9923A: A.12.45
!Date: Tuesday, 05 August 2025 21:00:46
!Timezone: (UTC+08:00) Kuala Lumpur, Singapore
!Model: N9923A
!Serial: MY61181427
!GPS Latitude: 
!GPS Longitude: 
!GPS TimeStamp: 0001-01-01 00:00:00Z
!GPS Seconds Since Last Read: 0
!CHECKSUM:1177001272
!Correction: S11(ON U)S21(ON U)S12(ON U)S22(ON U)
!S2P File: Measurements:S11,S21,S12,S22:
# Hz S DB R 50
2000000	-0.0795548619973019	-2.20389171240012	-86.9182628999865	-116.079099538076	-82.5587361723496	-158.063077408272	-0.110702043141985	-2.04964552275592	
2249500	-0.421624289462783	-2.85468790212688	-78.866633795067	-130.533671366266	-82.7549028508028	-178.092485264461	-0.442217317988659	-2.61710317036476	
2499000	-0.582376861340348	-4.6829954835292	-73.2349082247162	-133.264705951076	-72.3281142275092	-126.235137738289	-0.59895295727743	-4.38436571556904	
2748500	-0.425800418776141	-6.54369437447147	-58.5992865371592	-175.70649551762	-58.9391222716641	-174.057669759267	-0.45395070984042	-6.29989323465915	
2998000	-0.0773645689137656	-6.93109839111304	-49.0683797944117	51.600298392415	-49.0412236381931	51.8830447804441	-0.163309871365856	-6.82496203849145	
3247500	0.178538572018211	-6.38752464099506	-56.0213627813186	-49.8794676502928	-56.0664396297701	-49.5661256385902	0.109749169145933	-5.69709603305065	
3497000	0.124031874798676	-5.61635238094254	-60.5061543997737	-91.7319521846437	-60.6053724068571	-89.4060439749161	0.0843093185915655	-4.90288670371451	
3746500	-0.218045259364756	-5.21111872626041	-67.4618228104708	-166.333731113929	-66.653207230953	-166.879008378721	-0.22063125976504	-4.76582752659687	
3996000	-0.529895841011172	-6.54413407256192	-74.15646351588	-107.17028644597	-75.2336024740072	-114.630342861129	-0.539430384871212	-6.00871361484361	
4245500	-0.636888034067352	-8.85098510664374	-63.9188754736451	-39.5137648225113	-63.9564095371736	-41.2720217356851	-0.602787336752321	-8.25105165961105	
4495000	-0.320144900672547	-10.328792556131	-62.3228287700246	-105.438873086731	-62.1000797058977	-105.731409118565	-0.349114880851476	-9.96247174962352	
4744500	0.0154685920044286	-10.7336584942341	-54.8894279521918	-124.974304294644	-55.0424259508394	-123.767639530256	-0.00235213053305823	-10.3079645158774	
4994000	0.0639829349604588	-9.35895869111017	-44.8287348893624	155.870269487899	-44.8392511456555	156.143758072165	0.140594418707349	-9.48636291538815	
5243500	0.0310501921226966	-8.24930729064577	-48.6099548762839	85.5569408085219	-48.701411503385	85.5190672410364	-0.00509884663644602	-8.64714903016083	
5493000	-0.318929798407941	-8.54962372853752	-47.8886289325612	53.0616571174794	-48.1008722634332	53.4061963738001	-0.402274894291542	-8.91169154900182	
5742500	-0.611734473436202	-10.2384891975345	-44.2183284039785	-3.1968216989733	-44.282947952449	-1.6436227053375	-0.803962015001439	-9.95955335519468	
5992000	-0.566223504007543	-12.4746721449896	-45.7960877027311	-74.5763928111552	-45.6578460225757	-73.2464432134292	-0.657214499437755	-11.0285894074441	
6241500	-0.284109458130171	-13.8805080684213	-47.3870734677545	-117.586440178748	-47.138104898732	-118.663393542621	-0.296568895630329	-12.4446730275611	
6491000	-0.0120919187334673	-13.0587636133863	-48.2771166108536	165.40678395408	-48.404004187696	163.926577344689	0.0371628792655559	-12.6481570307641	
6740500	0.141360840152416	-11.7664551775329	-53.7298164268731	144.093728150589	-53.5396195746611	146.147290890236	0.0999445895178075	-10.7891960015135	
6990000	-0.0758953376644168	-11.2615186711773	-56.9148226106316	116.720635007331	-56.6690934283599	115.488857248639	-0.0868046121334999	-10.3680366358139	
7239500	-0.472500706259012	-12.0452878355899	-57.8718315009784	94.3318709998043	-57.6289178224403	93.5838838285426	-0.442553901519767	-11.1942849864265	
7489000	-0.702247127170101	-14.0164751828023	-57.7736289237829	70.9505248674182	-57.5571624165956	72.7374591204357	-0.647906503587133	-13.441870153776	
7738500	-0.549843301822999	-16.1227367025439	-56.5728137836115	57.827089345379	-56.5439777129917	56.0509678029355	-0.518136022667301	-15.756236446329	
7988000	-0.194150420727506	-17.1466121532232	-52.6403090262053	41.1008012229012	-52.6532532712719	39.7648934150839	-0.174022527762287	-16.8334415088944	
8237500	-0.00226035247781404	-16.4664856741669	-46.4366256244819	1.33760295106227	-46.3724974581228	0.98321948623789	0.0681228085605378	-16.4716290774297	
8487000	-0.00638681997913626	-14.3126401998686	-42.6423633935611	-70.1867255131753	-42.6373617780602	-70.4146153309541	-0.035985756481532	-15.4221639804706	
8736500	-0.222899848094905	-13.9041226193728	-42.2529702918279	-136.186379705625	-42.2601694973419	-135.569971470905	-0.489939509198672	-14.4213932119789	
8986000	-0.570281728107083	-15.2487897538155	-43.8700294647311	160.925040118931	-43.8072910459161	161.321548947799	-0.84038083196547	-13.7974911860397	
9235500	-0.689965993789835	-17.8499764324713	-46.4841230791875	113.671033803221	-46.3934745140608	114.040134063602	-0.796682673115803	-15.6525694390077	
9485000	-0.490603910331706	-20.0838506034406	-47.0170272544592	74.9223261188025	-46.9620861353631	74.8486063645968	-0.498200548939876	-17.8555867580931	
9734500	-0.218533149651984	-20.1872941910053	-46.1254897759504	22.8701940610941	-46.1094473052606	22.8563520324654	-0.0988225904357025	-18.4715534626206	
9984000	0.0308937328008381	-18.2175293643923	-47.8331195813831	-42.3144109565028	-47.7722050896784	-42.5380089904575	0.126322201539564	-17.7108725771156	
10233500	0.00965093049562763	-17.106268161228	-50.2355355098608	-93.5342084107306	-50.3558672574139	-92.1603621175152	0.0264593671630254	-16.7916512434574	
10483000	-0.338743627950321	-17.3240333770502	-50.3676250668016	-138.573897782996	-50.5510733878839	-136.845484303975	-0.349907217413227	-16.917024480506	
10732500	-0.699210545729806	-19.0216884485257	-49.3383921647249	163.097963875865	-49.5217270382841	163.586281248498	-0.726683164334	-18.816268979829	
10982000	-0.714514576996299	-21.5218593145741	-49.2348248177996	94.4348221202455	-49.4736017379782	95.9534604600297	-0.913485798879941	-21.6594827431917	
11231500	-0.435218623715914	-23.3634529271764	-50.1595184992613	25.2458160762064	-50.1479357456621	27.0506000852339	-0.768183461193752	-21.4348218080668	
11481000	-0.144231980590397	-23.1255716202946	-51.7165452073106	-27.3807076670518	-51.8310609551784	-26.1858696484145	-0.18285783854438	-20.8361263322742	
11730500	-0.0393179203299912	-21.220337017787	-52.9702129652736	-91.3399414795103	-53.0907214107868	-90.6564990681782	0.0584032790064846	-19.9518354641536	
11980000	-0.173457829074125	-19.867367888735	-55.0184824443877	-144.75443822254	-54.9420037999873	-144.168110640681	-0.0865368174756305	-19.4316489348202	
12229500	-0.525207934322188	-20.3967735620627	-55.7693899758976	173.783398638137	-56.0038894739787	173.030400824085	-0.47424967309544	-20.2148667307892	
12479000	-0.797222957947085	-22.6505734805454	-54.327941242966	125.066646306441	-54.227991733786	125.543307506427	-0.813315690077832	-22.5734525527619	
12728500	-0.728695814129854	-25.3004338364108	-51.2626257235463	66.7931208131553	-51.3048115723723	67.8054072141837	-0.906305373795477	-24.9050468106944	
12978000	-0.414094752687528	-26.3644300576636	-50.0508094099572	-5.25513469431303	-49.8399453430199	-3.72788895025958	-0.648016920492638	-24.6366162263969	
13227500	-0.113598164105968	-25.3102905242547	-51.8467304993089	-73.7087172268973	-51.7639897860896	-71.6222337639472	-0.192222417563469	-23.147272782392	
13477000	-0.0427295612625651	-23.5894337914819	-55.1000999571651	-128.402572000368	-55.0090035964514	-124.94045857653	-0.0352311683637409	-21.8872368099607	
13726500	-0.274067763168519	-22.8553723279575	-58.2918311594171	-169.472292839939	-58.2316554531818	-165.282930122252	-0.247387693144745	-21.2772049169632	
13976000	-0.650283022609251	-23.9982891829605	-62.3049808022882	156.087349115635	-61.7559592430017	159.204231332215	-0.605391470083576	-22.347827981485	
14225500	-0.849197141392735	-26.7124731693455	-65.76118950742	110.879940407834	-65.9890339011824	120.693209483809	-0.788301981884757	-24.9549656476088	
14475000	-0.733018994029548	-29.1123900613627	-76.054588583572	53.308837859322	-76.2384713869605	42.4180818313912	-0.622744275182231	-27.5447055937161	
14724500	-0.378627178792891	-28.7350133062597	-64.5689252710053	-176.15241935505	-65.6017022186925	-177.334908107484	-0.28379834937515	-28.612920638523	
14974000	-0.0509319998951141	-27.8985278180284	-64.0825236300479	92.8359122653885	-63.8106538060008	88.4075425641901	-0.0996455826103079	-28.0653001539752	
15223500	-0.1747588323083	-26.2346217555627	-76.3493261257571	-7.06617317974411	-73.0543860440329	13.1291929498494	-0.300617409823878	-26.6107631040255	
15473000	-0.493942272656494	-25.3743836969304	-72.1575074884311	169.28306750596	-73.7868802967331	-161.391139544098	-0.771720243409872	-25.2499140013637	
15722500	-0.829107007733364	-26.9569448550751	-70.1381657730791	118.023111606092	-71.2570469070361	139.05180669924	-1.12813090760023	-25.2444855973008	
15972000	-0.903084796391532	-29.9141566296694	-65.7699261258552	97.327554385718	-67.0788470047062	103.947022490845	-1.09860720642363	-27.0400062545556	
16221500	-0.644754428471881	-32.0906058424314	-62.8930345691271	70.0389936825436	-62.6608385251561	73.3339031771496	-0.713749567903546	-28.8948038892634	
16471000	-0.291935854297316	-32.0678529373026	-60.8694445378182	34.7672067208859	-60.261005870084	33.6096974013855	-0.241711521057139	-29.2499556079209	
16720500	-0.106874292847844	-30.3588818838425	-59.6252617902684	-4.97583938272906	-59.5083953434059	-6.48951513448114	0.00330286209883204	-28.3251387059232	
16970000	-0.220693266659377	-28.7443525063362	-58.8741827787289	-48.2651924995922	-58.859043905091	-47.510437732504	-0.123425070933649	-27.3205795610085	
17219500	-0.580667392562348	-28.8438725405773	-58.4030460568663	-85.7570338472704	-58.3031743769091	-83.9173436845173	-0.512401424000683	-27.6611355468054	
17469000	-0.903629915196807	-31.0104118354137	-57.3737186975851	-121.777634129739	-57.079768891529	-122.015523639398	-0.877494466345522	-29.8199994945402	
17718500	-0.907542896732271	-33.9367351380051	-55.5650416482923	-164.124512912158	-55.6117384279591	-166.040922106699	-0.929515195182645	-32.8849453799016	
17968000	-0.62213750320223	-35.5203421430247	-52.8623078454062	143.336915967934	-53.0561782031853	144.904285920921	-0.692502636318099	-34.7350900179731	
18217500	-0.305321258221431	-34.676641515365	-50.4422847945293	85.7677723410572	-50.6382173732633	87.871104614505	-0.442560403004359	-34.1192755009723	
18467000	-0.189008333485331	-32.5923884083502	-49.9108211739548	25.2916473881192	-49.9122720435353	27.1125317276788	-0.42282283307826	-31.6477817455001	
18716500	-0.38003096013453	-31.3964723566906	-50.6091868596044	-28.5040757970546	-50.6019411872187	-26.4537033705732	-0.606117534016775	-29.3165938772634	
18966000	-0.775964026198354	-32.1562241077979	-51.2864265919794	-69.1100435221832	-51.1489549164197	-67.2485627428866	-0.904337598148571	-29.0960039909342	
19215500	-1.0435792032063	-34.8244002607573	-51.3644940666322	-106.708187283252	-51.2734708142474	-104.11535858064	-1.06630217063206	-31.1661153825371	
19465000	-0.954666974422085	-37.5918112558253	-51.042567482332	-143.115378996963	-50.9953629104988	-140.319828810677	-0.887653448284558	-33.9921948302074	
19714500	-0.597709697647568	-38.3896947866619	-50.4790793501389	178.549083252474	-50.500646851568	-179.967000674489	-0.454432562523677	-35.5331929149322	
19964000	-0.272986649832423	-36.9986820294715	-49.9952937276616	135.614981178863	-49.9871241561154	138.394823252054	-0.108129154819596	-35.2431900199147	
20213500	-0.233540209219162	-35.0881746482694	-49.9510768074415	93.8613822825528	-49.8535189464982	97.1307242471711	-0.104954015591848	-34.1165903954558	
20463000	-0.530185563008902	-34.3688953692142	-50.3706479775684	52.4389177299522	-49.9460590408153	57.2985039766223	-0.461951204238769	-33.5030615940498	
20712500	-0.956400167143101	-35.719430453377	-49.9581958339257	17.3339804379478	-49.1834987403865	19.3047068081956	-0.946186734483866	-34.5573438733766	
20962000	-1.17509126210103	-38.6181891804981	-47.740632649388	-22.979975163642	-47.2045284338324	-24.0497166721854	-1.22631896876912	-36.9116491198383	
21211500	-1.00742591625678	-40.8598100020105	-45.4577697257579	-73.6363848987066	-45.0794846314868	-74.1380447837432	-1.12653554386411	-38.7492503200494	
21461000	-0.617879344905434	-40.7740599033083	-43.5924199905087	-130.633298890118	-43.308292538993	-131.219144079899	-0.729105953947311	-38.3829370398994	
21710500	-0.332296854423139	-38.929197257515	-42.7694981490633	169.508679996593	-42.4238960250891	169.579695351811	-0.372596364653484	-36.695359630521	
21960000	-0.377300761743328	-37.2022701031742	-42.5438720120423	114.583685098565	-42.3550032485323	114.513502764258	-0.343453215447543	-35.1866203643341	
22209500	-0.754793288310882	-36.9588551766153	-42.3259081354283	63.104729790683	-42.1304752399804	62.4469128715772	-0.662828990128789	-35.1147822429159	
22459000	-1.18575123759824	-38.7346393590332	-41.4898436858638	9.23353124102241	-41.3919702883188	8.86021119379022	-1.0502307340004	-37.0047209518992	
22708500	-1.26845266108488	-41.3985879989033	-40.8649540161689	-50.8840630932443	-40.7981029618109	-50.6339453865131	-1.17602102974887	-39.7438271492896	
22958000	-0.923836065089853	-43.1861880106133	-41.1224145376313	-116.430722870596	-41.011423906244	-115.168176824162	-0.913437959123558	-41.4500435873227	
23207500	-0.510728094676313	-42.9492213601101	-41.9045094099763	173.594068100034	-41.8182866104521	175.067786620219	-0.526798393138053	-41.0590952237886	
23457000	-0.344419523340262	-41.1441085812221	-43.4261029219231	97.9401695243141	-43.3367907624291	99.8098430496415	-0.340774574283329	-39.1382753320255	
23706500	-0.549547950271578	-39.3432508937477	-46.2880414244969	21.1272632600356	-46.1910657962124	22.2940494541336	-0.454201004474734	-37.308424425603	
23956000	-0.953105445994014	-39.086145712403	-50.0367043980131	-47.4636901576935	-49.9766333169357	-46.346074260438	-0.794995248305095	-37.4402076388394	
24205500	-1.25656659849831	-41.2672215205968	-53.1104597567915	-104.023308547881	-53.0059175685373	-102.94691693399	-1.10697072447809	-40.0076453002155	
24455000	-1.20277969080943	-44.2614678950903	-55.498024750534	-158.478437617462	-55.3982618501332	-155.791435911324	-1.10937219172801	-43.3411560337379	
24704500	-0.84114651889568	-45.6322392742902	-58.6827106878973	144.046857158943	-58.9373101340365	144.884142618976	-0.814474227523348	-44.8582861234349	
24954000	-0.464629327346985	-44.5584246839099	-63.9359174964436	102.253564790263	-64.4429259125338	101.037891688317	-0.541675937013813	-43.992898011911	
25203500	-0.326160271843101	-42.4881351149779	-67.729365805555	89.9089980782082	-67.0235034234402	92.2893545380724	-0.510037248048593	-41.7207786278759	
25453000	-0.534429779537528	-41.1601507303775	-67.4549104323573	57.7267894234829	-68.6416682728101	50.144911007335	-0.759745857766631	-39.694769539405	
25702500	-0.930596391723149	-41.9969618161364	-66.5868770275913	8.45129350981054	-67.6492363033388	1.53837441048513	-1.13230469164063	-39.8392650331088	
25952000	-1.16217342853057	-44.9252055447044	-65.5547705784156	-50.6121572355029	-66.1144537227723	-47.1878813929426	-1.32398937694823	-42.2080330793166	
26201500	-1.00107432457503	-47.9095537603881	-64.5915880539815	-86.3780589010836	-64.348461229671	-89.3465471154212	-1.1066196376128	-45.2199019245215	
26451000	-0.580890437647203	-48.8688806705764	-62.868225716183	-134.904970244545	-62.6423500699218	-137.174723252403	-0.648090326571249	-46.7347307471965	
26700500	-0.276547683378023	-47.7089749722679	-59.8242780441236	174.804940530093	-60.2098095635274	173.44351705763	-0.319774313529052	-46.1210984734296	
26950000	-0.297087820184652	-45.7577625419937	-57.5158118936312	131.042435895893	-57.8575613715146	129.925196345039	-0.354556338891261	-44.6628455452814	
27199500	-0.636762283821488	-44.946202778978	-56.1589233383222	79.3571797746045	-55.6914951841653	82.4015225481575	-0.78260828547224	-43.7244599711776	
27449000	-1.05497732756395	-46.2938258299229	-54.5273800212014	24.7603609475082	-54.7424498250947	21.773652691023	-1.30829890580502	-44.1844403927669	
27698500	-1.2232077351399	-49.293735121529	-56.0696348296334	-48.8688798173008	-55.6027802169937	-48.0684641480157	-1.40558570814118	-45.8967761335282	
27948000	-0.983515960878078	-51.7245735487459	-61.9516057971847	-129.673915512968	-62.1277901842192	-128.349649492847	-1.05706433760316	-48.996010024843	
28197500	-0.583830449798742	-51.7933868955952	-66.2498910353279	83.943197681464	-67.7591865102599	94.4637745192893	-0.690367477752748	-50.0305320485912	
28447000	-0.364668308873338	-50.0444468541687	-61.470984688461	-0.0164569491091574	-62.832908601142	2.1871952797625	-0.542352958870848	-48.5826819494041	
28696500	-0.481279894229441	-48.1630422978984	-58.9641856794071	-55.3964313944548	-59.0229919384053	-59.0684876839219	-0.694977356618746	-46.1626297980315	
28946000	-0.859943246311347	-47.8497651702999	-58.7141883877824	-107.772207267301	-58.2112714852056	-110.51035366819	-1.06605081031436	-44.9183285150273	
29195500	-1.22002215270746	-49.8854183898723	-58.4440022946793	-153.519746041445	-58.2565889447104	-150.804737729545	-1.39045605778783	-46.1625176844353	
29445000	-1.23670254934986	-53.1772292497847	-58.5857690019566	164.057664033025	-58.9999373826547	162.724949549775	-1.36383777029178	-48.9662685591538	
29694500	-0.87549662482602	-55.1218015269341	-59.0753923710445	116.163354097383	-58.7503586797471	112.621177655487	-0.992995632653303	-51.0870762116352	
29944000	-0.49644838067436	-54.626722153507	-58.8698307308592	67.4063025960838	-58.7093361580876	67.2604089516075	-0.536436430594594	-51.213707217958	
30193500	-0.387701929739068	-52.6718802332747	-59.3107804898792	16.4113317817856	-59.1085282790154	17.9794717869832	-0.378550320254675	-50.0468492083217	
30443000	-0.634562780329927	-51.0029756812525	-60.0110168899332	-36.7861803301587	-60.1285841356264	-36.1299143000111	-0.64134720181526	-48.8284531144572	
30692500	-1.09652526510461	-51.2222479151126	-59.735253677203	-84.7480454342229	-59.2182987891903	-84.1365357825958	-1.15325095083635	-49.1556980166257	
30942000	-1.45467875285105	-53.7861799680282	-60.0730516984657	-126.4568129871	-59.6058412191303	-122.897857376631	-1.58197353422951	-51.3948315769167	
31191500	-1.38408628089589	-56.9119789300658	-61.1251766612048	-167.747433745011	-60.5567504555941	-169.595463968514	-1.56042215545495	-54.1069127642657	
31441000	-0.985857616820293	-58.0751842806835	-62.7434873814879	151.013265279571	-62.2890032431198	151.040747494438	-1.15878194435433	-54.9499376002026	
31690500	-0.632479568901921	-56.6793168210021	-63.7946756982065	120.094893759643	-62.467700573538	121.852127425122	-0.718562073833715	-53.5532375125291	
31940000	-0.573268683696475	-54.2458768212389	-63.9415448795826	104.562203457324	-63.7517537573227	96.7284304446947	-0.571824422920586	-51.2531463765446	
32189500	-0.866378614383789	-52.6365646567135	-65.2993224489267	79.3938124449829	-65.1044578721703	72.7264098022052	-0.813851879656712	-49.827976218597	
32439000	-1.30068829641665	-53.4224861765904	-69.3988324235268	31.243096719388	-66.9793913919867	32.8860777276639	-1.26017979077368	-50.6323270963771	
32688500	-1.49941629787885	-56.3782300513412	-69.5140103060987	73.3201801439597	-71.0305790284165	63.7284230123373	-1.56115729814772	-53.1356573044007	
32938000	-1.27413907799813	-59.2391410581894	-62.4529630964552	39.2360971000334	-63.8150795966224	29.0613024857539	-1.34740512256151	-56.2220452219541	
33187500	-0.825591921190221	-59.9448286089937	-60.968186042709	-1.47966940785307	-60.9991278811298	-7.68518817895612	-0.877514871438264	-57.5899120460907	
33437000	-0.520499414310625	-58.5101177358999	-61.8301594125928	-37.1781470312117	-61.6033598557971	-43.4432748655834	-0.557907161938222	-56.7706338254686	
