!Keysight Technologies N9923A: A.12.45
!Date: Tuesday, 05 August 2025 20:27:42
!Timezone: (UTC+08:00) Kuala Lumpur, Singapore
!Model: N9923A
!Serial: MY61181427
!GPS Latitude: 
!GPS Longitude: 
!GPS TimeStamp: 0001-01-01 00:00:00Z
!GPS Seconds Since Last Read: 0
!CHECKSUM:0034068757
!Correction: S11(ON U)S21(ON U)S12(ON U)S22(ON U)
!S2P File: Measurements:S11,S21,S12,S22:
# Hz S DB R 50
2000000	-0.103217027080204	-2.33195484120167	-78.8004349916544	79.3443204513568	-80.5774476514991	68.6111265776566	-0.143772225306761	-2.1536867243183	
2249500	-0.447060203687939	-3.06476862108377	-63.9838519585412	46.1329624059141	-63.8301388422424	45.9848805228593	-0.486535154910498	-2.93865714396001	
2499000	-0.604916489960116	-4.90625550651086	-65.6452188329598	-83.0651038972922	-64.429371356617	-79.6581643914585	-0.639674633187089	-4.55741913264966	
2748500	-0.436268851159064	-6.71842102400356	-74.3414974982283	-109.51505910621	-72.6834935591434	-117.414900675089	-0.472854232953591	-6.46967216448471	
2998000	-0.0835793721475445	-7.33179810071397	-75.6451671709445	-88.7948510870205	-75.7394244355268	-101.959317811975	-0.126184926477974	-7.11641270771206	
3247500	0.148719733781604	-6.72709004053628	-70.7647046568576	-90.0136644842476	-70.8511814728716	-104.4438190803	0.0860838719566154	-6.53030475890941	
3497000	0.0998486168277486	-5.80105883050243	-73.0903518693096	-116.93439192242	-70.6310793354303	-107.815436186451	0.0456818062455119	-5.50121716248433	
3746500	-0.220111010402659	-5.58282319732124	-67.760365899055	-127.541532300438	-67.5416112562292	-118.776347319004	-0.262363204047591	-5.2167917339065	
3996000	-0.557097967295614	-6.59589886167959	-73.3006019473045	155.585311053911	-75.3045342708379	-177.669197115755	-0.578916380788771	-6.29204775893975	
4245500	-0.604933240549451	-8.66833656064804	-81.3215791439796	-94.1091711038371	-75.973143024078	-110.553676400732	-0.641006022944339	-8.37215117497865	
4495000	-0.344008518534837	-10.2832249275498	-71.5812189611575	-91.1247828737822	-72.7310829658354	-96.6394082883464	-0.389148689228292	-9.93771642715305	
4744500	0.00102701898910787	-10.4714059659927	-66.2312330251482	-104.488860352074	-65.5780626967417	-101.872548492552	-0.0431280131968643	-10.1669823781249	
4994000	0.156158726922573	-9.70731159483524	-58.9762986250013	-113.187194172753	-58.7875663906378	-112.791587007612	0.11682100704667	-9.33344715890631	
5243500	-0.0853859670232473	-9.11199818557895	-49.2795273012621	-148.010865943381	-49.1784619071011	-148.879073757054	-0.034222202464443	-8.49210068999131	
5493000	-0.419031271105641	-7.85051662626062	-49.189419151151	112.066694449982	-49.296388694917	111.790692774475	-0.386962556069834	-8.56499184911689	
5742500	-0.631684512825939	-9.81528621962752	-56.210169432743	87.1148736898087	-56.1182750135878	86.0063388853735	-0.653269261487276	-10.1340133060314	
5992000	-0.578676251392243	-12.129226882098	-53.485468904194	76.4095554683198	-53.5306099377188	75.8488828732409	-0.610330926408069	-12.2053837832595	
6241500	-0.240053099896455	-13.5252873299411	-54.0566514444784	64.1574624632813	-54.0714129108621	62.5073788550311	-0.313205304697229	-13.4475211798421	
6491000	0.0730070146863893	-13.3714012365431	-54.0401494975313	35.5198729370043	-53.9507931318154	34.7143748284158	-0.00266525205641648	-13.2630558684103	
6740500	0.151414221841035	-12.4671559567849	-64.3190798591045	44.5964287041781	-64.7570748360633	38.2712359462861	0.0656631853956403	-12.1455051498025	
6990000	-0.101686480816067	-12.018060172292	-54.8360585763108	81.4808331024129	-55.1190729788616	81.7498505003093	-0.167823681237508	-11.6249917254136	
7239500	-0.537721331928393	-12.9992043520282	-47.181338657913	70.603771963368	-47.0718408112286	70.4225760571363	-0.553108476455215	-12.5444097061441	
7489000	-0.893539148912292	-14.8256427746753	-39.0890359402089	34.4171924034809	-39.0478075890936	32.7716927762872	-0.838691324202348	-15.125492259478	
7738500	-0.793982672148644	-16.0343053067241	-33.3711575950089	-19.3330953409864	-33.3934412377744	-19.6807379685166	-0.974132551262007	-17.2892824093323	
7988000	-0.363797898027394	-16.227617223011	-30.3811486596091	-92.783646703334	-30.3844000904807	-93.4381025309936	-0.690891961584781	-15.4776614380222	
8237500	-0.107233460139793	-15.2356330639538	-31.0587089689828	-162.893890853359	-31.0589139707536	-163.370312116919	-0.3206511420293	-13.9725830183729	
8487000	0.00527814976520333	-13.4304858526533	-35.9798848853479	135.68202306208	-35.9708925720708	135.159349423602	-0.12036000424401	-11.8386333168722	
8736500	-0.223072506146818	-13.2902473199168	-41.6196513953566	106.542452118992	-41.5807367611459	106.251031968716	-0.281316599938438	-11.6874595907974	
8986000	-0.574021116762161	-14.7142708383674	-45.180848083997	90.7728662104797	-45.2590142067038	90.3461176476651	-0.604248467456204	-13.0153298669291	
9235500	-0.700394894787163	-17.39409853904	-46.9253776989155	78.4374649277782	-46.8328778679999	78.3697955502529	-0.7107124799138	-15.4281714846537	
9485000	-0.502973365351869	-19.8576263116412	-46.4072488810397	64.4045938281759	-46.3645384299965	63.3575477791559	-0.486132750169448	-17.5878595801685	
9734500	-0.372838709450336	-20.6196695811767	-43.4639015631515	25.6857512268239	-43.2903212463197	25.193581055307	-0.115369222754832	-18.159997632463	
9984000	-0.069071956903395	-16.6131095138071	-48.7499826153398	-59.3807543457164	-48.5595130736521	-60.0526603285635	0.104864615575411	-17.3622382427798	
10233500	0.0234719225568471	-16.0844565286901	-61.85129658176	-95.6401521631659	-60.6871515593582	-96.7154902235635	0.00847515469720649	-16.4181665929989	
10483000	-0.304468476585001	-16.4473796594658	-77.8404120229067	-159.362701530375	-74.7759361218958	-138.609544655217	-0.354337450333291	-16.5300409564166	
10732500	-0.638262650939887	-18.1594968285936	-54.7735974515827	107.961239725203	-55.406199765587	113.939305249328	-0.746326462583193	-18.6089933976657	
10982000	-0.651757632147703	-20.7614983642699	-45.6992395608384	30.8652614805516	-45.5114236574644	33.452376143236	-1.14840558963512	-20.7378932884592	
11231500	-0.3526141286405	-22.4580156431746	-48.5636918390123	-42.1989012784815	-48.5138269552825	-43.9802847767128	-0.61908239743296	-19.9724741682793	
11481000	0.00448684060677716	-22.5111618066171	-50.0942985556939	-77.6637074255189	-50.2917113900626	-77.0119918924992	-0.10846875065449	-20.0607888072795	
11730500	0.113772065754412	-21.4892036326154	-54.1072914189426	-114.144685066839	-54.1819821012236	-113.135246909004	0.0963866630465272	-19.5777741597496	
11980000	-0.11033096440936	-20.6259242220824	-60.6970813907481	-117.610777025622	-61.7790496316226	-114.072748884756	-0.105203936791175	-19.2892974410256	
12229500	-0.551843639891343	-21.348221775505	-56.8629901817196	-66.4833265549614	-56.6787598449594	-68.0548170252252	-0.663658565424596	-20.5548756664101	
12479000	-0.948354245854641	-23.6813854326782	-50.3408661976838	-89.639118645783	-50.1636047128607	-88.2867982336651	-1.20539904199011	-18.8705359655528	
12728500	-1.08713995171209	-25.5017939652846	-47.1947339700182	-141.705207383096	-47.030162249127	-141.937576972102	-0.754167566104779	-21.4957224546219	
12978000	-0.722595825594513	-24.5170743854229	-47.002456403884	170.687299679268	-46.7843187532466	170.429870054829	-0.334110129114923	-23.306836881648	
13227500	-0.173611410359859	-23.1930274283945	-48.5211919158589	132.479914568089	-48.369876729992	132.529438259119	0.0117177887650211	-23.2169349654616	
13477000	-0.00321863278073954	-22.0950351836971	-49.7833180241244	105.002410176348	-49.7080164157196	104.401101997014	0.0759659674941673	-22.3266002623601	
13726500	-0.224649254496068	-21.6837942509584	-50.3010773418313	78.5154883779863	-50.117751805394	77.4470945128236	-0.185834926083781	-21.9014465224424	
13976000	-0.612368444783555	-22.7890221131977	-49.4888073396408	44.7318021652162	-49.068489782782	44.885254748912	-0.580361670228638	-23.1148712385041	
14225500	-0.819661894092762	-25.0175273906517	-47.8522194954123	-13.7256207143073	-47.6719745244335	-12.7643967754542	-0.813453591383604	-26.0105992034721	
14475000	-0.571064129539675	-27.0153901237195	-49.6642479705819	-105.091112096338	-49.071067675693	-100.990987236416	-0.855042009990611	-29.5700278576239	
14724500	-0.14083923214939	-27.8224448158616	-53.9323843730485	111.726490459982	-53.6650820294822	115.211165061904	-0.879901812069696	-24.9696204163151	
14974000	0.131445419302335	-27.1194038902719	-62.1019965323934	37.9425454464039	-61.2562372464845	39.3817088376746	-0.0609583651600318	-24.6583615602474	
15223500	0.0739724129347699	-26.0540888274639	-70.0331015946772	33.3470226709801	-69.256792957432	19.5316413084878	-0.0139420149159209	-24.1959162256644	
15473000	-0.296545906746986	-26.1005128749746	-61.3674131482129	68.9607041515726	-61.8952801502888	69.0968300780859	-0.324392265795295	-24.4996668435133	
15722500	-0.815669761740764	-27.9931426322303	-50.7377391649605	26.0473775547674	-50.6418656872597	26.2933421145537	-0.702097481077922	-26.6616525565908	
15972000	-0.878083713137826	-29.2099966651262	-48.274763847698	-63.7659452323786	-48.1487796044412	-62.9100559475959	-0.862444355683711	-30.4093765664	
16221500	-0.476543043620728	-31.6353711721122	-49.9660411690268	-122.881928608407	-49.7826354000004	-123.302326865951	-0.943703247177304	-34.5122085228196	
16471000	-0.0621967137562422	-32.3521849563125	-52.2800279541326	143.144031412601	-52.0502744857086	139.901928756135	-1.50155363433408	-29.0553111244492	
16720500	0.107960539076433	-31.744302798757	-62.9906837273988	50.4881914146001	-62.6790279477077	42.4117268372156	-0.364656598260767	-24.8358410822251	
16970000	-0.110224595767319	-31.1805104723773	-67.4383112250998	-43.5815495730024	-66.6074748253687	-46.2137472012528	-0.255753683849153	-24.7222111545737	
17219500	-0.641034693198636	-32.0916651488952	-66.5656064689422	-83.7095511116899	-65.3658789841273	-88.658316615867	-0.537194032696096	-25.1462162086547	
17469000	-1.16564486634634	-34.7719681082313	-63.3898891310782	-105.256719464924	-62.414755530623	-107.426251192974	-0.815361985839495	-27.3873328544096	
17718500	-1.55260633524875	-38.4018295182309	-62.1351881902425	-169.526100556389	-60.5070505681968	-176.077768542132	-0.791657825630889	-30.4231440980048	
17968000	-1.9419080192813	-36.0446706160702	-63.4774724927899	16.1243418637719	-62.0672153888501	25.1694395518196	-0.447650786950154	-32.4228263942901	
18217500	-1.09414877900641	-29.6130464221587	-56.7437904505503	-99.8825760723413	-56.9508314852766	-97.2175758503585	-0.0711570854405862	-32.5083303355539	
18467000	-0.415352714750369	-27.7234303883471	-55.2025024330677	-154.171535160703	-55.8505820799014	-153.387773844449	0.0232759250836541	-31.5041174534186	
18716500	-0.392352786397394	-27.4613338623621	-54.9787362039022	173.546045560383	-55.2404056375059	175.082528127714	-0.229434382492455	-30.8215662318376	
18966000	-0.695451841110362	-28.7447235801156	-54.8290358680357	145.143709818936	-55.224792107091	146.345130878556	-0.688620211654885	-31.7631441394017	
19215500	-0.897725868022952	-31.7146273232193	-54.554767322563	128.268153388866	-54.6536692100627	129.039364279609	-0.985192123105055	-34.2601829580513	
19465000	-0.74348207925846	-34.9197056738093	-52.6211576197473	103.927361436862	-52.7600325493841	106.166344736748	-0.969890901349284	-37.7323947163984	
19714500	-0.326892270611419	-36.5396600973948	-50.6039663298403	74.9714598169858	-50.5862721651171	79.6552566924556	-0.784503904736321	-39.7150610204403	
19964000	0.000880234586252458	-36.2379177937772	-48.5232237480867	38.5535715330738	-47.9578321306922	42.5105909174206	-0.874265547977233	-38.8726053442478	
20213500	-0.0254734334994047	-35.2089634247659	-46.9263977997376	-23.2717443979757	-46.1233769956077	-20.8162451916782	-1.20500148750483	-32.900662989577	
20463000	-0.40494002942884	-34.9955030030046	-54.5469484868167	11.0769213110268	-54.09630660419	14.0669000826888	-1.30276029932663	-33.2302149674252	
20712500	-0.928646514849319	-36.5574482538341	-47.2752604336042	-90.3958097958514	-46.5396431702496	-86.2996154396551	-1.65273220581422	-28.8501175218699	
20962000	-1.22715749739852	-39.3291431775673	-47.2738932333309	-160.271182646434	-46.7645676678941	-155.428661125485	-1.51925862535222	-30.9300318460418	
21211500	-1.08581181832284	-41.6224006987866	-46.978388603443	134.425038814146	-46.8209345859095	140.047938900164	-1.15116906743003	-33.2407553141846	
21461000	-0.786540844856569	-42.1266702659995	-45.2076724755153	81.4577250425157	-45.1734320022827	86.1934119153192	-0.549346832637995	-34.1276906214117	
21710500	-0.805187321187959	-40.5022276313538	-43.1802332025916	30.0635648147644	-43.227706173487	32.7691800350273	-0.13872930326981	-33.7375178987874	
21960000	-1.19862484303149	-36.060095774573	-42.0371805945874	-21.2737341163093	-42.1950036456747	-20.1827924494357	-0.120420036968644	-32.8918243715555	
22209500	-1.37566557938009	-32.1042905733509	-42.3692920564818	-66.312446722049	-42.5893123960115	-65.139500934069	-0.436568296248231	-32.9779504124999	
22459000	-1.39078385151722	-32.5916364918914	-43.0461316018236	-101.559112894935	-43.2655294990444	-100.478538416692	-0.787275421444305	-34.8941851598167	
22708500	-1.16305674997563	-35.9091009912185	-43.4215953574662	-132.078613590309	-43.6364463270651	-130.601395927727	-0.869438323038648	-37.9841228140217	
22958000	-0.69109285123637	-38.8107156114759	-43.0860520645074	-166.233777156036	-43.2676596220717	-164.562597728533	-0.625177621042106	-40.3276930148886	
23207500	-0.192241957067356	-39.4362598742614	-44.1335899974581	148.672791314521	-44.2986120589881	149.554484630268	-0.262682844564157	-40.2206958028312	
23457000	0.0559006975890557	-38.5411938866083	-48.3723313624688	114.374771972543	-48.5069362029071	115.469241986378	-0.0333090552268849	-38.9729611071587	
23706500	-0.0897898994170406	-37.6661098861529	-52.458698810129	101.18896084341	-52.7399006099894	101.938152820406	-0.18237366002213	-38.12601286098	
23956000	-0.491272277799987	-38.1994653300174	-55.6362679425343	96.9149605256122	-55.7822714035888	98.9893612753946	-0.613273424340475	-38.7876874811309	
24205500	-0.814376978708399	-40.7620594219559	-57.641354774898	95.8674427502455	-57.4662773429262	98.2960359146029	-0.995317082450536	-41.5357294989777	
24455000	-0.76812175566251	-44.0618419752461	-57.8702114967822	98.0521017138205	-57.6125902853162	100.948567388999	-1.06315999000292	-45.0228773447697	
24704500	-0.415654719439855	-46.0989353663231	-57.0357642257676	98.8541867670893	-57.0504861216643	102.177755322826	-0.862696083761303	-46.7269778102984	
24954000	-0.100309622509535	-46.1218059281411	-56.5538606870831	106.330845526091	-56.2817718064961	105.799095865834	-0.724763477594698	-46.0378433952343	
25203500	-0.115641743775567	-45.1105525551273	-52.0893053398037	113.102558842066	-52.0267872711801	113.236771436902	-0.918124908441458	-43.6680596930484	
25453000	-0.550069660550197	-44.3638105983969	-46.7438517901988	92.204960828065	-46.3845590694297	93.9440690270091	-1.42841929991025	-40.3772059910927	
25702500	-1.20895176134615	-45.1081437209649	-43.121639098458	56.7833142037372	-42.6501394023203	57.2963482368663	-1.89394402204491	-38.3003712895414	
25952000	-1.70691426374479	-46.9391942326082	-41.3541847843734	17.0998957148255	-40.7744601213167	15.8425813220216	-1.97827371413812	-39.0346032234061	
26201500	-1.6708527796025	-47.5653333119217	-41.1037053909192	-24.1708393153522	-40.8964525797544	-25.7049828367661	-1.5805447329654	-41.3938769694238	
26451000	-1.06756220925188	-46.27273284756	-43.9830485969404	-51.2200985724245	-43.9809378892841	-50.662159096403	-0.919102952671315	-44.0066922108602	
26700500	-0.468247306785825	-44.4805060366513	-42.8883350837319	-78.940487193219	-42.387657900175	-79.5266620727056	-0.705307330658733	-41.9358118479177	
26950000	-0.277986433204575	-42.9215815941708	-44.4014168772404	-104.367267857619	-43.9191271654982	-106.202785013342	-0.51817846456643	-39.6903630766827	
27199500	-0.504764898668114	-42.6573581570483	-45.5299450900257	-123.992652158594	-45.2713377509227	-125.577128645096	-0.707038523197627	-38.5778269892548	
27449000	-0.860157304246257	-44.4643928176858	-46.2043967682243	-140.18266287841	-45.8953573037276	-141.772506048227	-1.02921485530078	-39.7190321643125	
27698500	-0.988351496050714	-47.9013923267978	-46.2539096733867	-158.446456361508	-45.9128464641929	-160.291574476154	-1.15480128260267	-42.6408376386822	
27948000	-0.713741346007004	-50.835897713835	-47.8332186166665	169.718491221731	-47.4298804606761	167.899545289068	-0.901880572118804	-45.5250574429046	
28197500	-0.277102643608434	-52.0091090258492	-50.4373146087889	-175.770130158792	-49.985123739474	-177.761896219662	-0.428700839149805	-46.4254791543738	
28447000	-0.13821082041243	-51.5389338974275	-46.5478289463837	170.957497411423	-46.273258868464	168.300905486117	-0.13467471685887	-45.6925072586742	
28696500	-0.419977278679787	-50.5625997799149	-44.73999799285	143.139013271389	-44.4338932032368	140.957912452337	-0.202201219706871	-44.4351474362019	
28946000	-0.999815867255656	-50.7192668021946	-44.3844697618434	112.72452322046	-44.0533952497196	110.425958901393	-0.572500920620097	-44.2352648243041	
29195500	-1.63515647918729	-53.0939180569673	-44.7099746994693	81.9222860776447	-44.5122327977095	79.1717415716373	-0.946908323983346	-46.1143797562026	
29445000	-2.13907951596545	-55.3703739697079	-45.842735587492	50.0612124872843	-45.5373482210407	46.8043313818377	-0.991164305475713	-49.209061356368	
29694500	-1.94995450079412	-52.4808237748181	-48.4118703959844	21.732176602544	-48.4207861033668	17.0018149825774	-0.69548721619352	-51.5477371614109	
29944000	-1.05379644243919	-49.244477681467	-52.1074039447584	10.0508970524955	-51.8222864896849	6.06796011231992	-0.313653844147622	-51.9136723142985	
30193500	-0.530372248230943	-47.498826682097	-53.4213970841422	9.9412656469195	-53.9763454877189	4.89900764063031	-0.221129281732153	-50.9772326710725	
30443000	-0.56032275758301	-46.5627820522323	-53.4564095798915	-13.8794276225292	-53.7466508651796	-14.8316190076651	-0.527759125413084	-48.7059513900064	
30692500	-0.90884500149482	-47.3556215547963	-56.3639303678521	-16.8736798086087	-56.4883111147616	-17.9533544658419	-0.874545039310766	-49.9776217845622	
30942000	-1.19888705106768	-50.3646382920234	-55.8944802364038	-15.4307828564828	-56.2998354860048	-18.4340557962353	-1.2716251795213	-53.196563787502	
31191500	-1.07665899292536	-54.0687246789188	-54.618518762439	-17.9720648454633	-55.0251738376598	-20.1042985131032	-1.30814233741781	-57.1315307439227	
31441000	-0.632612002283118	-56.1195319241984	-52.2346442633829	-30.2543098517565	-52.229290049033	-29.0765212904675	-1.23074341554183	-58.4701687989991	
31690500	-0.256568771584458	-55.8702729313198	-54.0369303720529	-52.4957595969325	-53.8672307404797	-52.3117699421135	-0.64522144176375	-56.8811648129607	
31940000	-0.222658764491571	-54.584693322184	-53.6587645046957	-55.1517331867724	-53.3076451128804	-58.9932467410227	-0.781333462386917	-56.1259716715908	
32189500	-0.584288660853247	-53.9314883321934	-51.5073967919717	-67.5519608339292	-51.4372788391624	-69.279262235203	-1.49756072167376	-55.2453449478284	
32439000	-1.10457358291582	-55.3838311417199	-49.5026215348612	-83.3142129221186	-49.2842910611877	-84.2412696604097	-2.52615542071992	-54.678157301152	
32688500	-1.40114756910683	-58.801680277468	-47.3461494957195	-104.940334051275	-47.2589879656209	-106.613569703751	-3.23000210731403	-53.502792573693	
32938000	-1.30898770280129	-62.0793844448696	-46.2630276016085	-132.617488724292	-46.1164691824877	-133.448199018205	-2.92677541851606	-51.8688555258358	
33187500	-1.08564109235144	-63.1328878430473	-45.5989381085851	-160.444582062879	-45.2487345357282	-162.200773565123	-1.92458468915106	-50.3189435548897	
33437000	-1.09717311429422	-60.7062431502956	-45.2321573576475	166.93801267184	-44.9239762338811	164.218052081712	-1.03469255427283	-48.8408386865901	
