!Keysight Technologies N9923A: A.12.45
!Date: Tuesday, 05 August 2025 20:44:54
!Timezone: (UTC+08:00) Kuala Lumpur, Singapore
!Model: N9923A
!Serial: MY61181427
!GPS Latitude: 
!GPS Longitude: 
!GPS TimeStamp: 0001-01-01 00:00:00Z
!GPS Seconds Since Last Read: 0
!CHECKSUM:0200158880
!Correction: S11(ON U)S21(ON U)S12(ON U)S22(ON U)
!S2P File: Measurements:S11,S21,S12,S22:
# Hz S DB R 50
2000000	-0.101095652805472	-2.51446969781667	-75.060174355416	-113.673281496945	-75.9429529969619	-110.41947455025	-0.140492938490584	-2.40128355243892	
2249500	-0.44453784448687	-3.21756804973664	-69.4512615368767	-119.650731174556	-69.1950146004363	-114.271148494387	-0.476621467472587	-3.12614099884593	
2499000	-0.600619517824494	-5.04819102599725	-75.5587611988978	89.068730053338	-76.4475788261925	103.885661992407	-0.628161179092621	-4.782318937603	
2748500	-0.42586383796403	-6.831117078075	-82.5546764097676	94.8170220752683	-84.328728730677	35.3110056379356	-0.459375820496666	-6.65039739672972	
2998000	-0.072524563096709	-7.43372260150508	-86.2954999531908	147.269732788331	-95.3156623041757	72.7751270480027	-0.108501709544607	-7.23343079668454	
3247500	0.162324626302544	-6.81114677251934	-86.425740285657	-81.0813776144668	-87.9975453241416	-112.783982701419	0.120641388386572	-6.55105440555468	
3497000	0.107491569521751	-5.89719366570094	-78.6201124544318	-97.4717835652858	-76.0923629341307	-93.293347959335	0.06518296498917	-5.53450566447985	
3746500	-0.241125749213055	-5.74776844356108	-66.5437742760253	-105.343468223179	-67.3485544086852	-100.336262998836	-0.246050409164681	-5.22140388333424	
3996000	-0.581222131301274	-6.52509288054748	-64.9809602499941	-162.678456399898	-66.6190426811512	-161.347987478379	-0.574599102593508	-6.33988932733832	
4245500	-0.693096616530191	-8.92157457629383	-52.9716839527457	-151.654565963255	-53.2814352295434	-147.939839064143	-0.672937629580841	-8.5838041817175	
4495000	-0.427523901375799	-9.39110503005636	-44.6682544365542	86.5013694829725	-44.764868728088	87.8682322991984	-0.540963896558538	-9.89743031225611	
4744500	-0.00649804606761892	-9.70108632193625	-48.4416956900911	0.892505953767288	-48.4288188288596	1.60488780483985	-0.164353155841049	-9.00957500409272	
4994000	0.177995256698894	-8.90930517330648	-53.5173578710862	-45.6476758607504	-53.3934254713529	-46.8340953163587	0.0956046788949465	-8.1036325258096	
5243500	0.0350106401309197	-8.07702937132461	-56.9062372381602	-71.9477747368896	-56.8466391899175	-71.4597494757239	-0.0152890417188668	-7.37823702103598	
5493000	-0.322834179443322	-8.27782325694645	-58.5592738956508	-84.8051987535536	-58.4482456529828	-83.9838785906995	-0.362678850638621	-7.62724925393643	
5742500	-0.607646595349961	-9.99064388243115	-58.5532130717085	-99.9643794339245	-58.4965378778062	-101.832693491434	-0.630667993934863	-9.23438345640717	
5992000	-0.569610034557611	-12.2455094830577	-50.3802394784649	-95.049316625891	-49.98958896471	-95.3860529244856	-0.632707959759617	-11.0532619454141	
6241500	-0.265942324438248	-13.5701610195	-48.8637847227835	-156.144285981287	-48.9247417827968	-157.027191440677	-0.306262665575885	-12.4910823981393	
6491000	0.0623972416740017	-13.0631641559972	-51.423054933228	140.010493437652	-51.5184926316558	139.887770363839	0.034125498308811	-12.3226069007253	
6740500	0.15990090206144	-12.1329843824708	-55.291952851353	114.9072211949	-55.4746076532754	113.739141388561	0.118993743056062	-11.4100968345336	
6990000	-0.0791360261090424	-11.5827536021096	-57.4228604449086	104.21100984876	-57.3187668604448	102.839202893161	-0.109172258257791	-10.8301582314936	
7239500	-0.475449842803426	-12.3660019823977	-57.5055727937279	96.8222900513314	-57.4116622239845	97.2554026745362	-0.471730496926409	-11.5643634026108	
7489000	-0.717063207765866	-14.4121382220125	-54.6208963848588	85.844605608817	-54.8398445975795	85.7610250981292	-0.6776830456469	-13.7207752913563	
7738500	-0.585388630664958	-16.4565476226924	-51.4694463521587	66.9951772986694	-51.5714008312201	68.1350972425893	-0.548493205405548	-15.943807310054	
7988000	-0.245061285564316	-17.4801344002999	-47.2298961553457	47.4616212393446	-47.2680751233682	47.004748826477	-0.207048332988613	-16.9586234295097	
8237500	-0.117162925495107	-16.7632238306992	-41.0669221325825	8.04164076687419	-41.1140399794123	7.89511088615913	0.0268961259895379	-16.5746751855875	
8487000	-0.128967461530723	-14.0053304856818	-38.2572180452939	-58.0265994540051	-38.311921403907	-58.0283252939481	-0.0799544512258767	-15.4819100829486	
8736500	-0.30664627477019	-13.2508804119856	-37.3534768501913	-117.045531331115	-37.3418645232495	-116.359885180069	-0.551544531883809	-14.8203210937115	
8986000	-0.62146266567686	-14.5013995110768	-38.7576976956402	175.880719749543	-38.6678731092279	176.219252978635	-1.03057188190167	-13.6105683984347	
9235500	-0.702965652760493	-17.0581545007404	-43.5851410146777	126.791840871093	-43.5577545289053	126.996929050013	-0.880338634304509	-15.0094589339555	
9485000	-0.453388591136583	-19.3210313560631	-47.3585071028201	98.9660778556715	-47.3703525707097	98.1861495159656	-0.53652988468354	-17.4403865556072	
9734500	-0.0870607762168434	-20.0099123633608	-49.6096524631017	74.3778464573075	-49.4721767300126	73.3222456603259	-0.120460669436427	-18.2674930763944	
9984000	0.0369409499340112	-19.2448687008734	-51.9125794638481	37.5808234455208	-51.6611417663907	34.7634908428082	0.0991296905504595	-17.732203040056	
10233500	-0.140338956946131	-17.1243893459864	-65.5105988487022	42.3127409932387	-67.115053994506	57.2642604778282	-0.0356688056708403	-16.921893387881	
10483000	-0.383779723913204	-16.7691895635293	-52.3760218075474	82.9638316976966	-52.1988388882344	84.3543775092481	-0.504277378368018	-17.182216430551	
10732500	-0.674139715065814	-18.651538198301	-45.3976908819594	-0.69932801754281	-44.9896904914928	-1.253028380447	-0.98925050308443	-16.3378809684325	
10982000	-0.68639489180251	-21.3890444276423	-48.5412515613393	-52.837280892422	-48.6945521076176	-54.6719630439614	-0.774794000586917	-18.6977811067739	
11231500	-0.40866627248898	-23.223906145324	-50.4166989535628	-89.0972494901195	-50.530361249818	-86.8814851038846	-0.418553068918622	-20.7825034940446	
11481000	-0.113234795294261	-23.1125487258388	-50.8006352656337	-124.924035134241	-50.6953493089254	-122.910922125675	-0.0303768447765494	-21.0827138797782	
11730500	-0.0243706280184048	-21.5048788781376	-52.3678044232283	-170.941789010249	-52.4081212052431	-165.71155890822	0.10728598494018	-20.2396134511064	
11980000	-0.256602510012728	-20.2319971988409	-55.7857587696049	158.471036797751	-55.3617040924973	163.117364822241	-0.0835971437199657	-19.4955920481739	
12229500	-0.691076116382478	-19.7923187486133	-57.9717094361588	139.277811603717	-57.2687548462992	143.1214582084	-0.472831450862333	-20.122535570042	
12479000	-0.847313174485031	-21.6127248710967	-57.5935339593664	114.672777497353	-56.7675014121379	118.437211291763	-0.780435346307437	-22.4836708787517	
12728500	-0.725467822436109	-24.2195847941095	-55.2517826159064	81.4679103749072	-54.4232947577137	83.5058710046707	-0.788929966095299	-25.4435808030761	
12978000	-0.327164853293202	-25.4856339440712	-55.2066990977558	25.9092669686584	-54.3089459360371	29.0689486259423	-0.631872228534068	-26.6849706305295	
13227500	0.0210013603055711	-25.1625116135517	-54.215858827641	-28.9637499614826	-53.4370330653338	-27.7961326407985	-0.606430291218479	-24.7414496930456	
13477000	0.046162459143131	-24.1748455502222	-55.2749066076729	-120.331936658643	-55.0453513095295	-118.833122472872	-0.307284749933969	-20.6608616894826	
13726500	-0.281574948002438	-23.7506906557445	-55.585875522974	150.131052002819	-55.7596254523854	154.576801033608	-0.307190823041224	-20.2848659633315	
13976000	-0.740271063437864	-24.6498876858886	-53.2925327778034	69.9360222670896	-53.1781546792617	69.1285991275829	-0.606249878434245	-21.776688193	
14225500	-0.935565980790765	-27.103974797828	-52.0377799125401	-0.441286065537853	-51.9554693717781	-0.540517723752959	-0.776175286740148	-24.6775875034062	
14475000	-0.794778556149828	-29.7122641068792	-52.5351129775342	-52.1848323081978	-52.2378377576741	-53.9149305621448	-0.620722822398386	-27.5034714132051	
14724500	-0.615300032018036	-30.0849701852355	-52.3984691272729	-74.1770115793605	-52.0568366158908	-75.7142084244942	-0.334646602168092	-28.8900056723901	
14974000	-0.473646992317431	-27.2154590398541	-44.6311600685518	-132.544241177055	-44.2104539438769	-134.451876773569	-0.363260904048176	-28.2484970081201	
15223500	-0.361740185366085	-23.974850859419	-45.921323201655	125.21493769938	-45.6925773389911	121.975600534788	-0.569345826592341	-23.6316213215702	
15473000	-0.512821397827812	-23.5156751682255	-54.2424628242916	65.4239014235352	-54.3961284537091	64.6969338309247	-0.570117671989555	-22.1814227212077	
15722500	-0.818753136747875	-25.3508560107829	-59.6200700119387	37.1570549135484	-59.5788272891647	37.4804099829905	-0.777271167919889	-23.9696889535983	
15972000	-0.867852554575042	-28.2351025503975	-63.4502907943559	9.29062574771156	-62.9866855393063	3.4007739474489	-0.807385893516769	-27.0739873493543	
16221500	-0.52890715326698	-30.4448152042361	-68.4423635469914	-5.44268239984025	-67.5752369060086	-10.148804622755	-0.520947839967875	-29.6159898259152	
16471000	-0.0970784731984813	-30.9935382132624	-63.8668086676334	-20.121804386244	-63.6875245489091	-19.7172798129105	-0.138171237941574	-30.4102001825527	
16720500	0.0932435508719875	-30.0225549001699	-56.6836761647086	-92.2832189732091	-56.3327415046757	-91.8903612844218	0.0152823242393412	-29.8769844927503	
16970000	-0.0464621679887762	-28.8457777187219	-53.4544553886031	-166.508894981486	-53.1955553575602	-163.757698676471	-0.242425928589884	-29.2854007500659	
17219500	-0.434736935054294	-29.1588689571076	-50.9325643926475	138.105542791605	-50.6821711032625	138.509691909448	-0.911924568537333	-29.596039565529	
17469000	-0.768782033741078	-31.392355076518	-48.7362242251956	74.4791536193463	-48.3485631127735	73.4922920207354	-1.55220825443247	-28.8472779665906	
17718500	-0.76676935521893	-34.4326866837546	-49.4178411547209	14.5515901379337	-49.1524602893573	13.4765934647344	-1.24660614844493	-29.2302301402851	
17968000	-0.472614056170172	-36.3721159460857	-50.6168505041226	-30.3332928386376	-50.2856642482831	-31.3085624962109	-0.652890808206419	-31.187036594634	
18217500	-0.187054290589607	-36.3063683143602	-51.9233848477015	-80.7413402453912	-51.6307506036846	-81.9945074133887	-0.15692026859885	-31.6165255834846	
18467000	-0.235482592836256	-35.2461631214075	-55.7319270906026	-133.683063397159	-55.5271258325203	-135.382927411286	-0.0129179416200302	-31.0016881628082	
18716500	-0.799877507413129	-34.1581589758818	-63.4804757122456	177.077335215	-64.1521675568435	178.324740178506	-0.28022111591346	-30.7464455767874	
18966000	-1.55740186587733	-32.343775673193	-63.1083441562171	-48.7671162921259	-62.2717336534453	-50.9515445627359	-0.889112582138978	-32.0973571591939	
19215500	-1.67250897411767	-31.6038167520721	-53.4556152629969	-149.149954342817	-53.0348228942542	-152.749656998504	-1.51601979569701	-31.6240641781708	
19465000	-1.21105764622594	-33.4814349642733	-57.6841544808322	145.762722584377	-57.4147164846782	146.751382506859	-0.928368636537675	-33.3228480263996	
19714500	-0.582821527804154	-34.9310084305487	-61.3269191089605	90.7268743555552	-60.8960753079421	90.4109981853067	-0.45431190295377	-36.3763613893186	
19964000	-0.123369050614376	-34.6267563632299	-64.1884341800974	22.9782853163729	-63.6468623755594	25.6206774614908	-0.286315348459582	-36.9191185926821	
20213500	-0.0534439291052123	-33.534848245895	-62.1850015594318	-89.5303355985758	-62.1784252825502	-88.6433572040479	-0.587661957161635	-34.7116526820538	
20463000	-0.346332616561474	-33.1712708003319	-60.588127245704	-154.125134632032	-60.3543641510933	-155.807259058694	-0.922825704160079	-31.0978456050897	
20712500	-0.75333353833013	-34.5700073752411	-58.8414440493023	168.499286062441	-59.0243071691222	166.162592426004	-1.05924544738716	-30.9555335397073	
20962000	-0.916587751938219	-37.5077179494261	-56.6553737468264	131.084076129731	-56.5979376881546	130.758930702862	-1.08338821437792	-33.6415424718151	
21211500	-0.680233883488873	-40.2157403845594	-54.7800078004944	93.9933205166025	-54.8737784841349	93.6763855955843	-0.810157572956779	-36.4135328190892	
21461000	-0.267954700389638	-41.0839706200627	-53.0823369775978	60.7613689212712	-53.3104081411614	59.2342904367627	-0.353351710221939	-37.53031261619	
21710500	-0.0529912287279275	-40.3090645588579	-52.1354831822722	26.720006204714	-51.9199105649112	24.9908035124522	-0.0697296248474846	-37.1390045626286	
21960000	-0.231381810446121	-39.2521252454772	-50.8752594184277	-7.0031451719334	-50.538342939105	-8.81559506394268	-0.16954619345716	-36.3927549691995	
22209500	-0.747515473764955	-39.2281008377984	-48.9103974201293	-41.7018567943563	-48.4905369881826	-43.4429447934118	-0.623524827456524	-36.6776435315529	
22459000	-1.30787715341119	-40.9413988033239	-46.4722070934404	-79.6573609450938	-46.1318673265128	-81.4702106334957	-1.14830323674261	-38.737399425504	
22708500	-1.53533299282009	-43.218707320088	-44.2655649644088	-125.599696275134	-43.6694455605317	-128.23633763251	-1.46385319347103	-41.3872387183127	
22958000	-1.30576501524033	-43.8288278627514	-43.0640835995071	177.601488787273	-42.6277831100557	174.481561418115	-1.36215238159211	-41.7267762625972	
23207500	-0.851142220344794	-42.1032464407594	-44.3515366625356	121.774025556061	-44.0084081061635	117.710335749304	-0.913558215741878	-40.0646201149253	
23457000	-0.527097321099693	-39.4366453382483	-46.8625748099468	75.3328124489768	-46.6843543369533	71.8244774770606	-0.62116901103315	-37.1997440216931	
23706500	-0.558713143516986	-37.5970838954869	-49.9957889790281	37.8342003957478	-49.6395047425158	35.6799710828197	-0.575895910524435	-35.127737506509	
23956000	-0.867307112903837	-37.7713028706906	-53.1754195915146	6.69673720584002	-52.7461563085534	5.39918567668894	-0.827658052265984	-35.3215897244125	
24205500	-1.12593247640121	-40.2857516925503	-55.9533718662845	-18.0578278378507	-55.5350246581901	-18.0113802306372	-1.06945669663102	-37.8593656559262	
24455000	-1.03069534572572	-43.6716975914094	-57.9478023655817	-35.2130950528954	-57.7962218287066	-35.1431266030758	-0.989476920459835	-41.2425529468308	
24704500	-0.645392691936641	-45.775039080067	-59.0695503237731	-53.6408827994616	-58.512460885983	-55.260909990641	-0.593665591888679	-43.1380672612522	
24954000	-0.3265988510985	-45.7132276987387	-62.4397696412772	-78.4708100059575	-61.42114249004	-84.4575393226283	-0.238606800484593	-43.1186185237648	
25203500	-0.347970956576233	-44.2819402148015	-69.8474052791216	-83.8828840639952	-68.8456296767022	-94.4279976608349	-0.188977712032977	-42.0414717781546	
25453000	-0.755420066329149	-42.801659750413	-70.1387099944408	-47.2677443380979	-67.5448748750506	-50.2351038339672	-0.516983720851367	-41.2369422451421	
25702500	-1.2959020769541	-42.5911553730788	-61.7578843811184	-42.8754358721085	-62.1207867194031	-53.7559068587546	-1.05715741648951	-42.246893542785	
25952000	-1.50049056788398	-44.1691520469333	-57.442239187822	-64.6964790440931	-57.131736059614	-67.3306401278928	-1.46798558832813	-44.8773149145567	
26201500	-1.19474882908057	-46.6028396055545	-54.8593304680774	-94.7478164515953	-54.7629407728629	-102.653620437528	-1.48560982799816	-47.310053504129	
26451000	-0.654473639842307	-47.7910035540731	-53.7776811927691	-126.160663826717	-54.4428243877009	-132.856222732856	-1.1988654576077	-47.0079857010684	
26700500	-0.307597869372668	-47.1869126322647	-53.0125481634679	-150.858483012012	-53.3991874501394	-153.875139426789	-0.769693556496518	-43.9282407581359	
26950000	-0.36783772149904	-45.658072153604	-51.4049221166421	-172.986925928774	-51.4287659247052	-173.56374404572	-0.464283094741428	-41.4227490768926	
27199500	-0.786315734879688	-44.7728061697505	-48.7920189389932	162.005575826017	-49.1376433410529	161.510738528676	-0.583674565155572	-41.2488197868858	
27449000	-1.25690949656635	-45.585600046774	-46.4819469883344	129.863636813817	-46.479676324737	128.045989753354	-0.985449332525478	-43.7825665682015	
27698500	-1.40163467604188	-47.9465014683248	-44.4847762842973	90.4109148313574	-44.4485389741555	88.78909701755	-1.34475266312866	-47.657445462186	
27948000	-1.07906781183197	-50.101769083712	-43.4819564725038	44.1924328987499	-43.3129051150827	42.263774680661	-1.43144505566934	-50.0039374316646	
28197500	-0.584107656436611	-50.3674023101493	-44.4737666068862	-4.04409080547304	-44.2018474882086	-7.06272428524218	-1.13649961208835	-48.2351460695978	
28447000	-0.316485425972923	-49.1651561661018	-47.3792773000263	-45.9699699459052	-47.1116338933845	-49.6515058568199	-0.689643449836757	-45.3587723532227	
28696500	-0.465743812143803	-47.7299383995023	-50.7741564103529	-76.3021702106641	-50.4672345470517	-80.9091558950314	-0.574800597580995	-43.3803012112475	
28946000	-0.910553241275747	-47.3121133439747	-53.68337520528	-94.4907876448811	-53.6144238158724	-99.7736603337215	-0.83571622891867	-43.1002329037436	
29195500	-1.28746280844941	-48.8065739523181	-55.5420820861212	-99.9853329428517	-55.5217371000436	-109.130929704237	-1.15327082222732	-45.1201307403606	
29445000	-1.25548806220791	-51.6844808519948	-55.5025819268002	-113.771694452661	-55.9733882269591	-117.816952383027	-1.16671468626543	-48.4043383094162	
29694500	-0.819386650768131	-53.6817049658392	-55.0360253703836	-131.731730494948	-55.7200800820101	-132.733808773991	-0.844698222396613	-50.8794049315086	
29944000	-0.382722354285774	-53.6483651831222	-54.6631702951634	-151.807235139	-54.9162856367617	-156.701550599228	-0.429459628392994	-51.2627243690101	
30193500	-0.265169528523115	-52.344237850093	-53.6230149442288	-174.724007375614	-53.6000771154732	-177.754726638662	-0.303656676360666	-50.324108222997	
30443000	-0.561551678401696	-51.2240442568639	-52.7073511251742	165.061120708246	-52.7912459891639	164.574945117363	-0.594718029730225	-49.3315195564339	
30692500	-1.11100659784481	-51.6641091251548	-51.3429141956673	141.732061828496	-51.5980817448173	141.547712041831	-1.14536276465632	-49.9269042612257	
30942000	-1.55140669338891	-54.0095137484959	-49.7786375376968	113.885629913914	-49.5044249001761	114.13530762305	-1.6546451812924	-52.3243744406512	
31191500	-1.53481586416905	-56.7967482778321	-48.0101016423506	77.2767933258746	-47.5160915936904	73.9388638145566	-1.7183733940955	-54.5507011433019	
31441000	-1.14914092438804	-57.4228603958147	-46.7831035504141	36.1147841494607	-46.3776687223617	32.3602924960563	-1.30340937362653	-54.7109309714578	
31690500	-0.743814707108048	-55.5985990714128	-48.1349746145595	-8.87512593159226	-47.9087797220599	-14.5617755547836	-0.755547725451859	-53.900550588492	
31940000	-0.60505822904941	-53.1504472921707	-49.9093766030968	-40.2368584913423	-49.7952411692249	-45.4824680103663	-0.811316688011574	-52.0288984255132	
32189500	-0.884900763730897	-51.7978208548188	-51.0976887674763	-72.15490312492	-51.1795339583313	-77.9705361036567	-1.21406010833203	-49.2788931791614	
32439000	-1.33984138239263	-52.3903273879927	-52.2677401451133	-101.423995626229	-51.8498726759435	-105.836329310438	-1.60599885913832	-48.4102062884958	
32688500	-1.51832053166624	-54.9539312424202	-53.276049769879	-130.598419635093	-52.84279390229	-135.280901891204	-1.73125864741503	-50.4098745285278	
32938000	-1.23065378106108	-57.5817981148832	-54.7763937371982	-160.04513150453	-55.315280009612	-165.227945961805	-1.4095289789382	-53.6394826020404	
33187500	-0.692710892258335	-58.4565084041175	-57.4788933901264	169.663237089991	-57.8692336384994	166.89153615148	-0.83534590908421	-55.323494987922	
33437000	-0.312112236234616	-57.6202799459805	-60.0153939124844	145.927960878874	-60.6404611768323	142.73579754173	-0.417932765389437	-55.0907766178169	
