!Keysight Technologies N9923A: A.12.45
!Date: Tuesday, 05 August 2025 20:48:22
!Timezone: (UTC+08:00) Kuala Lumpur, Singapore
!Model: N9923A
!Serial: MY61181427
!GPS Latitude: 
!GPS Longitude: 
!GPS TimeStamp: 0001-01-01 00:00:00Z
!GPS Seconds Since Last Read: 0
!CHECKSUM:0812492322
!Correction: S11(ON U)S21(ON U)S12(ON U)S22(ON U)
!S2P File: Measurements:S11,S21,S12,S22:
# Hz S DB R 50
2000000	-0.098850002542899	-2.48101891474645	-71.461159024372	-111.967909872611	-69.9435799379698	-96.7592711088066	-0.135516171789048	-2.38315533050582	
2249500	-0.441396080987861	-3.1765141905437	-66.3814064515347	-111.636723717367	-67.3483918953711	-105.291927958713	-0.467576846028371	-3.04973543152519	
2499000	-0.616255970359852	-5.00109583040351	-50.4927595172906	-173.18763758863	-50.0767565156407	-176.067065278903	-0.663429767498901	-4.84949486362953	
2748500	-0.423337301458503	-6.74656276216322	-70.4966115110645	96.7102288258454	-69.7569742061855	86.8323809661641	-0.452895404300489	-6.56495163399398	
2998000	-0.0784283552528572	-7.32653187655498	-63.5384288618665	146.922752558663	-62.941361779552	149.507687790452	-0.104882499433548	-7.14845649228739	
3247500	0.167089714275361	-6.6497215905007	-64.1242895846699	83.8489387238106	-63.9049273409097	86.0581309891694	0.125541166270445	-6.46554790257769	
3497000	0.118664096037718	-5.72659173183053	-63.3472712276412	61.1863911985587	-62.5101844922857	58.7018142182569	0.0653595219735911	-5.49245913675549	
3746500	-0.205861372946169	-5.53542888988359	-59.9237876977397	27.6268589658737	-59.6237236214865	27.780368575117	-0.267081464165186	-5.2700003866962	
3996000	-0.573068298686777	-6.85093562886447	-55.3555940277805	-40.4758018545527	-54.6137174231726	-40.5497332644034	-0.684997633002905	-6.2350045049257	
4245500	-0.70174423192886	-8.49737780504229	-51.8959822404924	-56.9136009029886	-52.0492618998958	-56.6310185398219	-0.724473940053151	-7.4377351298365	
4495000	-0.460594240083349	-9.49076417057841	-50.6958927207303	149.127371771474	-50.6033590046192	148.2785612153	-0.418745219428141	-8.83133050596822	
4744500	-0.00820972692365316	-9.62508129179781	-61.3177510951476	65.4862344741958	-61.6516209747988	64.8417292201092	-0.0330171883560753	-9.21940254565318	
4994000	0.180881752332623	-8.89551678570544	-69.3822519599355	22.9759430573943	-69.4103552810902	20.2156399878313	0.141676831289048	-8.49592819980637	
5243500	0.0384155191481452	-8.08735573639762	-72.4884890820149	-44.4097866671188	-71.9326658345345	-24.536609394883	0.00174274688816407	-7.72058910081281	
5493000	-0.3186515220002	-8.29576443243503	-71.6323014459517	-61.1236892922933	-71.4273316973251	-55.0201552151922	-0.351728132695463	-7.94369346405461	
5742500	-0.600469643636108	-9.99090319118987	-71.2636061725061	-82.7538290754409	-70.0264706906501	-80.8683697450156	-0.622547378884314	-9.57813666287236	
5992000	-0.554599725393969	-12.2600386390759	-66.5695479697436	-96.226537320078	-65.8270587331207	-98.1133275894023	-0.589111292723755	-11.8231455923445	
6241500	-0.222987380568097	-13.6260927726923	-60.3346568232518	-132.776697579829	-60.2968781492418	-135.130944031995	-0.293993718773305	-13.223017687371	
6491000	0.087171628085922	-13.4482539095499	-59.8329476240141	150.839933911852	-60.4653041819235	153.118167420304	-0.0510289944573733	-12.5197400239199	
6740500	0.163803598876554	-12.4955047018675	-58.1774884641346	123.382943114057	-58.5229985755365	124.419545462765	0.11551497077692	-11.8121672772177	
6990000	-0.0873838018926069	-12.0035045684562	-59.4874354847632	107.932575468986	-59.4050626275711	107.802652342567	-0.118268197042744	-11.3002675432531	
7239500	-0.506718877589979	-12.9257622590049	-57.0865223654271	102.991928447298	-57.0780392660765	102.020095164032	-0.490303311608681	-12.100492051655	
7489000	-0.821033331822278	-15.1154893509107	-50.2275389098337	81.9919125815073	-50.0735190884715	81.7617274285238	-0.716885504464115	-14.3643073306176	
7738500	-0.794610786163812	-16.6463627629204	-43.1680381755928	32.4696351709202	-43.0881243565583	30.6272559628843	-0.64638126785246	-16.745319523939	
7988000	-0.460448470167529	-16.2054289852775	-38.7227521398847	-41.8433242992317	-38.7859695292153	-43.4701239867899	-0.452829723747604	-17.3785966500074	
8237500	-0.0254340888666483	-14.8317961229403	-39.5443891194009	-123.21971973906	-39.6602765490294	-124.452638844334	-0.273702969830872	-15.2433718797097	
8487000	0.0626318743689293	-13.763405738077	-44.0812140428434	176.735050131704	-44.2013950448295	176.378296346399	-0.139467536820492	-12.7930272731441	
8736500	-0.199472819594232	-13.5147169779029	-48.5806919030046	141.23361761205	-48.8157000374435	140.440657889035	-0.30144207542777	-12.2181059417366	
8986000	-0.548877122933744	-14.8093865459936	-52.1525482069174	119.443431293607	-52.2365813395832	117.379165005193	-0.607469480336076	-13.4194239942603	
9235500	-0.661221622073232	-17.3241270687927	-53.5446483892969	99.9888102045263	-53.7785114942597	100.39219120541	-0.703342386187787	-15.8010140233365	
9485000	-0.423471891966426	-19.4647330870858	-53.0500999302304	82.0692950459515	-53.2390524328017	83.6623730816746	-0.471098033252965	-17.9524578558998	
9734500	-0.0643981529013528	-20.0472545197345	-50.8184491388307	57.5553256126424	-50.7453225140599	57.5853703054097	-0.0945787318378349	-18.5281311241518	
9984000	0.0809467691338829	-18.9673586009368	-48.3916652239499	2.89269020204308	-48.2297383869671	3.7437616366107	0.113891229971396	-17.7635642130906	
10233500	0.000371239915694927	-17.4958566493644	-51.1555130195016	-58.8686446667553	-50.8109559145399	-58.5070712290633	0.0153360512130486	-16.7309189007195	
10483000	-0.342899549722987	-17.6372694826644	-54.8155717804962	-98.5970055663934	-54.5287524241106	-98.0690838090443	-0.344698113897246	-16.7841149408236	
10732500	-0.702227551615601	-19.4517223044527	-57.1401736059742	-124.07146549315	-57.0319762031467	-127.930188810482	-0.682534501556876	-18.5031729291588	
10982000	-0.751662072773765	-22.0111988364401	-59.1833199964279	-154.156062450254	-58.285944727004	-156.616631643189	-0.745525222527398	-21.4217464011624	
11231500	-0.502197748204894	-23.8469909976174	-60.5758054415481	158.034232346559	-59.274389056353	143.992838770289	-0.629331065304758	-23.3846705045291	
11481000	-0.280923584243611	-23.4708686564973	-58.4463257516089	55.0656984672725	-58.1127529965081	46.943974341962	-0.471849413391751	-21.9561304332034	
11730500	-0.214632849241089	-20.8943375266327	-54.9460074999267	-139.159972154716	-54.9531748145742	-134.692763549084	-0.008843855866766	-19.5248311717479	
11980000	-0.29747612276612	-18.9451694368941	-53.9575110221518	149.200514023362	-53.8759161958043	150.161405213695	-0.123266035258925	-19.7063539368052	
12229500	-0.575777179845903	-19.2776961885361	-53.095863498713	103.996298988018	-52.8087640398066	103.411154470833	-0.595996137524814	-20.9896188694258	
12479000	-0.793158731750551	-21.5546694875667	-50.5527066091712	54.5753424193345	-50.5844934472483	54.7364500810895	-1.16276639109162	-23.1783700528223	
12728500	-0.671785475442104	-24.3380214934426	-49.9447465220205	-8.37475405092574	-50.0839610370458	-8.76355414339972	-1.25848564578313	-22.7014140482411	
12978000	-0.300301593344265	-25.8056033277312	-52.5130188125146	-61.2211754047984	-52.5243769828717	-62.4997001127959	-0.599292617919286	-22.662673713629	
13227500	0.00337414814663722	-25.5185329328227	-54.3515054711994	-104.908068495196	-54.3931113677007	-104.869748251724	-0.1010120447627	-22.4624895062549	
13477000	-0.0184017980794489	-24.3184887580534	-54.7020103154979	-151.427826981473	-54.6853340311539	-152.75589452397	0.0286931397864257	-21.6081998324865	
13726500	-0.346472828505323	-23.3439744642107	-55.2276200394128	151.190506083756	-55.1812930833179	151.447129615199	-0.20203717054963	-21.1246677868814	
13976000	-0.720653856895825	-24.0320287150232	-55.6406285663572	89.5569332205262	-55.5506247592848	85.6662652952871	-0.569047219957578	-22.1327629029842	
14225500	-0.888593193204638	-26.7072311593763	-54.6563565446847	31.910306364775	-54.4739367232668	30.256334584897	-0.749574171063504	-24.6130127735713	
14475000	-0.795424382266062	-29.1925980890899	-51.5696368068014	-23.5050737308099	-51.2691353782216	-26.7585702535665	-0.575058769913874	-27.0763243159779	
14724500	-0.46198168267033	-28.5198333770596	-50.4369576650858	-88.2835434813659	-50.5098754827882	-90.5480552443077	-0.21389113831759	-28.1220866721431	
14974000	-0.119602172648492	-27.1970357472022	-49.8350364428375	-130.296105794583	-50.0230763797885	-130.518641553658	-0.000659355440460044	-27.7792796822942	
15223500	-0.161813086253086	-25.3862310475795	-47.3067812879809	-176.226760457417	-47.4132288419095	-175.753899020399	-0.195524879576378	-26.9514774920905	
15473000	-0.433241280124235	-24.701863566312	-45.44886365462	125.5657451479	-45.5706866747906	127.136539114754	-0.856267011022398	-26.1917915258047	
15722500	-0.746846155536436	-26.3898698371528	-46.8221354100724	55.9140822071434	-46.6986044401897	56.7252976106861	-1.23767758451449	-24.2339115181193	
15972000	-0.795802801747716	-29.4258250713761	-51.2530039277627	4.81120864100751	-50.9541850008254	6.43635408783802	-0.973070445827086	-26.6746136983842	
16221500	-0.498399938884256	-31.835289309008	-54.7985644502635	-28.64187862187	-54.4126763849693	-28.5889189205458	-0.587958815172128	-29.7549539985222	
16471000	-0.119932342190224	-32.4679046410298	-57.2283002394382	-66.9644782071259	-56.8425356069449	-65.2232994956682	-0.204162078621661	-31.0626080942713	
16720500	0.00229810137328948	-31.749971917609	-58.6017300315665	-132.171784382948	-58.2304409411003	-130.772901153914	-0.155016180274902	-30.9392724735625	
16970000	-0.302298544064022	-30.791168578638	-55.3884159915536	112.396286169761	-55.4311667595014	113.278693108529	-0.681382694308873	-29.3931205449367	
17219500	-0.913381602323778	-30.4869164653944	-48.7850629352382	1.42424495585138	-48.9113808950604	0.448365714383807	-1.1942406661237	-26.0803975358092	
17469000	-1.37935147731654	-31.2017132706378	-46.7585348187123	-87.75553974922	-46.6154057626751	-89.5756718765255	-1.22364387950878	-26.2908510793737	
17718500	-1.35802655348886	-32.4553897299227	-48.1840509437175	-161.564503114105	-48.0362746938919	-164.385835894285	-0.99904536278883	-29.170649978088	
17968000	-0.871360958303195	-32.8671487498923	-51.4730428834465	141.513587870008	-51.551659309702	137.961001973565	-0.546950284077758	-31.3407292664638	
18217500	-0.288304957077257	-32.0989977060309	-55.2541653992401	99.3281889504682	-55.4521883444642	99.1782827766433	-0.107207314710527	-31.5587293958562	
18467000	-0.0393507480281772	-30.9691890258053	-58.4264058672434	77.0797414870143	-58.8579881382578	78.0176113984206	0.0285006558296845	-30.6162229540484	
18716500	-0.210035514942416	-30.3893134027267	-60.1475381919685	63.3841347087038	-60.5320295641875	65.0307880127025	-0.194589866813283	-29.942912217914	
18966000	-0.592027497381115	-31.383432742885	-60.3974014440608	49.3228984827466	-60.1376929759835	46.6698500491541	-0.633627157347231	-30.8383547758718	
19215500	-0.826676864304684	-34.1653898310229	-58.5111200407346	21.8552100686689	-58.1162140476832	21.4469360826072	-1.00792226420642	-33.3744758279294	
19465000	-0.692257811536116	-37.2255449222755	-57.8276064004884	-11.9187048140155	-57.933217080323	-15.2334055696302	-0.993857874386821	-35.3737355517582	
19714500	-0.308739256147686	-38.7641238033781	-56.358149069283	13.7981818299852	-56.3190341299853	11.7223784470162	-0.474897635018893	-37.3725459587962	
19964000	-0.0461276458823271	-38.4377639312349	-50.3455119547024	-20.320732225046	-49.9984082512401	-20.8071883589773	-0.303116681999876	-37.3448121392968	
20213500	-0.186596915074289	-37.2961778045726	-45.1552588918253	-70.4595749336724	-44.6625203804806	-71.7979011762163	-0.49219986070663	-35.4775396212872	
20463000	-0.712976051479683	-36.4718977849719	-41.9048640762634	-137.096276126875	-41.4568185835004	-139.341690755493	-0.930219489059204	-33.5732710835309	
20712500	-1.31588001340738	-36.8587639773699	-42.207014825399	152.225444687425	-41.7072230812523	148.604578191596	-1.45086430495355	-32.9982739013032	
20962000	-1.58606423774005	-38.2509983939545	-44.9792572186143	91.0890719111841	-44.7784531222543	86.0632734009414	-1.52991703420325	-33.6531078065547	
21211500	-1.29853861331328	-39.2778923089686	-47.9315626215766	43.9364619141529	-47.8438263841008	39.2202277234026	-1.12781416395009	-35.4992781503865	
21461000	-0.72720652091704	-38.8855257977479	-50.3294203172008	0.100442037613735	-50.1610562654912	-3.67558791565709	-0.555564432242653	-36.2650478462109	
21710500	-0.313138510010328	-37.4238005718902	-51.9382052215809	-40.730536676381	-51.7861632312523	-45.2722191530771	-0.180435312058931	-35.7067089088295	
21960000	-0.303468395714544	-36.1625587717232	-51.7837076789336	-81.7554669244218	-51.61265393618	-84.3710556376858	-0.195054111154537	-34.7785116840973	
22209500	-0.655103876390818	-36.2598522223338	-49.6167352510997	-124.115629249363	-49.5462942306969	-126.149017086695	-0.550039486600037	-34.8732522592603	
22459000	-1.07607672780639	-38.3750513553158	-46.2056144035544	-173.654892644766	-46.0784730219005	-175.190036494563	-0.949214499658196	-36.7889169701753	
22708500	-1.17228976339495	-41.2364964778566	-43.2835333424586	122.768653552546	-43.156068217895	120.373607348323	-1.06660372254511	-39.5717929394678	
22958000	-0.824549861663402	-43.2606278138905	-42.9815809615808	59.5872638129796	-42.8340143311361	58.4269212781913	-0.783333672800402	-41.5938089210287	
23207500	-0.442399916940061	-43.3257175434107	-43.2657932874443	6.64511659067866	-43.1344550699816	5.27209408382192	-0.417810725296835	-41.7712115624837	
23457000	-0.31584806445605	-41.5478508197684	-44.0057083508093	-45.4596633169095	-43.9716757616074	-47.132161441036	-0.310485402408078	-40.4514023287392	
23706500	-0.517191069368613	-39.8505779876147	-45.6321541450536	-96.1726278552706	-45.63745731592	-98.7594808087722	-0.583082419482094	-38.9393842533783	
23956000	-0.970341579596858	-39.9208637623014	-48.2748535041562	-143.389180329103	-48.3905889834173	-145.491142411165	-1.12772062523703	-38.4872056630062	
24205500	-1.36615951369228	-41.9581461935528	-52.5486846629687	173.535662500967	-52.894097662728	171.024545101245	-1.54098083344011	-39.4875754929798	
24455000	-1.35160876960489	-44.3241027111525	-59.9581300219911	149.507090962905	-60.9628607442241	140.199826174523	-1.44043862675339	-41.2008700064061	
24704500	-0.937703457446189	-45.1808920990468	-63.1196649244803	173.728515240338	-63.7635845996926	179.402492461712	-0.909327572381714	-42.1389628615032	
24954000	-0.489252158290254	-44.1871549423027	-60.245186728543	168.78801141194	-59.9386208029732	179.304975353041	-0.425502601090329	-41.8323549610071	
25203500	-0.343927871887648	-42.4813507537991	-56.9569809594275	152.482792568745	-56.8548505717013	158.183855039	-0.29342625455315	-40.7188859054767	
25453000	-0.597583406595935	-41.3309381237256	-55.1371547274147	129.134590691476	-54.7326886168676	129.736118833879	-0.569606527535507	-39.8527876412523	
25702500	-1.05190680628472	-42.0824047843935	-53.2916428158494	98.3229621246058	-53.1276009077219	100.547032733276	-1.04861873706481	-40.7370896223834	
25952000	-1.32403278623097	-44.6542875292373	-52.1742539494551	69.1606020976014	-51.3699662587088	68.3063174290979	-1.3688012191018	-43.4799339575932	
26201500	-1.14991331769284	-47.1714196138743	-49.7591482455804	36.8079414532272	-49.4035152335381	36.8249239939425	-1.33014606850071	-46.5279574517433	
26451000	-0.658442891460216	-47.8874626686089	-47.6601198624398	-4.38026710362718	-47.2704013700668	-6.66287612566387	-1.06046498806196	-46.4792908980824	
26700500	-0.279829198677353	-46.9414126613885	-47.3732052950628	-52.140992368001	-47.3465903469618	-54.6302734842216	-0.542692833534739	-44.0035939402241	
26950000	-0.279520233175185	-45.4170827494981	-48.5664030136823	-95.2233230218623	-48.3661091638197	-97.042147067218	-0.320810002651193	-42.5154871340586	
27199500	-0.65175221983678	-44.9004947878458	-49.5735392573861	-128.758676568535	-49.4506110106446	-129.696025761342	-0.592805513471186	-42.2034995525762	
27449000	-1.12173193491746	-46.2764118994114	-49.843312465672	-157.283447379948	-49.7296224974994	-159.704000380635	-1.01812840125746	-43.8205333385671	
27698500	-1.32981161948829	-49.0813313876356	-49.9130828798242	171.271505689662	-49.9606104075948	168.731320883359	-1.23844098351685	-46.9572639326649	
27948000	-1.09593001424115	-51.217606950741	-49.904047308431	135.711219541834	-50.0223220376159	133.911123916208	-1.08912384175204	-49.8182985107111	
28197500	-0.660307395331215	-51.0823272924127	-50.4525472808034	98.2761461456643	-50.2020701579496	96.1315538467906	-0.780607625946257	-50.2469203673055	
28447000	-0.396046053855104	-49.3473020611892	-51.4860952000009	59.6112059679986	-51.6969335295815	57.9373405789613	-0.641671523760358	-48.3960761788389	
28696500	-0.49163588923424	-47.595884082256	-54.6493659423503	24.7283407080281	-54.5811933625411	21.7133763731005	-0.791655477711036	-45.6061095439209	
28946000	-0.879171291616007	-47.3391596789772	-59.0045961111904	-5.19473899528637	-59.6088882366195	-7.71077618907292	-1.13595754822853	-43.9694060685784	
29195500	-1.26294763401988	-49.2717049758039	-64.6643656770532	7.04052567962613	-65.3496578112042	9.21427996481632	-1.41104986809864	-45.0124816077288	
29445000	-1.30185507688971	-52.2943570873493	-60.75284154848	31.2330482823146	-60.6804256317934	28.6147988182052	-1.33366813252562	-47.8920987056664	
29694500	-0.922289852317695	-53.9087591309513	-55.8600558790809	9.77670555411496	-56.0562888865969	11.4905568497949	-0.930689373894874	-50.4013038882346	
29944000	-0.474476741483187	-53.2865340414228	-53.5682301106636	-20.8679721674344	-53.4978466435561	-22.0086106095999	-0.475522962355884	-51.0818885961643	
30193500	-0.288255383631816	-51.5861015466859	-52.2698616888845	-57.6415873690009	-52.0815255965701	-57.4080426345728	-0.372852836207003	-50.4428690604166	
30443000	-0.493813149209869	-50.3525273956668	-51.0938098669406	-91.9636941669667	-51.0110766167757	-92.5675413215983	-0.742278815598019	-49.4546588270346	
30692500	-0.947895572833356	-50.9757437119867	-50.4270601685783	-128.814090657456	-50.248381007374	-129.514016783789	-1.38474467890334	-49.4219582808686	
30942000	-1.31845586815503	-53.8664025974254	-50.6310689851898	-171.111589431567	-50.6780827661991	-171.151234449628	-1.87000412189816	-50.4959334683401	
31191500	-1.27598261528525	-57.3045444544673	-52.9176362140785	140.429157588168	-52.9579960720828	140.395088655448	-1.69257158522221	-52.1848353909899	
31441000	-0.927446635134128	-58.7858509415433	-63.446287479313	133.219422313109	-62.1044621934417	139.317121783943	-1.10318207074656	-54.0697459520666	
31690500	-0.650467769910126	-57.569166184682	-54.5088573602053	125.790681145389	-53.9590200788405	120.995288194627	-0.771193918355486	-52.7143524362835	
31940000	-0.668158104166736	-55.024923545206	-56.2794538784094	87.1230418069311	-56.4560642643013	84.9713463835937	-0.54359893031094	-50.3755186601751	
32189500	-1.01666013541773	-53.1230846197424	-58.8394482753532	84.8991052184481	-58.8739562065717	82.443879837056	-0.773790507318069	-49.3839096088446	
32439000	-1.47790642795787	-53.5261918566053	-53.3589150879929	58.4891569512356	-53.789777902822	52.4462362244223	-1.29646717398383	-49.9476512504184	
32688500	-1.68311772224619	-56.1229926700837	-54.1679547510655	0.183326477909792	-54.1870431986768	-0.623320518985375	-1.49806448507166	-52.1728707471861	
32938000	-1.45124935141957	-58.617000150461	-56.524786677837	-34.4179523617585	-56.516671333985	-33.0820013676521	-1.268241850815	-55.6018575284767	
33187500	-0.968528000820721	-58.9526436226308	-59.5388655101276	-62.9590506030692	-59.6620421683653	-61.4345905732153	-0.796198212601115	-57.1585489424542	
33437000	-0.598342232040775	-57.2286328169069	-63.8051773774993	-86.9599280523212	-61.2075166347233	-88.3170864393515	-0.468693238065651	-56.5809507831689	
