!Keysight Technologies N9923A: A.12.45
!Date: Tuesday, 05 August 2025 21:01:58
!Timezone: (UTC+08:00) Kuala Lumpur, Singapore
!Model: N9923A
!Serial: MY61181427
!GPS Latitude: 
!GPS Longitude: 
!GPS TimeStamp: 0001-01-01 00:00:00Z
!GPS Seconds Since Last Read: 0
!CHECKSUM:0186394284
!Correction: S11(ON U)S21(ON U)S12(ON U)S22(ON U)
!S2P File: Measurements:S11,S21,S12,S22:
# Hz S DB R 50
2000000	-0.0790344466517565	-2.17753678383408	-89.0239586350445	136.5380806642	-91.5252687300148	-45.470266491007	-0.109294033993927	-1.99946926303423	
2249500	-0.421367375716924	-2.81486316956851	-79.6970449927393	178.545882815643	-86.2990831365564	-142.43028909451	-0.443667343335328	-2.57422667226921	
2499000	-0.582329321260567	-4.65588043480209	-71.8276730295885	-145.740875950354	-76.4192728499569	-164.047420985917	-0.602658045506281	-4.36379498586374	
2748500	-0.428787423605723	-6.52411000477672	-58.4650627159352	175.456772328611	-58.166185435111	174.747898332588	-0.464407342190351	-6.31287732466529	
2998000	-0.0799332895033564	-6.91050107158573	-49.4242575571781	34.8761268373302	-49.6599357934463	31.8581207252163	-0.174467788724295	-6.69659514998187	
3247500	0.177363286354134	-6.39993149754085	-57.5123367657203	-56.2657016376258	-57.6815253145309	-58.2025626049191	0.119501449092144	-5.76040141050281	
3497000	0.121388752785947	-5.64122137371265	-61.0340090982483	-95.1101743064596	-61.0616690226596	-95.0749700131264	0.0866163877033035	-4.96943238624281	
3746500	-0.215440930908121	-5.22427671760081	-70.0347533758382	-171.925186089125	-70.8951278617528	-166.31871581144	-0.221508328989122	-4.83216900974727	
3996000	-0.522292903314948	-6.61391562297055	-71.2439872860382	-73.0608103378996	-70.5515894045996	-76.1443865649807	-0.54238286363254	-6.0773452300589	
4245500	-0.600869050300219	-8.57952303505857	-68.0169654661549	-104.528742411811	-68.5807828512491	-103.512263546681	-0.605754682982769	-8.31964169028534	
4495000	-0.323823323454825	-10.4073880084224	-63.2941668462916	-108.350828963293	-63.3610791827144	-107.509617392096	-0.349700982989105	-10.0170926916364	
4744500	0.00938638457205541	-10.7678482593872	-54.5536353904044	-129.140585102473	-54.3388122876765	-129.786417277253	-0.00126803168203153	-10.3439416376363	
4994000	0.0871997359301113	-9.16565622247624	-45.5131947619792	141.013898017252	-45.4226980166774	139.495027284511	0.144120812870172	-9.47011818166919	
5243500	0.0375368521421314	-8.27062538025106	-49.1577866708475	80.1535023644534	-49.136617924773	79.6768093165913	-0.00724240249304529	-8.64890692426541	
5493000	-0.316249748831801	-8.54389337725925	-48.029500487752	46.1164504762083	-47.8818326568999	44.394909071783	-0.42029137705951	-8.86627581287817	
5742500	-0.608005680007931	-10.2236043561856	-44.8101693986971	-10.2826187085199	-44.7873622796411	-13.4406271650345	-0.808099155310952	-9.67243572909782	
5992000	-0.568261826976147	-12.4852069557415	-45.8390324457902	-74.6269316367655	-45.9669434154654	-76.1785850883794	-0.663294738010552	-10.9861226229185	
6241500	-0.284659428813613	-13.863888654668	-46.0503749089427	-124.538213814727	-46.0300620637904	-124.786505811906	-0.298318497579783	-12.3182896181842	
6491000	-0.000350773402225386	-12.9246171910661	-46.6991635440549	161.65970208858	-46.6674446042712	160.732318213757	0.0502904789323645	-12.3463519761727	
6740500	0.148457401238518	-11.7940507712338	-54.3284676556895	129.633765177532	-54.3387547524091	129.379279538013	0.135200575777074	-11.0755971165428	
6990000	-0.0745623149997188	-11.3178773329472	-56.7334311837876	108.611715968422	-56.8234061304794	105.933020058533	-0.0811642257784919	-10.5981921305818	
7239500	-0.474220038878573	-12.1155473870798	-57.2271738471223	87.9353849881985	-57.6871309854073	88.1198777123636	-0.448274228713144	-11.4409982544756	
7489000	-0.705157700015753	-14.0932885382104	-57.1423753111934	65.5759170297682	-56.8307148109695	64.6025537507021	-0.656140902829326	-13.5858161316453	
7738500	-0.554535380325197	-16.2138482824492	-55.2570272999726	51.8626102400376	-54.8070414164451	49.3294641568717	-0.525217009216327	-15.9430762330087	
7988000	-0.210139032868255	-17.2169468472368	-50.7594938897679	29.3321598745184	-50.3553060584249	28.0031529512088	-0.189750291146393	-17.0424458124819	
8237500	-0.0218943448041492	-16.2778898818504	-44.4451966811655	-19.2752142412767	-44.1302805570681	-21.6990599134458	0.0261715975327716	-16.6290813396064	
8487000	0.0266376331807916	-14.2814535415015	-41.8665147549117	-93.2699576302807	-41.6576784286205	-96.0896606842777	-0.111128614502238	-15.2695847397054	
8736500	-0.213623188471339	-13.9490919499315	-42.5677456969771	-159.917077616853	-42.4864744101981	-163.364407080658	-0.503638704220521	-13.5043322414069	
8986000	-0.56182296194111	-15.269838097862	-45.250300086428	146.094157927133	-45.339511617061	142.391079966875	-0.742902625266628	-13.5212307177468	
9235500	-0.687972457009184	-17.8871883228683	-47.2710578410557	106.094542712908	-47.2718245780417	104.159665952071	-0.754152875113537	-15.76406747067	
9485000	-0.503354385229347	-20.097162089632	-47.0815318522601	68.6236214871047	-47.1652639866853	65.9880803176868	-0.485307626880704	-17.9739400072716	
9734500	-0.22892234664077	-19.9673525090595	-46.4300123975442	13.363297485152	-46.4033979891595	10.7311807502808	-0.0946352426335966	-18.5594594080369	
9984000	0.0588565132978028	-18.1698965862203	-48.9167476189591	-45.9291333992292	-48.7888221901729	-49.7798331557899	0.1291625969936	-17.7944937546659	
10233500	0.0226913498390914	-17.1822672411468	-51.5885129948665	-89.2836879299464	-51.4915889977127	-92.6360582878856	0.0278202878205202	-16.8581220398585	
10483000	-0.331460291167375	-17.4216936218086	-51.9927206434975	-126.703991373548	-51.9624633590561	-129.704087110473	-0.345391307471784	-16.9669220765694	
10732500	-0.698484790274177	-19.1973554801619	-51.5782943584862	-171.923288360438	-51.4146955907827	-178.956007399909	-0.714173682955365	-18.8450517251534	
10982000	-0.732933030698694	-21.6890271320659	-52.088187985059	138.259656335972	-52.2121240671174	130.076900481975	-0.839561904107204	-21.6737047001583	
11231500	-0.465041857219816	-23.3671229498376	-50.4063362409999	90.4280492575085	-51.5819321309036	85.4318237336655	-0.730798217405723	-22.9156218559931	
11481000	-0.150789638201192	-22.9432876446492	-48.9304211362162	26.6826483658623	-49.9639067812316	25.1699840756149	-0.378246177399383	-21.1681269926619	
11730500	-0.0135448440260026	-21.1468309510515	-51.5166022714267	-42.8211836936949	-52.2084644622397	-41.8291915519082	-0.055539010232403	-19.3731632925866	
11980000	-0.156842296836152	-19.9215664933696	-55.2677950217479	-97.0537034243663	-55.923057902707	-91.9518416411623	-0.131842706844282	-18.5804850671353	
12229500	-0.514840138055225	-20.4415694066687	-59.0881925914736	-130.6873681993	-59.1509494934691	-125.997627911323	-0.464013425216682	-19.1718571967353	
12479000	-0.788037473064551	-22.7004587066944	-60.6663968356605	-160.806002437112	-59.9332059650316	-157.029663464125	-0.722874555125248	-21.3554230381994	
12728500	-0.725906104655933	-25.3339411023539	-60.8642107667584	164.161557512464	-60.4989813831674	163.786738722874	-0.663644746364433	-23.9490633492346	
12978000	-0.412909013482497	-26.3701422245674	-59.5512713235764	129.052246356453	-58.8492718487009	128.411305134567	-0.328050370388315	-25.2593728714466	
13227500	-0.109716846600294	-25.3057092227471	-56.1382320523742	90.7524802901409	-55.5592397272114	89.7200457728535	-0.0320760945111529	-24.9918270879407	
13477000	-0.0372284816966909	-23.6183631826695	-52.7154045207335	40.3345287167004	-52.3137063143815	39.9476929305726	-0.0750849091028961	-24.0733887665749	
13726500	-0.274103546841592	-22.9177420566492	-49.6287322894484	-16.0438867848326	-49.2108348997318	-15.884619094871	-0.531089030312856	-22.9575426767766	
13976000	-0.655140125617799	-24.0642497189256	-47.7022093624823	-76.7947806914451	-47.5434013689585	-77.2472413279882	-0.971092345544704	-22.0782250935067	
14225500	-0.862477864135902	-26.7697905306654	-47.6762164237255	-132.253824630548	-47.3795710490927	-132.150550978167	-0.987418793054594	-23.6831827772011	
14475000	-0.76309773818949	-28.9987495144201	-47.064895944638	172.776260075818	-46.8832547357175	172.905645908791	-0.692902493365196	-26.1924134562272	
14724500	-0.341899166092077	-28.5631188478583	-50.1685776717259	106.664969995211	-49.9565030374295	105.133888292699	-0.254679552816596	-27.3214038916788	
14974000	-0.0471498442216818	-27.857368232859	-54.4153234284841	93.3815112146762	-54.5207625266298	92.0264921784928	0.0244295875088063	-26.951645476961	
15223500	-0.142158998321347	-26.1022532481848	-52.6423328919161	64.1298477339208	-52.8209415684405	65.7060843070447	-0.0659402423286923	-25.9992846956006	
15473000	-0.448625652170849	-25.4642691974394	-52.1249208531428	21.9276537077918	-51.836753147567	22.5098451703663	-0.483343206917606	-25.8491600027623	
15722500	-0.796546184696237	-27.164149207854	-51.1118371329407	-23.7824149163465	-51.0531350719769	-22.8863352888668	-0.97674057592136	-27.1559079079067	
15972000	-0.882070792608146	-30.1596891356335	-50.5210196685364	-76.2584364915887	-50.4883006855683	-77.4742809227472	-1.20017768505356	-28.9097458789429	
16221500	-0.63372388267817	-32.3471068801366	-50.7655509465889	-137.79956185997	-50.9245530611369	-138.95050962774	-0.912419962382403	-29.5476119439241	
16471000	-0.296022436274546	-32.2792238563628	-52.1120668572765	160.62012966078	-52.2285584561698	158.683496914947	-0.380070009021723	-29.1207933500289	
16720500	-0.118591070440269	-30.4903451598755	-53.884090624955	101.447044437274	-54.0876165851157	100.810629647754	-0.0685604879625531	-27.9930951237416	
16970000	-0.233551328697694	-28.8245794283545	-56.4955993753728	52.0604148495111	-56.7449483141748	49.7395120060532	-0.155843161929615	-26.9896716569451	
17219500	-0.598329024691042	-28.9032025229015	-58.7002517060936	2.90477010361656	-59.1995885685944	4.18039087254782	-0.520618083422617	-27.3611788825307	
17469000	-0.928443106083118	-31.048387591954	-60.2927251194708	-34.4232718637547	-60.2201048259141	-38.1922198734182	-0.866781865403354	-29.547905466834	
17718500	-0.940716708448928	-33.8943759328925	-61.8821886237514	-81.9700886902754	-62.5257452448171	-83.7470943043877	-0.897512251169533	-32.6611477389029	
17968000	-0.647690628384191	-35.3143833185491	-63.2507068449136	-152.646021622553	-63.9330426946799	-151.284059267735	-0.63274632877288	-34.6166672261602	
18217500	-0.29251935533703	-34.3989468426459	-62.9698697330211	119.82699936337	-63.0530795241016	115.532394300683	-0.36786983785579	-34.2422346562772	
18467000	-0.143374361792534	-32.4985240169311	-60.7501817018175	41.9647421296384	-60.9698767005887	37.332944390996	-0.373038342685952	-32.0361059630269	
18716500	-0.337139570060342	-31.5012876706031	-59.8435275347236	-16.3025476471646	-59.6942812692093	-21.0074324215704	-0.59988388128433	-29.7286849541228	
18966000	-0.745182730945455	-32.3478757229315	-57.6540425194898	-54.2303411879182	-57.1947907349746	-57.1532758901405	-0.931022853211445	-29.3724743890074	
19215500	-1.02173788556805	-35.0151132451646	-55.6803795797723	-92.7034517601758	-55.8067572728918	-97.6064513139837	-1.10262935044681	-31.2955033928018	
19465000	-0.938899621409286	-37.7452716602006	-54.2919642933988	-134.117187605078	-54.1951386431174	-135.302136469994	-0.919470818485574	-34.0628011453998	
19714500	-0.584711311740845	-38.5238067869523	-52.6015449623129	-175.897819425511	-52.8202805854753	-176.228382621808	-0.481064990721011	-35.6082034205469	
19964000	-0.261712996660143	-37.1510406794241	-51.6375082625748	140.509458764924	-51.5309616457929	140.91621227153	-0.131988315475722	-35.3423864147778	
20213500	-0.233022226238098	-35.2934717502908	-50.5484608576264	98.8172854500502	-50.5501280536702	98.3018769352366	-0.129177935780591	-34.2464335258187	
20463000	-0.548169467668571	-34.5925235493433	-49.2654634426889	54.4771716282762	-49.3041691982024	53.2601496164693	-0.498319864158498	-33.6898770011844	
20712500	-0.998807034337911	-35.868959301539	-47.1050088490508	4.86632200804275	-47.0030046042007	3.7183676458195	-1.02531869836176	-34.6365292123907	
20962000	-1.2251565680355	-38.5237320847973	-44.689763226577	-53.8118373087054	-44.7420031872092	-55.9334040460589	-1.3180140709471	-36.386017167819	
21211500	-1.02311399129502	-40.5738880081164	-43.5764576085206	-117.84402488811	-43.7096245716664	-120.556244424883	-1.08916102478159	-37.7121233642701	
21461000	-0.591308652211288	-40.5548379831571	-43.1503509162551	179.935277646261	-43.2582737991232	177.454774782765	-0.553170364320767	-38.0161105949091	
21710500	-0.292709300830467	-38.9273446662137	-42.9454796840156	121.153991635855	-43.1863318074826	118.822180895623	-0.21744072125833	-37.3280263027961	
21960000	-0.347951213047292	-37.3265040068342	-42.9596632600466	64.7880861532165	-43.0785539356065	61.9300945849923	-0.311726394162657	-36.3356262524057	
22209500	-0.731759502183975	-37.0798567490038	-42.9740912220594	6.86943311412209	-43.2710859435536	2.76737753141443	-0.786862512483856	-35.9847910841731	
22459000	-1.14684361429603	-38.904185833206	-43.3234278056054	-53.807416717502	-43.6596723657393	-58.3427882384538	-1.23097964949783	-36.846369740058	
22708500	-1.23925574801366	-41.8029867139285	-44.0933051604835	-115.934362234468	-44.5843264124865	-120.468929224998	-1.26969298685349	-38.9286427384433	
22958000	-0.934105835043446	-43.522864919399	-45.0377352775325	177.280412744814	-45.4318887494508	172.550534698876	-0.911582748856903	-40.6791150872112	
23207500	-0.519675643391544	-43.176878999656	-46.2673480879664	107.172706983771	-46.6290060361864	102.401316994056	-0.453867991544469	-40.5817979852314	
23457000	-0.377605511474294	-41.3398000639275	-48.0106733735312	38.826116064847	-48.2619944137064	35.3975203012456	-0.228181190182295	-39.231467695225	
23706500	-0.580510634428065	-39.3029608174098	-50.0966414149941	-23.7797978013291	-50.3568824076587	-27.0116671668069	-0.380024361352343	-38.052429954797	
23956000	-0.97264518127425	-39.0222766562126	-52.3645354312887	-78.3761383100252	-52.2862493103327	-80.5755805807436	-0.815484399380121	-38.3924571605308	
24205500	-1.28198446276971	-41.1518258658697	-54.2025092472168	-125.605934794891	-54.357985453966	-126.895519562973	-1.20470329050202	-40.7213548426777	
24455000	-1.22450861690697	-43.9943565699378	-56.9385510391248	-171.766142343054	-57.0369295226731	-175.10109378702	-1.24214139418967	-43.5533441761352	
24704500	-0.830700426819504	-45.2513620791404	-61.9882397077501	143.702318372528	-62.4228383900144	146.274282941458	-0.921419992147036	-44.4682222646529	
24954000	-0.408497577049943	-44.3156894944412	-64.2383224061005	142.833043978542	-64.2359075640535	143.257658274093	-0.565625171046861	-43.2603089421821	
25203500	-0.25457933648134	-42.5786761793579	-63.3048137896001	124.685903880189	-62.8364423056104	124.149436893999	-0.451532587479388	-41.1004013565017	
25453000	-0.481303548775283	-41.4856127686302	-64.3911433454012	82.8976639684694	-64.0375234353634	87.6886434564798	-0.665269219342003	-39.4335592575181	
25702500	-0.899967379981947	-42.4190430301904	-65.876048700978	43.7885486823001	-64.2784467905547	48.3787292539051	-1.05254189127423	-39.8963928333156	
25952000	-1.14633403474469	-45.3337503905142	-64.6680582285382	-5.23072261753815	-65.3634436058845	1.81318396707854	-1.27644864496515	-42.4422752397199	
26201500	-0.996444006468676	-48.2703023529386	-65.0270889599301	-33.4263547129589	-63.9920781673085	-47.6547888735577	-1.08612571188141	-45.5205905386312	
26451000	-0.584300757061678	-49.155032696682	-63.6885733909504	-100.251156749501	-62.9780037379519	-101.141428247167	-0.649660185063464	-47.0749605747013	
26700500	-0.286665929132818	-47.9378512661862	-61.3446175659998	-163.695306116776	-60.376770092869	-162.909016149939	-0.342900077385279	-46.4588605142497	
26950000	-0.312934640426526	-45.944512609743	-58.4498794137568	133.833321113812	-57.7998376238887	133.926265639132	-0.401436283853874	-44.9090230503826	
27199500	-0.661730119570828	-45.076176626259	-56.4106067860458	72.3825203216901	-56.5890394186126	67.5686039437661	-0.844176160085206	-43.6212285044412	
27449000	-1.09044631235224	-46.3478539236794	-56.1473169758805	-7.42087240261769	-56.623248940048	-14.9348810213451	-1.27598379438937	-43.6778570271921	
27698500	-1.26109347237323	-49.2099453636143	-58.6319732207547	-108.989549172911	-59.0262192667672	-116.702401707384	-1.30576335639835	-46.3957561187215	
27948000	-1.00502595594313	-51.5185089650053	-60.2525137895776	137.334764242179	-59.3670004759379	130.564225919833	-1.09455989667633	-49.6423475812657	
28197500	-0.569510784226314	-51.5622707059707	-57.459445104315	57.3438190546314	-57.0493481627722	52.9802073507282	-0.764195440409882	-50.0243393043411	
28447000	-0.318406273555379	-49.982099336387	-56.1096204311631	-4.04913524759159	-55.614637263579	-4.5852520008462	-0.560977723854421	-48.1019357978757	
28696500	-0.426775958818112	-48.3765467575908	-55.8533816064127	-56.3280797354356	-55.6042831869265	-58.1538348033752	-0.640431514990131	-45.7074120245132	
28946000	-0.821027395678161	-48.2646142720336	-55.9464979671843	-98.2094069968709	-55.7119444222239	-102.18467832869	-0.980574302671825	-44.7803773515617	
29195500	-1.20199565501134	-50.369468924321	-56.7584015052232	-137.897057453963	-56.4836447283475	-141.421350097916	-1.3150449672694	-46.3404792608266	
29445000	-1.2401607420451	-53.6349158333093	-57.5554530197058	-178.556703288905	-57.6340562096547	-179.444232939909	-1.31752429165342	-49.3582516047459	
29694500	-0.895142740056385	-55.491868730854	-58.8197531330364	135.210587110014	-58.3401386942101	135.263888404786	-0.982188850083695	-51.6097425016899	
29944000	-0.529133216907061	-54.8859082739417	-59.226830441932	87.4233646476803	-59.0150769382289	89.3184811268249	-0.56106449585148	-51.7479564148639	
30193500	-0.428385578455649	-52.8322605237973	-61.1536749611152	41.2518079561571	-61.4949028601725	41.7022646797241	-0.436456503001135	-50.4755535378193	
30443000	-0.682572305565264	-51.0647865356044	-63.0520088503614	-14.2937314754509	-63.3678923258157	-15.2047846232253	-0.722329392387284	-49.0252588590835	
30692500	-1.14848368615475	-51.173349135422	-64.4603082757947	-69.9393704398377	-64.0558070163021	-69.1425944583902	-1.23555346122309	-49.0352049272341	
30942000	-1.50650415239408	-53.6040518121895	-66.2533618395135	-113.428279753083	-64.0440537202303	-117.373888758493	-1.63345799028408	-50.9643322594464	
31191500	-1.41919327249716	-56.5766760373136	-66.9909312183321	-151.249107293621	-66.6621420076966	-156.896656106062	-1.55381865367173	-53.5452979631338	
31441000	-0.983798841832453	-57.6586062789312	-66.7700642947619	168.639769174644	-67.3549377903357	174.574786959322	-1.09610167751755	-54.5127791651881	
31690500	-0.58557453480543	-56.3834177942788	-65.3941479833742	143.985905463677	-64.4700708476653	141.613409029308	-0.629147410264847	-53.3842266653323	
31940000	-0.50177902590996	-54.2384612132324	-63.1429332174105	119.481902910198	-63.7206682311764	116.293929882269	-0.484470903682009	-51.3188719714473	
32189500	-0.803274293323504	-52.9493141543402	-62.9386491367966	84.6782189286308	-63.4979226728096	83.3385895399569	-0.742221500748042	-50.0199430838604	
32439000	-1.26493760040099	-53.9369500646838	-63.1994031002346	47.2367319273163	-62.8745130826602	40.1687900923508	-1.1922340190241	-50.8422222000647	
32688500	-1.49499549485365	-56.9385053829888	-63.2289138039753	12.0015669104834	-62.6971180714934	8.68093350168517	-1.49096121314809	-53.7132480591702	
32938000	-1.30237561407262	-59.7024453484135	-60.9018436429472	-33.3697088937567	-61.1706458451988	-31.117994738458	-1.35311270620519	-57.0248521760714	
33187500	-0.874741558000344	-60.2232344760836	-61.561047763144	-72.0897538214784	-61.6021695159284	-75.5393842286056	-0.948694066075269	-58.2052667485518	
33437000	-0.577843914474782	-58.5535735007199	-62.3004313639986	-131.809579329483	-62.1466464535279	-134.048030212178	-0.657073714946711	-56.9852646770674	
