!Keysight Technologies N9923A: A.12.45
!Date: Tuesday, 05 August 2025 20:37:36
!Timezone: (UTC+08:00) Kuala Lumpur, Singapore
!Model: N9923A
!Serial: MY61181427
!GPS Latitude: 
!GPS Longitude: 
!GPS TimeStamp: 0001-01-01 00:00:00Z
!GPS Seconds Since Last Read: 0
!CHECKSUM:1584341899
!Correction: S11(ON U)S21(ON U)S12(ON U)S22(ON U)
!S2P File: Measurements:S11,S21,S12,S22:
# Hz S DB R 50
2000000	-0.104246623736696	-2.49462810560762	-84.5728411683145	140.037397629739	-87.9697070511065	-176.384577242877	-0.143253939447725	-2.36300276715443	
2249500	-0.448459930438377	-3.22949787588644	-71.480780690311	51.3980957331919	-74.9332220262851	42.5954401752174	-0.481380479444515	-3.11217113469795	
2499000	-0.606073864267158	-5.09314346657163	-69.3174680197532	-84.6054816169904	-69.2560275396089	-75.6141556820147	-0.633879106026707	-4.80261097951595	
2748500	-0.433150308596306	-6.91220251914294	-72.1332199690886	-120.693803140428	-71.8714731430657	-133.522839434569	-0.466145871466728	-6.69303669037171	
2998000	-0.079522347024879	-7.52381597523379	-78.2175936735291	-98.6711051094104	-75.8721475470516	-79.8001170675727	-0.117490546136376	-7.31272003621218	
3247500	0.156392642223669	-6.91960234984255	-72.9071007092013	-103.286008393587	-75.708106626721	-113.177265131706	0.110680275108701	-6.66834456534516	
3497000	0.102480477010017	-5.99631189413829	-69.9207527963176	-102.641351204387	-70.5390068441941	-105.235354318515	0.0544623507576686	-5.68450886433609	
3746500	-0.234165111302641	-5.80092260309729	-65.6502489622033	-125.830324525138	-65.6537994598677	-125.272536916856	-0.254508387259349	-5.37851481995678	
3996000	-0.557736208600422	-6.71751770961357	-75.1275111206892	-147.09542023383	-75.3662683701624	-163.554937660517	-0.571339129459195	-6.42676879766431	
4245500	-0.607993963867467	-8.90708218928623	-64.6096553789231	-108.761858698843	-63.7973948455504	-105.593558492955	-0.634428931240315	-8.56842685394118	
4495000	-0.367582722601073	-10.6574640885853	-51.3557765044371	131.568787617084	-51.6445227333191	125.775726194548	-0.433422742501447	-9.56386294062974	
4744500	-0.152360167827355	-11.214307109172	-50.7590462304661	-145.343477492541	-50.6119876210967	-147.24053627113	-0.0349820774672871	-10.2310704463951	
4994000	0.0717016433676323	-8.42744075651694	-45.8777102679877	113.068022851549	-45.9399548263299	112.068049795363	0.110714304121451	-9.43968787711583	
5243500	0.00571775271149657	-7.89770549439997	-46.8831080302409	74.6366404528711	-46.9051247585069	74.4537384708328	-0.0584845882717859	-8.72788795007127	
5493000	-0.347926448299558	-8.20700553948609	-44.7985214824416	44.1427652250168	-44.7134373912541	44.266045147864	-0.497633396825308	-9.06029854543817	
5742500	-0.637643602087779	-9.87162692765333	-41.9594389051403	-9.77865900151	-41.8047411418437	-10.7797971576667	-0.94041516061952	-9.57356513791639	
5992000	-0.61843882476322	-11.9632413052126	-39.3477075289633	-38.0778682670039	-39.2807988713758	-38.8569331652445	-0.809769713649954	-10.9795722258634	
6241500	-0.258933468768458	-13.392471908951	-42.172999474575	-97.6359554224318	-42.0550322673502	-98.1856376336569	-0.370436545603133	-11.9472937353757	
6491000	0.0146015937593846	-13.1027312704924	-42.2859386829166	-150.017053426238	-42.2666958708488	-151.016741246077	-0.0255135272756913	-11.8781131888921	
6740500	0.118628808206754	-11.7127503223106	-48.040311320602	150.673466732308	-48.0263637444921	150.068092708114	0.0886433385548	-10.8436489372289	
6990000	-0.0884046548382514	-11.0862853875179	-53.9979619371266	136.433331316183	-53.6368029807779	134.209569512915	-0.12768241860104	-10.2260380105923	
7239500	-0.462236767013294	-11.7943765392466	-62.7715351723822	134.408942743812	-64.4126433964339	146.451917233312	-0.505276119274767	-11.3220166745422	
7489000	-0.681126707684051	-13.8377321305273	-49.8471998415401	157.726192021403	-49.2128569786939	157.723554357467	-0.853100081884369	-11.9668516559213	
7738500	-0.546290750665371	-15.8239995061974	-51.449869176525	115.839802266932	-51.4002865113226	115.763763130941	-0.58094478688216	-14.3192767578933	
7988000	-0.163606050002073	-16.6144589708338	-52.3867725061358	95.4269408648773	-52.2133297009043	94.3138750491628	-0.206412251416784	-15.3543440973543	
8237500	0.125865388244714	-16.1020278692462	-52.4354272275559	81.4047650524613	-52.2458933398949	80.6154392768579	0.0842717611909687	-14.8406970759327	
8487000	0.0967692295863866	-15.1640050338657	-51.1189784990161	67.6168740943405	-50.9874708472314	67.7938193725906	0.0783532578660815	-13.7635572005706	
8736500	-0.268002135171298	-15.029265529397	-48.139352839948	51.3465045054543	-48.0273237057324	49.7422085762492	-0.214512234869071	-13.3438117741035	
8986000	-0.824632716847633	-16.0839542837298	-43.7215154426785	14.4524096303801	-43.6082981065073	13.5802662506538	-0.582682838289941	-14.457112577124	
9235500	-0.929514078225558	-16.502650309537	-43.4374671819351	-45.4586946710912	-43.4646643838522	-46.5806299977466	-0.700742183192587	-16.6841400721976	
9485000	-0.520281142338939	-18.5531922836313	-46.4462918431399	-78.5346158361608	-46.3652198774432	-78.7743795991338	-0.474412063498049	-18.7701214534907	
9734500	-0.0880012973867626	-19.3450884481312	-47.3559363345382	-97.0610371326867	-47.2537016052651	-98.1800503910355	-0.105435276699865	-19.3376747402471	
9984000	0.1070018074756	-18.8157360247476	-45.7898184427505	-123.165706461054	-45.7084444983165	-122.86334144441	0.0943689353763143	-18.6347951876149	
10233500	-0.0365331604894816	-17.0196190470988	-50.0263492255945	173.223692372614	-49.8581911326838	172.415631778027	-0.0275450202296227	-17.6604399256789	
10483000	-0.356502800342071	-17.5946202021988	-47.8250270960346	-150.701180143142	-47.7687443222306	-150.534004263102	-0.411960545542551	-17.8628697342281	
10732500	-0.750814777788469	-19.1589581421587	-45.1759549737587	161.566675550794	-44.9410593974777	161.970565748247	-0.804803808050295	-19.7595924891563	
10982000	-0.788679029933961	-21.6010785207935	-45.2015723740046	125.71194522685	-45.1213102649905	123.975643056672	-0.992055429164523	-22.7085898013513	
11231500	-0.527559312964772	-22.9717625429518	-44.7558758428103	78.235470336658	-44.350352345751	77.5642229836003	-1.1371623886577	-22.5158079629079	
11481000	-0.127543767790066	-22.5326351636405	-53.4069200875075	24.7065813395394	-53.7765242619021	11.404741889753	-0.28585667062328	-19.8217411526395	
11730500	0.0393838036525559	-21.5998920287888	-55.3054611473774	105.815667860165	-54.0667649230759	108.944159004949	0.0581260245542434	-20.0435980581155	
11980000	-0.214224263131736	-21.1045501552915	-46.1054398519256	76.4099634116977	-45.8184680681999	74.4533183217829	-0.191706846581038	-20.5829432172273	
12229500	-0.821600584357847	-21.9104586045666	-39.8097119721103	20.5528785290319	-39.6652156278743	18.6886094935113	-0.984645910957548	-21.6750660340956	
12479000	-1.38796461795277	-21.6425719473804	-38.7948762525054	-73.3074397607149	-38.7208233159305	-75.1755099159607	-1.46294628511761	-19.4423607402863	
12728500	-0.95045899795575	-22.0258205875112	-47.1672430915056	-148.240490285421	-47.0944897740766	-149.984708237585	-1.00782876233248	-20.7135149155407	
12978000	-0.355232525567537	-23.8391374756262	-57.7607807770732	-177.353504214985	-57.3934502806743	-178.695896159447	-0.46526141121385	-22.3593388727158	
13227500	0.0525814218844251	-23.9378489248392	-67.2953110271092	-158.681716749684	-66.8686344813109	-161.220965099807	-0.0545004629402556	-22.325221062336	
13477000	0.117229194234862	-23.1293695774033	-66.1922885415857	-122.521409969572	-65.4356234567199	-117.912656333336	0.0459551026880765	-21.4592492757407	
13726500	-0.159019904292489	-22.803532763235	-62.3279447176291	-127.882067602772	-62.0163273675025	-129.595387554967	-0.194193867460506	-20.9594963775944	
13976000	-0.576882798929753	-23.9550099789994	-60.1863794151708	-159.80103846256	-60.4400346616611	-163.676874506353	-0.567051007268602	-21.956326625415	
14225500	-0.766085158109241	-26.3578184516035	-64.3232560812437	141.240606702343	-64.5060830651064	144.375944216491	-0.753857340160806	-24.3955465479516	
14475000	-0.561952843750782	-28.8654274351913	-87.516761889754	29.7880252674834	-84.7187887102393	4.75068317412134	-0.592359397796819	-26.8632964357107	
14724500	-0.227321642071168	-29.8570423453632	-71.9350738524669	-97.8749299675935	-71.0071859440309	-105.197997875771	-0.269913431964662	-27.6934372032933	
14974000	-0.0691181600448158	-28.8005781566903	-62.6376545944559	-129.60437580319	-61.1878783805252	-135.245498050742	-0.00899735588163084	-26.8077618214658	
15223500	-0.199127089478967	-27.4223573164975	-58.5739215693543	-129.664411684756	-59.2097348077807	-133.972706200796	-0.093614282788929	-26.0128410782019	
15473000	-0.702614557950516	-26.9748078444873	-47.5744542652701	-161.019649125196	-47.7004425909612	-161.208281690015	-0.731078862126838	-26.1789122489388	
15722500	-1.26014170058595	-27.3763105300085	-43.6346931625627	97.6231089485992	-43.7304465716945	96.1345219627318	-1.05245699006401	-23.4704191409588	
15972000	-1.30745158047373	-28.4124193147864	-48.1945667640998	33.850446697291	-48.2083894918402	32.3339097637945	-0.851477685868778	-26.8961661295805	
16221500	-0.838903292242476	-29.7197769099088	-52.6057069367219	-7.02178160356474	-52.3121217814508	-8.87970406551723	-0.533801392514496	-29.7211587444256	
16471000	-0.289915141447478	-29.9800246375059	-56.5594895945576	-42.7176401638967	-56.4849102466269	-43.4160052534137	-0.143423245838227	-30.6634993773024	
16720500	-0.00912128466876451	-29.095074676912	-62.0293081417185	-85.3923078897028	-61.8632142273391	-86.2010536852065	-0.00240198538123437	-30.3375537148034	
16970000	-0.122264582879536	-28.1401079030666	-64.2234209134804	-133.823960212515	-63.9944435240396	-126.472838971275	-0.283416011108878	-29.4241795651728	
17219500	-0.509387811172163	-28.5154021373254	-55.5220344291613	131.714255556684	-55.4023524817412	136.66260191613	-0.88782459652096	-30.2744316896297	
17469000	-0.854068353202568	-30.7255913166237	-46.9160432361116	53.0082059727095	-46.4155371280621	53.4520930173174	-1.75452054864985	-30.0398552241976	
17718500	-0.871623733864293	-33.547938334099	-43.790947759093	-30.8853794701424	-43.6828514021562	-33.8897864061977	-1.33101746542804	-28.457665282561	
17968000	-0.536481847829169	-35.0588086233123	-45.0991146552257	-94.4233887592844	-45.3529477421152	-96.4353181166529	-0.605959758880371	-31.2035975946186	
18217500	-0.150573182988736	-34.9561312228223	-47.2485773462084	-140.429390168798	-47.5052351729521	-141.83695339562	-0.137593785482072	-32.2145595152364	
18467000	-0.101419784814459	-34.1799775087319	-48.8483264292701	-176.459187716214	-49.0879978701954	-178.374000387277	-0.0584582305050943	-31.9266269881602	
18716500	-0.556715203948092	-33.9215877314784	-49.7891631923706	143.771286888202	-49.8814361402271	141.389312538909	-0.438251740644631	-31.8638511399765	
18966000	-1.33792817134318	-34.062661940221	-53.2943645170709	72.1229058119996	-53.4452698555699	69.0286704559797	-1.27919914236202	-32.5116681552781	
19215500	-1.93083776875981	-32.9635302313651	-52.9530152229252	178.3548482782	-52.959857922304	176.538771804022	-1.5740078790612	-29.5879418254251	
19465000	-1.28596368023686	-32.5249217533891	-51.5380392062704	67.6878952888765	-51.7096784417312	66.9601142070709	-0.971949675859491	-34.2585950870148	
19714500	-0.501447685898396	-34.5921763585085	-56.9525326857788	-3.21026091933735	-56.8528628802783	-4.65777318527644	-0.951888887721637	-37.4768450912498	
19964000	-0.0425323623806252	-34.9362335029044	-63.6738203962649	-65.1377869487688	-62.437971972933	-66.7689355651232	-0.806897463594739	-32.4415866645438	
20213500	-0.0198178056707878	-34.3008364598911	-59.0172297031314	-134.049759066839	-58.9505824541032	-133.652494000318	-0.333121229010526	-30.1266263419563	
20463000	-0.394918845515839	-34.2456633438677	-52.8383225815469	177.356957749096	-53.015970773509	176.26258465481	-0.435896440440175	-29.7884874680993	
20712500	-0.912278463678948	-35.6185914387876	-48.0302416394299	130.312852306073	-48.0537447425727	129.801077425953	-0.757020398433722	-31.1473291481931	
20962000	-1.14100930210362	-38.1545987730621	-45.1357172548135	83.4287491440145	-45.1884648740783	83.611605456255	-0.894116400082073	-33.9207967485632	
21211500	-0.941361351258274	-40.6683231022716	-43.6034797219525	45.7355387994305	-43.7779399032178	45.6346769886042	-0.675511389106534	-36.7180739676472	
21461000	-0.605880960439572	-41.2315623321018	-41.8057623893879	13.7862552123379	-41.9763314031263	13.7027005995684	-0.263622810369675	-37.8537148068302	
21710500	-0.501676496361413	-39.4984429203868	-39.9123125382768	-21.98112825504	-40.0615044027968	-21.8460347767664	-0.0154334258065905	-37.4245323384837	
21960000	-0.675161313411086	-36.4339096439251	-38.7431219325141	-60.2655650590156	-38.8387881319535	-59.6000523144243	-0.140569002168209	-36.5634479391663	
22209500	-0.943235232373807	-34.6438610841889	-38.3228683843943	-94.6493914412554	-38.4031099846025	-93.534530140874	-0.587209809475523	-36.3234947111778	
22459000	-1.16439959550708	-35.9757845235481	-37.432659817545	-124.432752949716	-37.5037273924619	-123.591199020651	-0.979599690745967	-38.1946676823832	
22708500	-1.11658830905918	-39.1766434510632	-35.9316065686374	-157.578219628527	-35.9760266281768	-156.900955710331	-1.16090995496315	-41.3942675793859	
22958000	-0.764234224585752	-41.4622518613117	-34.5403758892342	158.632783706841	-34.717784260674	159.582152681327	-1.03680257681187	-43.057442823548	
23207500	-0.307928314488494	-41.3642707006635	-35.4406433564125	110.588098684941	-35.5818992545624	113.086874516373	-0.689819630761453	-42.3887503257693	
23457000	-0.066546183476824	-40.0759800011368	-37.6306406548404	72.710731141831	-37.5820458496458	76.097393515742	-0.640368423546857	-40.6927633191854	
23706500	-0.223293838652456	-39.0496830175215	-40.0060444192239	40.1789012190982	-39.6322990409033	43.4867655313675	-0.98544096555294	-37.6845947577432	
23956000	-0.643362600308746	-39.5608336692174	-42.9413171451626	11.5998886936281	-42.3732821897302	14.7322056609622	-1.29639356302476	-35.4646285549871	
24205500	-0.993272564428175	-42.1421882905014	-46.4842075378348	-7.32470954317787	-45.6557671813175	-5.62183271261308	-1.35829848664338	-36.9198894372206	
24455000	-0.985887335983114	-45.3764703253963	-49.6441043810237	-10.0946650180352	-48.7094220785286	-11.7821930021346	-1.12869865636936	-40.4252879397255	
24704500	-0.687842108341303	-47.0280857906752	-49.6705461339575	2.87150952250169	-49.2242303296282	-0.640659400174301	-0.664860065769875	-42.8753074633255	
24954000	-0.390160041697845	-46.171859937718	-46.1681132812863	2.6656145704119	-45.9520339500917	-0.510235166471391	-0.333073048615401	-43.5837304394513	
25203500	-0.323977378354618	-44.299122627365	-42.0672982181771	-17.3613867231825	-41.8075021433937	-18.3857865168043	-0.463614614494581	-43.2010308374051	
25453000	-0.611516229668279	-43.2322293325599	-37.6157679283634	-54.847731739917	-37.3057244071355	-57.1294032584177	-1.34589134027386	-40.5013410940127	
25702500	-1.10359191817779	-44.4209121826164	-37.7471613838557	-108.697214304796	-37.6921423639375	-110.794077168883	-1.38957734737162	-36.2071020759861	
25952000	-1.49366665092728	-47.6841977927289	-39.6954506324555	-138.776072088506	-39.518337838605	-141.187114757975	-1.27902028504988	-39.4896837751273	
26201500	-1.57998202982998	-50.4004992033163	-40.2002512229854	-163.763271339137	-40.1008238815544	-165.972797615015	-1.008433636623	-43.3654591492626	
26451000	-1.40778965719347	-49.4347641267642	-40.3373158191974	166.657997877605	-40.2984282552165	165.041969181935	-0.540792333712672	-45.3940092973812	
26700500	-1.02926733916847	-45.1656783531393	-41.3248204210908	135.815090253785	-41.2350232928054	134.223984010007	-0.196381966657856	-45.1393962650046	
26950000	-0.707572061781759	-41.7596524343408	-42.8658571244834	109.848245069496	-42.8230375895456	108.550434381057	-0.209961347879431	-44.055245029247	
27199500	-0.786610216863635	-40.9955527902088	-44.3893163279216	90.7484331536964	-44.3372434748837	88.7413665045677	-0.622140046310816	-43.511172718795	
27449000	-1.06425429752329	-42.7893292895634	-44.8869824286719	73.5189965135735	-44.8614460469167	71.4583609849487	-1.13575372562767	-44.5478323389133	
27698500	-1.16089246060878	-46.3831718765126	-44.6697475725188	50.7346585566896	-44.6091664345405	49.2406725000484	-1.3395164320396	-47.3347544474912	
27948000	-0.914235880294807	-49.5437850150701	-44.5763426294259	21.2841788860643	-44.5774715100246	20.5929880031689	-1.33025684040139	-50.2670870948694	
28197500	-0.537697866706736	-49.4166426811758	-48.8855224090722	-9.20666026296503	-48.6448706064348	-10.6043293805482	-0.872728375609701	-47.3274876985735	
28447000	-0.139665190254646	-48.483715336114	-47.77888594561	9.8164024552735	-47.7370215119249	8.56594961312871	-0.314191720918489	-47.6630657582678	
28696500	-0.289923518107716	-47.535192704762	-44.3900932568531	-20.2277113534666	-44.4301573897426	-21.6428738826266	-0.525604602168839	-47.1650176426761	
28946000	-0.724349772536411	-47.3766131756969	-43.44884201006	-58.3153118830847	-43.5075228437125	-58.7144096812474	-1.11041096931425	-46.9006724484605	
29195500	-1.09177047722887	-49.2771382838387	-44.0845369678007	-94.6179184733447	-44.0176199786251	-93.8105936364188	-1.7052065312065	-48.1012364577165	
29445000	-1.10558461752256	-52.570062745499	-45.5936369063728	-126.89152114437	-45.4513841638893	-126.11301698431	-1.90695480221111	-49.7437717059536	
29694500	-0.751867807381263	-54.7468623539852	-47.516722561273	-154.179786237242	-47.302980854927	-154.80929900768	-1.5977503529221	-49.9943986663926	
29944000	-0.397664272981455	-54.6520118478366	-49.5766508199678	-178.163121351607	-49.2003144978707	-178.269335865813	-1.0108380871491	-48.4792780683003	
30193500	-0.350674422284544	-53.1833205540969	-50.9253423345613	161.940710756596	-50.5507984950262	160.617324060743	-0.638867058476882	-46.4761356785934	
30443000	-0.721226063553919	-51.8080176870596	-52.2357769611713	142.199455651533	-52.0258376699228	141.822786000736	-0.691178458608394	-45.0010841024841	
30692500	-1.35516966374133	-51.7180068184317	-53.581981649242	124.252947506699	-53.3101362207263	124.612731583963	-1.01294046820516	-45.4718011911907	
30942000	-1.84754938721727	-53.0620961209655	-54.5525897854204	110.104659011191	-54.3428111034014	109.496322671676	-1.28427868694993	-48.3110576958992	
31191500	-1.73081345846875	-54.6272239199309	-54.7379921868994	99.630716598192	-54.3325344272571	98.8091733626708	-1.17595846115062	-52.2625117044142	
31441000	-1.12726184690509	-55.116053911679	-48.8491632707257	61.5703455430303	-48.6278390404306	61.3466047671216	-0.989895529825716	-54.4056487457523	
31690500	-0.575687940598114	-54.1110487290769	-54.2362843755007	8.66546506907565	-54.2190533786543	12.4111346520294	-0.451230068567364	-53.0720917239562	
31940000	-0.404158490431298	-52.4944088171203	-57.7703827753344	-19.5637355406229	-56.0103884490124	-17.1169350682821	-0.434236100459043	-51.426926760194	
32189500	-0.664217758231723	-51.6263016758136	-63.8705889542635	-39.9549194790194	-62.0075281772252	-50.2311011925203	-0.685362685921344	-49.9601332615551	
32439000	-1.09974980490564	-52.8394772617598	-68.5810269062307	-20.6563054415864	-68.4411272815734	-54.4572574123161	-1.14238573762684	-50.9346958485632	
32688500	-1.30300447310271	-56.0194869472453	-66.5509070444562	-4.65662103122145	-65.4904921015751	-19.1799979022902	-1.44762317598299	-53.7890937267285	
32938000	-1.08644176687536	-59.1876259925832	-62.7571143631145	-18.4891798968529	-63.8432509612185	-29.2817056577662	-1.29832906825237	-57.0556743341702	
33187500	-0.660460482461393	-60.4414204805895	-62.3152982683402	-39.7351815939562	-62.3270643942912	-51.0408556509875	-0.87080440905205	-58.4333904595591	
33437000	-0.428776361619141	-59.7173939805396	-62.2566911303589	-56.3066763686012	-63.2212530204233	-73.7147402671688	-0.580592046141079	-57.722551105143	
