!Keysight Technologies N9923A: A.12.45
!Date: Tuesday, 05 August 2025 20:51:24
!Timezone: (UTC+08:00) Kuala Lumpur, Singapore
!Model: N9923A
!Serial: MY61181427
!GPS Latitude: 
!GPS Longitude: 
!GPS TimeStamp: 0001-01-01 00:00:00Z
!GPS Seconds Since Last Read: 0
!CHECKSUM:1046457709
!Correction: S11(ON U)S21(ON U)S12(ON U)S22(ON U)
!S2P File: Measurements:S11,S21,S12,S22:
# Hz S DB R 50
2000000	-0.0944914953105811	-2.43707133000142	-71.3808814835963	-101.895900926713	-70.7674671530436	-104.404852931385	-0.130596695924173	-2.3564239135725	
2249500	-0.438244776813568	-3.11269166915048	-68.4574357319665	-106.574036274925	-67.783182355792	-96.8973962273098	-0.460173259072912	-2.99195526679512	
2499000	-0.597551546986885	-4.96344335804029	-57.8631393570889	-119.391012618928	-58.1367778579397	-117.747759531739	-0.615041600100636	-4.8036472418593	
2748500	-0.419828912753281	-6.65011387878695	-62.9278892665724	88.265507834796	-62.9580774058315	87.3222652765033	-0.445384790638362	-6.43538372198145	
2998000	-0.0826239113326586	-7.28201539068652	-64.5058633777421	144.754369158123	-65.0681118275734	149.306477065085	-0.0973634689572764	-7.04400427053544	
3247500	0.17100513450698	-6.51862789520933	-59.2491820416451	83.1068325389352	-59.1306184493837	83.6982992669442	0.127952651976184	-6.38830908125969	
3497000	0.122188270984593	-5.62603443349137	-57.2997747704441	53.1360375218339	-57.3528322066475	51.953894860994	0.0568823989587047	-5.47493011175917	
3746500	-0.206945429921871	-5.45158463186537	-51.7972565670502	1.20081979851367	-51.4938169064212	1.61471723422806	-0.33353336629685	-5.1477345965169	
3996000	-0.60066771703352	-6.66302613093406	-51.4653929926128	-103.898964189544	-51.4320960138357	-104.308685723106	-0.653634277841385	-5.25982081551078	
4245500	-0.621361730345467	-8.19027807095805	-62.7068902738497	-72.9905349469991	-63.3746414975369	-67.6836160143161	-0.641034628913421	-7.35319057191418	
4495000	-0.345745542024593	-10.0943023492454	-56.8985145871503	-108.108378788326	-56.9705212653454	-109.43416078431	-0.374246357656167	-9.08906777576003	
4744500	-0.0708171295955796	-10.4064474051365	-51.6071763939043	-165.213334292229	-51.4423800823377	-166.930893655434	-0.0255739102977085	-9.45312372197071	
4994000	0.137696760047346	-8.80641054840555	-55.2031687734746	111.869570183093	-55.6208227144535	110.073060624844	0.145160107113386	-8.72640764286169	
5243500	0.0289217446534496	-8.08398815839562	-61.0852718472548	81.3196562508672	-62.0462962491294	80.4555628106982	0.00271348472113577	-7.9991003936389	
5493000	-0.322494419054877	-8.34878574924999	-65.1823442609613	70.6153908359608	-65.4803268964432	60.1069371698743	-0.351138012075697	-8.26471329371522	
5742500	-0.601505063613005	-10.0688516404926	-67.5590647636741	53.5144546088549	-66.8974482795835	55.8395056861371	-0.620549017906663	-9.92764384846658	
5992000	-0.553363518637114	-12.3434167505535	-63.1891332758243	64.0602527110001	-62.89641032503	64.1912723493998	-0.583903797640462	-12.1083145736789	
6241500	-0.219306142713288	-13.6988596862635	-62.6519758857368	45.1920614915908	-62.6030209242927	48.2943142862161	-0.280711689373747	-13.455606349473	
6491000	0.0984340584861127	-13.5644338155144	-57.5534770922228	21.0680985585339	-57.5802683931509	19.6001438123392	0.0243729547008318	-13.4363244524652	
6740500	0.163263390324537	-12.6267045992118	-52.802538614227	-46.0569727205836	-52.9588690125299	-47.0575126788783	0.0238076192370167	-12.4438527565737	
6990000	-0.0954800446331491	-12.1324034440064	-54.52892684899	-147.898781509106	-54.7332770586319	-150.553897977154	-0.266051555447276	-10.5232504655228	
7239500	-0.528717668498158	-13.0759025314211	-64.3257050503249	-127.145226403748	-63.7683767114149	-120.617971617055	-0.473880900783049	-11.6098135825774	
7489000	-0.898641431996911	-15.2570215249014	-56.2159222444611	-170.05576583074	-55.674134821074	-172.072587911424	-0.724606879569598	-14.1732093098581	
7738500	-0.902360481105691	-15.6996382869973	-52.2047949891395	89.5951306777549	-51.8441085163236	83.4730409171019	-0.745016229008327	-16.2447063538588	
7988000	-0.340526427713098	-15.3619029965297	-54.0006609948994	-15.4399883173764	-53.6577707383658	-22.1370582697765	-0.475096772617443	-15.7275535049313	
8237500	0.0750846801523405	-14.9032092533912	-58.7120338119076	-95.0923974914288	-58.2821966417503	-100.395913256831	-0.0632257094962578	-14.1709749027465	
8487000	0.110333148854886	-14.0107458583389	-62.4903687160937	-145.025901964739	-62.5701509446216	-147.102659341593	0.0273157237737136	-13.0351608689442	
8736500	-0.177092779548442	-13.7224625567288	-64.7277326893129	-176.015855292015	-65.1531361646681	-178.71206666015	-0.22446255627546	-12.7025678750406	
8986000	-0.534828586880226	-14.9613740491971	-67.0920328988551	162.274039329953	-66.1721898448229	157.884065789073	-0.56963541136256	-13.8992505547265	
9235500	-0.649755780335627	-17.4287663273488	-66.2991908112005	139.43004152341	-66.1332196686801	137.072225988181	-0.681467713126515	-16.2864332352815	
9485000	-0.408622718918578	-19.517092027408	-64.4954173170456	118.345052005116	-64.6159636161927	112.429090897323	-0.458801651536237	-18.4670141058975	
9734500	-0.0297319830739233	-20.0419676939242	-61.1484552770541	84.0312536817246	-60.6332829341236	86.3796405341728	-0.0892248655770536	-19.0978493683517	
9984000	0.160936249076986	-19.2834320034638	-56.2517473194879	32.9318666870572	-55.9690153113612	32.2438711491831	0.106576749591343	-18.4344481821701	
10233500	0.0191696022998239	-18.2705933242329	-54.0268648140167	-51.5187416895168	-53.9081127938605	-50.0423104379704	-0.0204059707109957	-17.4254816447273	
10483000	-0.379522390513986	-18.5273706714225	-54.8056992749034	-115.015834833142	-54.5024633566088	-114.19463432057	-0.392386950354484	-17.4824139575462	
10732500	-0.822101841776575	-20.5256597356064	-54.220326246225	-170.24307592248	-54.0722818843486	-168.781769651526	-0.762240189476737	-19.3286308372527	
10982000	-1.02481138239641	-22.7355608182447	-53.8961773675567	122.743395522216	-53.9305449769364	123.396256018443	-0.895665450938819	-22.0640930718406	
11231500	-0.862205138024017	-22.9518063010789	-56.6526930369631	64.8972265146653	-56.4383060727363	72.9713695922857	-0.812270961964925	-23.3420781740732	
11481000	-0.354184201784805	-20.9906779196759	-57.3575691575821	11.1875896411206	-56.6307810399386	14.153983467732	-0.539089101169254	-21.1676334912934	
11730500	-0.00973769111727533	-19.6073032893819	-64.4110166939507	-35.0607669674601	-62.7961869356863	-41.7592939085499	-0.191802837768299	-18.719925465408	
11980000	-0.109521928648969	-18.910312738799	-69.9207396137771	-56.3588956924862	-69.2393799926677	-56.5466289287319	-0.215113681145622	-17.7128573400567	
12229500	-0.456900452220865	-19.6079889595169	-70.2884009781064	-56.0268215315019	-71.4608449477	-58.7141335546463	-0.513638713033257	-18.2541662359791	
12479000	-0.709628695914005	-21.8711141741099	-72.7353285578386	-68.0168194374758	-71.4501335475852	-65.8767711052675	-0.743971064856155	-20.4236736126225	
12728500	-0.602531028481446	-24.5493726198866	-71.1495721057451	-82.7017409980698	-71.554460728684	-76.1621829096859	-0.655249833606417	-23.0640678842942	
12978000	-0.231504488094183	-25.9437261196395	-72.8833052715927	-121.051321581287	-70.98089009626	-122.203101753066	-0.294215347750313	-24.635137682716	
13227500	0.0842907212980068	-25.6513883736006	-67.9986758385769	140.177006151146	-67.1095805581178	142.553769022986	-0.0208073493725318	-24.8954708402978	
13477000	0.0827853590218122	-24.6167530356441	-57.5587691760695	-81.6347083522779	-57.2198656590959	-81.9532350834659	-0.0705102384137218	-21.9136678949163	
13726500	-0.247310611571148	-24.0715116108265	-57.6012619691109	-177.1171539132	-57.5636307196014	-178.456080268665	-0.210834772921066	-21.8641698133967	
13976000	-0.681877298238582	-25.1416886009897	-56.8638676241141	107.69152718819	-56.8696979261499	106.457891881776	-0.592784234755648	-23.120245566434	
14225500	-0.93049346701327	-27.9119635510453	-54.8582449551512	42.1241326975411	-54.7650628032265	40.4754907795012	-0.796352443661325	-25.7888169307973	
14475000	-0.918452088163824	-30.2692879700163	-51.4731223524601	-23.9295484060399	-51.6076479364744	-26.070285554385	-0.661330461380277	-28.4079287670135	
14724500	-0.688315133015764	-29.0587234619871	-50.7439365749388	-110.779415065347	-50.6198582911469	-111.577497882437	-0.375239062500602	-29.5421458443217	
14974000	-0.323796261622252	-26.7383722668877	-55.9009060772892	-170.549024545865	-55.8706740514599	-168.309720629931	-0.324007487448578	-28.8460232310694	
15223500	-0.25225082206872	-24.5759312863585	-55.9407748537582	160.055567454107	-55.8049931895185	162.943648984132	-0.645237912380126	-25.9643731271781	
15473000	-0.471023980808573	-24.1122164200577	-56.6649911646947	114.505722562678	-56.3205130411386	113.584892293456	-0.93211333530537	-23.0282874470145	
15722500	-0.77329287761881	-25.9141094941171	-59.486055668953	72.1679193117129	-59.0140733559349	74.0297604839685	-1.06117430493631	-23.4511422197463	
15972000	-0.814458487304093	-28.9704102340049	-61.4983613864335	41.6245005545816	-60.9654415040393	44.285721866919	-0.986514686507816	-26.1763340561048	
16221500	-0.506394975673712	-31.3522395913336	-62.3619340324549	21.760597479366	-61.278696971923	22.532461118165	-0.629863592863392	-28.6026493626764	
16471000	-0.10901910872361	-31.887474698998	-62.0794161327886	-0.732032436026593	-61.2018060525968	1.43934886387625	-0.189116802364647	-29.264787291628	
16720500	0.0536310448384343	-31.0193880887483	-61.0036086304366	-27.727207702158	-59.9550844344346	-24.1934788275892	0.0313294046067867	-28.5230362764853	
16970000	-0.165496280372472	-29.9674423635381	-57.9727234684596	-67.4247455675779	-57.3529636102348	-62.9506681931953	-0.116153826191213	-27.6200342300863	
17219500	-0.651468427351253	-30.0649374126982	-54.2474849639751	-113.253665539689	-53.660517930838	-106.766610016957	-0.520869722399551	-27.9670791772835	
17469000	-1.06708602029904	-31.7697322009881	-51.8355768876017	-166.096712637713	-51.1371892813706	-158.990441391244	-0.897619964086643	-30.0511310007149	
17718500	-1.09874475298728	-33.9778827579185	-50.3108882015746	145.418904619812	-49.317496337962	152.662259887859	-0.956865266942105	-33.0373523376638	
17968000	-0.767913356197152	-34.9847947788641	-46.8002510278951	100.49162601082	-45.4801646818749	103.685956760961	-0.763109007862012	-34.9678203550528	
18217500	-0.391031839914995	-33.9394501794635	-43.206313155548	34.8436415505645	-42.2646833578783	35.2627756452906	-0.653041258568254	-33.6469745277978	
18467000	-0.223826570562379	-31.7242623855931	-43.987563445466	-42.0962050213421	-43.2369707240956	-41.8726266427401	-0.445881185553339	-29.5440611993545	
18716500	-0.358614478363831	-30.5144227095996	-47.7299596570496	-98.9541040519173	-47.1931027609025	-98.7980401018353	-0.388805679203996	-28.2732488848676	
18966000	-0.701847156172115	-31.3257032387535	-51.418539316799	-136.474844389408	-50.854286741979	-136.417932156831	-0.685569304393874	-29.4147512173755	
19215500	-0.915721383077134	-34.079301849513	-54.4259343318301	-165.676455185745	-54.0653095672065	-166.919111743521	-0.933493331240529	-32.457340247167	
19465000	-0.770300602684794	-37.1415082058794	-59.3533698100948	167.775811494651	-59.3375393156124	165.69236517031	-0.928655036789497	-36.1070924171629	
19714500	-0.380583052635322	-38.6309163538829	-52.809631185101	-162.668998591072	-52.0306340491211	-159.370379887649	-0.661876191053705	-35.3538490839558	
19964000	-0.109959223961611	-38.2179150467676	-51.3099684060839	133.526683226058	-50.9601116687655	134.665467630711	-0.173298718163881	-36.1992958503407	
20213500	-0.228213050734057	-36.9770221576198	-51.0724390639816	88.7494049875744	-50.8613255562536	90.3505769616725	-0.334698027113112	-35.3773878332602	
20463000	-0.72333859415176	-36.2164018688521	-51.6923241638359	40.8722062492544	-51.7005920535115	43.7907564090272	-0.887469486098003	-33.6680468101904	
20712500	-1.3119898465801	-36.8012112062183	-53.0183653047071	-0.365795771577643	-52.3978775378716	5.65170314819907	-1.34935233015592	-32.5267088384915	
20962000	-1.60228816623011	-38.3841271840771	-52.9502210163082	-41.5659673413332	-52.0104242682274	-36.166616517315	-1.37049113016134	-33.6564873535603	
21211500	-1.34106775581234	-39.2409201904982	-53.8089953105029	-88.0237823138467	-53.1010335368038	-85.4572016090192	-0.998542673946456	-35.8247456139386	
21461000	-0.746933918701409	-38.620504023194	-56.2085418086783	-134.73851118541	-55.4017369434169	-129.544272571131	-0.465272388632327	-36.7442340791364	
21710500	-0.305279449117921	-37.0824135796145	-58.2305780667786	-168.751719401853	-57.5619223266067	-164.151884031633	-0.126329935049173	-36.2293195766568	
21960000	-0.270588858172701	-35.7396717421659	-59.1671295309337	161.026378451181	-58.7141934635584	165.571371822397	-0.165889378926261	-35.3173285046232	
22209500	-0.581644852928671	-35.7309458168625	-59.4610139632521	137.375668734305	-59.6564011243561	140.964985591308	-0.534684494967576	-35.4647296140931	
22459000	-0.931078524667341	-37.8432998993341	-59.8329253852035	105.800067319171	-59.3828460735542	115.355088700354	-0.941793802755672	-37.5071833284388	
22708500	-0.968997244084541	-41.1998488468034	-58.0030726825632	71.2337518295848	-57.7804559261096	77.2779057020712	-1.09437262655402	-40.5575962386203	
22958000	-0.6501597574334	-43.6649108218276	-57.9666919826547	19.9429432191674	-57.5557708478647	28.8499018457368	-0.871480057905808	-42.4345829921029	
23207500	-0.283270940632281	-44.0678257268345	-61.5233663306701	-24.5600873968575	-60.3734417270959	-12.9267904107653	-0.526600820989324	-42.5730495529799	
23457000	-0.21330666830241	-42.9929302796873	-64.3316678761655	-58.4886381195172	-62.654193212846	-45.9818637701005	-0.505237237274357	-41.1305050824755	
23706500	-0.582766113578214	-41.7747548321914	-66.0054547825861	-103.113015866509	-63.6627056587741	-81.627494353827	-0.860562290093786	-38.7561575473036	
23956000	-1.23709049694682	-41.4465635256086	-66.4002950677711	-159.507518496806	-65.8539957049511	-132.071505030291	-1.33239578114438	-37.0512507476457	
24205500	-1.73584113277612	-42.3099658030394	-65.1464351074434	109.569841363671	-68.2255241429844	137.815568087062	-1.55235165937113	-37.7567858385574	
24455000	-1.6704791047338	-43.5748279919702	-61.4257531604122	30.9429827021986	-63.7670021903991	36.0429074743593	-1.34130246424846	-40.1029507417748	
24704500	-1.13551221541825	-43.8501726354411	-60.0619881354127	-23.3515767003943	-61.786705910404	-28.4283239614882	-0.804988412730048	-41.5517329595155	
24954000	-0.558523255608233	-42.7012067139066	-61.1367598119188	-70.2548018424832	-61.9791179665743	-70.2026519629165	-0.327608923378854	-41.4240284102614	
25203500	-0.305220130485767	-41.1152482591606	-62.0515293102095	-99.0119005296838	-62.8106165074074	-101.478202049602	-0.179189781934925	-40.3732453409388	
25453000	-0.473758031778468	-40.2007161802242	-61.3270029594312	-123.253918133919	-62.2879982638021	-128.107510991916	-0.417163895527354	-39.6539406058724	
25702500	-0.851035030645152	-41.2543495750109	-60.9117588300253	-144.763341736801	-61.478316976601	-141.472553467123	-0.862707130852454	-40.8265046621803	
25952000	-1.06165897215333	-44.2893734519368	-60.6576483785224	-162.040684505185	-60.7157188084552	-162.720386824902	-1.16847419647681	-43.8220324765134	
26201500	-0.873861713681707	-47.431843632658	-59.3064655498729	172.187602392747	-59.8649284071449	172.223551847985	-1.0822824466314	-47.1062678855119	
26451000	-0.431786663695797	-48.699921716115	-57.0876818340009	146.21999626291	-58.0474176336818	148.227218426776	-0.774091394842236	-48.5496370211072	
26700500	-0.128627958525363	-48.0496516029697	-54.8502731795921	121.350319569768	-55.2646851415479	115.582929313375	-0.596875851948721	-47.3439674445769	
26950000	-0.199464113932117	-46.6099688265982	-52.3984348922577	78.2863318974753	-52.9475900939272	76.8263356640903	-0.723075140029264	-44.6718196454961	
27199500	-0.623256847710651	-46.0963669935168	-51.8807415222755	30.7345657361444	-51.8775980747724	28.6224729281057	-1.08933708540185	-42.2288629929778	
27449000	-1.13333026337408	-47.539983186077	-52.9632419643268	-20.6679042228475	-52.8356236952499	-22.7391988215984	-1.41424495418685	-42.1904716846394	
27698500	-1.40108187869705	-50.4397137327508	-55.0973152216569	-63.0958765557303	-54.9883292068017	-67.9587994561757	-1.45042663610557	-44.5048251904	
27948000	-1.25528082836152	-52.3999806956457	-59.0005117549768	-93.9947514366893	-58.5433834688623	-104.696555465398	-1.09507171763543	-47.305511709693	
28197500	-0.886973175748377	-51.5977679195536	-61.7713877424908	-111.884836867551	-62.3800317259482	-124.261032319657	-0.605063176455857	-48.3772705245246	
28447000	-0.610093175948837	-49.0045398405911	-62.3237654809104	-138.405627734487	-63.7888587791356	-145.234284676924	-0.353846998572722	-47.7303665086566	
28696500	-0.628674145090046	-46.6666036256083	-60.8402897536194	-149.856517483651	-61.3977082599196	-149.271839399329	-0.623532403368107	-46.3204785661112	
28946000	-0.919379282007367	-46.1943292107502	-58.8517523471264	162.999084313383	-59.5150265148489	161.022036871485	-0.954098587337623	-43.9876289214774	
29195500	-1.20921172900692	-48.2132447449944	-62.322448355772	123.786108316301	-63.1037188656118	126.586107675614	-1.18140211066818	-46.2043141048636	
29445000	-1.16655716056609	-51.6118524648332	-63.8006096539921	93.0884698697366	-64.1504107685012	95.0072585686831	-1.233203250111	-49.7623910907171	
29694500	-0.746153438724714	-53.8449070184368	-64.7428205048115	79.9021171410433	-64.9145743096681	75.3861559409541	-0.972057491801421	-52.3041198636502	
29944000	-0.318554623034593	-53.8699586348583	-63.6175821023382	73.7458231684094	-63.3215261462153	69.6425461419346	-0.66792811379633	-52.4732252922321	
30193500	-0.199096055247087	-52.5703999260654	-60.0548719860655	49.9934961819559	-60.5874056347691	48.5659596076634	-0.657426693307916	-50.6831287581232	
30443000	-0.479569585825925	-51.4566323134355	-58.8107343325337	6.03971351693467	-58.9587221897837	5.39702485277255	-0.979221905051549	-48.1932550478703	
30692500	-0.997170511279432	-51.9779948943965	-58.8296676695958	-35.3092014121193	-58.9919254913816	-39.2990389432925	-1.39275631851383	-47.1832372467293	
30942000	-1.41187474551392	-54.6196782433158	-60.1589100216578	-61.3302943679036	-60.2890592636065	-62.5125460728193	-1.60051925244163	-48.941695140084	
31191500	-1.38906759669535	-57.7077733916086	-60.5023255278054	-59.8193534107571	-60.4679896212903	-63.3488650988899	-1.37816568865893	-52.4600645077766	
31441000	-1.03549991048827	-58.7944450078176	-55.1725729922657	-80.5683683568901	-55.1855952914265	-82.446270404877	-1.01723706815981	-54.9286428814289	
31690500	-0.724500639941656	-57.2619700472795	-54.5728666473607	-140.730209867903	-54.8978320292008	-140.753637913634	-0.656053319523016	-53.0822307919256	
31940000	-0.698225053530075	-54.5808125058433	-56.5649204953671	-164.427328182669	-56.8627228657815	-163.490547763838	-0.468217165765219	-51.4597999966545	
32189500	-1.00807357986571	-52.6587953407623	-55.399470875284	177.817475782513	-55.1400959858225	-175.53148853413	-0.826941547520055	-50.6106247745366	
32439000	-1.43733559422889	-53.1397075831194	-53.5838861673342	147.545799104732	-53.1111112967173	150.811114943185	-1.42575028415459	-50.8579993950142	
32688500	-1.61510933985761	-55.851569594206	-53.6440000834191	107.269275007626	-53.0510031817238	104.829515757186	-1.71252921555733	-52.4276461698515	
32938000	-1.35767376699175	-58.581837513851	-54.6714140766212	70.7487685442488	-54.2791800303688	66.5855805777409	-1.42873035088526	-55.0942789325932	
33187500	-0.868601158243696	-59.3038236209412	-56.3366263293765	40.9289849313338	-56.4471351650768	37.6797767082435	-0.877543741844927	-56.4418315694176	
33437000	-0.53146200176226	-58.0128460192468	-58.1784306570931	24.6406965413096	-58.5038860359857	19.3352207897479	-0.489098784073579	-55.8744949672844	
