!Keysight Technologies N9923A: A.12.45
!Date: Tuesday, 05 August 2025 20:13:45
!Timezone: (UTC+08:00) Kuala Lumpur, Singapore
!Model: N9923A
!Serial: MY61181427
!GPS Latitude: 
!GPS Longitude: 
!GPS TimeStamp: 0001-01-01 00:00:00Z
!GPS Seconds Since Last Read: 0
!CHECKSUM:1102293437
!Correction: S11(ON U)S21(ON U)S12(ON U)S22(ON U)
!S2P File: Measurements:S11,S21,S12,S22:
# Hz S DB R 50
2000000	-0.102791812480106	-2.20067120003464	-75.0857003540594	84.1391881670751	-73.778548411377	76.9865646755099	-0.140481561793091	-1.97456232438918	
2249500	-0.442361913241774	-2.91568203514508	-67.0454421709968	71.1241538519937	-65.8412310914774	57.9576759665797	-0.474764551402251	-2.71201835507243	
2499000	-0.602250870026177	-4.71579763060641	-54.080261696653	-59.0424333667643	-53.816533735162	-56.9464351261871	-0.679217856353255	-4.10304522609122	
2748500	-0.437826860415026	-6.51525856001958	-70.1375724789343	-133.850200535538	-68.2155269351832	-140.288279698198	-0.474123043146174	-6.08395067748314	
2998000	-0.0873780874688942	-7.12765409066985	-74.3261637486484	-74.4629820622974	-73.613682502233	-61.0713058362233	-0.130445494589148	-6.83724973249884	
3247500	0.143703188169759	-6.52667128416319	-73.6422458773043	-101.052585692484	-71.0698137539166	-110.324357212637	0.098038258291412	-6.03529354637442	
3497000	0.0962881229813448	-5.60204704986402	-70.4998010246857	-117.66624844415	-70.9328437790442	-112.397268027427	0.045927536175933	-5.11459822167129	
3746500	-0.216678658049315	-5.36220077283675	-66.6779004987574	-129.395400071232	-67.4930464296761	-121.421871578475	-0.258950397371228	-4.82086895445893	
3996000	-0.553963491224553	-6.41802501802463	-65.9024185280858	153.151112797844	-65.2765900751696	155.927540057433	-0.573725149005178	-5.86402773221035	
4245500	-0.602637093746105	-8.41826476627009	-75.4516250663355	117.025414804344	-75.683479078023	88.5402856208934	-0.636443077792044	-7.91701910625373	
4495000	-0.350192294412413	-10.0270480599439	-79.3499861443294	64.1684918073643	-78.7907621447686	92.3767009443263	-0.390093593557815	-9.48455147288785	
4744500	-0.00350719971320847	-9.98020278059807	-73.3036701379761	58.9335079325677	-72.0168460926077	49.5359519961316	-0.0525739582705592	-9.85178881008531	
4994000	0.163767948067893	-9.16224655269619	-61.5285123802602	-97.4946590972153	-61.8087716210052	-97.9490511563011	0.113435003475745	-8.55039592903266	
5243500	0.0149058322620544	-8.28711134250026	-63.0401037979338	-110.772693376333	-63.1035460076925	-107.957233168955	-0.0246087259417377	-7.8216468550357	
5493000	-0.342136976620026	-8.45597271560621	-60.2997198738314	-116.17375718927	-60.4751553276634	-113.909000040092	-0.373434809228282	-7.95983588331222	
5742500	-0.636013571024943	-10.1452254055179	-53.176254733571	-135.79790734999	-53.3434506560255	-134.509776645008	-0.64586914935588	-9.49943717116377	
5992000	-0.622776799721569	-12.2863496982638	-62.9755116204095	133.829121363176	-63.3920570302564	138.206496060024	-0.607352914681742	-11.3108242014833	
6241500	-0.276291186391333	-13.1073701513745	-55.6879857999666	120.888352361356	-55.7521602071339	120.560051142552	-0.313006107191059	-12.5016538277612	
6491000	0.0561068920863213	-12.9264714128203	-57.8807721382679	96.5474010491187	-57.8693838553932	96.5527357073628	0.0214106549256025	-12.2962577920157	
6740500	0.133604897715397	-11.9804487403116	-58.7645486072146	85.3284362912348	-58.6482315002552	85.2802094127744	0.099548263502687	-11.2751890373264	
6990000	-0.12627989241241	-11.2989115359567	-56.6724623104948	58.9056483289968	-56.3947700379533	59.0798709606543	-0.124678747222577	-10.5641318417699	
7239500	-0.458231878793199	-11.5107827728804	-64.801768812866	-31.3592893322184	-64.6046572982711	-35.4279627647983	-0.480763042059133	-11.0957507828458	
7489000	-0.648887782384268	-13.6677179787389	-75.8820981212646	93.184934482873	-75.7786732192662	106.207999334999	-0.681867376826206	-13.0238806623157	
7738500	-0.516094523452497	-15.7562958485522	-65.765318956591	88.3141862227727	-66.1285458604074	90.9143858174405	-0.552046135191806	-15.0058008531247	
7988000	-0.157169490608129	-16.5431152177709	-61.8237641625493	80.6538097408412	-62.0230120421443	80.6507772993171	-0.204086076047656	-15.7751662014632	
8237500	0.121327682531849	-15.9401640680504	-59.9413228060179	72.6721964815146	-60.1651083484242	73.9218855764702	0.0747422911407989	-15.1123593583565	
8487000	0.100184083119982	-14.8891972644555	-57.4104820743331	67.214129482472	-57.7528374932311	66.5473396322707	0.0655370009722716	-13.923416456827	
8736500	-0.224970796249539	-14.6208426786863	-53.1970947289647	54.43594580315	-53.229399298925	56.6679005681038	-0.22239056272598	-13.3848694213173	
8986000	-0.708926035721045	-15.9557240364418	-46.4369418851976	23.3062354893435	-46.5237757291144	25.5917896632161	-0.58362444762633	-14.3607287189769	
9235500	-0.805382614932161	-16.5911871501909	-46.4943239368876	-59.2631044937285	-46.1502039383518	-58.8013508908277	-0.699378258365174	-16.3938767346805	
9485000	-0.462405333708116	-18.8787342998469	-52.4028565678653	-85.64233495762	-52.2866292197513	-87.5953036405445	-0.476627058848283	-18.3284856651753	
9734500	-0.065207641148717	-19.4808544066525	-56.1024744676399	-97.7138993121319	-55.7408146052146	-96.8030739465152	-0.109705757381563	-18.7486524474202	
9984000	0.152264209872521	-18.6982368319129	-58.8132440913204	-103.238368170401	-58.6075968324328	-101.835695146933	0.0996169794606545	-17.8896108209537	
10233500	0.0426343223459793	-17.7405906997325	-62.7018246177757	-95.2873355804984	-62.65652490386	-92.9705253586822	-0.00114128133690805	-16.8106660435956	
10483000	-0.328230112346595	-17.827778137829	-55.4616609508939	-43.2021726310837	-55.5096896385128	-42.2021454846808	-0.358580116264347	-16.6438478628348	
10732500	-0.655875490513909	-19.4475708628834	-50.9031752417066	-84.8047209618306	-50.9792297331831	-84.3286813657297	-0.668906182641372	-18.0555266843855	
10982000	-0.674297863138788	-22.1789241151625	-49.6831567619322	-100.791038814479	-49.7875192484201	-101.462432538848	-0.689487352051698	-20.4572112781219	
11231500	-0.418629762721213	-24.2708836106354	-46.5268111968456	-118.30454892355	-46.5798495918453	-118.01576407694	-0.402902195116434	-22.2526953621155	
11481000	-0.265729379427471	-24.6769716970179	-40.0226117482037	-166.952003873788	-40.0863129019751	-166.733962732116	-0.166903972908246	-23.1158316868555	
11730500	-0.393975532391983	-21.7427839702549	-44.3755673608255	-174.260477176007	-44.4212301806012	-173.737442392193	0.0848281562777135	-20.4478023526054	
11980000	-0.528613057765005	-18.7483275025124	-43.880778666219	139.740162320667	-43.7754789020722	140.734553935268	-0.105976177517729	-19.8972478197272	
12229500	-0.645112705857323	-18.1497971058089	-47.4055706031484	108.262129815585	-47.2701875380429	108.446404144584	-0.473721475656787	-20.2467726762811	
12479000	-0.772129276979166	-20.747487566396	-49.9474727342631	93.8384448184216	-49.8635224153636	93.8800663286797	-0.732414873989407	-22.487638217519	
12728500	-0.635013366063319	-23.6734355441535	-51.265554229592	88.3893055900123	-50.9545656434368	88.635396322674	-0.659365290347788	-25.1297711490002	
12978000	-0.253278948775118	-25.1546886858736	-51.0155760627877	81.7969091436652	-50.912628390794	82.624299038267	-0.313925627580398	-26.7284094176116	
13227500	0.0807350428734713	-24.8636213978696	-50.3537714993248	74.358235000786	-50.2514639835223	73.9601902446057	-0.0206693270425751	-26.8978627162405	
13477000	0.120540605517229	-23.799630362778	-49.0244184960833	61.5783473049678	-48.9422844681742	61.2925981337294	-0.0316368160452834	-26.8766458177602	
13726500	-0.152649466412679	-23.283170681366	-46.9027210303338	40.0367858736309	-46.7825386172112	40.0464694883279	-0.459031408994999	-28.5634063438348	
13976000	-0.53575305312707	-24.3216006138013	-46.1603062092307	-6.86260834254262	-45.8317962705337	-6.72327658785692	-1.58620205416308	-35.0717110830807	
14225500	-0.702088699905086	-26.8742211123316	-54.9849242359735	-37.5707363369733	-54.7711734721178	-42.5552698491908	-7.20357984863165	-18.7552057575105	
14475000	-0.504823608113717	-29.3902025870112	-54.581184862746	18.0903031978135	-54.3858997164696	17.0885830668798	-1.08916499400937	-14.3034500094773	
14724500	-0.157896441418583	-30.4050724517161	-46.4297841006674	-4.14767851880461	-46.2994928430672	-4.55990589726844	-0.356786707906789	-20.9901966538187	
14974000	0.0272591666977801	-29.6868045456762	-45.4663265494053	-63.1590628620086	-45.2458421008472	-63.2607683731054	0.0223090543000761	-22.3995387280445	
15223500	-0.141715952310466	-28.8465363485401	-48.5051155576847	-112.692175098811	-48.4032730427297	-111.569404016099	-0.0322545560697837	-23.258033837401	
15473000	-0.697629242287732	-27.5897783947309	-47.9962195902334	-125.356136081709	-47.9721812343895	-124.749039510424	-0.473741344701832	-18.6411340644464	
15722500	-0.812110078741628	-29.2620429379356	-62.0377624021336	177.737669457697	-62.0806028358179	177.350534283594	-0.643849135351514	-22.3209878721794	
15972000	-0.879620659374883	-34.2335162207641	-74.8169000503399	-106.490516671565	-75.878778035164	-95.1795661393683	-0.737127380464742	-25.4907905367393	
16221500	-0.896627831705044	-39.5607617397167	-66.2216358316719	7.47155884098173	-66.0101966747331	6.0658278754455	-0.486134680365905	-27.9064784311004	
16471000	-1.99139096135252	-40.6205491284675	-53.4532611365674	-8.2145060345678	-53.7634927119133	-8.84391682239598	-0.101096152038587	-28.5203231037018	
16720500	-1.75143943589303	-24.0788981745016	-48.9132323664483	-61.3432408975714	-48.8626118086609	-60.1081535633186	0.103102924634155	-27.7153132788619	
16970000	-0.770923444386318	-22.7391049758402	-48.7647717674816	-90.7385017813586	-48.7670597666759	-89.9790472634073	-0.0299423859719107	-26.7101912215821	
17219500	-0.877748413976255	-24.4897810762412	-48.0174100583543	-105.596777034616	-47.924114407646	-105.391747317044	-0.395681842468046	-26.8987758041302	
17469000	-1.18722381187687	-27.5892583783922	-46.2107308823747	-119.194910600916	-46.2237234907701	-118.681435736638	-0.719465282913982	-28.7588676673055	
17718500	-1.29096731964417	-30.8167661053449	-43.7180782142197	-139.363636503805	-43.6630525708408	-139.595801230961	-0.716694430106083	-31.5120434569116	
17968000	-1.06766791835233	-31.1889806062829	-41.5564979604051	-172.587333943203	-41.407432991001	-171.977955530715	-0.399569194161776	-33.3159788492476	
18217500	-0.442902979914029	-29.4594295995476	-41.8575041915616	151.405787189375	-41.7986312108396	151.594786418898	-0.0467738499150126	-33.2923294081119	
18467000	-0.0870235874299671	-28.406753678389	-43.387228652147	128.101078505287	-43.2755041275784	128.109439513039	0.0245580346962059	-32.3668761346388	
18716500	-0.209668906099505	-28.0275340093906	-43.1839651272131	108.560356394983	-43.1403921742453	108.378568446734	-0.364838689700543	-32.2000919740203	
18966000	-0.57939656868954	-29.0582282890762	-48.6552762823606	97.2530958177	-48.7159128634645	96.9742139469447	-0.610579771155264	-30.5339548162135	
19215500	-0.81691686582615	-31.7734164995468	-47.3011963621857	95.1692596840228	-47.2487736402277	95.4535344614057	-0.854286480915032	-33.9706086429419	
19465000	-0.689626278469877	-34.8005898072738	-46.135866912401	87.3678180359396	-45.9957894784341	87.4671038294996	-0.7767586732553	-37.4133472281629	
19714500	-0.294568265285679	-36.4250664590869	-44.4317783350554	77.4824937017947	-44.338626055477	77.697503093109	-0.487740849411291	-39.8026442448744	
19964000	-0.0287913175745175	-36.6895583418345	-43.6176896661882	52.3740323118703	-43.508890321863	52.4209324087866	-0.545594423233446	-36.1387230823217	
20213500	-0.0801213267153541	-33.1688803203246	-40.0652115149415	49.8389687921666	-39.9966381735302	49.907158003239	-0.285698820081108	-38.3442987420693	
20463000	-0.353619757221965	-33.3727923521997	-35.2580604706581	20.3343504924022	-35.1559574039941	20.186596497535	-1.29689766224503	-40.8672269661148	
20712500	-0.826337997650683	-34.5317821033154	-31.9540557096344	-71.5692923808136	-31.8390030998344	-72.0885652287247	-2.81957328701182	-24.4385547372453	
20962000	-1.05678653315461	-37.0891608310431	-47.0690394010298	-145.951835443634	-46.9261381092251	-145.747561074339	-0.969128111727635	-32.7716147021669	
21211500	-0.849205641319999	-38.8266501807092	-48.8071951596407	-19.3952658374095	-49.0565208013909	-18.7336856496139	-0.763312476433115	-39.8514431965157	
21461000	-0.34769304215816	-38.9657153648164	-41.8021115637025	-46.6319288445377	-41.7184736976292	-46.6865473229239	-0.592699697966392	-43.8280480332527	
21710500	-0.00350177493164531	-38.047007008606	-38.6013606922708	-83.7679381506792	-38.5126922853906	-83.7721099062677	-0.993937436278098	-46.1134736159474	
21960000	-0.0563466625648251	-37.0860720756364	-36.7506465245181	-126.542212148769	-36.7152026437568	-126.457639848725	-2.7077835378375	-44.0873753516047	
22209500	-0.428413452690212	-37.2269795076307	-37.1464563535998	-178.081682003522	-37.1355589827441	-177.786424951793	-3.95567848807638	-26.7028775703599	
22459000	-0.814061398582162	-39.3396214701503	-40.3911853210278	136.045651095588	-40.3273954827733	136.147522223478	-2.58816976969078	-21.0753994026426	
22708500	-0.891115442674995	-42.6657512743639	-44.4156007723536	95.9076788952178	-44.3170605795904	96.2943587732697	-1.74794101466125	-25.9499024251885	
22958000	-0.65274017997696	-44.9353305707065	-49.9842442314874	41.1565234108855	-49.7501525343838	41.8281225565065	-1.07283733085043	-30.4546098470309	
23207500	-0.297891444149376	-44.5808767097024	-61.095071661622	-98.0013794923126	-60.3302733477821	-92.4803028885996	-0.443450387859684	-32.3121379302893	
23457000	-0.107911087814566	-43.3857897578274	-55.4140888308458	162.662941230027	-55.3745266605876	164.221040391003	-0.10001832222138	-32.2370646642026	
23706500	-0.336843438775826	-42.7952093859494	-54.3914340963171	126.17688797659	-54.5191913805078	127.648252152936	-0.159826146685666	-31.7060263317048	
23956000	-0.852673021371265	-43.9708237158418	-55.2508409740022	94.9948133580799	-54.9718095671488	94.6455169470746	-0.514859984492127	-32.2351176148842	
24205500	-1.35078777125543	-47.397036604257	-55.4814987055578	54.4549758172378	-55.8483821925037	53.7687309961967	-0.837503749484773	-34.5880409487873	
24455000	-1.64332981530203	-51.0160126157431	-54.435247554012	-16.2228380035504	-54.7309084303438	-16.1962618362282	-0.82420263334168	-37.6880139042216	
24704500	-1.72647768552369	-50.0542554741133	-50.243024743787	-101.527646726224	-50.1746908186029	-102.028080284086	-0.459805328452992	-39.3972048964673	
24954000	-0.969683159153533	-45.3266848977325	-48.4016951004769	179.946052094834	-48.1029082519137	-179.875711830445	-0.0861673904180831	-39.2990116755972	
25203500	-0.536629117051493	-48.1798206325828	-52.0895639274376	178.031038057818	-52.1664683450326	178.189536531567	0.030328029462738	-38.0874670351525	
25453000	-1.44844108227439	-47.2944503313114	-44.4228301661074	140.047828433664	-44.2797190674944	138.995821515647	-0.192583242957272	-37.0813488284485	
25702500	-2.18838174300703	-48.4830342632223	-43.4701880038227	98.8619817213222	-43.1382304822346	98.4928430263712	-0.591683168120463	-37.8435093793362	
25952000	-3.05384878801002	-52.4592963585961	-42.9312757088093	65.896988291212	-42.6447873729036	64.3783676129498	-0.847702954744591	-40.521874063663	
26201500	-4.01278546962195	-52.7919696737621	-42.1903601887407	35.4380194295055	-41.9963775626321	34.2294109398746	-0.752331810330988	-44.0859412672567	
26451000	-4.00386772300822	-41.6575853402091	-41.4992821117277	-22.4281469451871	-41.3107298925785	-23.312531900594	-0.57468604973029	-42.8559751986961	
26700500	-2.32012246223162	-31.5806858204581	-46.1186496778658	-47.0707584189553	-46.1442499325205	-49.0094281258719	0.0226143824960842	-43.0939257836338	
26950000	-0.990150448009741	-29.8785022805312	-49.4675669314722	-66.9195175239391	-49.3974127132606	-67.2820971693557	0.0677800282555725	-42.060176318982	
27199500	-0.718192189887207	-31.4972481568592	-52.1008149216213	-79.4397981744014	-52.0460670655761	-80.7519126531537	-0.24310635208135	-41.4611669091204	
27449000	-0.911079713812482	-34.5846323278566	-53.8452208787451	-85.8971455885132	-54.0340355932963	-88.8875709307198	-0.640131936150439	-42.7174530307886	
27698500	-0.991277407023543	-38.8654616792341	-55.6366853935946	-92.2286084518911	-55.6284642694145	-95.2772130107453	-0.810363881861736	-45.4836304878025	
27948000	-0.697363253453064	-42.8853923722437	-56.8219973141392	-76.6014554827283	-56.7050068346077	-76.5403540567253	-0.597174387483754	-48.2013727181033	
28197500	-0.26243566673666	-44.4802183984267	-53.5545063924747	-86.8832426209172	-53.5811802519801	-86.2990759776064	-0.193693219686326	-49.0272845608946	
28447000	-0.0010034435175942	-44.0236996994134	-51.6981047165042	-105.010765679121	-51.6965528097296	-106.075531060068	0.0414299839880252	-48.3087611980449	
28696500	-0.107035092192318	-42.9221403260863	-50.3678964554782	-127.22765761822	-50.0205492000418	-128.572171640404	-0.0753486804207137	-47.241049800205	
28946000	-0.48689108991397	-42.6714217641728	-49.4900939382585	-156.873444336653	-49.4098220356942	-157.23966802917	-0.489567479481168	-47.3861424455579	
29195500	-0.830853350641088	-44.3837857879356	-50.1407551492057	173.115707790434	-50.2392341504729	172.174204000139	-0.904181876679999	-49.653524863461	
29445000	-0.841933925798259	-47.5419324366884	-51.5516135384788	144.71884415639	-51.4862270553137	145.535893642869	-1.00195119588083	-53.1432633375184	
29694500	-0.470447691574979	-49.8102580380603	-53.2454544397596	118.37644770516	-53.3487311743894	118.590173214266	-0.830022718334578	-55.9538845952178	
29944000	-0.0567990602834904	-50.0245872990187	-56.3700631503606	106.879318109555	-56.8374405684281	103.982644771614	-0.542518939489729	-55.8682533106398	
30193500	0.0939485585247169	-48.9219834363982	-57.2756752003981	89.672302014302	-57.2979134448053	88.6108470396476	-0.700478186477141	-56.1163912611589	
30443000	-0.127260403989517	-47.9429826747619	-59.5109562121943	67.3516419492177	-59.6736634738728	66.5615433162347	-1.6255464314633	-55.4980164153278	
30692500	-0.574890050452979	-48.5426543579755	-63.9060924718006	29.5153556049667	-63.066966616558	32.9552373999823	-3.27422715063369	-51.6158003542954	
30942000	-0.930093314806095	-51.2979517856071	-74.9397587774348	-7.65662402916535	-74.2727138203348	26.268231603762	-3.43135584464035	-40.8842505669656	
31191500	-0.876041492219494	-54.7884614791197	-71.5370985146102	57.1448794190569	-75.1472981854704	64.4756222893456	-1.7693408644897	-43.5129725485754	
31441000	-0.509088632145573	-56.7600202484319	-62.8482898018858	133.012241189751	-63.4309632075551	139.17591110988	-1.25670432231266	-49.6112726509219	
31690500	-0.21877534750028	-56.5310950869255	-60.9081717436206	39.809237771536	-60.9561431835456	37.0021623592539	-0.584425795347287	-45.6392700585604	
31940000	-0.284308806009639	-55.2412151741975	-69.2170956155534	24.3110079401205	-67.6706168899154	17.2350394083961	-0.0473988139736771	-46.6427691175777	
32189500	-0.774829870437981	-54.3902323225107	-78.3295039408525	38.6456615554173	-81.3287566735614	6.65800947372252	-0.233752528219697	-47.3405530051296	
32439000	-1.46639703122481	-55.1658118936943	-77.4481558965208	87.1937926833235	-80.8728592650081	109.784517791951	-0.668790753229946	-49.6355375564358	
32688500	-1.93943945511834	-57.0752361608813	-70.5824818560879	102.914720912275	-68.0794506603942	102.441638070686	-1.00346465407575	-54.1361061785538	
32938000	-1.89398041007778	-57.8997079140663	-60.4113055795229	87.9468607203464	-60.7155508557716	86.0067287285798	-1.0677837168212	-60.0958435570612	
33187500	-1.41290603669991	-56.2632146808652	-53.5414850354773	48.0486986470939	-54.205252483892	46.2092045916926	-1.79666878946137	-65.0759626328075	
33437000	-0.877558135977687	-53.049570428203	-53.0292542527412	-36.3287377808384	-53.049472503323	-36.65600179962	-1.94683582291979	-45.3184725745441	
