!Keysight Technologies N9923A: A.12.45
!Date: Tuesday, 05 August 2025 20:24:50
!Timezone: (UTC+08:00) Kuala Lumpur, Singapore
!Model: N9923A
!Serial: MY61181427
!GPS Latitude: 
!GPS Longitude: 
!GPS TimeStamp: 0001-01-01 00:00:00Z
!GPS Seconds Since Last Read: 0
!CHECKSUM:0743148611
!Correction: S11(ON U)S21(ON U)S12(ON U)S22(ON U)
!S2P File: Measurements:S11,S21,S12,S22:
# Hz S DB R 50
2000000	-0.103012694580953	-2.30464571948518	-75.0956879780046	68.1510628964689	-74.5256936379444	77.9180728660257	-0.144504353052052	-2.12598521093238	
2249500	-0.44782573846389	-3.02789272073847	-57.8192705682935	29.4397465327263	-57.4791383173819	28.6320931269955	-0.518050903388857	-3.00221520733452	
2499000	-0.604462882933337	-4.87897557676506	-66.7875749421157	-89.4661954258197	-65.9589042570812	-86.7231874696746	-0.637135160530677	-4.47422271783084	
2748500	-0.437463869883916	-6.67783487554507	-77.1273693735702	-117.978949637295	-75.8153881712479	-97.5484650010316	-0.472707475826185	-6.39153082137296	
2998000	-0.0839308560722869	-7.30074294539892	-76.3973341404115	-87.5657836947711	-74.3304877870122	-92.2764578540513	-0.127336461284555	-7.04451594035939	
3247500	0.148321819545177	-6.70042535931128	-74.1810811720479	-114.980725310158	-70.9786909955746	-111.638172764049	0.0995682923710512	-6.35612398532303	
3497000	0.0981696394095709	-5.77568394910862	-70.9818578482368	-111.739922992925	-71.205843728771	-110.851971813936	0.0457888389966252	-5.41863345866442	
3746500	-0.219877555633124	-5.55081429119221	-66.9405136965498	-130.838675224376	-68.0425609469355	-125.109368029117	-0.262381723890235	-5.13097134597072	
3996000	-0.558057963875667	-6.58092657003683	-70.3604540662536	160.71932828089	-70.5325423627324	170.373188004268	-0.578279640100449	-6.19735932891588	
4245500	-0.604905087317023	-8.63421200336071	-85.940420262348	-52.5871133066762	-92.9702044459127	2.49711123768908	-0.641083207227037	-8.27529020255756	
4495000	-0.34517508316986	-10.2391496368052	-76.029186540685	-90.0967756371652	-75.4911053464038	-87.184046647776	-0.390089412577216	-9.83718876570996	
4744500	0.00255609555692448	-10.4122603296605	-69.0186162089299	-101.916370353613	-69.6231719897943	-103.272681174891	-0.0456102984368475	-10.0639121812531	
4994000	0.16011572545765	-9.60324080031839	-63.7717341199266	-108.681683681619	-63.1803882958728	-111.301180069365	0.114960878783566	-9.23627314358702	
5243500	-0.0270715696220785	-8.96302315026468	-55.0425098212875	-130.703144923663	-54.849766696604	-131.563299425465	-0.0317355141622601	-8.38705854199074	
5493000	-0.484777622476137	-7.88827387118554	-49.2120308637679	131.84336441062	-49.320230777905	131.628926924157	-0.387590243298567	-8.49235799736652	
5742500	-0.632827821169108	-9.81102909462376	-61.3058817017488	118.610795329592	-60.8517820188643	114.457637710879	-0.665621820756113	-10.068231993124	
5992000	-0.575914153304425	-12.1333019486934	-58.3243664530873	72.3373618970124	-57.8598248525113	70.7811091641923	-0.640289059812213	-12.1361707507285	
6241500	-0.244225190534645	-13.5204257414807	-63.0608672769336	81.5068848820536	-63.3527485641697	72.8257363229123	-0.31471551593472	-13.2842220208633	
6491000	0.0753277223633144	-13.3962593281976	-59.3049596560848	121.722534907199	-60.0958711734247	123.676793827838	0.00361987740810843	-13.0078634396797	
6740500	0.146310385115416	-12.4748424008859	-55.7657072736936	94.8923408943401	-55.8698382610797	94.7022058375904	0.0854969357195953	-12.038488833985	
6990000	-0.104134729585583	-11.9458200581888	-52.9360800449877	83.8107382258051	-53.0378047737413	84.1555698896676	-0.151060745456026	-11.4907593489991	
7239500	-0.520663349537668	-12.7777901522227	-48.0907734210478	72.2791237639057	-48.0244552395495	72.6296586289582	-0.529038899527235	-12.4156672960832	
7489000	-0.800368475488844	-14.7257823415754	-40.040025207282	43.0910629644522	-39.9423411449078	43.7665530823029	-0.839811850874704	-15.3958831560394	
7738500	-0.65275098197314	-16.2948825220557	-35.9115495143978	-74.2058752904129	-36.1229592139715	-74.3446147653397	-0.928936727660648	-13.1784511326722	
7988000	-0.323988040451267	-17.5654614517833	-42.8008679735126	-107.072642540957	-42.0403179641358	-101.500730249362	-0.304143275142018	-15.1387865303784	
8237500	-0.31273193509195	-16.2823325215582	-44.2117856998167	-157.387860750231	-43.1317687999089	-157.182363820585	0.0430807963073108	-14.7955353557622	
8487000	-0.0680452624743735	-12.9299787940745	-55.34835219499	138.809391633852	-53.5276851448422	133.349226004909	0.056797904276587	-13.7918640366029	
8736500	-0.235101175108542	-13.1211076015984	-65.9822600067172	-106.939749405487	-71.0848958167133	-119.946731034665	-0.226626295304505	-13.4529087367791	
8986000	-0.57841222612451	-14.6673591519488	-58.6789952531788	-104.662854368449	-59.872242410722	-101.098696072081	-0.586547349355512	-14.594949670786	
9235500	-0.697574340460536	-17.3570356892834	-55.2679112554603	-109.385074356114	-56.002722388209	-106.590568765516	-0.704952238604703	-16.9005256496298	
9485000	-0.471915482694044	-19.7150257953025	-51.7628732151417	-116.439988311678	-52.1320039871627	-115.43744661591	-0.487748718958978	-18.9904365490907	
9734500	-0.144454504334687	-20.7323748397959	-46.5404372973377	-128.103358134702	-46.9280113907928	-127.14538784733	-0.12651481746356	-19.5639464238769	
9984000	-0.346008797447635	-20.3567499350333	-38.2007148761553	-166.958622130045	-38.4646033493461	-165.517429934986	0.0545274169436429	-18.8988941975221	
10233500	-0.135088118095912	-14.7914480029047	-40.3647351082353	98.9022248018718	-40.4791002806593	100.338339604106	-0.0729662400577936	-17.9279869194927	
10483000	-0.326324470630702	-16.0234182325975	-48.8722097580449	95.1990790879909	-49.048928210344	95.3758635164673	-0.51741565311206	-18.349854788343	
10732500	-0.653082618064183	-18.0218968429278	-41.7457958801096	95.8962463819406	-41.8580328182395	97.4914494764862	-0.978183842224794	-19.4459329377154	
10982000	-0.663221280042514	-20.7676102774722	-40.0453734554661	55.8634535860387	-40.0646950610551	57.0516205552392	-1.15684281383209	-22.1699671083557	
11231500	-0.374285113395961	-22.5936298579069	-38.934293620443	3.88409917037957	-38.8747162459509	4.40856422364439	-1.1617533431594	-21.3855405623093	
11481000	-0.0193641564321789	-22.6615421510469	-42.8553198262392	-50.0758702723839	-42.9487989430927	-49.9548045596928	-0.369256897752947	-19.2685532396826	
11730500	0.0840977985394112	-21.7309172371255	-49.217714263524	-95.1485703569799	-49.2907131285042	-95.9278437890609	0.0234893856231686	-18.9440098567093	
11980000	-0.167393879875666	-20.913502730273	-56.3597850851024	-16.5690247395283	-57.2837736603247	-14.2237458733421	-0.203783638793682	-19.6737840889114	
12229500	-0.620609132346871	-21.6503642630432	-50.0566679514521	-25.3642251649737	-49.849475086776	-16.9908706390138	-0.816843050316681	-20.8615372467866	
12479000	-1.0818034208004	-23.9586243729821	-42.4691310510227	-62.186516515425	-41.941726607835	-59.9379088293756	-1.50975241311176	-19.4464102457135	
12728500	-1.22885186426835	-25.7012279140057	-42.4893961604719	-128.134825202552	-42.1895573045963	-127.154243923755	-0.830467492019027	-21.0639768483108	
12978000	-0.941767794622997	-23.6022326911712	-47.6606519524973	158.606449425802	-47.2779847982628	159.53355193172	-0.366251061734907	-24.5135713253976	
13227500	-0.199738719199495	-22.0122813307693	-56.6331853104633	-68.026928731471	-56.1696291902761	-60.5278080220913	-0.335742809241709	-25.8328757071546	
13477000	0.0271359841703628	-21.3491871160927	-45.8853844759262	-161.041184982051	-45.4213202511027	-159.357617873154	-0.837536013270603	-21.3132130855196	
13726500	-0.180891206636613	-21.1058794285691	-48.8012446646665	141.168336725046	-48.0799115739541	141.147683070669	-0.632663488965985	-17.9983043792969	
13976000	-0.544841515752372	-22.2622302861326	-53.1313427333708	103.398731102294	-52.5310090810614	99.8945897810768	-0.797469795774715	-19.2284970484587	
14225500	-0.709218230299576	-24.7980215136902	-61.3345238526033	84.4799245465179	-61.1330828741486	74.0683535371336	-0.936138062838538	-21.8157266349026	
14475000	-0.504740697995279	-27.2456809778405	-65.7370003037245	111.79607467776	-66.1698269112751	109.530518264932	-0.711991032694531	-24.170067053397	
14724500	-0.118527782331104	-28.0856575574154	-64.605096589365	159.897783241308	-64.5021544500224	165.319515034027	-0.287067529773151	-25.1127862365322	
14974000	0.122953390725585	-27.3361169148023	-54.1536728870367	148.301143476343	-54.3868385882505	147.66843987078	0.0184409944220687	-24.5434216218734	
15223500	0.0456261558917025	-26.1987617058178	-51.6402751710845	112.051593141559	-51.6856251054471	110.607511306078	-0.00270441638053463	-23.4126773214434	
15473000	-0.353105266230565	-26.1060449109633	-50.0241349471793	78.8176303424112	-49.9381795444522	77.5601283593901	-0.322554638389235	-23.3685293676267	
15722500	-0.878403892270224	-27.4044005459425	-46.5745815668309	30.5918535302112	-46.4650029608295	30.6130213708366	-0.684259104570365	-24.9269855760781	
15972000	-0.858413377896104	-28.7863332365973	-52.9036370798795	-103.060662762582	-51.6480384379775	-102.610726750879	-1.14073275593881	-29.1917284783442	
16221500	-0.452881708392548	-31.3796348047183	-57.1671226290656	-14.3455905391197	-57.0076084227614	-12.5377205263857	-0.679228163780337	-27.6020010759732	
16471000	-0.0482216766646406	-32.2290764961853	-62.214773181542	-31.7112961775486	-62.0196189681515	-32.8606493739975	-0.192998267097432	-28.2453071847926	
16720500	0.104185148248199	-31.7168367657421	-67.1587880629486	-2.95851928579863	-66.8108674082376	-7.79628546787345	0.0477261101387079	-27.3635118164427	
16970000	-0.156454192588278	-31.2088730799242	-61.0954800838214	33.8768848501535	-61.7929938980699	33.6562226716614	-0.0667375810585937	-26.2575825042852	
17219500	-0.796725890686774	-31.8634790666711	-53.7435416924313	19.7117218981629	-53.9740662824113	21.3237534312893	-0.42619161176308	-26.3632898955967	
17469000	-1.46976938030325	-32.6464849153474	-48.171434342666	-17.5687747116981	-48.0337729446578	-16.0734799018768	-0.747368753746085	-28.1655632854577	
17718500	-1.4339215288512	-33.0738932321747	-45.809771183932	-64.6197643657373	-45.6348629735979	-63.9561465916617	-0.742594500011768	-30.8569190532008	
17968000	-1.0124822213497	-33.9324725649947	-45.5428867431581	-107.324818603579	-45.4344532092064	-106.468854230513	-0.411747859864993	-32.5853159120429	
18217500	-0.616722696293008	-32.4596796854742	-46.1288363097059	-147.470023557941	-45.8939153213338	-146.545418814155	-0.0398884001544953	-32.4744953612353	
18467000	-0.357605151213469	-29.8624971942433	-47.9389093172404	175.25979153185	-47.7415575395147	176.481478956679	0.0534288781419883	-31.384358446398	
18716500	-0.41553624521299	-28.5832695209079	-50.7294088106726	144.539081097113	-50.4966015945003	146.24987993975	-0.263017372004867	-30.7989542929704	
18966000	-0.715768824419942	-29.3413875862472	-52.3160296060792	150.102928587742	-51.4535885701629	151.461946550213	-0.634730159400994	-29.8521147038921	
19215500	-0.90202986802029	-32.0047010846272	-52.4001703937303	125.930709617473	-52.1279458347519	127.159704758276	-0.835959572813276	-32.7390369042803	
19465000	-0.733114753570658	-34.9792136061509	-53.2380009186914	104.77718509359	-52.9604475996899	107.251840465566	-0.813940389433746	-36.0203652272	
19714500	-0.304658430104613	-36.415308943298	-52.2729309443115	93.2227350318861	-51.9994493425285	96.5786629731601	-0.452940632614516	-36.6377538355473	
19964000	0.0400323175432937	-35.9633054724673	-51.1320086211451	74.2078373380842	-50.617943997813	76.6269180437377	-0.0872460271400721	-36.5551788345973	
20213500	0.0437085010406792	-34.8001924166215	-51.231683183464	59.7659304721101	-50.7027025371424	59.6701394318319	-0.313493874214878	-35.1728897385147	
20463000	-0.290863308815936	-34.4309795133279	-46.5962025288316	31.619277960459	-46.4324550260104	32.4033599104971	-0.479748138246941	-34.6556182971347	
20712500	-0.733402283341878	-35.8445808772548	-42.7838728888538	-6.66362595769542	-42.3903233458816	-4.23775764372084	-1.00023763102434	-36.8451766079064	
20962000	-0.929203976757737	-38.6497743998634	-38.5311954246218	-58.6935263393297	-38.1304111344509	-57.4665890955632	-1.5841857140712	-40.2187887297337	
21211500	-0.698202082082485	-41.2845803915938	-35.6041509277486	-130.305570299458	-35.2798894346744	-129.959368046672	-2.06059226497081	-39.0715691472331	
21461000	-0.325891862049385	-42.1802539790865	-36.0249013595978	152.153719005967	-35.868601905249	151.258144560647	-1.12766952900674	-34.0006592433978	
21710500	-0.130101063929807	-41.4753113709708	-39.0119196895053	88.8071087317481	-39.1810400267804	87.6034040766563	-0.250247473127662	-33.6910389595352	
21960000	-0.376347197841221	-41.0114190187476	-42.0357218335879	44.1228750934507	-42.3899116339302	42.8309350522966	-0.13041638587359	-33.9432199189539	
22209500	-1.12483577418786	-41.9129039821702	-44.0378945843029	5.02780423688185	-44.5757243839266	5.07410060934613	-0.461630326840714	-34.7929953729202	
22459000	-2.47285280846677	-42.6376433312858	-46.9545992953395	-40.059329016461	-47.7553720839166	-38.1896464096387	-0.847292699586806	-37.2738503638729	
22708500	-2.41928910394192	-35.5405993396169	-52.8431206262847	-25.8423533580107	-52.5900497488851	-20.0375011121253	-0.965809557058763	-40.777446907599	
22958000	-1.16979960070979	-37.1054393344281	-46.8341774634458	-48.6459579643829	-46.5221980854225	-48.4187711938882	-0.761763325725168	-43.3514189275454	
23207500	-0.38879077774134	-38.4920773120427	-47.450582087559	-103.466264998411	-47.2310838467851	-104.169749561013	-0.431601653801361	-43.710201065152	
23457000	-0.0550197372498566	-38.201330807077	-52.2567079878124	-141.466474237662	-51.8313953989909	-141.132414029842	-0.372311736305669	-43.2836389374777	
23706500	-0.176840661190273	-37.6667895810968	-57.9226124129724	-154.692971759189	-57.9313296317693	-156.606548423622	-0.858959814143099	-43.0977000305758	
23956000	-0.572250866128372	-38.4504742178312	-62.9850401944438	-111.825182586604	-63.0561703144414	-110.006743552251	-1.8763822455802	-43.5000638608764	
24205500	-0.895949728362156	-41.2304577580444	-55.7861366856076	-90.0152024413502	-55.7834291667279	-90.8921229845298	-3.00111568260968	-42.1678013631185	
24455000	-0.853642159186872	-44.7393749285848	-51.0839674953044	-115.171128225125	-51.0812967329913	-116.185628894871	-2.88405394542385	-37.6464525067843	
24704500	-0.518644126815432	-46.9427717441078	-48.5897059220075	-142.327048067975	-48.6222502364557	-142.79658599418	-1.71830798284495	-36.5736717239604	
24954000	-0.245137619692339	-47.0095466758239	-46.8004900973484	-170.903163167897	-46.863360551481	-172.093662142356	-0.854150969437846	-36.5203844626318	
25203500	-0.309287784996078	-45.8970885881392	-46.2620436437977	159.843332635008	-46.353813468523	159.033814643481	-0.488624957974941	-35.6542526835164	
25453000	-0.816710192472802	-44.9857739289975	-45.9399368979194	140.329070270421	-45.9451472242926	139.050766562635	-0.580364227884463	-35.0592775611377	
25702500	-1.51507359510686	-45.3314313263452	-44.9813348363293	112.380448580188	-44.9930643503965	110.894947053414	-0.929209558583919	-36.4168986514973	
25952000	-2.17572548706222	-46.5225988099879	-44.4166758527826	91.1720150317617	-44.5055981682026	90.9606317466307	-1.20715184206951	-40.0083655745298	
26201500	-1.97984409709519	-44.3344098466781	-40.3378383266775	46.1708513687635	-40.2444027068335	44.3963571066645	-1.46791267975406	-43.4049584720445	
26451000	-0.88819334172576	-43.8319779414666	-47.9020037135531	0.640480841150708	-48.056703365697	-1.85637227123019	-0.810021526147863	-42.8240967765133	
26700500	-0.204338881353205	-44.2019982192604	-50.7291437364721	0.210221063733813	-51.2305701521596	-1.58290574026271	-0.408860558229089	-41.5148136369568	
26950000	-0.100977703658665	-43.9041739811116	-51.6499928346463	-9.07572520601534	-52.2557024092179	-8.40388847414111	-0.176094550142255	-39.821639666633	
27199500	-0.434543147045862	-44.3432369580342	-52.9719793435395	-15.8899917465642	-53.1243558544989	-15.8601007347833	-0.390944007637724	-39.4481197018462	
27449000	-0.890335758832219	-46.6388459077746	-52.6935752995935	-23.6108993157874	-53.2157976864796	-23.8277631871062	-0.76071483147189	-40.9925674359099	
27698500	-1.11861450986677	-50.5533380634812	-53.1151270621943	-33.7012348559943	-52.9889594349273	-34.3654742266418	-0.928091167868982	-44.086244493199	
27948000	-1.01571211720725	-54.0011241627648	-54.295659324881	-18.9354214101942	-54.3947808865336	-19.283852839789	-0.714191416217135	-47.1226934703626	
28197500	-0.813052805365815	-54.4138585376816	-47.2971321687956	-29.9536857431249	-47.4278928673454	-29.3989344715748	-0.316107629189724	-48.2337220084741	
28447000	-0.841508123444435	-52.7625377684477	-44.8227473668378	-62.9787147099871	-44.7482069945582	-62.750153243293	-0.12763324737051	-47.5878421725067	
28696500	-1.2715228996973	-50.0611944129751	-43.3419341907306	-98.2993866596777	-43.4758777655125	-97.2740878384049	-0.321828713990538	-46.0065057212956	
28946000	-1.94724223691506	-47.7673570685827	-43.4385239868013	-134.406798688604	-43.4097109813539	-134.205178621065	-0.737091021564193	-45.018769339909	
29195500	-2.44304278182942	-46.7531245169193	-45.2121059126592	-165.785640955327	-45.1300131729689	-165.366189058638	-1.05405683111269	-46.5332989471327	
29445000	-2.31044081053092	-47.3847268105828	-47.6217810697171	174.91795653265	-47.3159215377172	173.503179149304	-1.05484432050472	-49.8301803501515	
29694500	-1.63506608030114	-47.8969310453059	-48.8511648651728	159.604597222078	-48.7750822321268	159.601795128633	-0.787782513756386	-52.7087149904282	
29944000	-0.879577227078452	-47.0724898420069	-48.5554828898846	140.375730797496	-48.5673260066518	140.531805608329	-0.721974723638608	-53.2024015753194	
30193500	-0.453121070568593	-45.5991299003738	-53.220143790183	120.514395223984	-53.5465571975102	119.923844871605	-0.239716058443404	-48.6078081321877	
30443000	-0.490776134495575	-44.5933240228574	-52.906886774028	129.965482815966	-53.2717377295786	132.22520359225	-0.397763322712752	-49.8901155129126	
30692500	-0.826873956209191	-45.3365713207799	-51.7026295828662	121.977048331526	-51.7157956792694	123.138100269941	-1.04154436832037	-51.3597404070332	
30942000	-1.11695242664021	-48.3558922069433	-50.2275586694035	107.921497235398	-50.1246852460485	107.77840254522	-1.7397015871004	-55.0064522060862	
31191500	-1.01742876904214	-52.204754142907	-49.0451241623802	80.9667389367422	-48.7363715859543	80.1070311910033	-2.27631921032255	-56.4525894743009	
31441000	-0.625478199852148	-54.3284044311855	-50.9848750948839	52.4636232104321	-50.7933996770357	47.6311268649114	-1.726466786278	-53.1599272708523	
31690500	-0.275042940516957	-53.6712054195942	-52.8378685334862	49.5468877991005	-52.9232540202186	47.6959643113094	-0.940453713181966	-50.2895882022669	
31940000	-0.174099859883682	-51.8423710961994	-52.3589477253125	57.7927098475451	-52.5761129568381	58.7335170169865	-0.528549038460204	-50.8978770696605	
32189500	-0.429325744489098	-50.8270363798324	-47.8850839338673	41.6213596796992	-47.7785395381691	41.6606521249359	-1.24467454577781	-51.2710191245842	
32439000	-0.83857054575947	-52.0323355105663	-46.1919698781723	-1.30325767821212	-46.0318186405079	-2.57473485327606	-2.13818240341805	-47.199785874578	
32688500	-1.0369529344314	-55.4686319211167	-48.402189085984	-35.6284813946814	-48.2500732895529	-36.4189756034443	-1.80386423253378	-47.1209196129889	
32938000	-0.903506967471819	-59.4285571617408	-50.8025220055696	-45.7092187269856	-51.2651797158408	-49.4640318222074	-1.23103989712684	-51.6547852412774	
33187500	-1.00378844041844	-60.5849503523294	-50.1740399272778	-56.6253598699796	-50.5704802796453	-55.445665210857	-0.610225767904184	-54.8952065806507	
33437000	-0.531433941327152	-54.7550505334454	-51.5143220130297	-83.3391799004526	-51.8164630464113	-81.0239484979027	-0.266950589395286	-56.4080747519018	
