!Keysight Technologies N9923A: A.12.45
!Date: Tuesday, 05 August 2025 20:38:41
!Timezone: (UTC+08:00) Kuala Lumpur, Singapore
!Model: N9923A
!Serial: MY61181427
!GPS Latitude: 
!GPS Longitude: 
!GPS TimeStamp: 0001-01-01 00:00:00Z
!GPS Seconds Since Last Read: 0
!CHECKSUM:0248007372
!Correction: S11(ON U)S21(ON U)S12(ON U)S22(ON U)
!S2P File: Measurements:S11,S21,S12,S22:
# Hz S DB R 50
2000000	-0.102855963076972	-2.50320296536809	-86.7549520199961	-70.2472695468848	-81.470656289323	-102.500596569165	-0.143286549325369	-2.38013815235197	
2249500	-0.447185520014194	-3.23261039867443	-84.0195270236662	43.6288197244167	-85.5898709643959	-15.2829185560275	-0.479145333037947	-3.13542765705321	
2499000	-0.604349770838216	-5.09944181769344	-77.125034942646	-94.120416898978	-76.7599351656964	-96.1143635720661	-0.629929501570306	-4.81031005355377	
2748500	-0.430944014608827	-6.9055413263546	-79.5849827665444	-99.5824755055216	-81.8923505389512	-110.364836246473	-0.462868248991138	-6.7026118557192	
2998000	-0.077760258622013	-7.51727642142332	-82.8898640893351	-43.0970638220575	-89.1533440393456	-118.189037120312	-0.115208540302407	-7.32118166371291	
3247500	0.155720913004022	-6.90355421189266	-79.5946719014837	-116.78444296881	-77.56790968569	-100.308463837188	0.110188521928582	-6.66847238425922	
3497000	0.104409897227998	-5.97183241733426	-75.2296976375006	-110.743022183633	-73.2486151404346	-117.469480733646	0.0551686044154567	-5.68494485088847	
3746500	-0.221933500989117	-5.76820125850848	-70.6478329058222	-117.901356104811	-69.8444371994172	-111.442606118663	-0.2521788409117	-5.37509379585984	
3996000	-0.564385603037432	-6.76192878116466	-71.8906555901027	-126.131415341759	-71.0916323352579	-111.432954624762	-0.565794473887927	-6.44112744632403	
4245500	-0.60968044463327	-8.94098548895113	-63.919729737074	-97.8471788196048	-63.6105223181336	-102.524295632681	-0.630348861132117	-8.54238712610334	
4495000	-0.377400575233691	-10.8204338870086	-49.625075447045	-142.615071773369	-49.359556572958	-140.689703054322	-0.420989223831538	-10.2602900118556	
4744500	-0.179038427431578	-11.1134498080394	-53.7580930564235	-174.770928044642	-52.6218774854784	-176.18644608224	-0.0491730127879895	-10.1829467005253	
4994000	0.0786664563106692	-8.37058733314647	-45.7976076210291	109.491142286274	-45.7679700800053	108.844126682986	0.0964247900967151	-9.49662483328145	
5243500	0.00532019602906056	-7.8569942140255	-45.0185298800039	62.8144665839893	-44.9011433124747	62.1373964503215	-0.121093508609713	-8.80446758526827	
5493000	-0.350739022837535	-8.11517279386791	-43.1106806113392	8.70871127701365	-43.0585799649551	8.15925355190685	-0.629820220377894	-8.22870497096176	
5742500	-0.625189206162014	-9.76620587070877	-45.3433706400498	-47.0842265457727	-45.2097295720788	-49.0803980712809	-0.794149647757161	-8.49742989880176	
5992000	-0.592468879818675	-11.9162708245207	-42.8506165675972	-59.8492697088705	-42.8676177217462	-61.3012900665617	-0.698660909699692	-10.7054910486163	
6241500	-0.257736560363919	-13.3798586284981	-45.0359600130811	-108.429331990033	-45.0236219997498	-108.62227336019	-0.341042099674812	-11.996017997255	
6491000	0.0295931356412841	-13.0331475739713	-44.5773285697255	-161.65704671481	-44.5591138805445	-161.614778926948	-0.00792082888176799	-11.8592203707145	
6740500	0.138129732843727	-11.7794489368241	-49.4411800452311	145.991467682669	-49.4677518861875	146.119170072998	0.0943925655470787	-10.771148291275	
6990000	-0.0788134485194071	-11.153628921444	-54.6431395317728	127.65072692597	-54.4520916060638	126.913611559774	-0.116777080647632	-10.1546473226188	
7239500	-0.454987993287758	-11.8623222172954	-58.4208527589805	121.068503758913	-58.6134129917226	119.853680681471	-0.472293780185926	-10.90874118867	
7489000	-0.671237440319942	-13.911069166558	-57.4047875104818	129.518226442205	-57.6059554312506	128.454970348809	-0.692685229903839	-12.9527412872745	
7738500	-0.537053622754636	-15.9447004231272	-58.8233159529474	138.423320935504	-58.0673105279242	141.933448472209	-0.707587727700831	-15.5543349880197	
7988000	-0.159540938969764	-16.7573822835429	-53.8487376626745	96.0538919495904	-54.1192199682575	95.4095667787358	-0.22069225856347	-15.4874889224172	
8237500	0.124146524269362	-16.2706996164311	-53.2600222727518	78.3704778842718	-53.3884915721729	78.9867123774575	0.0847577752695247	-14.9920628216859	
8487000	0.0835873768785025	-15.3955937134339	-51.185355064379	64.7291706233679	-51.1066442811368	63.7008708302229	0.077937003339229	-13.9807206858275	
8736500	-0.324969680330873	-15.3348044457631	-47.0352889755268	42.0255894292772	-47.0362577792252	42.2204098567294	-0.216538862564635	-13.6070268593711	
8986000	-0.943647808172973	-15.3951286458388	-42.4760631665271	-10.1383515093615	-42.4159022058337	-9.60482705654401	-0.586711208564408	-14.7426950455649	
9235500	-0.857196015084239	-16.2530316799369	-44.2301282679227	-65.7447790933851	-44.1697954638449	-65.435782400352	-0.700118251032882	-17.0300498330381	
9485000	-0.496250011877157	-18.6371634767697	-46.3204298886232	-92.5883064304599	-46.3664138735924	-91.9080902938983	-0.478896665146233	-19.1810073183025	
9734500	-0.0818662626057325	-19.4146907093898	-45.9764683241213	-112.643315171401	-46.0941635381438	-112.308456942008	-0.122148091042242	-19.818993865222	
9984000	0.116355470998187	-18.7775962462389	-43.3168300567708	-144.490201089241	-43.563822677081	-141.843765208684	0.0428037109004496	-19.2229223704259	
10233500	-0.00429058826770425	-17.4452695392602	-43.9748495836102	145.718997478381	-43.635814180066	151.301320789823	-0.136699151736676	-18.0392130741866	
10483000	-0.338898120403278	-17.8634676013415	-52.5098679280248	148.905888123712	-53.0007281103113	154.772885773168	-0.54256836352585	-18.2155231070061	
10732500	-0.747456892387904	-19.9703013351504	-44.9181703310334	137.923366148792	-44.0619780054778	152.243196351993	-1.07415048787308	-19.7558137160885	
10982000	-0.918719872341465	-22.6185911388749	-43.4257243251437	77.1999627607163	-40.208501183794	85.5179231525388	-1.29916141319279	-20.6840969670329	
11231500	-0.793178891150613	-22.6964315941644	-45.6010127872016	29.8853579864888	-42.8164736538356	15.4994955084437	-0.893136250817123	-19.842629246402	
11481000	-0.224995288723143	-21.3765170569164	-49.308349500205	-25.5524099928713	-48.1898195654429	-39.1365836534369	-0.192380761020553	-19.6222978069348	
11730500	0.0331939803512865	-20.5197864452803	-56.4268150738729	-70.1964616709246	-55.8288301847663	-79.648103993103	0.0707967035525945	-19.4171033762698	
11980000	-0.154174834782103	-19.9508087853301	-63.0607522525287	156.820956950862	-64.9487202936749	-176.779780025085	-0.120201507034349	-19.5741162089371	
12229500	-0.614608743567349	-20.7532148169134	-46.2093495472672	46.6133257940552	-47.9352669629879	49.3158965064718	-0.885924693284388	-20.7662381621916	
12479000	-1.05559978372711	-22.3055015219929	-43.3688476450221	-64.6162718841491	-44.1916099790134	-61.2854497996973	-1.10476781772484	-18.9864384292044	
12728500	-0.918910952676204	-23.268605047271	-47.9732191978499	-137.502750684859	-48.2590369331921	-135.217618316641	-0.801179598806445	-21.4723694368821	
12978000	-0.369193409044721	-24.2841883375017	-54.1751701712986	174.126212583071	-54.0710351869826	175.878710043899	-0.366128007672432	-23.0875728124701	
13227500	0.0484725815475987	-24.1487127717558	-60.1802886016357	145.242037459047	-60.5242133165341	143.167254364858	-0.00427548235800814	-22.9237654844242	
13477000	0.120471419217669	-23.2568008593381	-66.4923821965017	123.708538469343	-66.9105577703543	124.166048663905	0.0712810391691088	-21.9777936594207	
13726500	-0.145765941257097	-22.8931012073817	-78.4641785072026	159.062486572083	-80.1917000455293	124.04391116936	-0.181906060033668	-21.4432745322099	
13976000	-0.543590526602189	-24.1024997172212	-70.238784476548	-158.186088828241	-70.264152879556	-148.510677917117	-0.559826130005739	-22.4265543358464	
14225500	-0.737685021429028	-26.7202233364777	-65.1048470592446	133.772474299548	-64.3522717094132	136.336854836063	-0.747623393324217	-24.8436313690628	
14475000	-0.552403528381051	-29.2559727943402	-67.0456248116195	48.2060290284573	-66.3971348438172	44.3987217090737	-0.573773330865507	-27.2989451556587	
14724500	-0.223086144559068	-30.300655445225	-72.4568602198157	-80.1332808423279	-69.5359599147948	-53.7687638072305	-0.224655138308774	-28.3472755578559	
14974000	-0.099864334088042	-29.4553023800334	-65.113455825758	120.556919879587	-66.0429973325204	120.715594138749	-0.0176229391532433	-27.9807360734648	
15223500	-0.308326225693437	-28.0246456190582	-57.7448519764191	2.40862062814535	-58.2790479158687	0.780891273285901	-0.213650031359278	-27.2294250369397	
15473000	-0.894390898324413	-27.012601484928	-49.1360428186237	-88.5445623675072	-49.8443989229203	-87.9006228559967	-0.898641810140816	-26.9347927364759	
15722500	-1.41244108720191	-26.4609431521791	-45.6676044854132	172.103808516903	-45.9557513730196	174.299350334027	-1.50909598819816	-24.3827756761966	
15972000	-1.3260423775041	-27.4391398306394	-48.4861798985364	95.3492850557517	-48.4988699215633	96.562163441735	-1.14526303904741	-25.4697681662049	
16221500	-0.818968375953858	-29.2191251593146	-52.1752818073242	50.7354021243559	-52.0366954405614	50.884813716543	-0.66845668986269	-28.2887232149942	
16471000	-0.278190696726567	-29.7086448952714	-54.9716503965995	21.553646800921	-55.0116959016842	21.2806878291968	-0.202349899077041	-29.3087561726284	
16720500	-0.00588408294900644	-28.8820321408189	-56.8889980497057	-1.26807027910986	-56.9322069755389	-1.38960265200271	0.0147250463811365	-28.8891358030575	
16970000	-0.124895309359583	-27.9240035195159	-58.5806712853777	-34.2766484509761	-58.4009180415341	-33.9547934211369	-0.165492323732698	-28.4042811507799	
17219500	-0.517730417182496	-28.256356459	-64.24084202671	-145.634503578373	-64.8218780403489	-136.968495406417	-0.779761589975742	-29.6540208173993	
17469000	-0.868903402322999	-30.3623706651721	-46.9972103728459	17.9128202558661	-46.8918066641777	16.9496024179881	-1.2437568387484	-26.9504087207427	
17718500	-0.882161418497515	-33.0211874224883	-46.0550872866354	-54.8339464329751	-46.0398931981212	-56.0841831011361	-0.897067506062206	-30.8057414201249	
17968000	-0.530060666740793	-34.4289395524175	-46.2134770362672	-106.36141676307	-46.2229357830578	-106.696870437213	-0.52653119367798	-33.5771388035006	
18217500	-0.128701797753868	-34.1721870183224	-46.6628835259928	-148.623412958705	-46.6650388201462	-148.78719533416	-0.231688224143477	-34.2395909224934	
18467000	-0.0294931337888382	-33.0381850981089	-46.7490959046002	172.329395603764	-46.7368990594216	171.92941476385	-0.351218147645579	-33.4091042759078	
18716500	-0.32270376662576	-32.4336752021217	-46.8922587604415	128.319972228806	-46.8967345625952	128.466565233104	-0.927001507610836	-31.244162096805	
18966000	-0.84653479139346	-33.3047743957816	-49.0551638151261	74.4123600939148	-49.2464615323635	75.2564349375201	-1.42209415744206	-28.768607442249	
19215500	-1.24239403272737	-35.4766663735146	-58.3771396948773	25.2123421728924	-57.807118180848	25.4907094958555	-1.40277017001499	-28.9979060721188	
19465000	-1.17574640221823	-37.5226417122142	-53.3842097637124	122.453658124605	-53.4231538859019	125.866629183554	-1.01379767273466	-33.2174659568847	
19714500	-0.839930241986466	-37.8770207085631	-52.390543904983	-13.2050899058254	-52.4119738947926	-10.8156908973255	-0.76562392919188	-33.5718628762688	
19964000	-0.489332720752778	-35.738351777878	-69.1592546239244	-106.407708236384	-69.6787873018826	-96.9288040820821	-0.28218042651975	-32.6936913233693	
20213500	-0.35278025544685	-33.3497519628797	-60.4157975489119	105.634287493383	-60.1922489415164	99.5184939711937	-0.126335728767382	-31.4485659191199	
20463000	-0.554410690930254	-32.5267985888988	-55.4422251137192	67.1229334893652	-55.0853805805785	65.5250046300482	-0.353780371436843	-30.8948702964947	
20712500	-0.914870659430656	-33.8771414302366	-51.7990431462648	40.6576063404167	-51.5396231658343	38.4433464804569	-0.720826775723327	-32.0560518889527	
20962000	-1.07472148228123	-36.7913756156003	-48.4564540421987	10.4342606178367	-48.3344034831928	7.18406859414312	-0.882384248542203	-34.6926505903168	
21211500	-0.844850451141379	-39.2419493223552	-46.2371599984191	-23.513324179784	-46.2223033680694	-26.5960584071405	-0.684429607291053	-37.3324965382963	
21461000	-0.394612798372233	-39.7066572608244	-44.9247807538058	-58.0758406360497	-44.8954067160819	-60.1659025671657	-0.28373443142199	-38.3003911826741	
21710500	-0.0996243754633801	-38.6282282888245	-44.3488534080618	-89.567776629177	-44.3669290824449	-91.4369565711801	-0.0302166598829578	-37.7560033911873	
21960000	-0.170169473219336	-37.4417436432562	-43.5990504540216	-116.777647629534	-43.7908434718349	-117.741732245513	-0.13288812332722	-36.9005652619492	
22209500	-0.547824504734077	-37.6516298416644	-42.6429411126431	-142.176362829652	-42.678382972785	-142.287866462075	-0.561950889001197	-37.1596736990684	
22459000	-0.995426672336535	-40.3578962118068	-41.0824471232342	-170.335299439674	-40.955939149202	-170.199810663728	-1.03555401020802	-39.4193850871647	
22708500	-1.3338041266851	-44.3619978154762	-39.803098968596	149.906051462072	-39.4217005855496	149.775724705124	-1.3157512544147	-42.5867775878421	
22958000	-1.50575649035537	-43.5127653697228	-43.3244641309297	117.496727333938	-42.99253899454	112.901265323838	-1.25141134730005	-43.4777867863137	
23207500	-0.676399295887423	-40.2870844137975	-40.0350914243358	106.518648637246	-40.0732802206977	104.596460923328	-0.829537521785996	-42.5408045897795	
23457000	-0.207689188022206	-39.2051989786285	-39.1981975519687	67.3231594775598	-39.1783904761023	64.9797970431667	-0.808446308498241	-40.9072886676293	
23706500	-0.296858249245378	-38.5315447152048	-39.72989468982	31.8188023337506	-39.7424350041544	29.0475459774847	-1.20642894412891	-37.496664805846	
23956000	-0.699962625646709	-39.2789379679694	-40.9932066670269	0.416182206029103	-41.1483978073401	-1.56951073055902	-1.51950104384969	-34.6345977598816	
24205500	-1.05032979703932	-42.026389224945	-42.4450584318244	-22.2214875686844	-42.6727799507203	-23.6421638227544	-1.54999815235876	-35.6119481338966	
24455000	-1.04899056865402	-45.3546143622771	-43.0433814699106	-39.473680964319	-43.3946510591472	-39.8172705386967	-1.28247770198186	-38.7296504866993	
24704500	-0.750888157258134	-47.0182093878164	-42.7151145269466	-56.8702090375215	-42.9060386837217	-56.0976004238294	-0.760929373094365	-40.7236255166343	
24954000	-0.446205636864099	-46.2074428667603	-42.0829190226474	-80.5165585880359	-42.1109402673028	-79.0914400161868	-0.312395198944141	-40.8612703209449	
25203500	-0.395386112824241	-44.4701382674871	-41.9544175558989	-105.141414191975	-41.8689526123256	-103.638673013568	-0.197543414225046	-39.9137161005542	
25453000	-0.743414021817646	-43.4381554441316	-41.411946008772	-125.684916654807	-41.3419655570124	-125.696967312038	-0.49940871785109	-38.9007527572001	
25702500	-1.33689269867867	-44.2258095710548	-40.4273541449141	-154.113479458309	-40.4577327734631	-153.239403022558	-0.893908374911736	-39.2850561726071	
25952000	-1.78188808875547	-46.3285852845105	-40.3626442562199	177.562250334163	-40.1137960759795	177.682997282894	-1.12236992355022	-42.060382825849	
26201500	-1.71993096671949	-47.5313170506636	-40.4992276967234	148.44410232946	-40.3358822911866	148.802791478654	-1.00149917459797	-45.1138326086207	
26451000	-1.18889504615997	-46.6250670263015	-40.6590013955099	119.661638619456	-40.5257803045634	119.189061778838	-0.532471562435971	-46.5686374697553	
26700500	-0.646009346550815	-44.4795280574122	-41.200396475582	92.4117981829878	-41.1928323232984	92.418948524179	-0.206807351982761	-46.1070511751175	
26950000	-0.449719918369924	-42.4886857715894	-41.9125802012056	68.2032408641586	-41.807036952312	67.4220439423462	-0.246016931761874	-44.9685960617876	
27199500	-0.657500012080201	-41.9787076859794	-42.154985929366	45.7375056436654	-42.1598096065064	45.5078639716224	-0.681218020465106	-44.489548206149	
27449000	-1.0028131747306	-43.6509329304753	-41.9771398915189	23.4556804352915	-41.888353188335	22.4408438143736	-1.25498317626056	-45.8317707941784	
27698500	-1.13287659622285	-47.031977505841	-41.0398612496833	-2.55074073025648	-40.9350794915541	-2.83998558624827	-1.61164543287655	-48.355169838589	
27948000	-0.893370450918714	-49.9533370778723	-39.8511540267485	-37.5845295154592	-39.7516070348202	-38.0708491970488	-1.56344695603244	-50.0827388416416	
28197500	-0.51760033275045	-49.9568344568524	-40.6091603148379	-91.1507816926732	-40.4871026471131	-91.7014544231688	-1.18545207134895	-48.7719906066268	
28447000	-0.136682193403171	-48.5886665516908	-47.9772549995373	-112.775538069986	-47.8677578142944	-113.239350377646	-0.852431545600708	-46.2274877323029	
28696500	-0.253894697811202	-47.7152254794641	-46.4811365229973	-116.643539790217	-46.2148373470428	-116.882219650526	-0.80296403634982	-43.6704642243927	
28946000	-0.678653007603815	-47.7033782346287	-46.6638096324	-147.675062031096	-46.380036445091	-148.656183403266	-1.07088381049237	-42.8548161454637	
29195500	-1.04614296071373	-49.7300085365005	-48.6992517850931	-176.223527384779	-48.5788843924589	-176.767922656291	-1.37047828470152	-44.4492218911834	
29445000	-1.05379542133467	-53.0943805678105	-51.1342596588706	164.885673665508	-51.3092358089906	164.688735128885	-1.3462155533353	-47.4670024638868	
29694500	-0.690666072253284	-55.3872054764182	-53.7134977773171	152.330736371041	-53.8806872591965	153.412041550455	-0.974469897152693	-49.7726886886307	
29944000	-0.340823688728123	-55.548813325258	-54.9005012908506	146.723710318308	-54.8383707472678	150.384809296278	-0.500919881399034	-50.1318781190025	
30193500	-0.331175941687314	-54.4155693335137	-54.5858390049738	148.759183274601	-54.1451212070481	153.250703808745	-0.323233534846891	-49.3109191559625	
30443000	-0.775666641120657	-53.3539501694554	-52.573211478124	153.796890121666	-51.707248392915	154.291260688704	-0.583121435961978	-48.564259445769	
30692500	-1.52771454976722	-53.3924886798185	-47.2128331458393	144.672299467129	-46.743517340434	141.612555277633	-1.15439226163388	-49.5790573307055	
30942000	-2.1518345362278	-54.3074846808544	-41.3280615739423	107.891536818472	-40.9275051176856	104.623750522919	-1.83740127719656	-52.0718877365084	
31191500	-2.0575146797134	-54.9856000087806	-38.1700184268894	43.601955156573	-37.8600793437933	40.0968918040843	-1.98129362811989	-51.7761380096607	
31441000	-1.40600730760503	-54.8747455065274	-40.1930182152117	-15.0972253881601	-39.9909927435516	-18.7081485697117	-1.12728972610285	-51.8629960818414	
31690500	-0.794328631074111	-53.5189676484586	-44.6395112508222	-51.1877795743614	-44.6367507884612	-54.5819273390447	-0.528232254626473	-52.3746800491731	
31940000	-0.590960107751761	-51.7323949075911	-44.9034906823601	-58.3325921024897	-44.9745217698938	-62.0646465642573	-0.591373483022036	-50.6277403080998	
32189500	-0.849832572815904	-50.5695689427877	-43.7768383810688	-101.702522141261	-44.0911175053297	-104.711029383983	-0.755009034215804	-48.236917961587	
32439000	-1.27728139026197	-51.3229385435251	-45.5005848192438	-142.842039864233	-45.8802360366845	-144.338090745847	-1.07235625726988	-49.2957758179443	
32688500	-1.44758616270804	-54.0387420285719	-48.2299339502461	-178.807669975799	-48.7638025738634	-177.977116017889	-1.30907005882327	-52.5959434836525	
32938000	-1.16057824751535	-56.8978622628399	-51.3723945659361	146.796000990517	-52.2250745391266	150.482603743526	-1.14706947137024	-56.3345639968041	
33187500	-0.636906326386408	-58.0078950041378	-54.6076739476676	117.664045779732	-55.3419803218737	118.670672174128	-0.733839077755368	-58.0681814507118	
33437000	-0.277857283044836	-57.2895751221406	-58.4488205763575	87.3085698190674	-59.6032463567467	94.5166015725415	-0.463400057841104	-57.628765454115	
