!Keysight Technologies N9923A: A.12.45
!Date: Tuesday, 05 August 2025 20:56:36
!Timezone: (UTC+08:00) Kuala Lumpur, Singapore
!Model: N9923A
!Serial: MY61181427
!GPS Latitude: 
!GPS Longitude: 
!GPS TimeStamp: 0001-01-01 00:00:00Z
!GPS Seconds Since Last Read: 0
!CHECKSUM:0279463590
!Correction: S11(ON U)S21(ON U)S12(ON U)S22(ON U)
!S2P File: Measurements:S11,S21,S12,S22:
# Hz S DB R 50
2000000	-0.0870600280464831	-2.30221022363213	-76.5422950521761	-102.113585821838	-74.4741695274862	-90.086340260569	-0.12005949570017	-2.17271091240716	
2249500	-0.427863397309079	-2.95558165558982	-71.3020852588644	-102.009214710223	-74.6387063930512	-97.7416509147058	-0.45241576065906	-2.7632949946402	
2499000	-0.587983308109815	-4.77721283398554	-64.7529277239573	-115.580494448308	-65.0529822838008	-116.110994571994	-0.607119898317619	-4.52595082673058	
2748500	-0.446083557521244	-6.60598898463607	-48.9216525069212	-169.817163212851	-48.9864787957727	-170.235543040629	-0.474861613011292	-6.39553569076723	
2998000	-0.0821244147457511	-7.08098208304965	-54.4014035087814	53.9498752862058	-54.3883551040845	54.4583082647937	-0.0961493515059742	-6.86123438040608	
3247500	0.175364315816301	-6.3912454565466	-52.6306915402575	41.8593262332011	-52.7854288439519	40.9542423477025	0.090482238253914	-6.39301173636711	
3497000	0.125328301127269	-5.49796747610901	-51.43203176196	-47.4154335239581	-51.3745831225259	-48.741144218431	0.0149083644542962	-4.66584558288706	
3746500	-0.209366383236749	-5.40941844524743	-54.3674706389302	-105.333064490062	-54.2535888105595	-105.440201285985	-0.237178556318325	-4.42749696610871	
3996000	-0.559193355444102	-6.1670764977284	-63.3821266494137	159.18218082715	-63.3822087734481	155.557080379062	-0.549167767445942	-5.62304354402541	
4245500	-0.585653238617381	-8.41922453443117	-73.727842060046	-91.6564544690364	-72.6209365532224	-85.3111933250679	-0.610165028843438	-7.87012791707662	
4495000	-0.322992702198185	-10.201410678728	-66.4482388113334	-97.5582982272754	-65.7880090067711	-95.7655656629134	-0.3568495696611	-9.59642624435407	
4744500	0.017007250003237	-10.5574691602278	-60.0745130231367	-116.552699174322	-60.1470687636949	-120.83887847972	-0.00666194173266717	-9.96975793804146	
4994000	0.0911080941273145	-9.80223640510786	-50.6716071290067	-163.547691841833	-50.5427493713777	-165.53648892067	0.150694905277179	-9.24384199048485	
5243500	-0.00381874726252889	-8.07838640483131	-51.8732323267228	108.704514725873	-52.0398483091985	108.085109244092	0.00493820322499669	-8.42468051686315	
5493000	-0.32727765086083	-8.41972164240892	-55.0562107143745	79.6997480042742	-55.1470072476339	79.4154784101763	-0.352955356268901	-8.655021171329	
5742500	-0.603681202993815	-10.1916356485005	-55.1528937692836	63.4938980125943	-54.9056973954241	61.2337077695077	-0.631908554534382	-10.2970543930333	
5992000	-0.565778419844732	-12.4675569035917	-50.3397662092604	54.1931420634455	-50.3408209842649	54.0829028634887	-0.618757359114901	-12.5630392347869	
6241500	-0.251712817412316	-13.8960313246872	-45.4609938384615	11.447058424761	-45.4129833302906	9.50700280629572	-0.40924283727937	-13.8583180714118	
6491000	0.00988221067606754	-13.4855792820786	-40.6541148514628	-67.1164537665653	-40.517512243764	-68.3352680349073	-0.17581225493234	-12.5516939836074	
6740500	0.0822529476557182	-11.93594245886	-42.9646764633988	-154.03381149528	-42.9173010149591	-155.283283188159	-0.00830179054487689	-10.692694181285	
6990000	-0.106660247934889	-11.1172674303865	-48.7004192725093	153.742168464998	-48.9225671425507	152.948428820214	-0.14707434295111	-9.84594403754624	
7239500	-0.481879914238541	-11.8504582966217	-53.011701890082	125.686458371957	-53.0024718994031	125.384378565795	-0.470522473698417	-10.5656860159078	
7489000	-0.708896103267311	-13.8045152011371	-54.9669309912431	102.910785920397	-55.1671555522763	101.918944247814	-0.662631342402954	-12.7253188704801	
7738500	-0.55509283253344	-15.7960624901874	-55.6141065787405	86.0461003276824	-55.9283203290483	82.5839723152188	-0.525697688432197	-14.9533792197468	
7988000	-0.172836029571803	-16.7439118475215	-54.6751627203503	68.4239530615586	-54.6452223753039	67.7516904526297	-0.167432726646103	-15.9448827664203	
8237500	0.0790640774531604	-16.3312489519701	-51.3772484506421	44.3239892886443	-51.2700573679916	43.6437058980546	0.11383113591272	-15.4837110422437	
8487000	-0.0281536010347976	-14.8568549629227	-47.5092829326932	-4.19841437163577	-47.4312143770561	-5.44802514428041	0.0904934988967225	-14.4838073393768	
8736500	-0.273243627085203	-13.7111038605601	-47.547117835127	-61.5862194574438	-47.4973845640782	-61.7641408092349	-0.216595271302599	-14.1427042086444	
8986000	-0.579412613574786	-14.9981467404697	-48.5292286972965	-95.9766735310814	-48.4027636889203	-96.4511799228956	-0.604766298497401	-15.4339361402875	
9235500	-0.685420290500528	-17.6367889629376	-47.3737960321167	-126.155880650086	-47.1635533508481	-125.57181318058	-0.779926000868619	-17.9959391636168	
9485000	-0.461480283510836	-19.8802127701125	-43.9572984047564	-166.109493483776	-43.8770916341976	-166.757624499518	-0.709400136047154	-20.0234953040688	
9734500	-0.130111275676888	-20.4140292792824	-41.0906708416003	128.835549805418	-40.9477832940336	127.597078370652	-0.446334401499968	-18.7793227325197	
9984000	-0.020627385781171	-19.2541163643433	-41.5359806337379	53.9952919180211	-41.3849826798279	52.6522901401339	-0.0515252639142264	-16.9132847164212	
10233500	-0.134262505109993	-17.0696562377295	-45.2828205459998	-22.2690171415889	-45.1974346098702	-24.2149630593901	-0.0362917870825212	-15.833759464349	
10483000	-0.400613750764829	-16.8666026791982	-50.7639354303366	-89.4360180676459	-50.7348158652513	-90.5114793451443	-0.335651026226599	-16.022268807916	
10732500	-0.721660133329314	-18.6030552171305	-53.3510666529536	175.59826965286	-53.2472754150878	175.599252568504	-0.675929202643417	-18.2405973393638	
10982000	-0.732233475478631	-21.0578867689395	-48.0426219343702	9.47847871850447	-48.2687186258458	7.59014564496621	-1.02687959884589	-19.6418496119063	
11231500	-0.409304535896668	-22.7650747041333	-53.920878412141	-74.0763401218077	-54.2888147288726	-74.4382705446337	-0.450055265148237	-20.7952878711929	
11481000	-0.0652694023840559	-22.7561561586154	-55.2787188478158	-118.322741857856	-55.6111441517831	-116.295230565768	-0.0345502190852698	-21.2419870623924	
11730500	0.0229898529048504	-21.4033773785513	-55.0322364817126	-157.68560352763	-54.9748068503594	-158.648835785601	0.108274582109079	-20.4609952219935	
11980000	-0.172412165372552	-20.0037838236838	-55.0796131445168	159.749123959029	-55.077937381779	158.143655844957	-0.0861010097660149	-19.7780272233931	
12229500	-0.529072779931243	-20.3349646797914	-55.241361914864	122.791923361223	-55.179709168592	123.236878037632	-0.490160372022124	-20.4522435305661	
12479000	-0.785733917920654	-22.4977132818254	-54.2854671009621	87.2778046409477	-54.3317759688888	89.1339278708257	-0.810382438155245	-22.8252122098847	
12728500	-0.698154649376463	-25.2146262758504	-51.7654413057977	52.683189130642	-51.9093374205081	52.246580204212	-0.852138859307949	-25.5812917574404	
12978000	-0.370179514672707	-26.5829159743648	-48.5796416592126	5.3815258592088	-48.4114233694567	4.44635101188734	-0.702042711733034	-26.4663076817626	
13227500	-0.123694185349238	-25.9661707876598	-46.701492214592	-57.3900622267044	-46.669794817898	-58.4782608285522	-0.489145187927637	-24.0717760313774	
13477000	-0.164994587594864	-24.1001872522953	-47.2632849553469	-123.176342956919	-47.173794167771	-124.487656912073	-0.27747949830878	-21.3638844725807	
13726500	-0.429049459534367	-22.6191232427131	-49.4826982919366	177.913641340961	-49.5624737097736	177.985464947876	-0.380991844097274	-20.3084940229688	
13976000	-0.747146630258435	-23.2434899399953	-52.4989919368603	128.031041939381	-52.7843187170182	126.368175075258	-0.671093726529486	-21.2160434509192	
14225500	-0.874151148049829	-25.8095538376311	-55.1967510626424	78.2693849698159	-55.2690526130589	79.2212509289536	-0.807860275986048	-23.7126089719963	
14475000	-0.685977873730341	-28.3861687311975	-56.5509833868648	21.5057959347862	-56.5428377198166	20.5411613601428	-0.602880266856755	-26.1989301406465	
14724500	-0.344584333558907	-28.4270291847508	-62.3532042183524	-78.2294892458787	-62.5568295185857	-81.7481345957465	-0.21205097205686	-27.187570602328	
14974000	0.00936942719641412	-27.4474071357881	-66.4329327529645	56.969911127619	-66.2439588348965	49.0842900432633	0.0579074961815391	-26.6850844082656	
15223500	-0.0806826129845433	-26.260933022886	-58.7337609588607	-29.3828704242095	-58.6726222602152	-29.8263756501347	-0.0199742327081952	-25.7239404152835	
15473000	-0.454812369612827	-25.6460290345584	-54.554153028795	-88.8012344055964	-54.5276543185981	-89.9093522707681	-0.410524438227522	-25.7647819857257	
15722500	-0.815224022290071	-27.0763014807194	-51.9129869604365	-137.439723201497	-51.9085127458888	-138.852176967869	-0.888430558951667	-27.5904884637744	
15972000	-0.884251554371382	-29.9487590170213	-49.3112396618217	175.28801765483	-49.1197701698688	173.753944146487	-1.18489824937839	-30.2263469704463	
16221500	-0.614549955368509	-32.227330027376	-46.4438531462108	122.352595305642	-46.2379104051938	121.040949006622	-1.12162298374581	-30.7479119206151	
16471000	-0.286196189132499	-32.5521224318407	-45.0265596763788	67.2498220942168	-44.864319637119	65.2899621986998	-0.615897222084234	-28.8990070978761	
16720500	-0.205143246525546	-30.9732004571859	-44.9195454154759	14.5841309812625	-44.7642846296204	12.0516119465103	-0.18824423946618	-27.2226109850397	
16970000	-0.403298916900197	-28.6735366427491	-45.592624342841	-34.2221933084466	-45.3770017403623	-37.4637275037871	-0.192796444317724	-26.1765615983142	
17219500	-0.731284240481011	-27.9840306414469	-46.4637093684118	-77.6954035964396	-46.4245242164442	-80.0336732248962	-0.505953428700037	-26.5813830559196	
17469000	-0.972214726948943	-29.7727054179766	-47.1709751998176	-112.937123067916	-47.1901443077655	-115.567618327611	-0.815647202940697	-28.7756607791016	
17718500	-0.887897183738336	-32.6830597404876	-46.8381517707436	-146.286855391803	-46.8968270952328	-149.918736867704	-0.817347953157272	-31.9035520999875	
17968000	-0.522352609958439	-34.5813107944731	-45.2334670369027	177.035308034531	-45.2687700881219	174.67118137825	-0.527167910860313	-34.0103471629103	
18217500	-0.174438048408968	-34.3758998980216	-42.5765067495819	131.818416443117	-42.6208149518548	130.572304113857	-0.256810073156627	-34.0658202859278	
18467000	-0.101927294552995	-32.7597354934068	-40.2886496434653	75.1311526507032	-40.3262284040437	73.6028782535895	-0.339294486471004	-32.3316863924974	
18716500	-0.344806637331483	-31.5099614102951	-40.1193479950279	7.86016880988804	-40.1324685167763	6.3788288487505	-0.666089386174537	-29.5070054886344	
18966000	-0.729835286960078	-32.041893379945	-42.7650011382589	-51.8604450241534	-42.8146069677502	-53.169451750964	-0.905802666923332	-28.7232309188866	
19215500	-0.955632527938273	-34.7268196902233	-45.9929152042001	-94.0464942889937	-45.8902477491943	-94.9710222774639	-1.01407741116733	-31.1609019070228	
19465000	-0.838920967565299	-37.8016520224447	-48.3592836861134	-127.148643790992	-48.2303471925684	-127.909146601137	-0.844167643528086	-34.5213902272576	
19714500	-0.511331670490865	-39.2288695702054	-49.6318789387843	-160.088402900106	-49.5531622249015	-160.801309842659	-0.473690790646489	-36.6098509849369	
19964000	-0.335284968923159	-38.2753863444536	-51.2943592971409	157.978874984677	-51.2871056747432	157.373893178608	-0.362752428566139	-35.3967214473589	
20213500	-0.47305023978201	-35.6345584910408	-55.4404298021007	126.376109666027	-55.3827453893705	124.749468914322	-0.143509771430938	-34.4165960540012	
20463000	-0.772173151227887	-33.5419363429737	-65.0910333063286	144.919687670796	-64.9003845427105	147.155178163411	-0.594226640058347	-34.0513741851	
20712500	-1.06884540695093	-34.1397548054227	-53.8694534915725	167.46363766884	-53.4863456680149	165.872742655216	-1.1952852682989	-34.3355478579032	
20962000	-1.14355895465666	-37.04307544244	-48.949340480971	118.944550691218	-48.7250744297901	117.182612322648	-1.42532116483945	-35.2623344825444	
21211500	-0.879919051339946	-39.8429884237541	-47.4532345384771	69.5691929046716	-47.3351856684027	67.916879758688	-1.11937761943012	-36.636177482952	
21461000	-0.476694536968027	-40.5685380143858	-46.7083533635974	35.1074617412275	-46.5843499515282	33.2739675145168	-0.568377037078414	-36.9552405315652	
21710500	-0.277138273547166	-39.0875797916148	-44.9980260815504	-5.37285257356517	-44.8499589725443	-7.27594845383423	-0.195186037787896	-36.1561808223155	
21960000	-0.348524408096919	-37.0048596491587	-44.2219533436306	-52.178314638082	-43.9921478003387	-53.9110619312907	-0.211839148689044	-35.0864453120898	
22209500	-0.658468199155041	-36.6740069286569	-44.0334431621929	-94.6787593179883	-43.8861597325553	-96.1322364950282	-0.563593407145595	-35.1126508479373	
22459000	-1.02596377372766	-38.929781946257	-43.4603443304276	-133.481279990867	-43.2792482626888	-134.793755868592	-0.952046639275471	-37.0801216980484	
22708500	-1.1479219449075	-42.4064748061939	-42.0099696304482	-175.338186078585	-41.7777237297071	-177.286133805391	-1.07566472158306	-40.1710380363247	
22958000	-0.95340397709984	-44.2716753451534	-40.2174340843916	132.23167498322	-40.0241802025928	129.67878112294	-0.859425819889966	-42.3202643982175	
23207500	-0.585236605919341	-43.4171433976226	-39.7759685899461	70.9068907879098	-39.7208680438748	68.4788115280596	-0.539246908161834	-42.2139587919116	
23457000	-0.428967305624257	-41.5553019351076	-40.980200370609	9.10387538451624	-40.9689822122875	7.30885198384499	-0.464607653696194	-40.4746619123758	
23706500	-0.704703296574361	-39.5081060586979	-43.6408398935091	-52.9107467999263	-43.5388643613097	-53.9970486549711	-0.736494263901364	-38.1881403516444	
23956000	-1.14033016874487	-38.4765331508116	-48.2282568790091	-113.02967199143	-48.2730036374023	-113.734877226356	-1.15665917745005	-36.9778752526703	
24205500	-1.36554096881589	-39.9420201368514	-55.8187564121633	-166.804295528216	-56.27219260036	-165.605419237952	-1.39010239589618	-38.1971654238722	
24455000	-1.18411416744322	-42.8363744071103	-81.3354314335516	146.452594060318	-83.7107390466585	-166.972368864915	-1.22432778554664	-40.7992212204157	
24704500	-0.716627213329918	-44.7065806632265	-63.4090415154894	-66.890176935285	-62.8054816808714	-71.0733356845043	-0.728646474545124	-42.3051163564479	
24954000	-0.311793786196799	-44.5156861814973	-59.1561025531075	-103.18436871915	-58.7627145371451	-106.239744775937	-0.283611372020084	-42.1644713263353	
25203500	-0.248377927396309	-43.127870358318	-56.0754729111469	-136.103264487908	-56.0338966013168	-140.042543229613	-0.165028040422208	-41.0918379527641	
25453000	-0.562311070822067	-41.8024636031654	-54.3313338899797	-171.616398379428	-54.0182814867703	-171.141820160871	-0.436684500803914	-40.3394139650655	
25702500	-0.999956204952465	-42.2351390165998	-53.5799885004789	154.73730993031	-53.1689710555636	151.833291559182	-0.922227977091702	-41.4576679584805	
25952000	-1.20956847290558	-44.8459073236824	-52.6838169085755	118.018079391139	-52.2564729762166	114.884257636724	-1.27809757680628	-44.32576938058	
26201500	-1.01328610546318	-47.79771043123	-52.1137990362479	79.2856078778851	-51.659816522886	75.9999816486349	-1.24419754547321	-47.2651578335652	
26451000	-0.57900088699842	-48.9499178530158	-51.5560247270218	38.3826966624514	-51.5444083404273	32.5247820267073	-0.949094852376423	-48.0027390797551	
26700500	-0.31288164746715	-48.030115529873	-51.9789606530808	-3.08075088361162	-52.1559961213182	-9.0032604499106	-0.68814754354882	-46.0347094058893	
26950000	-0.412504195041069	-45.9485066172644	-53.2222111965871	-48.4346679791321	-53.6644163842183	-54.7477538643139	-0.648020875033759	-43.1469118843838	
27199500	-0.796374561727021	-44.5096248483357	-55.6011623016766	-93.3383155559835	-56.0283134242312	-97.7873510781664	-0.880465135238395	-41.396251150087	
27449000	-1.1757030708107	-45.2169909062484	-59.0430801793033	-129.770028368163	-58.5700328259441	-135.417420344835	-1.19067193508964	-42.2595220825964	
27698500	-1.26092590112229	-47.9710067388426	-62.9491156903805	-162.341656939256	-63.1710375382395	-163.431449470399	-1.28144336135101	-45.1235160379956	
27948000	-0.938331512374463	-50.5723948955464	-67.2560021550392	162.391733445208	-68.3377035624041	166.399895664713	-0.993278815814604	-48.0532286308704	
28197500	-0.483008907763951	-51.1397533632108	-71.5523863675277	146.251639839967	-71.0577251803652	133.160627087334	-0.534822905418127	-48.9789752263356	
28447000	-0.267511587443999	-49.9802427425656	-73.3669834124153	122.171908505316	-70.9982506334723	134.54716117091	-0.286566812636167	-48.1807936548725	
28696500	-0.44132351362649	-48.4193559378316	-74.2762248214489	-163.941283651286	-71.0395655061335	-166.289512684551	-0.437041137757064	-46.8375203777166	
28946000	-0.87905144644218	-47.9888489493804	-66.0752576904088	145.699456832992	-66.6537208888082	136.662302248999	-0.904403936431961	-46.4506933825356	
29195500	-1.25214533333929	-49.6941478344995	-64.1293121838293	133.045989645248	-63.3956896453244	117.567249216414	-1.39709926675799	-48.0559251115851	
29445000	-1.24605589649757	-52.7856913227123	-60.355307574478	95.1304363944626	-61.1564828861187	91.4479913805768	-1.5433132891514	-50.5096420518949	
29694500	-0.854015341153598	-54.795239584124	-56.5724361093456	60.7588512705366	-56.5247518111671	57.2871464876218	-1.29239061324269	-51.7330712499063	
29944000	-0.470669670202936	-54.5500906072424	-54.163984910613	20.0304107227265	-54.2401474031914	17.5411275361514	-0.848990494127066	-50.6910528478697	
30193500	-0.401741384968992	-52.7713311993079	-52.005225418658	-19.1034811929201	-52.3621675909449	-22.0929202905512	-0.609267656375794	-48.585676895531	
30443000	-0.70016867053287	-50.918263904306	-50.9195858567913	-63.1573384054016	-50.9670539558179	-64.966870247136	-0.741137804781111	-46.844878882075	
30692500	-1.16747953025882	-50.6919045944867	-49.9987620007871	-104.199331031532	-50.2698881438051	-106.68385200765	-1.10932816194749	-47.0906320846754	
30942000	-1.48145846758403	-52.9208309142396	-50.2249017621305	-142.37447028558	-50.1026531855676	-143.454490038723	-1.40949420764774	-49.7141925442082	
31191500	-1.34873784222507	-56.0659879521655	-50.2494315909228	-176.843148696005	-50.4035587171349	-178.721471293858	-1.30826568423249	-53.2026705850249	
31441000	-0.90730211495318	-57.5727442428023	-50.0823023130355	145.741794164486	-50.2304018397505	144.636585260935	-0.902318516018376	-55.0449487266536	
31690500	-0.55510118574933	-56.6382252048556	-49.7585626837038	111.969724564766	-49.8018001426249	110.176592131559	-0.545373790964523	-54.520474926036	
31940000	-0.539116926916573	-54.4795277171298	-50.1189446410933	77.3748182748763	-50.1142694287459	74.9577255119177	-0.544058283136389	-52.5790252119754	
32189500	-0.884005159674008	-52.8437726068808	-50.9317461791513	42.4196941915454	-50.9517545993657	39.9128051878023	-0.927729798181927	-50.7176480581524	
32439000	-1.34483643644543	-53.3640108428207	-50.8485097263239	13.6259608681269	-50.9062915146059	13.7673276144709	-1.37567881425301	-50.6481742584738	
32688500	-1.53807298073102	-56.0196532369923	-49.123888712733	-23.1156103753649	-48.7604998286292	-24.1082478823062	-1.65303439421554	-53.3846005992475	
32938000	-1.28744941221728	-58.7098210290775	-49.092691095814	-70.8520501509603	-48.8051742821271	-71.9600414736923	-1.54604669069047	-56.1080401903634	
33187500	-0.808347277814811	-59.4364744405162	-49.9660876052625	-114.539068844555	-49.6996941730297	-115.83827468058	-1.06933010249768	-56.5412184064977	
33437000	-0.484465715979496	-58.1379034891427	-51.0954682376851	-158.738762085582	-50.6233164647598	-160.186208839543	-0.645003893617739	-55.0638644138093	
