!Keysight Technologies N9923A: A.12.45
!Date: Tuesday, 05 August 2025 20:46:24
!Timezone: (UTC+08:00) Kuala Lumpur, Singapore
!Model: N9923A
!Serial: MY61181427
!GPS Latitude: 
!GPS Longitude: 
!GPS TimeStamp: 0001-01-01 00:00:00Z
!GPS Seconds Since Last Read: 0
!CHECKSUM:1327605642
!Correction: S11(ON U)S21(ON U)S12(ON U)S22(ON U)
!S2P File: Measurements:S11,S21,S12,S22:
# Hz S DB R 50
2000000	-0.100951410990173	-2.50337289621587	-71.5933921487678	-105.672170740318	-71.2111258525761	-108.200895198368	-0.139596849460548	-2.39076146112988	
2249500	-0.444485970915041	-3.20597732942751	-66.8899428396622	-100.61792253056	-67.2517035190987	-105.689886638771	-0.474394309780194	-3.08049777038362	
2499000	-0.603211920572231	-4.98048099917207	-56.2824192682111	106.138259823556	-56.505319231803	107.889535736496	-0.636819447154104	-4.66188680617478	
2748500	-0.424572713014424	-6.79467449664067	-72.2331523880152	88.6392725896922	-71.9100689291473	94.7809328330915	-0.458284158519814	-6.61968553940468	
2998000	-0.0740152375806866	-7.36965677589438	-70.2911481909945	129.947104585279	-68.3965817518427	137.559450261138	-0.107412320738444	-7.19503396444482	
3247500	0.165617894250813	-6.72869612531042	-71.8261540550121	86.378600699488	-72.0558995698349	79.5732641991191	0.122836490291153	-6.50717999136249	
3497000	0.114771780303672	-5.79348557472742	-70.4905499328045	65.4469516224676	-70.9836169164324	61.4600508990914	0.0671699135542066	-5.49742430090795	
3746500	-0.213104895853499	-5.59770823952824	-70.22658572377	13.677305544749	-69.175954663981	14.6451828609086	-0.247735119776747	-5.20566111919804	
3996000	-0.560019420143383	-6.7729589615087	-64.7002552380199	-15.560637103409	-64.1690932735579	-15.3729299985056	-0.587442289002321	-6.36957445657807	
4245500	-0.697149787443051	-9.08763320095767	-53.9173211023946	-105.459839761118	-53.8846034152354	-100.404146654225	-0.731835100915599	-8.56198631499669	
4495000	-0.487131727485602	-9.35340078028548	-47.1028229194776	99.3333497211039	-46.8478573440558	101.41699367092	-0.552373456246113	-8.89383502309335	
4744500	-0.0160206482816437	-9.57567022772552	-54.5593328348757	5.7827446659282	-54.654234483867	7.35440153420306	-0.079108060386715	-8.96685522323541	
4994000	0.176259405641642	-8.84398874355469	-60.0335640015074	-36.3844772940197	-59.7122342461626	-34.519342683449	0.125171695680797	-8.27654495785022	
5243500	0.0357261883402606	-8.032820610072	-62.3019836988974	-60.7647795304225	-62.1740993283845	-64.765430371989	-0.00465420044414296	-7.52209222082269	
5493000	-0.321257332546496	-8.23873803492746	-63.2148685358804	-79.6151553113771	-62.9412912217049	-77.1202085685794	-0.355346753628336	-7.75164020365965	
5742500	-0.604323384349276	-9.94716151729512	-64.2261623093788	-94.2133151713612	-64.1959782446044	-92.265181224349	-0.627198049385289	-9.44394409120465	
5992000	-0.560259337446123	-12.2163771559112	-57.997328060786	-78.8624943081835	-57.6580666536201	-77.8554473710962	-0.693553388021534	-11.0449701153331	
6241500	-0.236629729095941	-13.5766003247242	-53.5695896554106	-145.149458532157	-53.6177276612919	-143.710126286849	-0.306596311279073	-12.633911825046	
6491000	0.0752756842373286	-13.2213202112971	-53.5283501085902	149.987021995775	-53.7035679057722	149.822304535214	0.0350919501051665	-12.5239380485835	
6740500	0.164218304760255	-12.2641613970907	-57.3474909372935	118.201911812062	-57.1017691000717	118.630363928663	0.118322237367853	-11.608803308034	
6990000	-0.0762340948771527	-11.7194502375384	-59.250136973445	106.606245772702	-58.9607196693806	107.680634121534	-0.111696945676586	-11.0411927630002	
7239500	-0.472709706886645	-12.5284190184881	-58.4356527205097	104.459733628325	-58.1178539727547	102.556966554411	-0.477482568937804	-11.796249065989	
7489000	-0.717993890149489	-14.6736462054656	-54.3196765107625	94.7466212602391	-54.3900329301201	95.8357584949948	-0.687092344811952	-13.9880899669749	
7738500	-0.609007628656529	-16.7837435563253	-49.0424000824487	70.5862427625176	-48.9962711265657	71.0149508190158	-0.565754158255451	-16.2727786766555	
7988000	-0.309307831659629	-17.8363053724391	-43.4415045192255	38.4036434652207	-43.3620148294254	38.3575453071648	-0.252552950689363	-17.4047195185035	
8237500	-0.252487470469306	-16.2936543306995	-36.5447582355702	-23.537130145112	-36.4935215694421	-24.2668116571522	-0.114972410964456	-16.9142811401365	
8487000	-0.0874550642623319	-13.4789125608826	-35.6791286299734	-111.175007152673	-35.652565311731	-111.821689499583	-0.304372186973604	-14.7369497935022	
8736500	-0.275525315716967	-13.1101418920187	-39.5964426795963	179.080238860315	-39.6219546924174	178.422544433258	-0.535386632721672	-12.2487501920048	
8986000	-0.58647993913159	-14.4647599914356	-44.5948690727529	137.786825001782	-44.6016943997392	137.440669435282	-0.717303919616253	-12.986541112887	
9235500	-0.684184959116042	-17.0805947339052	-48.1944133291142	109.934162089366	-48.2501922622268	109.109154973764	-0.747404117939572	-15.459478433323	
9485000	-0.440845144278064	-19.3034330295599	-49.7883131451711	87.8473320709168	-49.8178980386719	87.2048383032163	-0.489125938442347	-17.7423710579981	
9734500	-0.0798182454236945	-19.9449212501876	-49.6292418118105	60.4722867008317	-49.5678377166938	59.6267520779189	-0.101007707268819	-18.4161068392908	
9984000	0.04842988274659	-18.9392471910444	-48.7879910701939	6.37140387242147	-48.6364358573469	4.19031091729909	0.113345456510356	-17.7447887343778	
10233500	-0.0413919150353239	-17.1238158681413	-52.5243560766939	-82.1295104942012	-52.4925721934672	-83.1295190981209	0.00310257221468168	-16.9754411211975	
10483000	-0.341229684935114	-17.1131956960113	-51.5843138339309	154.020939800703	-51.3109067792319	154.130627322011	-0.532234250730117	-17.6084161601128	
10732500	-0.663611902220772	-18.9530493388399	-49.0301541108252	9.88624730750228	-48.7835431770811	11.0345717237829	-0.880732878059769	-16.1818144048365	
10982000	-0.693596247817013	-21.5279171982966	-52.4950063596005	-46.8460431462942	-52.232731401924	-47.747727715842	-0.733410944042335	-19.1077366615632	
11231500	-0.392191310015821	-23.2586190070595	-54.3794622230563	-81.4946652704384	-54.7220622288409	-81.769573764577	-0.399308459253515	-21.1987595523539	
11481000	-0.0667312700272362	-23.3364620179356	-55.0150626562023	-117.160738368907	-55.2845652982248	-113.415268159086	-0.0224327688026074	-21.5345969576904	
11730500	-0.0179838696429705	-22.2529856379019	-55.8539810215134	-147.539604226244	-55.7695671861391	-141.434877974259	0.104254844730556	-20.7567595841186	
11980000	-0.371912088625719	-20.8113809486822	-55.4825516608912	-173.620076696037	-54.6540309884043	-168.398841900691	-0.105658606114865	-20.1350116468605	
12229500	-0.79590760464202	-19.7571088022294	-54.6116815897413	151.078556936721	-53.9648223540217	151.960284781615	-0.532091931945073	-20.9346191139005	
12479000	-0.932214667713644	-21.221118718487	-54.439202803938	108.480808841675	-53.7952922560195	107.9613805499	-0.924261664431416	-23.5362368667935	
12728500	-0.746329708824288	-23.8760397574087	-53.5909849619482	59.6257491155619	-52.7692682618846	57.4340408378128	-1.19327939403002	-25.8407477862858	
12978000	-0.335757083570332	-25.3585226791502	-56.7725022457555	-13.9975937151115	-56.0527569083728	-15.9215420191035	-0.914838152340004	-23.482908669268	
13227500	-0.000784356345766097	-25.1127186165666	-64.2125648020945	-94.3951394664338	-63.2275781666501	-92.2828581071363	-0.244356583724651	-22.1728282841281	
13477000	0.00190825886199082	-24.0448961007601	-62.1969626824382	149.090585416609	-62.2618992416656	150.931517133397	-0.0193969277562701	-21.3060628180203	
13726500	-0.336362090404441	-23.2448476225158	-56.4946941760819	77.1962244856743	-56.3377263486216	78.1762799501855	-0.210123623018499	-21.0569193637785	
13976000	-0.722860159619887	-23.7499899861991	-52.8452754219463	17.5332242480025	-53.0632952550706	17.4936651245289	-0.569887157312002	-22.304145981793	
14225500	-0.842579181902485	-26.3044940792895	-51.9032252130425	-31.312013746001	-52.0771010576706	-32.5125209655236	-0.759480016396736	-24.9938853048873	
14475000	-0.661255803076031	-29.1138795062475	-52.0977983307077	-73.1166975012551	-52.0155485114022	-72.8906418159239	-0.611023201326377	-27.699415418023	
14724500	-0.399743480176857	-29.6398956671652	-53.8594459457085	-88.7789536365073	-54.0231067545092	-89.3194394173122	-0.331990574762869	-29.0118664661844	
14974000	-0.164643927301156	-27.9988448452722	-45.2255132467368	-118.171653456517	-45.3321036667134	-118.209890893658	-0.381483310130498	-28.2049712503066	
15223500	-0.267350971529279	-26.312364615405	-43.2983046464156	159.042421769536	-43.3731936500457	158.764131050227	-0.500897656248921	-23.3583553853051	
15473000	-0.683123460072678	-25.1301172252446	-46.9844236523172	91.6233452412231	-47.0492404559758	91.575601924993	-0.490746410288354	-22.505519550156	
15722500	-1.00472834156249	-25.6083644560694	-52.4195236219883	41.2233807542672	-52.6736888170469	38.472109904505	-0.735205753946106	-24.5469428398556	
15972000	-0.953288869736393	-28.0603034842108	-59.537390522753	3.26219327701088	-59.2109002905031	-0.70910223853093	-0.789815179932447	-27.7580194712239	
16221500	-0.571315982932723	-30.3313818852083	-71.1226812812869	-29.3837565590891	-72.3029752735431	-18.4561109765092	-0.521890367871612	-30.446344988913	
16471000	-0.11955138542266	-30.8672177453133	-67.9876569417244	108.421593646438	-68.989629764658	112.69253595087	-0.17801024819441	-31.4962344818798	
16720500	0.0937055163002359	-29.9695700915845	-58.348952798965	93.4828142768448	-58.526771820468	92.0719673773576	-0.14210099231383	-31.3168427956368	
16970000	-0.0515335068131236	-28.9097015968693	-50.8724133023659	33.426933880108	-51.1966712420291	32.0720223491472	-0.730380904314799	-29.9176414128731	
17219500	-0.439767169926278	-29.2874332065201	-52.253838222699	-58.9716691608029	-52.5913851731161	-58.6177140778732	-1.23461508184623	-25.5020385607891	
17469000	-0.780205598144224	-31.6973070863625	-62.4625736219577	-85.9642103288944	-62.6975921754773	-84.1729433635286	-1.1658859175509	-26.3243800460987	
17718500	-0.796765593100982	-34.9332798889	-61.6677754411019	-57.81578764395	-61.4271652559779	-59.1183752651532	-0.965139920537471	-29.5308758447922	
17968000	-0.549523586910684	-37.1327468358262	-58.6958430416353	-75.2632462999832	-58.1315039746666	-74.0541803754119	-0.536845481561053	-31.8355079702474	
18217500	-0.40200207538318	-37.0552546105894	-55.952650558858	-107.715377433769	-55.769278997658	-108.857698873155	-0.115424443052512	-32.1349247371091	
18467000	-0.60905080395168	-34.3056904512473	-53.8088742525841	-148.931842640075	-53.9272997897738	-148.394637368676	-0.0037089390035512	-31.3031526683023	
18716500	-0.876295025973758	-30.782342430884	-52.9340995877986	166.876053774291	-52.8222228772047	167.452103010309	-0.271724428008483	-30.7796109553457	
18966000	-1.15886008995852	-30.1526360813921	-53.4951336835152	113.586856800101	-53.636386379236	114.869011958488	-0.815905985782779	-31.8600684389785	
19215500	-1.28692883060741	-31.9536991440558	-73.4507700503729	-119.201736672116	-73.1095696098375	-114.903855399372	-1.43089355674104	-31.8840443953543	
19465000	-1.00990366085853	-34.3864576184446	-52.5683985958723	84.1129030939797	-52.1495446911084	82.0598313856345	-0.833848052207552	-34.8290327505031	
19714500	-0.456151465272415	-35.725025976655	-54.0809560077024	22.3145078315735	-53.8230628580979	20.7963381937603	-0.528707813313176	-37.5794038570421	
19964000	-0.032735903113596	-35.4141944676794	-57.050943357717	-21.4056793398382	-56.7302418161717	-23.3503661730689	-0.429485912329125	-37.3441449432382	
20213500	0.00919983460593456	-34.3804380445516	-61.2655594565299	-63.0970568450238	-60.7754313595721	-63.76008133267	-0.675110621120533	-34.6443425824317	
20463000	-0.306336453069117	-34.1006949994687	-68.4868305822904	-87.0433020002473	-68.5671837626266	-86.542004585737	-1.00586652941206	-31.3559202741137	
20712500	-0.73314626531795	-35.6488977825085	-72.288177797812	-16.3554764615743	-70.0543290002812	-17.0530269246389	-1.22398959403072	-30.8660441768048	
20962000	-0.927734617086814	-38.8011146337636	-62.2033781353242	-26.9333075524119	-62.3516789198944	-25.5903913131093	-1.23214210080154	-33.0612817143759	
21211500	-0.754086696108744	-41.6664861034768	-58.1275953618098	-56.2033833909133	-57.4387979271379	-59.3289898373571	-0.92195672969582	-35.658049605949	
21461000	-0.443621219022329	-42.433346411112	-56.2523050693748	-88.0703955493563	-56.0527890101113	-89.0002026749253	-0.426539017381602	-36.6661583163361	
21710500	-0.326216828810696	-41.049139090341	-52.5130386527533	-113.301313912774	-52.0537837739127	-114.306108921353	-0.106750985145561	-36.1609458684345	
21960000	-0.57180384339577	-39.2870129676664	-49.0031490946493	-155.780054164985	-48.8189826443907	-157.23363451522	-0.154492719956946	-35.2342507735883	
22209500	-1.16722523646034	-37.8457446810261	-47.89913540081	157.515630141295	-47.7303738616968	155.992657976826	-0.526420624497707	-35.3617004704105	
22459000	-1.56444046699592	-37.6608036603156	-48.4995432962069	116.607608957188	-48.365903336535	114.570196810666	-0.927337923840584	-37.4469086181579	
22708500	-1.46295095937809	-39.6339149897573	-49.1414859690487	82.6265477089086	-48.7897306833356	82.2359049148073	-1.06793522830092	-40.7313803271383	
22958000	-0.988063900400503	-41.4725655909737	-48.4600680513324	50.3103472118741	-48.034479098771	50.425096648245	-0.908000233047633	-43.1819105135198	
23207500	-0.466992419533558	-41.4674173897453	-48.2590405438779	3.82006074913324	-47.7828661842375	2.83766054400894	-0.738332788061945	-43.0491622834329	
23457000	-0.209642603417038	-40.0917778798617	-52.6126409232392	-46.5580462043948	-52.2344937440233	-49.2782206502029	-0.817645738027586	-39.869543747506	
23706500	-0.345779341782225	-38.9752964808138	-58.8762208892368	-45.9314072939146	-58.671883627771	-53.670765819271	-0.872099575348759	-35.3745053729199	
23956000	-0.754827077325207	-39.5088821384648	-57.5513483364316	-46.861147513905	-57.2616053528356	-49.9646188936506	-0.925553485070575	-34.7626602208836	
24205500	-1.10287923922077	-42.1788923447554	-56.1579048812783	-63.9178820908725	-56.3698192310644	-66.8027836958275	-1.06544816421313	-37.6218879538842	
24455000	-1.10233888477639	-45.5508609036137	-55.8716235003396	-80.5270205630249	-55.6652400196824	-81.4408570936335	-0.95921049930722	-41.3690321403222	
24704500	-0.830358094765948	-47.3634143284526	-53.9249169325098	-97.6199308233014	-53.7501644550461	-98.8520733724961	-0.567611327591806	-43.5473468374378	
24954000	-0.624565367305775	-46.5009930753299	-51.3383965001866	-125.721976402716	-51.2680040692024	-127.036834284436	-0.245374584608661	-43.813097897141	
25203500	-0.681716426117436	-43.6704508996971	-49.1382880226003	-164.939627697043	-48.9492926040348	-166.600369571761	-0.275335144098963	-42.9154977506336	
25453000	-0.951900894184567	-40.8780258317935	-48.0905820982374	150.496327595728	-48.0664828637436	149.325258031976	-0.731602870792611	-41.8997565990607	
25702500	-1.28311807214252	-40.5499910232084	-48.7316586040191	102.117647388718	-48.3338208224791	101.318009613844	-1.39886459856453	-41.9394891209745	
25952000	-1.39856444815573	-42.8334144002853	-50.306229936484	56.021720797237	-50.1019544375214	53.7388290034731	-1.79826247072021	-42.9195249335438	
26201500	-1.10597603581046	-45.6893662393092	-52.9132195900805	13.8278822842543	-52.9501082654542	14.9052777486193	-1.58010276407659	-44.2279714074008	
26451000	-0.567037992909588	-46.9394637101602	-56.0003565675289	-16.2171525592529	-55.5830252663996	-19.361421824322	-0.982112945858429	-44.5699868447212	
26700500	-0.180297318723771	-46.3655252049038	-58.1380228530703	-49.6607975221248	-57.834970775701	-47.5967695824403	-0.462674650490337	-43.4578888955588	
26950000	-0.177668376879101	-45.0430667138336	-60.7848217730198	-77.8929218594291	-60.0362034143347	-80.4870288379659	-0.307282613200865	-42.0600806996135	
27199500	-0.532962772532694	-44.6170223836586	-62.0439739089625	-118.001952596431	-61.3083983057779	-109.277795710539	-0.562263131089293	-41.6628280201645	
27449000	-0.968170032480692	-46.1103037557976	-63.302485619881	-143.997095800224	-62.48953499679	-143.453666495111	-0.96301563519374	-43.5179852473253	
27698500	-1.13410088458233	-49.2120711501351	-65.2359536658318	-174.405760045754	-64.7654060095041	-167.194926671946	-1.20006105674498	-47.199555884888	
27948000	-0.887330466429544	-51.9310780213461	-65.2950696544925	152.233462875392	-64.6506539694815	166.981039070999	-1.19699629277086	-50.672000796386	
28197500	-0.511182447495788	-52.5487380664946	-62.0364928818172	113.784334295526	-60.6548541659005	120.464983173767	-1.15351539094746	-49.3799888996427	
28447000	-0.392501601939636	-51.3433717080748	-61.8069214453789	64.1291264890217	-60.9650323116341	63.2006042205559	-0.62918683387566	-45.3209080871633	
28696500	-0.678936213607766	-49.4528281060236	-65.8003537498437	22.8678876400862	-65.0157758931649	23.8926106514305	-0.438321910479897	-43.9587970547505	
28946000	-1.20570089554459	-48.2956681453804	-67.5425232446017	-5.79143431122461	-67.4147721267897	-2.36679959856162	-0.725450430333133	-44.2362417560871	
29195500	-1.61345306296973	-49.0693397239536	-66.2141475421857	-16.4137792560424	-64.9595913929888	-10.3763989495589	-1.09438499312642	-46.5972886314765	
29445000	-1.5647375224959	-51.2105440427775	-61.6158063210101	-44.3685688258559	-61.5439085925839	-41.653166569237	-1.16599610307957	-50.0639375370849	
29694500	-1.05625337226755	-52.556663416243	-60.6218495614852	-74.0101526301426	-59.9279548144242	-76.0351840960597	-0.915770090534564	-52.5658409437216	
29944000	-0.513735239348629	-52.1300308971285	-58.9757527996576	-117.392507016425	-58.5115609015343	-120.668924402927	-0.59615259408756	-52.8045429994475	
30193500	-0.285935902367077	-50.6915998626165	-56.8336976173384	-159.614844649462	-56.8440958790778	-162.819716107356	-0.585943482331896	-51.3832086395918	
30443000	-0.476865752237403	-49.6088946153948	-55.9941760550018	163.547174460715	-55.8304253741013	161.980947960755	-0.977763662430624	-49.4236208793917	
30692500	-0.924212629860255	-50.2674714883453	-54.7011250974898	125.732048336875	-54.5691718727317	126.242789072155	-1.55437334313759	-48.6046184400177	
30942000	-1.28895373313751	-53.0982098362188	-53.7486854208871	88.3393991037561	-53.7108083677769	85.350619462652	-1.94504924388413	-49.6385767081833	
31191500	-1.23085539302844	-56.4785431692595	-52.5274355462475	48.3903699253137	-52.571066518391	44.1974567128138	-1.77793354587417	-51.6428713985965	
31441000	-0.852478815087415	-57.9662689330854	-51.8433244622732	12.4060343208893	-51.8028377801736	9.34543606091002	-1.24942039106441	-52.5813528320489	
31690500	-0.532704810814148	-56.9331429301087	-51.3974773588095	-19.5013748894465	-51.2318131659266	-22.5210721906268	-0.665553025499486	-51.7331333736344	
31940000	-0.52388902168351	-54.7668815840459	-48.7003487872832	-56.7594758937064	-48.9301297136476	-59.4871638139165	-0.567888638829228	-50.5173119220161	
32189500	-0.879550449950025	-53.2628929611509	-48.6522310629866	-112.280526241933	-48.5733711804498	-115.866441182486	-0.889786079984803	-48.2184148509772	
32439000	-1.37496645282025	-53.8599063819012	-50.3293287499807	-151.69015633534	-50.3646918146326	-154.6005512081	-1.22446161985741	-48.529034453961	
32688500	-1.60086625625129	-56.3470371914399	-52.0102914619729	177.0083997387	-52.4863437325389	175.003744383452	-1.41913055244356	-51.4437422699028	
32938000	-1.34585020591429	-58.6992358543026	-53.7888061172942	146.304612778564	-53.6631015551093	145.427843359619	-1.20136943260309	-55.0316094355045	
33187500	-0.820045170052089	-59.2389447567818	-54.8837400481407	120.311964109498	-54.883681286949	119.548346994077	-0.724076516689413	-56.7547930655052	
33437000	-0.445162849906911	-58.1095277548093	-55.7213263916813	98.1755533896358	-56.147296541733	99.5470557299041	-0.381446554483127	-56.3794718253653	
