!Keysight Technologies N9923A: A.12.45
!Date: Tuesday, 05 August 2025 20:42:46
!Timezone: (UTC+08:00) Kuala Lumpur, Singapore
!Model: N9923A
!Serial: MY61181427
!GPS Latitude: 
!GPS Longitude: 
!GPS TimeStamp: 0001-01-01 00:00:00Z
!GPS Seconds Since Last Read: 0
!CHECKSUM:1473322048
!Correction: S11(ON U)S21(ON U)S12(ON U)S22(ON U)
!S2P File: Measurements:S11,S21,S12,S22:
# Hz S DB R 50
2000000	-0.101934004431765	-2.51625295337452	-82.4187007963241	-150.936809415079	-85.5832024676797	-107.354828186837	-0.14179132770285	-2.40788747521231	
2249500	-0.445447329946233	-3.22955075731153	-83.0952421381018	-103.081542613647	-83.6631725389498	-115.016736586429	-0.477204383536428	-3.13667858626218	
2499000	-0.602287692875882	-5.07560863229495	-81.4681036284321	-53.5673145925496	-75.3129899519212	-63.7054912421187	-0.629536304277871	-4.81025754475557	
2748500	-0.427786014702931	-6.87032837826784	-86.0084623070142	-109.37950987053	-82.6743810270681	-103.423122391624	-0.461126240369061	-6.69019620926899	
2998000	-0.0742997457755736	-7.4737441677806	-103.189739492516	-106.865357426368	-84.3966727830841	10.8186713545443	-0.110452216612647	-7.28613599617246	
3247500	0.16083433416281	-6.85540936241713	-81.3764975705606	-125.293487171892	-83.6738851126793	-129.061500095751	0.116593858921846	-6.61049386525408	
3497000	0.105584750062671	-5.932252116913	-73.8004579866547	-110.01367404796	-73.518726962803	-102.95685228885	0.0627831801469723	-5.60516916554296	
3746500	-0.237816386229046	-5.76096747392663	-65.8897701323751	-124.777259634529	-65.6758427446967	-125.516221650951	-0.246458898037168	-5.28284655488171	
3996000	-0.569333722488559	-6.60559789741135	-69.9918467306282	-177.006198893664	-70.071903880618	-172.833481975999	-0.566213913006132	-6.36475921605359	
4245500	-0.636222921297087	-8.97641959679865	-60.0432676802686	-119.844871284336	-60.3154259122789	-118.942871978112	-0.638892553668132	-8.51501315009448	
4495000	-0.557192951316069	-10.1009010249968	-44.2887472439182	163.361740199017	-44.4404076578047	164.992517790938	-0.437455496502421	-10.2388818158796	
4744500	-0.037265589931313	-9.57832815651513	-42.8259146258463	56.0509366153934	-42.8312914153644	56.7364692784231	-0.209744469123534	-10.1198122583811	
4994000	0.162717324559201	-8.78635934943066	-48.530087918573	-29.3219879810887	-48.4523333263457	-29.3987800998394	0.0453865402500202	-8.1274130771485	
5243500	0.02971368129882	-7.98153580825654	-57.9676489349151	-57.2675283030594	-57.8342810717094	-58.953443690511	-0.0266827203940481	-7.6747867327868	
5493000	-0.327192682939554	-8.19302896246271	-52.0719491522746	-8.53257370643648	-51.5424880638701	-7.59095197818864	-0.566085576838062	-8.00100734294015	
5742500	-0.609479522193814	-9.87904077590495	-53.2602950324367	-80.9536383458987	-53.1801983672804	-80.7040148441213	-0.665669165560634	-8.69289515139682	
5992000	-0.568401296717615	-12.1015989484547	-49.9709717677504	-96.8529815999554	-50.0429406243211	-97.8598460772937	-0.612604664947514	-11.0113320018729	
6241500	-0.253612838397556	-13.4920342635376	-48.2689712411992	-140.13478305368	-48.3113918440179	-140.111722903663	-0.315486794506999	-12.3106030045433	
6491000	0.0543134694947123	-12.9643854189031	-49.8253021875969	156.184676955286	-49.9340216558971	155.390419794291	0.0252710275151681	-12.1034636212711	
6740500	0.159387135723891	-11.9702348061171	-54.7340056964108	125.56528288739	-54.8264972492742	124.816935765409	0.11626718817802	-11.1602106185319	
6990000	-0.0723944618448684	-11.3842103536722	-57.8358827415352	113.405631114686	-58.2626032116138	111.849294567269	-0.108410862345213	-10.5715499937718	
7239500	-0.457396588788524	-12.117986126099	-59.1766094610009	105.65073923044	-59.3664925773953	108.426916575652	-0.469169190518966	-11.3072783497508	
7489000	-0.679865962834003	-14.1876691569127	-58.2127846069597	102.513909917839	-57.8313874010326	104.237957992032	-0.684254152191866	-13.4733367328153	
7738500	-0.543486899507736	-16.2520225926463	-55.3789807889681	87.0882575047589	-55.0216149098898	88.5560373496694	-0.551275138014139	-15.7186537089495	
7988000	-0.172451933689535	-17.1730224392527	-52.454633471473	72.3414790994218	-52.3883351956576	73.012890370055	-0.207813282081497	-16.549182998675	
8237500	0.0827357434933075	-16.8398720148537	-46.9952731669641	50.3598314698258	-47.0681772929146	49.9538306723464	0.0291408627264141	-16.4630397683416	
8487000	-0.0527466925257758	-15.9672350952403	-41.851842531287	-49.7697708180769	-41.5684504621113	-52.75278885285	-0.234663089381557	-13.265894542628	
8736500	-0.616293970811005	-14.2886177900021	-51.6702054868429	-54.4880537515916	-53.5309876893167	-50.8907289328086	-0.243657033811421	-13.2829412784575	
8986000	-0.75507179906408	-13.7773390083351	-49.7415161818802	-79.7569252067726	-49.8471207044819	-69.4335115825831	-0.587061783210338	-14.7136082105993	
9235500	-0.742369633149951	-16.5842676494058	-49.9013258990596	-92.7559666475033	-49.1495344499275	-90.5161834917991	-0.703862648297831	-17.242685486843	
9485000	-0.468397163152498	-19.0238593872743	-47.7615860525447	-108.131038673514	-47.1786832257392	-107.771902849473	-0.497740973441619	-19.5494715006759	
9734500	-0.0929208238511683	-19.82884245872	-43.7585696086855	-130.556556300764	-43.3623349466841	-130.549068666741	-0.179996233650667	-20.361268388021	
9984000	0.0262780341766907	-19.1523796973091	-38.0403887890688	-175.273837246487	-37.7026916625141	-175.639894172112	-0.135401965599501	-19.6800244482176	
10233500	-0.14363841878281	-17.1044364056947	-36.194789129416	106.499007848698	-35.9213043450364	104.949098863377	-0.390390242300032	-17.4156338985848	
10483000	-0.42106290785622	-16.6586298489823	-39.3808903006232	38.1381465801963	-39.3695399381536	36.5482321796112	-0.79573194381502	-15.7883456613205	
10732500	-0.70762358175961	-18.3434894928588	-44.8006999731358	-12.3638012085819	-44.856083577464	-13.3598435017822	-0.983496222803055	-16.095664478788	
10982000	-0.708564482811228	-20.8744962240152	-50.9189684488769	-41.2672000536954	-51.0153100171096	-42.6919592087361	-0.864932975575864	-18.3226742269362	
11231500	-0.373561278819865	-22.5552919234916	-54.5371092988771	-53.1157977916307	-54.7879037923953	-50.9162791381457	-0.472979955995206	-20.2405294918104	
11481000	0.00210336211409969	-22.6574447191828	-57.4023896864472	-77.7098027609629	-57.3934121201221	-75.4099535469774	-0.0526608503348501	-20.5906488100174	
11730500	0.121258794114135	-21.7513545281035	-65.119946308994	-106.954934918851	-65.4895489893182	-83.8727425332578	0.0925796401931866	-19.920530962891	
11980000	-0.14754111399486	-21.1995815257853	-58.5527103014537	-52.7836008208568	-58.2655067946921	-56.0792848436204	-0.134084215085681	-19.0253972342609	
12229500	-0.639159437405498	-21.0349334615218	-60.7497027463449	-117.097605084522	-60.3257664245863	-116.197113667253	-0.497762690764042	-19.8762075529719	
12479000	-0.992897127959807	-22.9542694145321	-50.1945956652421	-7.31250011766013	-49.5978772583258	-8.59341893928678	-1.20089916634673	-21.7633505974206	
12728500	-0.939114793829188	-24.4998802922514	-48.9151454854139	-123.981105439916	-48.1800742006812	-125.635874872206	-0.774360977111114	-22.0731652749254	
12978000	-0.477148559643197	-25.0070972129362	-51.1007580299492	-172.374983694501	-50.6344371763328	-174.727903893117	-0.336625269185347	-23.8419441125045	
13227500	-0.0511523642824949	-24.4493077462912	-52.5596713770423	152.630912005869	-52.3387727798072	150.001357105653	0.00892347915502443	-23.7185148862081	
13477000	0.0335344597556895	-23.4152198373558	-53.5102856484691	125.774421175364	-53.311686488348	123.477970635088	0.0674677312123966	-22.8061724324868	
13726500	-0.237256296900813	-23.0617363366992	-53.6567537798281	99.7195302941577	-53.6315557780674	98.1264279395511	-0.20246892754405	-22.3365731845404	
13976000	-0.671497413664525	-24.3401444391133	-52.9867541235696	68.8735667410305	-52.8835383156864	67.2970246444681	-0.596851868032228	-23.430704260154	
14225500	-0.962271539700509	-26.6989024956823	-51.3108953521182	22.3001356013388	-51.0155218334798	21.6779813638594	-0.80196705108671	-26.0235837784327	
14475000	-0.715990717945496	-28.0867796551713	-56.7725938115978	-47.2938924171308	-56.3316626292443	-46.3406444744082	-0.659140287414803	-28.6137793295151	
14724500	-0.276004636641544	-29.3155021836082	-61.6843728399865	28.9046046954447	-60.142582551893	23.8599049371825	-0.368024795306038	-29.8024177505365	
14974000	-0.127109063093205	-28.56057196394	-51.2097642995609	-22.4319034488067	-50.5571685708788	-24.7410826290285	-0.311067821835343	-29.3449471271309	
15223500	-0.274555014032007	-26.9513096420362	-48.1660100677506	-98.0278231283777	-47.5444673524096	-99.2762413443824	-0.730119832675631	-26.8654931853604	
15473000	-0.82062864836419	-26.4868627032241	-49.2942421007577	175.200187918153	-48.5790876944199	174.859929034169	-1.12229555853045	-22.9774818532323	
15722500	-1.38405203232495	-24.9226565743989	-57.2512814895332	50.6076004016049	-56.1526858803449	58.1824916580447	-1.13075727371898	-22.5973327544013	
15972000	-1.03290535538545	-26.6123701066127	-64.8138445156	-100.15867701398	-65.1365850192691	-98.0514481595536	-0.926109785618703	-25.9138689651716	
16221500	-0.567185443968925	-29.5999644622442	-67.9321938189258	-166.912897900763	-67.0726797897761	-161.520631262581	-0.567814599986421	-29.2129119285409	
16471000	-0.107280172884418	-30.5452280086586	-71.6519863531731	-175.511396103452	-71.6247015727772	-175.650794857933	-0.223087793892351	-30.897009770769	
16720500	0.100583257464651	-29.9236860775828	-61.5966506214484	-155.224787879198	-62.1499618098138	-157.33883476993	-0.464497438911114	-30.3445023133633	
16970000	-0.0732014414983052	-29.1078654874877	-57.7702013566396	139.642698062796	-57.5924462634918	138.973853622311	-0.564906579907285	-25.0752808857831	
17219500	-0.525438740919073	-29.5407166429628	-58.2659064004307	90.8312152441578	-57.7856768873728	88.0935043846237	-0.657693293344373	-24.9206373802335	
17469000	-0.943530313363684	-31.5521581785733	-59.1934550116475	38.8223020191157	-58.7443451273524	35.9517303822726	-0.879185248140797	-27.0754563294373	
17718500	-0.971125837888466	-33.9028603715256	-61.2964170999923	-23.7796520893386	-60.086111604276	-26.5408971527804	-0.824752749288857	-30.1240304444488	
17968000	-0.624407653216623	-35.361838003358	-64.5476028876426	-99.7374853827127	-62.2043283493962	-99.2598851081427	-0.462349623098879	-32.1383281678443	
18217500	-0.304319124725008	-35.076432013243	-61.5415097635708	-176.552212898036	-60.2372574912644	-171.761250580472	-0.0680639276780548	-32.2228418776094	
18467000	-0.322190530847591	-33.2658119998466	-57.6081993513113	134.742244954136	-56.8206483872207	139.31592097466	0.0422129030331474	-31.2341857879066	
18716500	-0.651106473653552	-31.1624470916239	-54.7031704854005	94.9758286931266	-54.2051673439747	97.7223600527711	-0.19902091198961	-30.5923650836346	
18966000	-1.02600413567354	-30.5749403785598	-52.0064186387817	58.7496875859734	-51.7614994933089	60.017583011802	-0.645335384911782	-31.6331088198764	
19215500	-1.16988412638509	-32.4461683062799	-47.9666216059494	4.01333711904166	-47.7741964138739	7.04794786507998	-1.11877540497561	-34.732736568676	
19465000	-0.933663856408909	-35.1209261711725	-63.2711260104905	41.0702440199954	-61.7109837873463	43.4939553966635	-0.867460273544321	-35.9239594414537	
19714500	-0.458821074479368	-36.4548987130648	-49.9889030560997	6.50312690790946	-49.548152211703	7.10854672412468	-0.589718015137583	-38.673291295266	
19964000	-0.0882450148577503	-35.9266370714207	-45.4009012997931	-28.3665703413306	-45.0817099385384	-28.3288466354974	-0.565891637684502	-38.4045451549656	
20213500	-0.0759653503266966	-34.6729568206258	-41.9041013586075	-71.8211288505786	-41.6999081987041	-70.4920939983605	-0.908775459457302	-34.9664145573522	
20463000	-0.416087386187211	-34.2236969100333	-40.1976282176027	-117.924928061586	-39.9324530720192	-116.336142003074	-1.15550852867165	-30.6084071947219	
20712500	-0.881830008094716	-35.5544083435371	-39.8152110726047	-159.20119116017	-39.4842224079333	-157.177032453161	-1.2409025809149	-30.3723331090262	
20962000	-1.11056712770457	-38.169004443111	-39.6914280522045	162.069265309281	-39.115198752452	163.104292992326	-1.2288058993608	-32.8965926618861	
21211500	-0.884397651450814	-40.3206800187399	-40.0195060775238	125.822769693996	-39.599824757895	125.483378726777	-0.906735707643267	-35.6462995619461	
21461000	-0.436238881088231	-40.7723853294579	-40.2948740646298	90.8776422104916	-40.0002256006816	90.2871187774955	-0.40108525974604	-36.8071775471813	
21710500	-0.177401213762634	-39.8600470105011	-41.2064301379114	58.539028034811	-40.9469278150279	58.1903201909522	-0.0847019965552688	-36.5304289953513	
21960000	-0.34523753931807	-38.8116987947895	-41.9684097080563	30.7299694336058	-41.6438091628818	31.0373875626526	-0.163188269476865	-35.8413300992448	
22209500	-0.888134995946141	-38.6721425731761	-42.1746291686094	4.14942399312356	-41.7976041596521	4.87531367627299	-0.595169969024393	-36.1240645936504	
22459000	-1.47537089190575	-39.8559127330315	-41.9208833356625	-23.3935474668343	-41.37446560288	-23.1868112291524	-1.08270162183259	-38.1362200821295	
22708500	-1.61927367626593	-41.3369672303688	-41.5027089363798	-56.2976662536047	-40.9699892247351	-57.3102705260754	-1.33510117449983	-41.1109803750333	
22958000	-1.19004823994022	-42.1294870087913	-42.4191179706069	-89.2715955506417	-41.9806936752326	-90.9820434684818	-1.3484021115546	-42.1022220620637	
23207500	-0.686444740646466	-41.6651659007899	-42.0341787578047	-118.9713833198	-41.6970477730455	-120.835376834231	-0.910712063163301	-38.9377900088215	
23457000	-0.457031957494156	-39.3959143917968	-43.2320890076288	-163.362514832666	-42.9218216867968	-164.81932547224	-0.396953472665758	-36.5763038680616	
23706500	-0.513912359206023	-37.4038470971634	-46.7363730476662	165.293293704116	-46.5590972874754	164.463337695301	-0.355275004947461	-35.5706430701075	
23956000	-0.818818039923926	-37.510695858114	-50.0208317454349	151.439096487683	-49.8526823973901	151.408643752879	-0.669368371180124	-36.2352637043234	
24205500	-1.0771629629259	-39.9779913989605	-51.6732551102462	147.134804215291	-51.2947785428125	146.393547743327	-0.960085584446411	-38.9649557697534	
24455000	-0.986357669715282	-43.2711615896535	-50.8035247761288	141.981692086446	-50.6070091590377	142.094307471893	-0.919862195865116	-42.4523225960474	
24704500	-0.599419671232085	-45.2105277048924	-48.7298668096128	128.374259414548	-48.5280849574271	128.599487607035	-0.56788271054946	-44.4751252443121	
24954000	-0.252304492732688	-44.9147689359678	-46.2281599698534	106.698091122109	-45.9992949354016	106.614759841724	-0.278616862682087	-44.6753819631723	
25203500	-0.195678432831128	-43.3141573184462	-43.9739440101911	77.5080256407447	-43.7437682758659	77.1134222316375	-0.353500795524593	-43.7832836750447	
25453000	-0.463946777451079	-42.0432828052147	-42.6152905284921	41.2509756533062	-42.2315539052348	41.8441805592402	-0.881351215893331	-42.6975410197456	
25702500	-0.875576977250846	-42.9158984719824	-42.0231951669916	3.37326648269591	-41.6927952922524	3.74927441257763	-1.62456375857259	-42.1936385293751	
25952000	-1.10842252804199	-45.9569587832767	-42.4573256646322	-32.5972306188938	-42.0386256382345	-32.4165858626168	-1.98249742677906	-42.3154475012341	
26201500	-0.957513134348202	-49.2122630004585	-43.277440810615	-64.0271276176675	-42.9535881314958	-64.3467729707849	-1.63832693553015	-43.5323816745533	
26451000	-0.583504892698985	-50.6275857143127	-44.2702447823249	-90.9246574325808	-43.8507577648775	-92.1378900845614	-0.990261901682056	-44.3768787748246	
26700500	-0.406238357953803	-50.0376667395941	-44.773390217657	-115.48339081216	-44.3230038193234	-117.447197388927	-0.509901077618445	-43.5542867654613	
26950000	-0.667469693563108	-48.2203046823805	-44.6401235055603	-141.132441411328	-44.2811485159705	-143.1129717369	-0.408663220537179	-41.8917533156531	
27199500	-1.29291994063795	-46.2831445240036	-44.813097467605	-170.281309400324	-44.7463131324483	-172.297680752612	-0.617832076191016	-41.1101153127613	
27449000	-1.82796394704394	-45.3290212687646	-45.4305310176077	165.421658895177	-45.1300254402463	164.43406758598	-1.05509718533898	-42.7476540912614	
27698500	-1.84602316788352	-46.4436567049286	-45.7769431973988	138.202010528819	-45.6768329605711	138.025002369009	-1.23355396679612	-45.7255012889395	
27948000	-1.38188401367762	-48.3869179168887	-46.763994720314	116.577040864724	-46.6402596152314	116.096647686623	-1.08894052636176	-49.0108893159251	
28197500	-0.800423417208793	-48.2341777198669	-45.1638160719742	83.5473560641089	-44.9787275358355	83.1579399512216	-0.888205095797042	-47.4683823618921	
28447000	-0.334247805298286	-47.0447558345487	-47.7138754935305	76.6066142447402	-47.1732529623574	74.7155683829858	-0.269726223099873	-46.1821341515484	
28696500	-0.39816294816302	-46.1564797260765	-45.9608966645331	49.7583038701032	-45.6373048282733	49.2338297651454	-0.297531513571757	-45.4908784825375	
28946000	-0.815491966379598	-46.1032859149765	-45.5900079875177	17.2792461281842	-45.4041236506005	16.6455916999282	-0.702179131177919	-45.7016256749916	
29195500	-1.18904970583687	-47.7494879774104	-45.9543975749371	-16.1955654708465	-45.6560379755469	-17.1801594721191	-1.13830784242559	-47.9089856663812	
29445000	-1.15123514765559	-50.6895233373983	-47.1706349604682	-46.2942043034995	-46.8685218768825	-47.479071080269	-1.25716012181313	-51.2042639368465	
29694500	-0.7045376942138	-52.7887356951386	-48.599574634254	-71.9755722786859	-48.4585103353626	-72.3352626478533	-1.05910552069675	-53.4848903300187	
29944000	-0.248612963378045	-52.8733919587703	-50.1969765664793	-93.2292684973355	-49.594224843629	-94.4047108090491	-0.792052972498995	-53.3166799046097	
30193500	-0.100836159766126	-51.7289259859772	-51.3113021874616	-115.006661318248	-50.804945019595	-117.545272670977	-0.807362534593116	-51.2560926686117	
30443000	-0.355070421762978	-50.8172004440316	-52.2265200180103	-135.896766681413	-51.8983656194933	-137.947864863888	-1.1678780541255	-48.6335640071365	
30692500	-0.851981336046247	-51.5961861697132	-53.0471534469775	-152.089829236974	-52.6380911924712	-153.390925416223	-1.67126351168854	-47.3699170450905	
30942000	-1.2648108144687	-54.5442859280028	-53.2536242229786	-167.617568872812	-53.0239110650764	-170.105323725961	-1.96828755293461	-48.3253590403432	
31191500	-1.27143452687202	-57.9709740120899	-53.0854444753528	171.811823434535	-52.7791244286308	167.269232123001	-1.72412709691669	-50.6473040235047	
31441000	-0.984129296780841	-59.2903076833155	-51.4337284590061	148.402203678355	-51.3193758018537	146.264014402902	-1.19434874392553	-52.3461786059077	
31690500	-0.749633903751253	-57.7071903089547	-51.6470189662042	112.098207405602	-51.5360652985075	109.487899958744	-0.647991268264602	-51.3897637184282	
31940000	-0.771495691099004	-54.7394414670731	-53.7225142948471	79.7584833356444	-54.1047830714208	76.2635901404367	-0.502223117273681	-50.0300123634509	
32189500	-1.1001727998283	-52.5171138794851	-57.0369474127703	68.5188558599746	-57.9208565783847	69.8051574928458	-0.817682640662066	-48.4310427427097	
32439000	-1.5439614155085	-52.6089100081119	-57.9184052297344	51.9780632957162	-57.7213937965463	52.7251874940283	-1.2202450203446	-48.758562082459	
32688500	-1.69012720354012	-54.7520392386416	-58.8580577699863	36.4444468507675	-58.5196278950079	36.178891027375	-1.43421232558146	-51.4044136653804	
32938000	-1.31800919588341	-57.3223034867484	-58.7113818871392	21.6270923635832	-57.9977963081982	23.6819657321326	-1.20873068445993	-54.791661159259	
33187500	-0.735929889337034	-58.772890642533	-57.7956081818793	7.29479721388338	-58.1359544208838	6.28599547617733	-0.715341915468334	-56.3976983752182	
33437000	-0.454221464716816	-58.5763083052993	-58.1367549666465	-13.7894555704061	-58.7268773325707	-11.5052520288683	-0.34928214229633	-55.9508173391584	
