!Keysight Technologies N9923A: A.12.45
!Date: Tuesday, 05 August 2025 20:36:24
!Timezone: (UTC+08:00) Kuala Lumpur, Singapore
!Model: N9923A
!Serial: MY61181427
!GPS Latitude: 
!GPS Longitude: 
!GPS TimeStamp: 0001-01-01 00:00:00Z
!GPS Seconds Since Last Read: 0
!CHECKSUM:0880685954
!Correction: S11(ON U)S21(ON U)S12(ON U)S22(ON U)
!S2P File: Measurements:S11,S21,S12,S22:
# Hz S DB R 50
2000000	-0.104553351694672	-2.47797587124898	-103.724064493453	18.1827023746572	-95.4854381851558	-18.0695884959653	-0.143801386709029	-2.34196686058136	
2249500	-0.448677183158852	-3.20842338426559	-70.4321561990138	54.3099331309803	-70.5860276120169	37.4951983133534	-0.481764997134478	-3.10047314819858	
2499000	-0.606605352209032	-5.07527923451961	-69.3665400880634	-81.8654319105837	-69.1294054061316	-75.5030931965265	-0.634021706789387	-4.7782131851388	
2748500	-0.433161336810442	-6.89635213880045	-70.3720222659506	-118.759627471563	-72.0323330803862	-141.801853478202	-0.4664390817498	-6.67643867370909	
2998000	-0.080530439199176	-7.50738688030599	-76.052931082223	-87.1223135734021	-76.9551032935231	-87.3022528341224	-0.118893980900372	-7.29391666933406	
3247500	0.153487753208666	-6.90050002822418	-74.8616996359875	-104.18193982402	-73.5479389604014	-104.660028851458	0.107196880628466	-6.65475001567909	
3497000	0.101732911881604	-5.97773030012958	-70.3861119238982	-107.45769716848	-71.9854398162022	-110.162273027078	0.0506802161785419	-5.68059088698289	
3746500	-0.229982734406952	-5.77736575873238	-65.4514080438598	-124.733535491308	-64.732829397334	-125.406731137336	-0.256541280312234	-5.38679431093337	
3996000	-0.558186141686989	-6.71753337892489	-81.2364208274524	91.3190877921933	-83.7657658220117	78.7785425501757	-0.588652242388424	-6.21186473944301	
4245500	-0.606421104844899	-8.88044474158263	-71.8951844459774	-93.8598271512272	-72.1750256315686	-87.1198308098412	-0.629493481121624	-8.44674378966922	
4495000	-0.353257094414052	-10.6296430996833	-62.4898329468982	-104.779970778399	-62.1410386310439	-103.154464900004	-0.378133320845061	-10.0330582142609	
4744500	-0.0644663638756572	-11.178470068702	-51.1516927969414	-128.087902392423	-51.3540899284391	-128.085094138467	-0.0361978322963705	-10.3021275290737	
4994000	-0.033726937611718	-8.56315459558704	-43.4785273510805	136.935445488853	-43.5759810102383	136.484967770923	0.108248007590735	-9.4407142872774	
5243500	-0.00915489082018754	-7.79631409364683	-46.8462664012787	87.1889084484545	-46.9814808193626	87.0224407493268	-0.0422178371182008	-8.6456550893175	
5493000	-0.347962715040525	-8.17167754446856	-46.7676029569252	63.3778039106201	-46.8427781348984	64.0074048900226	-0.424907088335462	-8.95697238829032	
5742500	-0.632762882197913	-9.95888896489554	-44.4033090414334	36.2534222229304	-44.3447714897917	37.1310688499799	-0.799453851054108	-10.698269723428	
5992000	-0.618310187542758	-12.1247618220268	-38.3294693947786	-8.22870722886468	-38.2898720843476	-7.97122717544938	-0.924355895863584	-12.0461115838926	
6241500	-0.271657531245816	-13.3169632738634	-38.9496933323919	-72.0081544743772	-38.8520753113482	-72.2958940347496	-0.486649080492313	-11.7623875776657	
6491000	0.0267921759205037	-13.1601896895059	-40.2035970683302	-125.374408956304	-40.1426819116714	-125.538109604556	-0.0576772450282578	-11.7896327557889	
6740500	0.100904002783616	-11.6994381531005	-50.8207355373809	178.421808242078	-51.1602872430995	178.834884705467	0.0769982544078641	-11.2464545387178	
6990000	-0.0979738900247904	-11.0734422261302	-45.8289553937539	168.79585654411	-45.6866896870331	167.758213181602	-0.246590146070258	-9.53348960005973	
7239500	-0.469267798260219	-11.7606599028056	-50.170834007085	142.683201035646	-50.0106680815831	142.434652640938	-0.521236968109852	-10.1406842212736	
7489000	-0.685371780933512	-13.790583998536	-51.8792161288346	135.111863552547	-51.9351503987473	134.371483892888	-0.702337612933339	-12.271535866626	
7738500	-0.550949236282743	-15.7708346781984	-51.6871944615165	118.3614645051	-51.374163064095	118.051042314025	-0.563272068213203	-14.4203603038155	
7988000	-0.167079065523879	-16.5434527765745	-51.9540586893501	97.3856878871357	-51.759966288555	96.7885936358482	-0.203253511400873	-15.3156476486011	
8237500	0.123349971360869	-16.0200891983365	-52.1116125741191	82.1919944478131	-52.1104873282104	82.6078053513825	0.0839293389376255	-14.7437833430622	
8487000	0.0984211952424478	-15.0650728793644	-51.3154763799954	70.0700477522111	-51.159541352368	70.2704268047097	0.0782792059881622	-13.6333401150957	
8736500	-0.259682455800646	-14.9131330370403	-48.8886737870539	53.5431639057724	-48.7746463778657	53.1963789525277	-0.211879406120531	-13.1823920410982	
8986000	-0.783871430227688	-16.0306778373512	-45.3201302832772	21.6651077824993	-45.232578057655	21.6061073976847	-0.57635521110295	-14.2686435586608	
9235500	-0.968768448081081	-16.6413982516427	-44.0956907474567	-34.1779213748525	-44.0152180186131	-34.425872732783	-0.697461914107631	-16.4917219467146	
9485000	-0.547215812367852	-18.3757804430806	-47.3017713050766	-67.5772538144733	-47.2549199107284	-67.653874254515	-0.473478426604783	-18.5515602457159	
9734500	-0.0971431672123281	-19.0253609439593	-48.2658823747753	-91.6084270870485	-48.099627524233	-92.6249737735502	-0.102484053324595	-19.0902427532016	
9984000	0.122803454487799	-18.2708464719504	-49.0514179054117	-135.244658728221	-48.9251115098151	-135.734932829121	0.0950779426272438	-18.3567051597656	
10233500	0.0469408344721674	-17.3690975137885	-53.1512868948317	-113.596711848478	-53.1189758958701	-113.768208551457	-0.00672227078340125	-17.3473003860962	
10483000	-0.328529994687114	-17.5954848429108	-49.6631731786601	-123.235167624531	-49.462640889447	-122.700527754886	-0.373381771418152	-17.4492589453093	
10732500	-0.710821038985942	-19.4488019525704	-45.440616772871	-145.642393812192	-45.3320867834153	-145.70134389655	-0.725682244590117	-19.3379378162954	
10982000	-0.833021560836409	-21.6611825337278	-41.0703331905288	166.09747862462	-40.9100600977533	165.238688505547	-0.829197591243205	-22.1963633065797	
11231500	-0.473499982535377	-22.6558514183993	-40.6082713327169	101.209218939966	-40.4550236090035	100.180169397233	-0.69413723970716	-24.2530542338395	
11481000	-0.0653953134624863	-22.7842686934858	-41.5294881035173	26.2149456516792	-41.2975523966224	23.8229841877365	-0.796555542183418	-22.3798648907951	
11730500	0.0536503943403811	-21.9754235969797	-54.277866220755	-113.384524891008	-53.3704202681871	-116.905404880531	-0.115276573929141	-18.5740213339387	
11980000	-0.222938542559872	-21.4440878050554	-48.8755554997204	103.977401758678	-48.530779389659	103.321798718752	-0.160055344502497	-19.7352095098837	
12229500	-0.838935219598275	-22.3918781687628	-43.2673881927612	32.901442253636	-43.1483423720155	31.427778419759	-1.006158510574	-21.6722864208565	
12479000	-1.58157350198204	-22.242094375576	-46.0797715522091	-64.5437762030327	-46.0397283612314	-65.2597950078118	-1.34315850523681	-18.430753382846	
12728500	-1.01664933876007	-21.4171229467826	-57.7746245179155	-94.0830038263107	-57.8510955523347	-95.8756057216698	-0.865684605441594	-20.8766360068771	
12978000	-0.374293544384256	-23.5537337299381	-61.4517076084365	-77.906026051492	-61.8276566488671	-83.3644108973929	-0.387998421752969	-22.7985667081448	
13227500	0.0367405114793261	-23.7748753475217	-63.7227169504346	-93.5725136257461	-63.216943311997	-96.5244693490193	-0.00669428394054812	-22.8328446361678	
13477000	0.0986416138352505	-23.0141329090111	-67.0213940259051	-121.442163009401	-67.7769617797386	-120.076733953151	0.0738681026002936	-22.0488870243146	
13726500	-0.187916804628588	-22.7013299703524	-76.3961284080119	111.0843044543	-76.0491748368398	97.3782779227371	-0.181547462785028	-21.6852836782883	
13976000	-0.622778447690574	-23.7118323729839	-56.3969466006345	11.7650590058594	-56.009186368672	11.0754312569021	-0.573086319391197	-22.9410578497805	
14225500	-0.786510067628926	-25.9413280578834	-49.8834646616397	-54.3787359324754	-49.5872688407692	-53.5295349949587	-0.812593107704821	-25.8209664107111	
14475000	-0.566607538355387	-28.5169612488925	-48.0182968932801	-113.470929592491	-47.6356736149277	-114.014863461718	-0.804048025868158	-28.7700186646035	
14724500	-0.229711523937824	-29.485037639371	-52.0119068757424	165.351573985599	-51.3635050691317	165.025651470986	-0.854861800686882	-28.2400579672028	
14974000	-0.0422769381973624	-28.4017239097592	-51.8893072125344	-139.776907946905	-51.6217194981996	-142.007777572231	-0.344879522145526	-24.0499669959754	
15223500	-0.142952652303487	-27.1017286331706	-49.5141072829567	164.487194369973	-49.2107731709199	160.523282738021	-0.136555432626904	-22.8992056861344	
15473000	-0.604154172136944	-26.8608854729801	-50.433425710698	127.109177859006	-50.4491394754624	121.582857545666	-0.375415652839994	-23.0016434136137	
15722500	-1.16243049579095	-27.9171941806127	-51.0251757280279	87.8343264226267	-51.1815553237821	84.7322248241041	-0.709388797160281	-24.6879081988466	
15972000	-1.33167208142964	-29.0667743143935	-54.0999114796905	41.5531586931858	-54.0667763163969	40.7509499190294	-0.772810583632435	-27.6594626611773	
16221500	-0.899214203603985	-29.7783110536815	-62.299973270704	6.07635612513264	-62.5974444977555	2.7400752341145	-0.510290289575462	-30.2664591819596	
16471000	-0.316494915317759	-29.7493329635285	-64.4890326989919	135.374806848554	-64.9126058879465	144.469365783704	-0.168925580050657	-31.4032778160595	
16720500	-0.00631993851308172	-28.8132709053763	-50.9548296260115	101.770112928631	-50.8131105729012	102.099104597503	-0.260541315734715	-31.734368258881	
16970000	-0.100094930782177	-27.8797717609086	-45.8847389619135	17.7828575005785	-45.6227634959586	16.4172532087227	-0.855409081192767	-25.3980440895786	
17219500	-0.472379207531611	-28.2371873484226	-49.6667984236367	-34.8157563897293	-49.5515000575294	-37.6760007182254	-0.651361768116773	-24.9553950348686	
17469000	-0.798150774988604	-30.4449056859986	-51.7490689479763	-63.0919464533003	-51.6309652644064	-65.1486922932988	-0.85400356602204	-27.5703318564702	
17718500	-0.791498487465409	-33.3174953827625	-52.708739022865	-90.7591496533517	-52.5890707071643	-93.3749375082279	-0.806311034196462	-30.8266777305402	
17968000	-0.448309799383788	-35.0405711310272	-54.2341289185492	-126.361753655122	-54.1937189006025	-128.384122648914	-0.458936318162649	-32.9753071478387	
18217500	-0.0760460968683027	-35.0715587178536	-56.9955367674131	-159.485186674314	-57.0845561963027	-162.457455220574	-0.0873823061446409	-33.1881598308056	
18467000	-0.0188837502975664	-34.376408828466	-60.5292518738859	174.249245618249	-60.6183449975214	169.688279771023	-0.013584562923634	-32.3565625535776	
18716500	-0.451319068480515	-34.6797425960069	-64.4206334781259	156.077339905669	-64.5255439245066	155.307859777474	-0.313839786952937	-31.9003825630143	
18966000	-1.53657149141658	-35.3943566443895	-69.5012110254746	-174.242821142307	-69.7561506109257	-173.302124344746	-0.855517474303309	-33.0863059850293	
19215500	-1.84872348713611	-30.9821533422444	-64.2255181802473	146.49480521329	-64.5245341259777	136.224988752848	-1.40208098092213	-34.051582039935	
19465000	-1.09228001408941	-33.3181470555801	-59.4691631281906	77.3010176392788	-59.6857629327544	73.6669387841064	-1.38716234774875	-38.7662575504306	
19714500	-0.470979074684206	-35.6054271179093	-56.2173818772632	-5.84638485778711	-55.5577697336532	-10.1288749998728	-1.51152706263079	-37.9801812088879	
19964000	-0.0741009949118849	-35.7345634794675	-51.873787001922	-81.3733109221198	-51.5663585197245	-81.0116473841579	-1.11657708918309	-32.7481911975195	
20213500	-0.0843772926513513	-34.9445523035853	-48.5177007119223	-135.965511543556	-48.4516234041135	-136.145820842469	-0.638597648544611	-29.3207311542775	
20463000	-0.489516935170339	-34.7407468623596	-45.9768349599367	177.294607738568	-45.9063340566814	177.107948797543	-0.600274675818834	-28.5692285372955	
20712500	-1.02923683231773	-35.866392805169	-44.0025152728872	131.588052904303	-44.031469029496	132.001425072457	-0.834215327535848	-30.1323599072726	
20962000	-1.24168048141385	-38.1299804107907	-43.2792612394791	86.6672163370956	-43.2395002015336	86.6668580791331	-0.930999850200634	-33.2528889218453	
21211500	-0.999117801034532	-40.5797499651202	-43.372688223313	48.6942448145917	-43.4183414449602	48.3566458279482	-0.697398523160012	-36.3986593274759	
21461000	-0.625687846648948	-41.3138467940417	-43.2403670249788	16.3636454423288	-43.3268953145147	16.1096588715205	-0.284380342414884	-37.9856887380927	
21710500	-0.530775648685028	-40.1034708157368	-42.8995959202748	-18.6329666752529	-43.0250730415941	-18.967517466286	-0.0998243828722261	-38.2415546481496	
21960000	-0.850964677454266	-37.2137738820059	-43.5163331201318	-60.6187886505308	-43.5918176729005	-60.5262288412685	-0.51573175351737	-37.8744729608929	
22209500	-1.20962897301658	-34.3036069138081	-47.8334871597105	-82.075175658505	-48.1306215969377	-79.6929828768354	-1.32904191796758	-33.8143348236444	
22459000	-1.34182079880041	-34.8305587507918	-45.4557885954114	-92.5337132571475	-45.3704722560698	-90.1247175517955	-1.23966398637952	-33.0261197243461	
22708500	-1.19866059789946	-37.9780747631053	-44.5231626262873	-121.83585562109	-44.3405738947891	-122.183431250077	-1.07928760074369	-36.260808964275	
22958000	-0.793618934979177	-40.5648606097519	-43.9919014301024	-156.206289233833	-43.8034394222319	-157.049352502011	-0.689793167616471	-38.8765892585865	
23207500	-0.345075270638724	-40.5930229237346	-45.2225506978296	164.119949128442	-45.1467133400242	164.298578761418	-0.233194569528691	-39.402014317128	
23457000	-0.0791414812691828	-39.1780579333104	-48.3567630806902	138.75186744719	-48.2163584734349	139.207264364877	-0.00973731105769084	-38.5575858431602	
23706500	-0.201494256019724	-38.1262923986649	-50.5244527714588	131.303248096548	-50.6127262943185	130.834390674776	-0.161337111263498	-37.7756557700531	
23956000	-0.593733052519666	-38.62438769402	-50.7431947195603	128.543169658233	-50.8460360203138	128.581373351003	-0.585528114603148	-38.4395181844603	
24205500	-0.918138101853703	-41.172585822945	-49.3611002606993	123.539275123149	-49.3450909482566	123.69169957749	-0.95373245150128	-41.1888427964314	
24455000	-0.881777743480818	-44.4163908504959	-46.3968511700319	109.503410130528	-46.4112013925015	110.524091395776	-1.0044024967896	-44.7425861867373	
24704500	-0.544799357674487	-46.2391820510923	-42.5531642584061	85.382665790272	-42.3811319009832	85.9026975396526	-0.80698966687335	-46.7926296026317	
24954000	-0.230712375609107	-45.8054771825883	-39.0029804612299	44.3601233437886	-38.8693233821598	44.2723522820025	-0.833538406319058	-46.2861273555128	
25203500	-0.187784794890722	-44.1692230408641	-38.0976378691682	-14.321639436103	-37.8631784983523	-14.6548034900496	-1.14153682016525	-40.8062287075572	
25453000	-0.464483917778768	-43.1274740214656	-41.9616517982866	-67.1077794207084	-41.7769230535404	-67.6563962097883	-0.900068462181522	-36.2394270531189	
25702500	-0.927428656661655	-44.4544550772283	-47.3753952078684	-90.4709034472483	-47.3605121525558	-92.5586983288255	-0.959150648686192	-37.6685178639649	
25952000	-1.27060817777867	-47.9954101777175	-50.7770690681177	-88.2454063130877	-50.9003054358705	-89.9084396418995	-1.09534529427586	-41.3988835723246	
26201500	-1.35117778568311	-51.4188892443322	-50.4663638617651	-85.1997951247439	-50.6020862876653	-85.6113929268053	-0.904960519241796	-45.3643159842599	
26451000	-1.33032080114879	-51.1137045140561	-48.6316319195473	-99.2695391166825	-48.6268987419643	-98.4194056779364	-0.503593388603828	-47.6565946135998	
26700500	-1.09251856696361	-45.9933410360679	-47.1106022588876	-121.046604101079	-47.0992638616578	-119.518024189533	-0.265814281667309	-47.8234862703029	
26950000	-0.698327135047737	-42.1466377508916	-46.0458835368115	-144.305873599636	-45.9892111011998	-143.907200188477	-0.483362314965135	-47.2723435140933	
27199500	-0.756611763066182	-41.6331984694099	-44.6910008239466	-170.935815923628	-44.6563895051644	-171.547810220798	-1.33472701240884	-46.4073853720943	
27449000	-1.04878654542522	-43.6296256510454	-44.4533641775837	149.815354296406	-44.3643179894503	149.845304233836	-2.21623924805418	-42.7295515448243	
27698500	-1.16675313724983	-47.3086298826538	-47.8227051477761	110.977682820273	-47.7414943793823	111.290812843742	-1.63092665782356	-42.1436240205268	
27948000	-0.946611685582926	-50.2689467969852	-50.2431897744206	117.590408447284	-50.2051881699238	117.960801322626	-1.07737011136735	-48.771130770907	
28197500	-0.446012956655426	-50.3245626469568	-50.1574097652921	92.0205665558139	-50.0621868828587	92.302518883332	-1.32302060148023	-50.5315508337837	
28447000	-0.177325092193834	-49.9529126255669	-47.7711956724834	75.222289743515	-47.6968028454328	75.1938140279893	-1.09716263174439	-44.4845897956403	
28696500	-0.382320775750147	-49.0870139306719	-49.2214647937917	41.7777626273502	-48.8888779394087	42.8673875818165	-0.783605512857298	-41.6959321852328	
28946000	-0.907492812399408	-49.2595050322807	-51.8974102480984	31.8050929251699	-51.312886645132	30.0092847765447	-0.972687139267708	-41.3549770909891	
29195500	-1.42915667606302	-51.2774127378239	-50.1926621135408	20.4282904413353	-50.1656041885691	16.9972753991195	-1.24712206529246	-43.0976727599901	
29445000	-1.6082969623024	-54.1742295762167	-50.1054351615809	-6.51098591566056	-49.9964521368495	-6.66122492939273	-1.20403034948224	-46.2547720997266	
29694500	-1.39956085457875	-55.2190101632684	-50.6389157244347	-25.9256520256722	-50.6372789700592	-26.5746671433155	-0.826102479042406	-48.7007458850938	
29944000	-1.09008560772875	-53.0665234049119	-51.0008731224887	-44.4041775441538	-51.1296171635001	-47.1446189915983	-0.339883255838505	-49.1066173117567	
30193500	-0.875391383481006	-49.2988267948705	-51.4810774083572	-65.2296066264182	-51.6070002974676	-65.6963554217506	-0.120362432301797	-48.299807427977	
30443000	-0.906498634370091	-46.5040768649219	-52.197192163943	-85.5386432412029	-52.1695943339134	-84.9257147645787	-0.309467805305974	-47.5699856315072	
30692500	-1.1587645313238	-46.3192870765625	-52.8028723644401	-98.9626984673046	-52.6020708197399	-99.265130779518	-0.750235855055967	-48.5103032892083	
30942000	-1.35704577562455	-48.9307482448219	-52.7526754802402	-113.172298208391	-52.9553236054491	-112.544541565867	-1.12824976545583	-51.5497613903959	
31191500	-1.16281854956849	-52.5157727645212	-52.6280708547578	-124.831237555386	-52.5085013659098	-124.314028615615	-1.14075474438514	-55.2791492100513	
31441000	-0.661926406752667	-54.5505010245786	-52.0572921523564	-139.131966728157	-52.1208451232616	-140.326821623369	-0.787884826563732	-56.6612161624442	
31690500	-0.234933891592077	-54.2810521283217	-50.3156145437088	-156.657524526007	-50.2014041297899	-155.866763510209	-0.464484386084318	-56.8347486931146	
31940000	-0.147576742517847	-52.9303125708759	-48.347998252869	178.473826323232	-48.1713625139567	178.384572554608	-0.611837147842825	-55.7727944200584	
32189500	-0.449027133692484	-52.1476511067613	-47.2506635328059	147.393060873847	-46.983985882026	148.723717280697	-1.29637542154006	-54.6855691266764	
32439000	-0.897186370822496	-53.4138726491938	-46.9206274009911	115.449855989454	-46.7287794288472	115.813082839095	-2.22565919071138	-53.9810244993865	
32688500	-1.11112239210343	-56.6494580735099	-47.4708375961677	81.4656384475975	-47.2353547957078	82.1648259269018	-2.78576596571126	-53.4184479645125	
32938000	-0.917049656624721	-59.8354966656357	-48.3010883830007	50.3556774984686	-48.2848818156231	50.4042386966872	-2.48583919305456	-53.2186913137929	
33187500	-0.514702882967716	-61.0777356187157	-49.9195955495413	24.4626967312349	-49.704816174425	24.734409073366	-1.68186120894214	-52.5023002721382	
33437000	-0.292916743027567	-60.3789499896845	-51.2229191484149	2.02547935322489	-51.1456294648145	0.682610553029836	-0.980498875371991	-50.8203924120455	
