!Keysight Technologies N9923A: A.12.45
!Date: Tuesday, 05 August 2025 20:40:03
!Timezone: (UTC+08:00) Kuala Lumpur, Singapore
!Model: N9923A
!Serial: MY61181427
!GPS Latitude: 
!GPS Longitude: 
!GPS TimeStamp: 0001-01-01 00:00:00Z
!GPS Seconds Since Last Read: 0
!CHECKSUM:1306396651
!Correction: S11(ON U)S21(ON U)S12(ON U)S22(ON U)
!S2P File: Measurements:S11,S21,S12,S22:
# Hz S DB R 50
2000000	-0.102859800449837	-2.4991569999522	-83.0768924804311	-125.896706954221	-81.2209062828234	-106.922866504385	-0.144008034863984	-2.39011198044416	
2249500	-0.446091917708784	-3.22438782034273	-80.6755741948127	-87.8769482498224	-88.004439095534	-116.549838424887	-0.480524019804276	-3.13479626322732	
2499000	-0.602910422352039	-5.08052538690868	-80.4106774887391	-25.7670329743177	-90.7123070959876	-106.531328941115	-0.63506182550816	-4.81526354726618	
2748500	-0.429079212042554	-6.88180716254161	-87.3787369649071	-141.049097354495	-84.8396879897322	-92.4919980240592	-0.465852916831977	-6.71805930794285	
2998000	-0.076394129169472	-7.48934739219745	-84.6189289522233	-105.706982220602	-86.9926538113362	-125.382591475903	-0.114778964860667	-7.3356662210816	
3247500	0.157197074584566	-6.87012520873496	-80.409335635558	-125.516689974352	-85.4480178645608	-108.304107212447	0.113826815782905	-6.67264797742483	
3497000	0.106014202055982	-5.9362227676534	-76.5648716524858	-108.251201658989	-77.5483645325831	-99.937587301666	0.0577902361050881	-5.66582600373565	
3746500	-0.217915644201408	-5.7352424171074	-71.9539536993657	-110.484067203837	-70.6912628442726	-102.458918813673	-0.251000148728737	-5.34326823892874	
3996000	-0.567295334284575	-6.74776608190824	-70.2553651795726	-148.955817873514	-71.8140803876278	-131.444169455032	-0.568222121039604	-6.4094603073921	
4245500	-0.611707736242761	-8.93747366463806	-64.9947975296812	-98.8128758774327	-64.9504626217228	-102.750297536106	-0.633512611115131	-8.5162384852899	
4495000	-0.392729129790182	-10.8822057389173	-50.4266697148527	-129.631068683283	-50.3740472618081	-129.995224665733	-0.40479111106613	-10.2628996237401	
4744500	-0.225043604582161	-10.4821713585948	-68.4287432132827	81.4627656449368	-68.8583660404472	124.728570764525	-0.0398995320440345	-10.0225090896246	
4994000	0.109314747088568	-8.45284197003307	-49.2862355751555	107.528805135524	-49.3430947975948	106.932875416726	0.101193156262946	-9.4850727393251	
5243500	0.0137046455615148	-7.87234862134985	-46.5006577470674	60.278127199902	-46.6257407744676	60.0067281803639	-0.133380330610219	-8.82272148850407	
5493000	-0.343308565871318	-8.10415059857083	-44.3723351754076	-1.3745988673491	-44.3305369154772	-1.32639007003694	-0.653382706964819	-7.87564519798939	
5742500	-0.617245310950208	-9.77470083067783	-47.9041498731264	-58.1909677913038	-47.9291201601733	-59.0852722043086	-0.754649460639289	-8.38764887823438	
5992000	-0.58850337939268	-11.9354971279664	-43.0872724395101	-55.9228903096007	-42.9874533388572	-57.3182492709638	-0.717984195874859	-10.7555164471247	
6241500	-0.240434825653988	-13.3954275133167	-45.913071785033	-112.566783385799	-45.8715327576073	-113.045645713128	-0.343043653271483	-12.0305512061587	
6491000	0.0399573273980337	-12.9961146283923	-45.9785548447601	-169.872906816461	-45.9048335337857	-170.564693288526	-0.0054806135086781	-11.874157735061	
6740500	0.148034191308742	-11.8266056183572	-51.0789482778835	143.269737746006	-51.0012607693415	141.750631929516	0.0991871047953873	-10.8320778810562	
6990000	-0.0735270628227691	-11.2037146064485	-55.9332258844427	124.923107236457	-56.0254527319035	125.065968586264	-0.114168293063903	-10.2523056541931	
7239500	-0.452205973117497	-11.9087963098357	-59.7456024242363	113.91941051362	-59.7737229815455	115.571300571657	-0.475696626655432	-11.1282111873636	
7489000	-0.669402154702141	-13.9628539115082	-55.644251279274	140.267525566472	-55.1832985288573	140.284825369242	-0.766285187712424	-12.2491529117181	
7738500	-0.535150561230177	-16.002325193567	-55.5547012269866	108.477841387306	-55.5773575079752	109.367291482962	-0.569524970919027	-14.828819418206	
7988000	-0.159957270770363	-16.8407339577708	-54.7832049932333	90.7944921648965	-54.7959736808765	89.2978453400638	-0.201332734949217	-15.7539936074487	
8237500	0.11964093108105	-16.3833404240874	-53.5499794530358	75.4442103882169	-53.4837629876411	74.2612477079554	0.0895755281195983	-15.237425263828	
8487000	0.0667960760819897	-15.5657165970017	-50.8033645084848	60.2695296413427	-50.8282670169331	59.7031782373	0.0782987468359957	-14.1850531137159	
8736500	-0.388742069993287	-15.4751932254996	-46.1908590115825	33.4726737525474	-46.0209573276306	32.9037665060325	-0.2200015108596	-13.7943140811754	
8986000	-0.959711398358221	-14.7281383977249	-42.7605689129653	-24.652894531624	-42.7050483606363	-26.1390515558662	-0.589761164508363	-14.9050389073209	
9235500	-0.826063513255771	-16.2109116544417	-45.0949612782473	-72.4619582727288	-45.2269677680385	-73.4780320395353	-0.703757339819362	-17.2229929754451	
9485000	-0.488342892642385	-18.6854997916519	-46.6811226813992	-95.4551563130162	-46.8150477158805	-95.7637984976971	-0.482871053765943	-19.3723518526172	
9734500	-0.0821093696366192	-19.479028089096	-46.0155614874396	-113.775072882218	-46.0831317445648	-113.908020743318	-0.124914330973431	-19.9984262819448	
9984000	0.108617702049854	-18.8813837360625	-42.9064327261517	-140.767352530514	-42.9911664966836	-140.178426038552	0.0440845260266445	-19.3860315808631	
10233500	-0.0533083897604687	-17.4738453874649	-40.5562331644119	155.468156909918	-40.5787074261861	157.013804907866	-0.152561317130729	-18.2797675018229	
10483000	-0.347204710900472	-17.6058448657157	-47.0345274129042	105.324642803982	-46.8997772200534	106.904198598949	-0.56074831835667	-18.2687499562087	
10732500	-0.717548685816057	-19.9229916282113	-50.6834197860516	122.52962602519	-50.5355450537497	125.711635359439	-1.07135160810258	-19.9706373724199	
10982000	-0.965415419432386	-22.7867778647047	-44.235890388133	96.7020784509812	-43.2623089783225	98.6783234941119	-1.3509821137992	-21.0635130649979	
11231500	-0.80149891694065	-22.0929769864614	-43.3518150053522	44.5986256855198	-42.8543780968298	40.1610097955452	-0.986820045432776	-20.0926557193504	
11481000	-0.18336518591881	-21.1707115119971	-45.8034687780005	-10.8072411718056	-45.6534288767342	-12.7284538171759	-0.321450741776525	-19.3081291674002	
11730500	0.0650439384986804	-20.3835466860081	-50.262087727336	-43.2938366281239	-50.1236749626477	-44.0736421228841	-0.0115516520047845	-18.5784853000267	
11980000	-0.11390811957577	-19.7712214367495	-56.251966932412	-67.8975475033332	-55.9634307345042	-68.2627532497469	-0.114312911380676	-18.283440595461	
12229500	-0.541761086315091	-20.5414316694686	-47.0965947250336	30.6397280811083	-47.0900600765799	28.3522862666688	-0.768813583809758	-20.4094666324883	
12479000	-0.920706405796226	-22.473757892892	-44.4845290161281	-87.2752285707154	-44.781704870958	-86.4031554355867	-0.884130499107578	-19.2363203950178	
12728500	-0.875243328692879	-24.076219114232	-46.8231258612472	-141.816192345256	-46.6345592297388	-140.73777592529	-0.722038811730399	-22.0225169257526	
12978000	-0.399920325577111	-24.6683041530892	-50.2299164380732	172.6419538805	-49.899743120383	173.547165460807	-0.334882433740549	-23.5205965723456	
13227500	0.0228280201369077	-24.259440109437	-53.7209676389688	141.210017469359	-53.4915756460152	141.26716356608	0.00794237038913359	-23.270870886019	
13477000	0.103796186203786	-23.2726781993547	-56.8773476664923	114.197086151	-56.6640854800867	115.924969980132	0.0740948373393078	-22.2731297323713	
13726500	-0.156987166701244	-22.8668029043326	-59.7061826402879	88.4156599972337	-59.3932341217173	88.9988220536203	-0.184522105728247	-21.7141466188144	
13976000	-0.549541080117159	-24.0433035594207	-62.1084075583589	58.7376056412077	-61.3905376291681	58.0703305682475	-0.567417015067486	-22.7012248118212	
14225500	-0.735470644328391	-26.6568616833295	-64.7308894038331	17.0113599647963	-63.4903621381655	8.5491681590186	-0.759625565713082	-25.1627136415885	
14475000	-0.538198438642216	-29.2439419304658	-74.5111720030584	-50.1093449826681	-78.0416117222684	-49.9624222314033	-0.58537974724428	-27.6229348620546	
14724500	-0.199455677197084	-30.388938799593	-77.8640413326234	-132.670026495475	-78.4742803014385	-90.422509373799	-0.233793311007135	-28.7855426467777	
14974000	-0.0936021768493817	-29.9769273443554	-61.527675153768	134.070359971503	-61.2988841038523	135.831600374434	-0.0611442061346503	-28.705368682354	
15223500	-0.435848726308868	-28.4632032130604	-54.1127340340414	20.2949244673839	-54.0426860378412	19.6965807341302	-0.474610751839788	-28.0618034190186	
15473000	-1.05056402596511	-26.1443067695549	-51.3396435520021	-139.657998251229	-51.7770145557942	-141.025037639419	-1.07522927853475	-22.5655251668582	
15722500	-1.3538916849892	-25.232651776758	-54.337940856717	102.509709647885	-55.447419232583	98.0138776303741	-0.909314691272521	-23.7667223120601	
15972000	-1.20446271296632	-27.1182229435234	-55.8556129779653	31.9597491357736	-56.5446457852641	30.232729815969	-0.86285101838398	-27.3045706233938	
16221500	-0.735956157693989	-29.3284670762384	-56.3501481201258	-16.8995460141783	-56.6650931748673	-17.1103243439793	-0.561003753887811	-30.2211213927272	
16471000	-0.228837533075777	-29.9429480763886	-56.2918689012277	-53.2188654383882	-56.429574525249	-55.0110007656262	-0.196692894205185	-31.2957437348527	
16720500	0.0226388566597176	-29.157157488096	-54.8454416346454	-93.4346984933575	-54.7712273597976	-95.5834615633694	-0.1079066728674	-31.0291059406484	
16970000	-0.110995344635833	-28.2130370986828	-51.8799097323111	-142.908240250677	-51.6605189613822	-144.036835629352	-0.540270913778996	-30.3644750523208	
17219500	-0.516386585577403	-28.5374846470821	-48.5960967396368	151.3069300773	-48.4253517624752	150.574175205726	-1.38755984506419	-28.4553202732856	
17469000	-0.875834518777173	-30.6088135866231	-47.4154865930915	65.4596217846415	-47.2530492123151	65.8195394047693	-1.5407323744089	-25.9215283614393	
17718500	-0.884937222077382	-33.2187915380871	-48.0739900496023	-9.8102628429914	-47.9757744555285	-8.84614233906771	-1.10874401156771	-28.4627053084064	
17968000	-0.531101389290228	-34.6594956926997	-48.6980407785206	-73.7022887930551	-48.5927055666756	-74.2059878400436	-0.5684470211282	-31.0729088081699	
18217500	-0.141616614804467	-34.412992332476	-48.446847634137	-130.111920495603	-48.4140602588	-129.144067510758	-0.106282865164046	-31.9720539198633	
18467000	-0.057474035886006	-33.2242357807879	-46.6185318431744	175.734780184521	-46.5920943826391	175.630133193273	-0.0702360397909171	-32.1433716625491	
18716500	-0.360909727473627	-32.5371772096936	-44.9336297827318	92.34945520992	-44.880590799	91.4118903436052	-0.843373337998988	-30.5549746774244	
18966000	-0.898982365958015	-33.2864101862699	-53.2869983469472	-7.65099791118122	-53.0544409554614	-10.4337049767492	-0.961037476702976	-27.6417031675508	
19215500	-1.29182392545165	-35.3550717233037	-58.3305166108177	-157.092619929556	-57.3589779656855	-156.198423362751	-0.980677576491841	-30.494146153556	
19465000	-1.25072799585645	-37.1180129197995	-48.0888549724912	116.243688020474	-47.8631234241827	115.712026323121	-0.818935953836617	-34.7718486945181	
19714500	-0.845810396689024	-37.0757914083285	-41.586889357723	18.2478720044068	-41.4283059984388	16.7165853200426	-0.914495866749521	-36.9284840115716	
19964000	-0.407534445199233	-35.2035730413716	-48.3610105676907	-86.3517957362668	-48.6160298398257	-87.137902282349	-0.353851157319111	-32.8649759453029	
20213500	-0.271136153026416	-33.2895828422942	-58.3783962263185	-158.787071778309	-58.5286099982913	-157.680185077297	-0.123316294713971	-31.8458002772057	
20463000	-0.501536370995612	-32.6179503425981	-60.4168130880592	86.5952339829595	-60.3508277195701	87.3293079838506	-0.344794125382845	-31.4690708063216	
20712500	-0.876903891306633	-33.9707724160558	-53.8523454812234	28.6700625107595	-53.83995008689	27.7460703497468	-0.721954643335417	-32.7676315077817	
20962000	-1.04514739025071	-36.8505759335753	-49.296317869099	-12.4084842285574	-49.1618979989514	-13.2255620768028	-0.895436619437886	-35.5118584614394	
21211500	-0.813878497825624	-39.2335590262405	-46.6782583063223	-51.7277376490563	-46.5701572704235	-52.1981977252522	-0.705197310349777	-38.2302786005233	
21461000	-0.355876297581805	-39.6871561511524	-44.8791553853819	-85.2569160016852	-44.731522181945	-85.8705065623409	-0.318506006073923	-39.3008104609912	
21710500	-0.0472696681410674	-38.6718829188042	-43.4960960982345	-117.673437444955	-43.34173826508	-117.859729669608	-0.101123921193928	-38.873524214788	
21960000	-0.115977267377464	-37.6371224269223	-42.0562964957684	-145.578515335022	-41.90599324601	-145.450201306774	-0.269096750583562	-38.1437351877299	
22209500	-0.510451920720182	-37.8873503645442	-40.069908891011	-172.373751675293	-39.818149422463	-172.470155838421	-0.819277797830801	-38.4746968924931	
22459000	-0.949469089458297	-40.2932525439213	-37.2087794981021	155.35271110298	-36.9760006136526	155.060886122349	-1.5012056167456	-40.170354749474	
22708500	-1.1278503335101	-43.8894242430634	-34.5819927015702	110.92379681612	-34.2251727203968	110.911485538143	-1.86729961753756	-41.0254543378496	
22958000	-1.05797810625227	-45.6451597620445	-33.9695535538895	59.1631404933956	-33.4670070129414	58.9395308401657	-1.46800706914381	-40.7430998548819	
23207500	-0.705166078893375	-44.1592736300968	-34.4501025795621	13.9444080664474	-33.9833627575248	12.0511181809389	-0.964790637968087	-40.2434116130201	
23457000	-0.582188654152412	-42.1976923463865	-36.0015566181903	-35.4711875218275	-35.5881525763993	-36.4418061543135	-0.791113351176809	-37.3711181568631	
23706500	-0.922910406411357	-39.6457397680144	-39.657331074192	-76.7709034643617	-39.0105454114718	-77.9527121765919	-0.746086116593595	-34.5049781243797	
23956000	-1.32119217333793	-37.7161969929058	-43.8285854065497	-102.056077774503	-43.0890342903749	-104.701361021486	-0.935682361609829	-34.3225519095833	
24205500	-1.43806438609784	-39.0126193234494	-46.8512276573457	-114.08266357928	-46.2456433894872	-117.627213288578	-1.12439619785104	-36.7508895038625	
24455000	-1.2111938073655	-42.1746777800951	-48.1671690391576	-122.308371932058	-47.767939400282	-126.149691917575	-1.0072793857363	-40.1355906097717	
24704500	-0.738622731708385	-44.2174929675797	-48.161451322616	-133.628929454681	-47.8519152285547	-136.343224574455	-0.578494025710016	-42.0549066955186	
24954000	-0.320234705129016	-44.0364450553517	-47.563994828046	-151.649210807146	-47.1944151435481	-154.572465277761	-0.182615205984664	-42.1094458944553	
25203500	-0.206248028408384	-42.7635853807679	-47.462899061024	-176.831574436176	-47.1366825877288	-178.823816216117	-0.0906960452729891	-41.1426461816504	
25453000	-0.475931968843588	-42.0068598088674	-48.7249062026548	166.21060263449	-48.0870013270552	161.227682658237	-0.370806258172423	-40.4631381623502	
25702500	-0.961198449289014	-43.2602982470009	-48.4913275402658	156.661988541727	-48.337093028751	150.964430204387	-0.842757905416705	-41.6864893394438	
25952000	-1.30986037613631	-46.3472964285576	-46.8336279423767	142.006349209446	-46.8635813071568	137.228921842961	-1.18803418877909	-44.7989484287952	
26201500	-1.28410526241385	-49.1339723951824	-44.7230907735442	119.342560566262	-44.7894376371126	115.26249682689	-1.17135979423311	-48.1219110827795	
26451000	-1.01056720768009	-49.2549939325707	-42.4254593953953	87.5568147007146	-42.5260795580799	84.3659380717663	-0.990252258587607	-49.1737818209079	
26700500	-0.719088653518518	-46.3046166355336	-43.3022063893778	43.3357439345669	-43.3816912977546	41.2829342056746	-0.773155918578462	-45.4055929779521	
26950000	-0.531255376133872	-43.2946594893798	-41.8221625764245	40.3608369320313	-41.6842523960513	37.7985132350933	-0.469248386047226	-45.6305280196557	
27199500	-0.698627717717544	-42.5677900288361	-40.0507523245124	-4.6786721410139	-39.905399909052	-6.40342829573913	-1.30367188797201	-44.2485024535488	
27449000	-1.03099177564738	-44.3492027191367	-40.1697627563369	-44.0848913470117	-39.8767224652367	-46.1558141806589	-1.86074444679563	-42.4159884893976	
27698500	-1.19015622554799	-47.9186832184055	-40.3487989565151	-81.9106122002505	-40.0206762930851	-84.1520189616611	-1.86151855619594	-43.2596395209628	
27948000	-1.04411398282085	-50.5440770271873	-40.9961170552605	-126.473471247752	-40.4849741460731	-128.505669728711	-1.41636183110681	-45.3724252319698	
28197500	-0.609435169573312	-49.7483989818012	-43.996171189275	-174.382097740236	-43.6593809471783	-178.119687213749	-0.812173280655377	-45.8896353203249	
28447000	-0.193282762624765	-48.3471139331278	-50.6123380264377	155.29961649688	-50.3702930100376	153.3788315259	-0.406216526298872	-44.9121350185019	
28696500	-0.258118575387612	-47.4804400878448	-53.8955935536972	165.335919726314	-53.2914074397172	162.9412871116	-0.394400559725405	-43.6443091258498	
28946000	-0.663700594253243	-47.7681280713555	-52.9181976428949	157.578815602858	-52.5730466447332	150.960315997614	-0.723494464604547	-43.5406367017406	
29195500	-1.0524287623826	-50.0775313433139	-53.4505541399837	135.460181629551	-52.7404678610672	132.178452207976	-1.07772274790624	-45.5559972566563	
29445000	-1.10089007605571	-53.6062452862503	-54.3763027631973	118.730960089205	-53.8314334683833	112.300608229626	-1.10882040757338	-48.7865789284398	
29694500	-0.787339388588991	-55.9295327050728	-55.3198141686194	101.217290027272	-54.8848582547222	98.3635938486737	-0.795522408706583	-51.2186611937626	
29944000	-0.506481383213617	-55.9253409468318	-55.2668218573091	91.4055982559429	-54.6149882544219	85.9910572213218	-0.386327762465805	-51.6076996606521	
30193500	-0.578335556435402	-54.17324374643	-54.7389779246571	80.765868391727	-54.3077620929811	70.4770367791389	-0.266369023926188	-50.7058756826753	
30443000	-1.03958569680419	-51.7487152715522	-54.2542502078346	67.0916086483246	-54.0972961687017	55.4061614407393	-0.560377475821229	-49.7967615910977	
30692500	-1.59341005920341	-50.3267623723263	-53.5020421523815	54.7909820132419	-53.994848562566	45.4524655802086	-1.11616027377188	-50.5491530092348	
30942000	-1.87925262774969	-51.481129382138	-50.0514157427044	40.4528618329989	-50.5205690827579	35.7857570818698	-1.65385025395198	-53.214964315245	
31191500	-1.66284565617599	-53.9616904391528	-45.2106565251227	5.5773596391188	-45.1743349467024	2.12832823133581	-1.85661410838499	-55.2631437992222	
31441000	-1.09660186528128	-55.1150909415892	-44.8476696991691	-63.7103522325671	-44.6181947496311	-68.963321590853	-1.12150965891947	-54.3036096193396	
31690500	-0.595359751676613	-54.2677422879952	-50.2546744999833	-88.7489650804297	-50.3996746190134	-95.0929404137165	-0.801480439805719	-55.373354855964	
31940000	-0.468659185952216	-52.5973897957397	-51.7067786222514	-110.769249413442	-51.7730237623589	-118.106923202503	-0.849829197408795	-52.5667443427087	
32189500	-0.770047805298015	-51.4683808971432	-52.6541386928244	-105.223822294436	-53.3995902722677	-108.226998079402	-1.34474965197154	-50.9146581275069	
32439000	-1.22202242629963	-52.2633008941031	-50.0921291046951	-127.466253944576	-50.1736443726743	-127.225830329996	-1.94536662245386	-49.3761631218105	
32688500	-1.41222342550667	-55.0789697903203	-49.0102418368195	-156.251608757444	-49.4430649461854	-158.695500431747	-2.11953448621485	-50.1958539675267	
32938000	-1.16094246952201	-58.0313108996019	-49.1177105131578	173.967573311297	-49.1302870964594	171.999475221318	-1.74178656724091	-52.5498952501635	
33187500	-0.700978313794541	-59.1557899064675	-49.1959283731692	146.273747250988	-49.181008241623	143.535867242285	-1.07517650447992	-53.7056207919943	
33437000	-0.436806575651599	-58.1611254448664	-49.3042638872076	117.221313061782	-49.1735536256252	114.323461721241	-0.54869965071337	-53.1270046484947	
