!Keysight Technologies N9923A: A.12.45
!Date: Tuesday, 05 August 2025 20:32:19
!Timezone: (UTC+08:00) Kuala Lumpur, Singapore
!Model: N9923A
!Serial: MY61181427
!GPS Latitude: 
!GPS Longitude: 
!GPS TimeStamp: 0001-01-01 00:00:00Z
!GPS Seconds Since Last Read: 0
!CHECKSUM:1816886598
!Correction: S11(ON U)S21(ON U)S12(ON U)S22(ON U)
!S2P File: Measurements:S11,S21,S12,S22:
# Hz S DB R 50
2000000	-0.103375135567099	-2.43446016190093	-82.2941922870974	95.3331162033949	-80.1938889576206	63.8123500168539	-0.1439409148452	-2.24534287414021	
2249500	-0.448127485523695	-3.17527148162279	-66.9077399526716	54.9754953684561	-66.4671032562484	45.8027847069431	-0.484228867209005	-2.99978741436155	
2499000	-0.605802425645122	-5.02201566946096	-64.5129386695527	-80.8154893353328	-64.169616230454	-80.9797254434776	-0.640336857689297	-4.69357949811814	
2748500	-0.434576646355389	-6.84603669707074	-68.4596855934863	-125.774298509551	-68.1164904642847	-125.072974445573	-0.473321174759729	-6.59568731494047	
2998000	-0.0820382875426247	-7.46137248088392	-78.4825110910339	-89.0640380654513	-78.4475999809693	-108.410394349682	-0.122621022743876	-7.23039369889942	
3247500	0.152418821825244	-6.86164213396499	-72.3843213065734	-98.4365419000101	-72.4527978001519	-108.103440703351	0.103568053283495	-6.60733449421253	
3497000	0.100341909643864	-5.94068782615495	-73.3849541794577	-116.205115982707	-72.4445284165486	-116.199222013137	0.0502882080275028	-5.57763275914787	
3746500	-0.224830185751108	-5.73808692632118	-67.1118036199957	-130.872963927851	-67.1869226404897	-124.761870914891	-0.259459297546703	-5.29670217052617	
3996000	-0.556964265758685	-6.72122414838593	-73.5697142355301	153.59798217579	-76.9331722367508	170.143267381503	-0.576552083087562	-6.36867284435086	
4245500	-0.604687848647214	-8.83605229699373	-82.5407228822681	-92.1716573494497	-77.7057181686858	-86.022084120624	-0.63764675584041	-8.44036238044534	
4495000	-0.343814899255537	-10.4837076817534	-71.4210848195123	-83.1173383378397	-70.3475533916942	-95.4962532748327	-0.384382816427847	-10.0000779726119	
4744500	-0.000917548947749515	-10.7480826899034	-63.3328028899908	-107.83251057397	-62.6165374120191	-103.714152002415	-0.0365449780180028	-10.2257115412419	
4994000	0.11877409408085	-10.1793951400512	-53.553014837542	-125.267203341173	-53.4789327109813	-125.974987241726	0.121291893284581	-9.39435381018585	
5243500	-0.204934086436102	-7.96685045583455	-45.3686414682001	145.778288037507	-45.4363149932367	144.642930884327	-0.0332038308552644	-8.48286242599505	
5493000	-0.373195677615079	-8.0686926117724	-50.9494401766418	92.8916091990391	-51.1221907936585	91.0162781579205	-0.382996909574049	-8.62637687905675	
5742500	-0.629598497847636	-9.97617204992361	-54.2440608349791	76.9955567248799	-54.1680364978659	76.5851280002064	-0.658706064310092	-10.234366422974	
5992000	-0.581859439294435	-12.3150891804851	-49.3931141204041	68.4107984626815	-49.4944964407103	67.738004571919	-0.615286002300139	-12.2860006110701	
6241500	-0.262549373668121	-13.7319849236017	-44.0567552901026	12.5654083153669	-43.964254177099	10.9928308262793	-0.427056032356821	-13.4552624692145	
6491000	0.0282416445039299	-13.6429039746815	-44.8439505335815	24.1292116811747	-44.7162342860543	24.0853975785501	-0.0179806801527691	-13.4153738680631	
6740500	0.103318266493927	-12.2831150741773	-42.847496642686	-50.475569863409	-42.6922828812769	-50.9522320346756	0.00114173010090292	-12.2483171292421	
6990000	-0.120907982706323	-12.0518736726455	-47.857858677387	-97.9406113002331	-47.5968978696287	-98.4927239440177	-0.269477611974402	-11.728607074365	
7239500	-0.65822324013667	-13.486682645753	-60.3417045448691	114.589727021439	-59.8922483263134	131.591558607996	-0.776786270269298	-12.3986033926589	
7489000	-1.05228221124897	-12.7327245455094	-38.7685383238217	-62.6452472981433	-38.5623812955432	-62.0676415912392	-1.17224589442436	-13.0069289200419	
7738500	-0.686158817468074	-14.6659581862982	-38.7949993389325	-138.925656314377	-38.7318359359811	-140.244417004153	-0.895708671206975	-13.6419123524566	
7988000	-0.252074981551817	-15.4808248386182	-41.2718367603695	165.365253894957	-41.3558753346212	164.75280101267	-0.394828280262587	-14.1818169705337	
8237500	0.0948003237694118	-14.9642202518948	-44.9748340979071	130.699420561736	-45.0616520183489	130.451603498122	-0.0103819057399242	-13.6666871819224	
8487000	0.109022068269389	-14.0040109285066	-47.8173291042648	110.938845944907	-47.8526585517866	110.839332486288	0.0312009240251485	-12.6571283968127	
8736500	-0.188077401361069	-13.6912946881724	-49.3925480787116	96.7429985137124	-49.4149843124342	96.3806959838996	-0.23594381819488	-12.2524978800286	
8986000	-0.556342358398246	-14.9594093588472	-49.3582580907215	84.3900053439273	-49.4805347744833	84.1692673519779	-0.586938622754312	-13.3548721800349	
9235500	-0.701742010909211	-17.5704864753429	-47.4259597258943	66.7434008550526	-47.2959743021296	67.0197999411471	-0.704517938029297	-15.6582626559835	
9485000	-0.602964383797292	-19.6182041887999	-43.1747342479562	24.6032211079107	-43.0569679717185	22.797703232275	-0.494764830218152	-17.7596138890801	
9734500	-0.14910651114948	-18.6500311538356	-46.7837500667672	-52.4570377582381	-46.87355773376	-53.568065847042	-0.116059777653836	-18.1843041395464	
9984000	0.151824462987856	-17.985299782914	-53.8146089063664	-84.2402116881097	-53.8677604984707	-84.7977952801081	0.10906421732133	-17.4669370147607	
10233500	0.0615753445378171	-17.069673228894	-59.3054049955891	-103.430797322851	-58.997240720116	-104.66111603907	0.0051394456992828	-16.654090140598	
10483000	-0.29156548053493	-17.1163164221212	-66.5364312347253	-141.149293456558	-66.2985514434429	-140.883566298229	-0.497074175768344	-17.4951999324893	
10732500	-0.620580056064568	-18.7566860236813	-59.9423140636576	-6.07564227836953	-59.7161255227955	-4.70043435448989	-0.79041266235368	-16.4080364149796	
10982000	-0.633817285610511	-21.2941681427356	-58.1735670764373	-52.4484845801985	-58.0113178855062	-51.1064278100319	-0.729663769446836	-19.0010690991403	
11231500	-0.330844339161399	-22.9945544136023	-58.8617060179961	-74.7207529400014	-58.6440492918865	-76.2763930251021	-0.414672522867333	-20.9898395278125	
11481000	0.0241130708394868	-23.0515297212781	-57.972576315529	-92.0302933138219	-58.169578587036	-89.6156543365508	-0.0329707635375073	-21.1203078773048	
11730500	0.128083972145567	-22.0596395917059	-57.2543320780434	-117.549788012252	-57.2008291529937	-118.349519427325	0.102849303391547	-20.2468160724564	
11980000	-0.101174863612875	-21.2201990608464	-59.70913983136	-144.02882967784	-59.2637679884004	-141.605989906403	-0.0919633086682233	-19.5282480199668	
12229500	-0.534211203955159	-21.9956206737515	-61.1808634216006	-90.6142033493841	-60.1858725651928	-92.7886046606159	-0.536110083308002	-20.1246933421967	
12479000	-0.90385785982517	-24.5206491169717	-59.4142775809331	-136.582306031664	-60.0276793683286	-137.818666295332	-1.02896935770774	-23.3067059914252	
12728500	-1.03054643164446	-27.0734344600477	-49.6030020210662	-129.490935872873	-49.5367706808855	-130.371896650322	-0.748113100434571	-22.0907591343687	
12978000	-0.843982235935543	-26.3795739443909	-46.6387434557383	-177.421518280491	-46.4758172896869	-178.884344834616	-0.313953529922476	-24.2638985920547	
13227500	-0.349617489914545	-24.169210603526	-45.9871451987785	140.894064196988	-45.9777813588397	140.230435509472	0.0137390843433743	-24.2027897040811	
13477000	-0.14909098501192	-22.8239834023663	-45.9119482711345	111.352641422731	-45.9176134137974	111.355671941737	0.0593468875697421	-23.3153827638812	
13726500	-0.378531078342586	-22.5674924645297	-45.1084604132621	86.631761831481	-45.1197097286305	85.9323659607864	-0.221872788192173	-22.8923815344472	
13976000	-0.846154684895291	-23.9547797098559	-43.0012761686302	57.2961898640971	-43.0008877138361	56.4885607416936	-0.630552920334618	-24.0893846319965	
14225500	-1.23860296805627	-25.5968756217571	-40.542384243159	8.61189927747437	-40.5807101010308	7.70690072143127	-0.867872835031391	-26.8544798213726	
14475000	-0.855985840477742	-26.0135886828867	-43.040824211137	-57.2306088973761	-42.996646137212	-58.3679496624018	-0.786011204840467	-29.6592114571789	
14724500	-0.283523482966606	-27.2409494050896	-53.6287516633821	-101.324789230514	-53.5144679821547	-103.786896478905	-0.753859650851365	-31.1916217369312	
14974000	-0.0212831699525906	-26.7004679325296	-49.5866091732949	-72.6028293642727	-49.6780689544619	-73.3380539291325	-0.866895411501846	-24.1641745915442	
15223500	-0.0352357285351717	-25.5592378193163	-58.9891657202106	-108.782460742649	-59.1797821254905	-109.251120464955	-0.118249484143682	-22.7671889972322	
15473000	-0.55639909385533	-26.4336528623745	-62.3429477716547	16.6004926102401	-62.1465963714172	14.7619171739217	-0.351920101850294	-24.4135282438124	
15722500	-0.925114638353707	-25.4064025414587	-46.6583611330025	-53.7927429026496	-46.7132174878075	-54.8472722147975	-0.79440051485762	-27.2485857072623	
15972000	-0.862615204254115	-28.5770492749192	-44.3324981648041	-92.2263156399685	-44.3248294091123	-93.0122730878418	-1.09124108615058	-31.1473421692069	
16221500	-0.544661736758448	-31.1490063175031	-41.6663333696073	-129.304357529141	-41.6449150777713	-129.508744689306	-1.28393487774853	-33.4997511188032	
16471000	-0.160315845975779	-31.8148731939509	-39.9803671392501	-176.222276318006	-39.9994245265869	-176.583972655054	-1.30283633079135	-29.9373156367015	
16720500	-0.0236619186266939	-31.0105515130935	-40.3710179557383	138.107902267358	-40.3641647544956	137.894855470428	-0.759560772906883	-24.9313238499245	
16970000	-0.292254290548751	-29.9224450661622	-41.3890105205945	98.9952474895119	-41.4138396884629	98.673058465288	-0.495461888004021	-23.0950245376327	
17219500	-0.85610666874244	-29.4870666811423	-42.3923286079078	59.0986545315793	-42.4674012533893	58.6211575719183	-0.664905308407954	-23.5004222507284	
17469000	-1.23625679763803	-30.035553978514	-44.4854492737892	15.7592819266663	-44.5300914582624	16.0344578575078	-0.903925318192456	-25.7083245134698	
17718500	-1.09590204929321	-31.9606343220891	-47.7033227368244	-22.7565938794713	-47.7925943828156	-22.258852097529	-0.851051918024794	-28.7928534336635	
17968000	-0.663182115554731	-33.6356807709794	-51.1956046518969	-57.8933356860757	-51.0870628552549	-56.2612043073778	-0.482030636134106	-30.8471620548927	
18217500	-0.304621446728793	-33.3757585388284	-54.3960212210483	-102.600013248842	-54.4840329235477	-100.203454965551	-0.0724462742584642	-30.9676103587657	
18467000	-0.221888189983537	-31.0533975261905	-58.0886070378241	178.191920539251	-58.3321207965057	-177.803535979184	0.0607786194597621	-29.9869398213887	
18716500	-0.2765465649835	-29.4985213922269	-59.551586396292	85.9017397174227	-60.4328742109608	85.8483512374749	-0.153438150639473	-29.3464404846578	
18966000	-0.573621517647369	-30.6197790663884	-58.7591637466079	9.40393857371521	-58.8463325587695	10.8805637848224	-0.62508595298504	-30.2769325492173	
19215500	-0.781620865388907	-33.5873032822504	-61.6089790837096	-8.63267719634471	-61.774486750409	-10.3948805723628	-0.851107648709344	-32.9160947836703	
19465000	-0.642378013435426	-36.8033865665685	-62.5189174079527	-24.2584473744998	-61.4026558420183	-24.4222733811557	-0.916402050836795	-37.1168354861681	
19714500	-0.260364133008619	-38.4720170339753	-59.7728765853249	-10.6900329224735	-59.0182421151048	-15.9782841232072	-1.23326543195822	-36.8538967608602	
19964000	0.00587252964568716	-38.2694604888549	-54.5755533516149	-56.9171847481383	-54.5811112396505	-60.6322391161505	-0.422074561728082	-32.2152031620788	
20213500	-0.128159052610852	-37.3172888066384	-53.5280818892729	-112.000910247305	-53.77606760048	-113.986577805349	-0.0891729105600181	-31.8168427807159	
20463000	-0.676454144441615	-36.6594930976447	-52.4162387626688	-176.917836997836	-52.6372073558517	-176.381218684808	-0.379819486635055	-32.1008117903735	
20712500	-1.26399967270048	-36.7141378278567	-47.2930628672045	98.4686405486421	-47.5365527047104	99.3271754782956	-0.836980943550948	-33.7403331912324	
20962000	-1.43815037649335	-38.5098358868197	-38.7206064501761	-2.64178926616697	-38.7744427620628	-2.22832984950385	-1.47333724961717	-37.384020107563	
21211500	-1.18061110214084	-40.5353719898254	-39.5971494820011	-112.513869557743	-39.8355223867935	-113.226547342289	-1.17673859080798	-34.5115247939639	
21461000	-0.812804923881925	-40.632201363212	-42.5835990737231	-171.437026553899	-42.809567201284	-171.680902982829	-0.441350660540584	-35.742634615244	
21710500	-0.607100941809538	-38.1584600840546	-46.4481381729804	136.880179624072	-46.6519587886816	136.868416420747	-0.0679810580019414	-35.5221195485611	
21960000	-0.590963428629363	-35.3227250907111	-52.6366770993939	97.1025111901206	-52.8991694868431	95.7308632425344	-0.0983909356726107	-34.6904363079057	
22209500	-0.811938008357354	-34.4996825218848	-65.5110090124156	67.1353464986638	-65.9148581897205	63.5185172942633	-0.452622539368621	-34.7518155951832	
22459000	-1.07989053567321	-36.3312342621859	-61.1404948256204	-141.088949899502	-60.1037351547181	-143.329263219483	-0.824890798775525	-36.6157708801492	
22708500	-1.06755872681247	-39.6442037709335	-51.6234476546464	-168.870236067962	-51.5204825891044	-172.847960355077	-0.909243062573644	-39.5750002711356	
22958000	-0.735746695476282	-42.0688933687455	-46.0573157914357	151.105449970206	-46.4788539930394	148.422294644553	-0.637293688988991	-41.7719436129712	
23207500	-0.328539566708128	-41.9996956613611	-44.0635556862979	102.372270604654	-44.5102467706333	102.339850571248	-0.247047922274826	-41.9859127699943	
23457000	-0.1130061611379	-40.5831854663944	-44.9951801921533	65.5635692470298	-45.276355543801	66.7611179929867	-0.086657327540681	-41.0554248471715	
23706500	-0.28293737249794	-39.4974604715322	-46.1857317440778	43.4923913277207	-46.3779795875263	44.9261667119539	-0.311300723392385	-40.2999606643063	
23956000	-0.714753564203546	-40.0068755932931	-46.7083736374877	27.733160850001	-46.7603577940357	28.5796829045064	-0.813441592361998	-41.0465600180236	
24205500	-1.07499912765668	-42.6028212884318	-46.2540936795519	16.9623761296004	-46.1488170697509	17.7553881632861	-1.26411518713205	-43.9333497721875	
24455000	-1.07613204964924	-45.8370838808509	-44.1326624866898	8.38163546144876	-43.8443468784924	8.0959438869388	-1.41779726239111	-47.5637965137745	
24704500	-0.782519621495927	-47.4334495267758	-40.415508784068	-13.0991209295373	-40.2076913862157	-13.7297108185381	-1.38995537589133	-49.1426626387658	
24954000	-0.491582839377923	-46.5396088809273	-37.4009755276457	-49.9069382134187	-37.3337340987487	-51.138606734438	-1.49609554877162	-46.7123688780234	
25203500	-0.438969408613885	-44.6264914114602	-36.1902239870608	-93.6590237972638	-36.1814499535801	-94.2886128707955	-1.64220077147097	-40.9466674892288	
25453000	-0.751013946569867	-43.548501663848	-36.50396710659	-135.191835177754	-36.5008791261984	-135.274003467593	-1.71214558107096	-35.6479612709533	
25702500	-1.29733862286106	-44.6432496837899	-37.8648152271231	-171.120970997384	-37.7577405547212	-171.250071590971	-1.77837721849546	-34.2313318724148	
25952000	-1.73308099106776	-47.5215078720991	-39.5594898384335	158.523648372004	-39.3944014401994	157.802184207423	-1.70880982826084	-36.3779901047651	
26201500	-1.80346403960872	-49.5438845669662	-41.298261419897	132.577513778814	-41.13083390144	131.681371769843	-1.28522143457141	-39.9533219847362	
26451000	-1.49100864440968	-48.1961149784386	-42.6661077855202	111.291721996443	-42.5984894732015	109.621372206745	-0.654884540269054	-42.7036960011436	
26700500	-1.03139100779851	-44.649058912825	-43.2174790345866	90.4145660809026	-43.0323522575345	88.2527683637163	-0.639705951942064	-44.1641905622698	
26950000	-0.780204187095667	-41.4158432394463	-45.1937671096149	64.830785220368	-45.1236797173758	62.454371434251	-0.416850434338085	-39.165068423353	
27199500	-0.864163501920539	-40.1533443378164	-46.5737865086421	45.6445663776255	-46.635158926162	43.1694771738415	-0.546989834816831	-38.6010203658998	
27449000	-1.07929120392273	-41.6641024581324	-47.9670831658565	26.0309261511124	-48.1620487646799	25.5706921104266	-0.884845342682856	-40.0219655491274	
27698500	-1.09528122112916	-45.2806660809711	-49.9096207878666	5.15783907550805	-50.0786002504026	2.74416842978797	-1.03000024831897	-43.0232743583093	
27948000	-0.745834097459889	-48.9044774131068	-54.0019664231082	8.33389774384889	-54.3266791164926	9.99930120610557	-0.782477805938227	-45.947257667535	
28197500	-0.312989698271215	-50.5745955089167	-52.617376092565	5.2109188226908	-52.3903113016125	5.15059319494176	-0.336733538766454	-46.9724319968325	
28447000	-0.255135279377682	-50.5623416648365	-54.627703430205	13.6797773412466	-54.7714519421502	12.9601832886976	-0.0648662430117089	-46.2720189677041	
28696500	-0.683908919691795	-48.1902042373386	-47.8430901044502	15.9337674026393	-47.7113410869533	14.9779394771735	-0.149728674151531	-45.0727322125868	
28946000	-1.11676015310709	-46.2810052771713	-44.5546994321335	-22.6832463577816	-44.6186529539185	-22.7244148363415	-0.53638557247345	-44.9657126880418	
29195500	-1.41025243178411	-47.0702437514529	-44.0499598809416	-55.5786756505869	-43.9186032334015	-55.3377971558682	-0.927520272478478	-46.9521437997493	
29445000	-1.31174838336519	-49.6794779315029	-44.1776114944025	-81.1850135039983	-43.9805524061848	-81.4713985202531	-0.996094380817769	-50.1940391390157	
29694500	-0.826160786404862	-51.5891321747593	-44.5023348756673	-103.213624060528	-44.4848738983566	-104.557131159554	-0.735137503334044	-52.612717370429	
29944000	-0.333462347225515	-51.4932532878153	-44.185447418313	-123.222195181744	-44.065506783822	-124.555029371442	-0.428030380844258	-53.2746762027648	
30193500	-0.139907642245089	-50.121342134506	-43.6495166859719	-162.846032935339	-43.652125706646	-164.317899412155	-0.718815320367727	-50.8987024280108	
30443000	-0.330019490754764	-48.9456349655337	-47.9620227285687	-160.246505384429	-47.9162698006852	-158.768748451466	-0.484389721745658	-48.2755597981269	
30692500	-0.750835087769066	-49.4893031527634	-45.3493759800967	-165.585953780652	-45.4238500218089	-166.006040406554	-0.92139468396166	-50.4830836223914	
30942000	-1.07567215063089	-52.2550069053643	-43.3271313696039	176.943451019484	-43.242129856775	177.17631674025	-1.49046776176629	-54.01728929132	
31191500	-0.98030734869466	-55.6887010017003	-40.7687783215972	150.01826370647	-40.7084512522165	149.91964085399	-1.81128294531152	-57.4022269561368	
31441000	-0.564266797073096	-57.477281293364	-42.697441595429	108.703270438391	-42.5859377706003	108.154301304759	-1.38264251459248	-54.1866136731935	
31690500	-0.220992414567758	-56.9652186863664	-40.4105684106993	101.213790370518	-40.4765864337806	100.296994140601	-0.980921346444134	-54.4365109222876	
31940000	-0.201771364644043	-55.3995217687733	-40.7255377308329	79.2166912855225	-40.7706489276938	79.9542622624683	-0.686319827954932	-52.412262038906	
32189500	-0.545975648308942	-54.4664526492924	-39.4211439935503	58.4891822944065	-39.162036021518	59.557011767677	-1.12442038941457	-52.2687411028851	
32439000	-1.0162036972639	-55.7119241352258	-38.1815887103808	31.5940832486034	-37.8965473170988	31.4614641618172	-1.9257477382057	-53.0589166658672	
32688500	-1.24284322169494	-58.9521487654133	-37.4631314762297	1.81891368867971	-37.140581382554	1.44104310444575	-2.57197280563372	-54.272304250154	
32938000	-1.06283610541001	-62.0665013226495	-37.2802214197554	-28.1231912756023	-37.0335051491597	-29.3654188871409	-2.52086650453335	-54.4959686205018	
33187500	-0.692511533087534	-63.1530880422179	-37.6884984781767	-57.4562005164156	-37.4412273520923	-58.6437204169346	-1.83850113473795	-52.97395233341	
33437000	-0.519749720775667	-62.2503152300394	-38.230958085063	-84.1214289369245	-37.9495644068239	-85.9595202893201	-1.13283745242054	-50.6607993998536	
