!Keysight Technologies N9923A: A.12.45
!Date: Tuesday, 05 August 2025 20:31:08
!Timezone: (UTC+08:00) Kuala Lumpur, Singapore
!Model: N9923A
!Serial: MY61181427
!GPS Latitude: 
!GPS Longitude: 
!GPS TimeStamp: 0001-01-01 00:00:00Z
!GPS Seconds Since Last Read: 0
!CHECKSUM:0109211665
!Correction: S11(ON U)S21(ON U)S12(ON U)S22(ON U)
!S2P File: Measurements:S11,S21,S12,S22:
# Hz S DB R 50
2000000	-0.103937252845645	-2.41561159112162	-79.3086580625521	98.4881071261175	-77.8330379171256	77.822447968817	-0.143698920375839	-2.2249691327915	
2249500	-0.448314672776429	-3.15108493246618	-64.8683060679469	52.9511465174794	-66.0184665479597	48.9955267635621	-0.485200318071166	-2.98622126110739	
2499000	-0.605603994798726	-5.00160235120952	-63.5863175842266	-76.9606428684468	-63.4376840567462	-76.6209655972591	-0.640513783069822	-4.65488873331021	
2748500	-0.435585347342463	-6.81867690915076	-69.587053140597	-127.170706662741	-70.3977793869515	-125.608378221801	-0.473070510349184	-6.56161974851654	
2998000	-0.0828110053175617	-7.43319657028726	-78.3728512064901	-94.4283975142887	-74.6529701626507	-104.914997653782	-0.123224813796826	-7.20138697945445	
3247500	0.15281141738156	-6.83693413104482	-73.4954714813178	-98.9984791788961	-72.195410775147	-106.112562763855	0.0985001597117687	-6.60697603649116	
3497000	0.0998764312491846	-5.91311799979205	-72.3678022292369	-106.734351264924	-71.8160633180785	-109.451582060942	0.0486066209952731	-5.57585131883652	
3746500	-0.224024813835764	-5.70874740247415	-67.4733540286055	-128.489125524136	-66.5033047131681	-123.736955710613	-0.260671058771765	-5.28177767098772	
3996000	-0.557246119151596	-6.69878494323736	-79.8104220605633	163.333770374627	-77.0860382863655	161.730182596946	-0.576927056753802	-6.35478644121319	
4245500	-0.604553829140099	-8.80552945247293	-75.1864492321025	-86.4524533941464	-74.6926396418767	-99.1396894182161	-0.637946177090545	-8.43189716912434	
4495000	-0.344215961272829	-10.4426562097804	-68.7731722461964	-92.9615873141463	-68.551693512558	-84.8314496091427	-0.385671338229041	-9.99193773938804	
4744500	0.000447874941870869	-10.6840635354811	-62.5270380239061	-105.694513839372	-62.7544087566858	-103.610234051802	-0.0393866953332928	-10.2146705967827	
4994000	0.133486456792517	-10.0633663301395	-54.178372162775	-122.723019686851	-54.1013009606884	-121.686911977899	0.119926161038628	-9.38585295401529	
5243500	-0.224408278774428	-8.39977627902218	-44.5216226403364	161.787846929253	-44.5223625863759	161.495549302063	-0.0371164283679593	-8.48798514196652	
5493000	-0.382116136465721	-8.02397879571904	-49.9905780767618	96.1240067617988	-49.906162956619	95.576994023126	-0.383078293603016	-8.6074353051434	
5742500	-0.631875317175554	-9.97739958648369	-54.643441591733	83.6566182977862	-54.535089696095	83.1991178948289	-0.654939882056352	-10.1906911117928	
5992000	-0.582583825718869	-12.2702293709176	-50.2823090184648	70.4498250234488	-50.2207935754991	69.8645428733328	-0.612549879352618	-12.2995971335964	
6241500	-0.248152444785666	-13.710744023235	-48.1002837888241	57.149561431161	-48.1809561406018	57.1676976940482	-0.321244850992728	-13.5705640310909	
6491000	0.03465437046458	-13.6071704242458	-44.5029711165552	31.7618718057176	-44.3472949556606	31.399179515062	-0.015915438379957	-13.4758685632606	
6740500	0.0991160550288875	-12.2248218548487	-42.327651145445	-39.8763818382748	-42.2411252613364	-39.9323450115813	0.00104827022671384	-12.2656161889813	
6990000	-0.105532960037179	-11.8337608262744	-47.5802381798224	-83.5615469532479	-47.5374337362446	-83.2178171524623	-0.245112523903227	-11.7120296320919	
7239500	-0.527511791918265	-13.0556451410336	-56.5530624052289	-120.192934858282	-55.7070469688203	-120.531006905011	-0.714805019389116	-12.5746235009812	
7489000	-1.02664013361063	-15.5446076977581	-41.2637686742522	10.2811141415881	-41.3400345682828	12.4074449195831	-1.13940053413213	-14.1046739727122	
7738500	-0.840478547148113	-14.5943235245838	-34.6877774552408	-105.987310479663	-34.53952393507	-106.516907885382	-0.983077163633494	-13.997408312645	
7988000	-0.33085842957564	-15.3164905885325	-37.110511964706	-175.674875994556	-37.0855495730564	-176.517654564077	-0.476168965131584	-14.2085523824693	
8237500	0.0597002271994984	-14.7009326009144	-41.3397957133009	138.429850874006	-41.3956072220866	138.154038505346	-0.0523571331762397	-13.4624453335289	
8487000	0.0963994053773649	-13.8082333905493	-44.9667217484795	114.097148517184	-45.0660555627585	114.011361832958	0.0145782298792907	-12.4800024814591	
8736500	-0.19379373831272	-13.5468937180936	-47.4078980314757	98.2605049449358	-47.3371274307949	98.2401888393663	-0.242730665991478	-12.114659186049	
8986000	-0.559101313749179	-14.8439143594523	-47.9990399414041	86.1311598817896	-48.1041804100301	85.9066964112026	-0.590994785642585	-13.2355885965063	
9235500	-0.69675739513282	-17.452916558467	-47.0179274719267	71.5906731881905	-46.9980003358037	70.8951562900625	-0.706272960392545	-15.5449001211399	
9485000	-0.558339879911684	-19.7702197937548	-43.2431735930665	41.1026036561037	-43.1444056399021	41.5771395470097	-0.49174806013751	-17.6651695683091	
9734500	-0.229145942091887	-18.5603354363852	-43.6936397936816	-37.9722396976817	-43.7024621153181	-38.6744577593578	-0.123377510246677	-18.061656679667	
9984000	0.136394565008008	-17.754059232206	-51.5074832646214	-79.1230342289765	-51.4622326120065	-79.5468196405896	0.107332647190967	-17.2938831506503	
10233500	0.0582664353231648	-16.8919287696197	-57.7159711612473	-99.6856237807053	-57.4198818514158	-98.8686772577814	0.0125511634506608	-16.354560472905	
10483000	-0.291667208431466	-16.9502917094124	-64.5887799276567	-115.868865593874	-64.2770110197008	-119.022952889605	-0.355868281039573	-16.5471832017596	
10732500	-0.619094699965556	-18.591666762603	-62.6311469458227	151.236251857411	-63.0368085967614	148.85784327864	-0.897043178856793	-19.1881651002788	
10982000	-0.632725807984026	-21.1273019452116	-54.5430999481548	-27.5925208791517	-54.534801810746	-27.5646291770652	-0.849122739150294	-18.0932070556135	
11231500	-0.329646510988552	-22.8156126256622	-56.7767032008302	-63.3414478419025	-56.4857893321447	-62.8239158400677	-0.429024097554844	-20.4758809002482	
11481000	0.0278823258385355	-22.8535953915323	-56.7355770114241	-86.5174800887799	-56.5783551761949	-86.7510198659498	-0.037350749366161	-20.8343362243453	
11730500	0.13920288355929	-21.8429100093398	-56.7871034930834	-123.690578629569	-56.7138744996236	-122.849048460693	0.101681154828892	-20.0541398169323	
11980000	-0.0826029588121977	-20.9907169848915	-60.6918091588898	155.512654080118	-60.2993887930724	154.760784617338	-0.109396936196801	-19.5614781961195	
12229500	-0.511957253520803	-21.7030321158375	-43.4758317177699	-25.834410152478	-43.4114883557061	-26.5734108531462	-0.948370831079205	-18.7382982820634	
12479000	-0.843098230747227	-24.1185085770568	-47.8095889114209	-113.400875741957	-47.6326620422975	-114.092289549872	-0.751030792166755	-20.2173303696495	
12728500	-0.904892785257453	-26.9198802004242	-46.5721579661999	-139.882678831633	-46.5535965956495	-139.33914656656	-0.657282310573681	-23.0548015401213	
12978000	-0.76542211141851	-27.0657984509615	-44.079614010994	-175.309416203762	-44.0116791713637	-175.645761772059	-0.301124453898372	-24.5213287508356	
13227500	-0.385675326418484	-24.5269678107188	-43.2378141644269	143.513994402338	-43.2762532882965	143.16737409035	0.016735092919475	-24.2437547400812	
13477000	-0.171328352350416	-22.7781384276451	-43.4730412320134	111.142405038374	-43.5107865409995	110.268997217022	0.0630309879374887	-23.257185707567	
13726500	-0.374554425698634	-22.4330854320699	-43.1188901665789	84.0497043621074	-43.1202872729584	83.7599788513208	-0.212885436821772	-22.7639427201438	
13976000	-0.817267905387372	-23.8252124402847	-41.4033972743516	53.6718815195873	-41.4510431701315	53.4496117677256	-0.615416697870523	-23.8836641689763	
14225500	-1.18975639889638	-25.6466441015247	-39.1428592993194	3.32145913013105	-39.1382498881073	2.74135653716524	-0.841484385465454	-26.4842878742201	
14475000	-0.840292641395739	-26.2252818965041	-41.5701362818564	-66.5272997133071	-41.6121692165966	-67.4142882039551	-0.700594672283743	-29.0070483452949	
14724500	-0.286886716444076	-27.3345591452511	-48.9666086654145	-134.909930290372	-49.0417204772827	-136.179824921151	-0.438223745886443	-30.5762398124692	
14974000	-0.0144354385293121	-26.7133225486411	-53.3646398617137	39.8781347055041	-53.2687332625517	38.2985824185678	-0.879383683176028	-29.9215749898173	
15223500	-0.028316022768649	-25.633802968513	-55.5617614816669	-73.1198105462609	-55.6633936537589	-74.201698602078	-0.299568980878249	-21.8339654888699	
15473000	-0.519286370237985	-26.4837534838171	-59.6594416019587	7.63988244697342	-59.6412102766721	5.81610375442051	-0.367157706968897	-24.3020663960228	
15722500	-0.980442057692852	-25.5695564494011	-46.1961070554067	-46.2376182144453	-46.2224401821331	-46.9850558913858	-0.807520552997534	-27.5625003878758	
15972000	-0.88701642804852	-28.4103796995485	-43.540972112786	-90.6841346769356	-43.5688590320392	-90.8719219194872	-1.16205986775852	-31.9391914977017	
16221500	-0.549550160150027	-30.9729743285212	-41.1869185402291	-135.751057730605	-41.1762976520409	-135.876538609123	-1.61097047391286	-33.9904495918536	
16471000	-0.149006847228638	-31.6164683373824	-41.3610556286855	165.949993440564	-41.3629878554298	166.124542329767	-1.44393401846739	-27.0674212824777	
16720500	0.0147506232635273	-30.8425872491821	-44.4243194137331	120.599574306785	-44.4685004435128	121.100496231975	-0.521276055672247	-23.7507057133211	
16970000	-0.216786616760508	-29.9388590568162	-47.2876580363657	86.4586385816689	-47.3258475687869	86.9251821846092	-0.312491891263009	-23.2050388171203	
17219500	-0.761079880144437	-30.0924138951905	-49.8946037238828	50.4200676359337	-50.039070918743	49.0029569917521	-0.54784236581291	-23.9439301680665	
17469000	-1.2438051427169	-31.2007285287197	-53.2560533048207	-2.15083739160557	-53.4448657123356	-2.96479467884743	-0.820506982163562	-26.2377678429066	
17718500	-1.19781425004601	-32.7387776542444	-57.1565202163052	-76.1730957419687	-57.8121590857806	-75.0407795985564	-0.789790790774443	-29.3527512996878	
17968000	-0.765945064238619	-34.0262349475445	-56.2745038721247	-157.33137030001	-56.3266338872982	-159.274036916454	-0.438416413081438	-31.4308634502066	
18217500	-0.404475861479915	-33.6907217902674	-51.9867695452564	148.761844006422	-52.0193843683131	145.235880800762	-0.0473813955290703	-31.5815492792012	
18467000	-0.358402302352435	-31.2247366890244	-48.9608498615438	95.7133352839746	-49.0341381554753	93.72911591983	0.0658496443337719	-30.6622210105743	
18716500	-0.427530721292393	-29.3445464438975	-49.2358149435343	48.8716102123562	-49.4704594786683	46.3791291210232	-0.18817086694117	-30.1939139945324	
18966000	-0.742873273518003	-30.0053315444013	-53.5283764209765	-4.68528413582408	-53.6588884697648	-6.74725678634657	-0.702817676130342	-29.6726490325459	
19215500	-0.883773425575951	-32.5688681405276	-54.4153313990886	-2.26413196346263	-54.8681386813462	-1.29298072745778	-0.887796764273527	-33.2674904017304	
19465000	-0.687677872704353	-35.8782344447335	-55.970740436568	-10.6237687674302	-56.1827410881882	-11.7421189346907	-0.918957266373989	-37.0198609946151	
19714500	-0.277156801816674	-37.6789886713058	-54.4127098369406	-5.6781328644198	-54.4100673810062	-5.19298423015732	-0.933251823593413	-38.7900103881514	
19964000	0.0129468655243374	-37.5517902436503	-50.29122382389	-47.2489547429806	-50.1095526809175	-47.655190216013	-0.789776856267041	-33.0140855339122	
20213500	-0.0839432209274451	-36.6624465185184	-57.342970621904	-122.89521088915	-57.6687044170706	-122.023678979973	-0.118353365462491	-32.9775880667481	
20463000	-0.587934369213149	-36.3332867595432	-49.1073688857267	14.6258584512613	-48.9100589054881	13.6366359441647	-0.959780492917405	-34.6908539306731	
20712500	-1.21681751989032	-36.9009014556408	-42.5715637336214	-75.811131976205	-42.4399996016972	-75.9100441752011	-1.61868263894576	-30.2053109511752	
20962000	-1.44867022435877	-38.5879743656152	-44.3854842007841	-138.34196594731	-44.346226383469	-138.596467482657	-1.35990326259628	-31.3521225549989	
21211500	-1.23854133757802	-40.4556879314894	-47.8862263503602	-171.295856096865	-47.696589074186	-170.568391798289	-0.956611863632701	-34.1671414803946	
21461000	-0.864923596515203	-40.19479367692	-48.3519202857019	156.324466076711	-48.1554241895277	157.206459823002	-0.423968697270681	-35.3249606890127	
21710500	-0.618206775469023	-37.5979861737076	-51.5992323755847	109.410659817577	-51.239214221516	109.417981330514	-0.0780497545413713	-34.90000320341	
21960000	-0.580659042977974	-34.8231956611682	-58.3484769234724	58.1248498266159	-58.0344266936263	57.4956965255222	-0.100944827616992	-33.9505241142573	
22209500	-0.796838211659054	-33.9915470513767	-63.2449937753699	-49.4791882084905	-63.1991652348995	-48.3828758839289	-0.441439530915156	-33.9331480949316	
22459000	-1.06133082985994	-35.7465309037794	-56.6117754346477	-114.158780836619	-56.9380417088134	-115.036193977812	-0.802043301398534	-35.7487720478504	
22708500	-1.04058516653532	-38.9566690596253	-51.2616504713771	-148.560551421044	-51.1572334263871	-150.648199599766	-0.878730342748153	-38.6945211099131	
22958000	-0.68824439955419	-41.3511501562592	-46.850150224991	172.454369463592	-47.0143220982977	170.533588008842	-0.602718812911624	-40.9064739662569	
23207500	-0.266944585673936	-41.3832865341654	-45.2306743863178	123.640695315967	-45.3770219113881	123.064752351916	-0.202912215542043	-41.1034693360644	
23457000	-0.0469502633152284	-40.0004369001922	-46.7254139777658	88.9500331822208	-46.9936943564063	89.5551597207316	-0.0142461633032552	-40.161862655433	
23706500	-0.204032772983439	-38.8546868937342	-48.3966780235073	71.5535445466865	-48.4458282872408	71.9004299842315	-0.202905750086298	-39.4258514427268	
23956000	-0.612733857346171	-39.2485976188558	-49.0356371441887	62.6383974794558	-49.0395216537031	63.0863036344804	-0.661844076617056	-40.2291477771081	
24205500	-0.939272493185854	-41.7075560373059	-48.1117152137796	58.4121177094473	-47.8392944529706	57.8787506250197	-1.06500777096597	-43.2287362498846	
24455000	-0.896905374742004	-44.8668137459809	-45.2094664734063	50.3634766127229	-45.0576305922373	50.1703066753014	-1.16383417619628	-47.1189093951232	
24704500	-0.550346790378538	-46.6344390616155	-41.2494078761355	31.59338874953	-41.1331404753072	31.1829206226465	-1.06656606144244	-49.4928827967874	
24954000	-0.227502293639682	-46.1899518008572	-37.4828269524197	-2.01984799252193	-37.4527660908658	-2.33869616420445	-1.28401352519772	-48.9676648836072	
25203500	-0.177998853056807	-44.6213424642185	-35.3895830242457	-48.1915205552334	-35.3431851655168	-48.1778999639919	-1.92121541987397	-42.8923308576099	
25453000	-0.464298243616649	-43.6495295356139	-36.0075759649099	-94.4849368867076	-35.9958436284315	-94.1233567821715	-1.94929058757477	-34.3222930582529	
25702500	-0.923421565083731	-44.8874839205481	-38.1491678978676	-127.902018096995	-37.991484743426	-127.791475871625	-1.69251547472815	-32.8025224007705	
25952000	-1.21634905666029	-48.2557400248766	-39.9350659452361	-150.338877783959	-39.8028800338367	-150.168017029882	-1.5490047970414	-35.9252264559696	
26201500	-1.15509186083272	-51.7613827475514	-40.8184486464869	-169.118154092127	-40.6487186763625	-168.970732967051	-1.18330962246014	-39.9228721223292	
26451000	-0.944312644218498	-53.1854745258327	-40.9212934553924	172.814618249512	-40.7368368831465	172.369214761764	-0.634408695980629	-42.2153749557752	
26700500	-1.03706788388138	-51.6696972624032	-40.1811713697985	149.983926058704	-40.0160261685388	149.052459802586	-0.214624879592465	-41.9854178294355	
26950000	-1.47788842453018	-46.599199459315	-40.0203867433122	120.400419803755	-39.9002095976006	119.063037120742	-0.122632509521683	-40.8916308180587	
27199500	-1.68596060430624	-41.0451032356986	-41.0009317788456	87.949694003881	-40.8526105976572	86.8619246668808	-0.408380206864207	-40.3551517129181	
27449000	-1.58582455181288	-40.6516710001088	-42.9780859096351	59.431731826941	-42.9410103784246	56.9151184840869	-0.800403927395808	-41.7563377276596	
27698500	-1.3544063986778	-44.5625905801491	-45.6845069321943	34.0602509820948	-45.9161619576126	31.8552203355027	-0.971294772406786	-44.7440569120782	
27948000	-0.928103693881541	-48.8811005407482	-50.7740609909543	22.77123740603	-51.3251959595318	23.5696964755263	-0.751054421136918	-47.63911205074	
28197500	-0.485741825804052	-50.9850555832724	-51.0746914643658	35.8316528749369	-50.9866785011548	36.8331161692305	-0.32740835628544	-48.634797660332	
28447000	-0.479734603058089	-50.8692225657837	-49.3015947293425	46.2855522829926	-49.0440514651672	46.517949523214	-0.0917653203701932	-47.9811090506511	
28696500	-0.892335573784357	-48.4958689291353	-45.2255646086496	26.7415112791821	-44.8849564730372	25.5332377980318	-0.220843843229462	-46.8837428717482	
28946000	-1.4093577976144	-46.6672741298661	-43.8470585941388	-6.65244037518946	-43.5817588061144	-7.69392151772111	-0.659314022594111	-46.9580493716652	
29195500	-1.77609414500107	-47.0485328141358	-44.074097979975	-36.3472988329516	-43.831934140416	-38.7442133896306	-1.10992813226927	-49.1856263207385	
29445000	-1.68629131723993	-49.2543790075065	-44.9743538282617	-59.1770066301623	-45.0671195997728	-61.9438964667393	-1.24981235011679	-52.6242504999546	
29694500	-1.18216283406325	-50.9132608859061	-45.9387841398426	-75.8638740385472	-46.1253850660459	-77.8632038622923	-1.10423054236894	-55.1078097738306	
29944000	-0.683220303129741	-50.4708795190587	-46.2499173581103	-88.3195374756233	-46.4153761413471	-90.1231615064355	-0.958206220388561	-55.0013495731963	
30193500	-0.466296769740902	-48.4343000060204	-45.7342843036619	-104.265296757647	-45.7969576220115	-105.207408429632	-1.16297262897222	-51.9911389052113	
30443000	-0.580536073679496	-46.6148395973691	-45.1269116877275	-122.11719584158	-45.1537747348455	-122.953984296605	-1.33268397466934	-46.4374516606001	
30692500	-0.914901758479562	-46.8647916964906	-44.5853488291197	-140.888374115199	-44.6034000308566	-141.121123102892	-1.40504093654915	-49.8338581818487	
30942000	-1.18430545809407	-49.5965862775091	-44.1287609456041	-157.935260744088	-44.1749450145728	-158.612006962691	-2.46588155801564	-51.1277302228543	
31191500	-1.05362150954521	-53.1613101573094	-43.1305154207108	-178.050431805828	-43.2398083430231	-178.031042880182	-2.34897365448392	-50.7085429260617	
31441000	-0.608210856705181	-55.0913241811677	-42.0090324309417	159.515337025081	-42.0770274818544	159.890006423854	-1.59286364903804	-50.8881397991555	
31690500	-0.22511156436976	-54.6537076734609	-40.3430137997826	130.40894572303	-40.2935021674387	131.325112293374	-1.03455217881036	-51.5753378637688	
31940000	-0.161621844229103	-53.0607316490181	-40.6620603265745	91.2624564155295	-40.5292197680154	91.4739452603475	-1.18478746586942	-47.3788409462789	
32189500	-0.460344574369135	-51.9993140448608	-42.6358419366211	62.6044625687607	-42.5505460169721	62.3801206274476	-1.11313625400886	-43.9955593430378	
32439000	-0.888895322226429	-53.0143213340568	-44.4532921935744	39.9939888385434	-44.4997358011089	39.5798244330706	-1.30195312939465	-44.5259733675395	
32688500	-1.0789402448017	-56.019091102213	-46.20535769507	21.8930109376529	-46.2453780192243	21.0927212992745	-1.44364184709302	-47.5550885244611	
32938000	-0.858186710171537	-59.0049455164613	-47.4198105006441	8.25071553731476	-47.491733727491	8.03626321918344	-1.19918039417621	-51.2611681251883	
33187500	-0.420526283881966	-60.0974580352654	-48.6094352733514	-3.6747466335537	-48.3763832231632	-3.49155950676599	-0.679441652828419	-53.0839731370392	
33437000	-0.139310193956406	-59.29462364715	-49.1818404379187	-14.6303855387891	-48.85170697314	-14.7328033113905	-0.262249534126629	-52.7479220039926	
