!Keysight Technologies N9923A: A.12.45
!Date: Friday, 08 August 2025 17:46:37
!Timezone: (UTC+08:00) Kuala Lumpur, Singapore
!Model: N9923A
!Serial: MY61181427
!GPS Latitude: 
!GPS Longitude: 
!GPS TimeStamp: 0001-01-01 00:00:00Z
!GPS Seconds Since Last Read: 0
!CHECKSUM:0505143513
!Correction: S11(ON U)S21(ON U)S12(ON U)S22(ON U)
!S2P File: Measurements:S11,S21,S12,S22:
# Hz S DB R 50
2000000	-0.0881868998317963	151.384799173665	-80.3436576856561	-165.941098416628	-81.4092290014703	174.126194256093	-0.0438856551990973	-3.47538307292564	
2249500	0.00505722991396823	148.260095307915	-75.9773611840953	161.169298226353	-78.6500785020124	153.834126654338	-0.150093398181378	-4.07458664189337	
2499000	-0.00517907835142013	145.293612317635	-67.8864533805796	143.520182403813	-66.5756871194683	136.604019990579	-0.196931279981658	-5.01310676109274	
2748500	-0.117107676229004	142.158236465572	-50.96228370356	13.3446538801784	-51.0864400661148	10.2488285324671	-0.163181444224298	-5.53720594914203	
2998000	-0.239433171742282	138.355700015401	-67.2257525842886	-2.4536725148057	-68.3505053181975	1.66560140474737	-0.0235341524173436	-6.22874998669504	
3247500	-0.244533888157216	134.809021527263	-58.6775633754428	-23.0913350895183	-59.0388214495166	-27.0203581784958	0.0512061823371028	-6.35332858265626	
3497000	-0.146529412518806	131.04302357586	-56.9678011252489	-46.5271440728941	-56.4810177727818	-43.6586936868579	0.0189472365869812	-6.47688001612397	
3746500	-0.0390451630677684	127.889604177321	-51.2723182795451	-69.6594502304147	-51.1909539692765	-67.5925936919517	-0.126359692857541	-6.81514016485799	
3996000	-0.0143329787531099	125.142023451921	-46.2935474034668	-141.688908756366	-46.1485224379649	-142.324446870181	-0.305432062725877	-6.69769610737047	
4245500	-0.0844454475344275	122.227272442095	-50.4647585082072	169.624348473596	-50.3466475085486	168.999177278515	-0.210197146055993	-7.59804689387821	
4495000	-0.202484971874076	118.84577412897	-51.0121728219751	151.236710896421	-50.7380607541856	151.697361615562	-0.10619710134584	-8.6248525644161	
4744500	-0.271971491329951	115.026295793365	-46.3562345112582	133.222273400191	-46.2988110010101	133.003327129431	0.00721095394766891	-9.21482137273626	
4994000	-0.251245769216829	112.068065282696	-42.6921628453165	12.2056749057789	-42.6480944325015	11.2522733074166	0.0173554836352899	-8.90027765828166	
5243500	-0.084297311401525	108.62558040707	-53.6480000819475	-26.6619953099913	-53.5413721975165	-25.2721965536382	0.00900451591930594	-9.13341635336034	
5493000	-0.0105180962565426	105.841577325995	-57.7911142327883	-39.2145555678373	-58.0124328760777	-37.1459979981194	-0.102546256401579	-9.6560592086781	
5742500	-0.0574169542336433	103.102473087214	-58.7967695044587	-50.2515838867499	-58.512896236732	-50.0270949421563	-0.189855250441843	-10.6752427470216	
5992000	-0.224142183535766	99.7718476054247	-51.7109066002271	-87.5394869513182	-51.429209467642	-87.7508710428331	-0.192949860981114	-11.9183363069587	
6241500	-0.36178583308788	97.5054574024002	-42.4564293297599	51.6590989149572	-42.233421949005	46.7703395576367	-0.197162311349017	-12.2635422975314	
6491000	-0.257059287292804	93.6766504444188	-58.0052300491365	-40.2133136085922	-57.9210219748019	-37.7535369144665	0.026282835342988	-12.62665748104	
6740500	-0.144636333708011	90.3861357436882	-61.4194644867408	-54.7527195770913	-61.1652080600417	-52.0375064620264	0.0525196655017264	-12.8535956412136	
6990000	-0.0361184605956734	87.6854302474523	-60.3495537478598	-59.8899180405439	-60.9420152155564	-58.6417555525111	-0.0329345797077332	-13.1913167863687	
7239500	-0.0318655084086455	85.3200616107854	-58.4563458597712	-69.803412234227	-58.6315506833142	-69.9821048878614	-0.176614508632003	-14.0443858554885	
7489000	-0.132095141659319	82.6959393178511	-53.9142724943379	-88.2165175993373	-54.0193133380879	-88.3032972733098	-0.336986833587169	-15.4764002636214	
7738500	-0.252838885555913	79.6040055082252	-49.5141881617103	-149.577893601064	-49.246926990018	-148.821766795713	-0.579930312006513	-15.0213087640918	
7988000	-0.28590545677527	76.2389369457729	-54.9758253553001	146.719924766625	-55.0960275638218	145.005209003068	-0.124259202026707	-14.6278941890296	
8237500	-0.216710283715011	72.9757422734177	-57.3519251184281	167.10576140206	-57.6672285252784	165.516672357343	0.01209618929366	-15.585236132734	
8487000	-0.0958983641371004	70.264082172403	-56.8711572444456	177.507109583934	-56.7150879899202	-176.963707861486	-0.0351088255950592	-16.1515602983129	
8736500	-0.0475135990874132	68.0399504725485	-47.6735656542263	143.635969942936	-47.059754486584	143.719271898315	-0.302289246852729	-15.651893059319	
8986000	-0.118759561082432	65.9114451506693	-45.7629401579752	69.3349346863287	-45.6264195378507	70.1327774044891	-0.305831618421562	-15.766030378399	
9235500	-0.232651923601042	63.3634041641941	-48.6915279108934	9.77644957991419	-48.3652908777934	11.4424579765999	-0.31429370382286	-16.6940825478349	
9485000	-0.303931054343892	60.2095198772503	-52.6581839866046	-20.4848157624196	-52.3654804728532	-19.8575522653492	-0.192866786304331	-17.6994265952655	
9734500	-0.268921680806342	56.9785586141788	-54.585435451201	-43.9278775253882	-54.7288455520978	-41.8089274236496	-0.0519941332807661	-18.4032563687362	
9984000	-0.147486086048529	54.1462020035308	-54.6187465925731	-69.1489387083217	-54.3603152126085	-66.6251412354086	0.0195925459461793	-18.6762855108703	
10233500	-0.0483529288672204	51.8893967320729	-52.9194609741136	-113.594395145142	-52.4419552030188	-114.185551085629	-0.0554386736351661	-18.7433522194339	
10483000	-0.050620254938347	49.9264468900666	-58.1921108842044	170.3674754388	-57.5435100609829	170.322600560524	-0.144653904593763	-18.805480889446	
10732500	-0.158540461919383	47.6266696575648	-66.4818396529381	142.336995390048	-67.3016822846413	131.74383505353	-0.228148165255701	-19.9265238482079	
10982000	-0.280356855315218	44.7861597424226	-78.006710635849	116.469607562139	-75.0166148710665	124.696199523728	-0.245988357406717	-21.3466808985297	
11231500	-0.307109231367233	41.6098464024795	-74.9146840836332	142.993658963233	-78.0607875398851	155.161504792118	-0.176739153652223	-22.5584165243536	
11481000	-0.21993658882884	38.653175638043	-63.5366514721967	155.835703974972	-64.0227000085742	159.730429929783	-0.119228955053261	-23.291307618763	
11730500	-0.0923019008694642	36.2769733541241	-57.7011522754165	83.7076909842367	-57.8447839631877	82.6272917660546	-0.159304275393899	-23.4315705178063	
11980000	-0.0341903287416718	34.3284612096794	-56.5751432072739	10.2396868404387	-56.6137550684834	10.8370940450717	-0.380371756241099	-23.1224022742551	
12229500	-0.101366053508499	32.3520162251907	-63.208582984482	-36.7634884177627	-62.176858388413	-30.0277893397435	-0.618474342449087	-23.3089125724808	
12479000	-0.240390976892177	29.8191181040938	-60.203126816225	-48.0791019464838	-59.6779754207283	-45.1143235437157	-0.76024042720293	-21.626532864749	
12728500	-0.328975445701915	26.7460050410201	-62.5138111865057	-75.1792607418189	-62.8511984870215	-76.3664479444016	-0.451891652991981	-22.3340659657541	
12978000	-0.290722305068138	23.5518999799917	-65.4820897875116	-80.8649826052613	-66.2692894336112	-84.8302579800106	-0.231155207205287	-23.6115236057725	
13227500	-0.16832708786336	20.7901974410878	-63.524457788089	-65.8923952028483	-63.9472014137154	-66.1265618095578	-0.0828441812275627	-24.1162231957758	
13477000	-0.0647549034987596	18.5751286807119	-61.2265357644255	-79.8506936252922	-61.283963160012	-80.8968792123738	-0.0233749610004508	-24.2794785289105	
13726500	-0.0763249803551384	16.5290414690747	-58.614467225684	-88.2931048625689	-58.9734984411892	-89.4447772324814	-0.0877577598546003	-24.7493250986738	
13976000	-0.201059849848528	14.0299433602601	-56.7525326243774	-96.4752978288676	-56.2963562783186	-97.1319270260009	-0.231491112395283	-25.9119958625507	
14225500	-0.342295029381494	10.756511977252	-52.092742542139	-116.016259363258	-52.0513120135845	-117.248467920769	-0.486319757973375	-27.6110462601684	
14475000	-0.38893485648664	6.88515781679649	-51.4510023600836	-136.506700096931	-51.0443296409414	-136.979334165317	-0.386652236317358	-27.1664560649152	
14724500	-0.326175443203959	2.91585621073929	-45.4301712353041	-170.825126626452	-45.4606480694857	-173.525899559385	-0.430046861331341	-28.1329547162346	
14974000	-0.252629596213993	-0.968134275227862	-47.6525879055791	146.052092777592	-47.9283735961136	145.44960980477	-0.179471199152119	-26.8397713353866	
15223500	-0.314773863623199	-5.260765536181	-46.9509154753229	121.571705017508	-47.1765563041593	121.24333743722	-0.0864599672011329	-27.2147513681931	
15473000	-0.692148309383577	-11.8343448707235	-48.0662247731404	114.283011658883	-48.2355259342174	115.292957404673	-0.167113082819831	-27.9804876747849	
15722500	-1.77401709111882	-23.8364525439106	-45.7579197299376	111.418994360782	-45.8382709293056	112.421083714946	-0.302163422976005	-29.3503945558383	
15972000	-6.73149412347916	-45.60019129145	-40.3201720205472	93.9148180512661	-40.2632837387518	94.0370772868139	-0.408229553805032	-31.2307745786675	
16221500	-8.10947442436742	44.2264894784374	-35.632192925316	41.9438968131517	-35.7798764994787	42.9102600339443	-0.543703565916358	-32.9085229396742	
16471000	-2.26305439161389	25.9806028388334	-35.1933708548682	-19.7247849062162	-35.0599570069238	-18.3162698446422	-0.769357376179648	-31.2412432669224	
16720500	-0.95407575351521	14.7921733942285	-39.5208170231455	-69.4503260893286	-39.4094859775159	-68.438572274727	-0.252310199539708	-29.3792884679452	
16970000	-0.506703497504312	8.54517230470839	-42.0038252367832	-94.0225391069487	-41.4640176729321	-95.035711976366	-0.217456803152636	-30.8236438044453	
17219500	-0.429180023356755	4.09759816400134	-47.4766358579737	-122.045543982454	-47.4855655532891	-123.593334987463	-0.385780363488767	-31.9146751689896	
17469000	-0.48080065857733	0.0348467969558392	-48.6325987788435	-118.851929683286	-48.572416932327	-118.16579775217	-0.736430978224469	-33.0212079034407	
17718500	-0.495391017735806	-4.02663015234887	-49.0431755638973	-138.961466239069	-48.8530061903277	-138.76263842867	-0.863463896678993	-32.444482283487	
17968000	-0.397190886603712	-7.70967350952669	-50.9462578608072	-158.07967972385	-50.6569058178042	-159.429009492075	-0.622972191567723	-32.1774041487647	
18217500	-0.2328966043862	-10.561152260453	-52.5541829713843	-173.064909422645	-52.6283407811992	-173.976936995381	-0.342546913366347	-32.2604687730777	
18467000	-0.123931383344828	-12.6351885198767	-54.3783819097068	176.943305074043	-54.160512889678	174.920037323539	-0.181623876195148	-32.380954617578	
18716500	-0.147974691924365	-14.4545334226848	-55.6906007909842	168.308674574956	-55.6398112449718	168.477512152097	-0.187115666190705	-32.7675689228265	
18966000	-0.267998109142893	-16.6373245483538	-56.7389714936876	163.499087866432	-56.7103236537125	162.283267262022	-0.294889825878802	-33.6796327181425	
19215500	-0.377569762421115	-19.3764062851353	-56.8755777512485	160.041048935813	-57.2194786236902	157.168925554155	-0.390143109283695	-35.174008726821	
19465000	-0.372447474962069	-22.3457654478774	-56.8012135410152	152.612273251167	-56.8662650392418	153.307574082832	-0.401304438371539	-36.8050461358511	
19714500	-0.252191916744736	-24.9272445953295	-55.8771800168839	141.063397765899	-55.6356090808524	141.251106570418	-0.351363055358048	-38.063137142361	
19964000	-0.114171624764513	-26.8064486172854	-54.2448419249978	127.901895614506	-54.2496835152989	128.605208424821	-0.363501139498627	-38.6190048845502	
20213500	-0.0790805272331294	-28.2128780274242	-52.8219939281632	101.914795345432	-52.6497053052992	101.204398723356	-0.630796278427802	-37.9109510233735	
20463000	-0.16728000744822	-29.7906473453812	-56.515863792005	66.692018582784	-56.6936104985787	66.9593139287087	-0.589975788061306	-35.4487384471522	
20712500	-0.306410875171052	-31.9591183446579	-56.5780876986039	85.7038916939903	-56.4897835864018	84.7611158114503	-0.595756959411413	-36.9438944608385	
20962000	-0.375119604962752	-34.6928907207395	-54.4528320608738	55.830728272994	-54.4232371680024	55.4330341167452	-0.711408725936737	-37.9424496602095	
21211500	-0.320188179119836	-37.4099900486259	-56.1347437007144	31.7364127276861	-56.4763888411942	33.2067754934354	-0.60641051952017	-38.9608698583841	
21461000	-0.178416209590792	-39.6037312103774	-57.5190133887609	28.7492673500214	-57.4301462975553	27.2424705039759	-0.477867166848777	-40.0546856907856	
21710500	-0.0826183992387798	-41.1540106515557	-55.9257404373944	21.1231332403211	-55.8420190387928	22.2173246565823	-0.500389354223556	-40.0011373846636	
21960000	-0.120774866493221	-42.5591180071624	-56.0068406693953	-20.5691091929086	-55.7625899326525	-20.6362015064156	-0.515237177149624	-38.7792289938686	
22209500	-0.295532285854249	-44.464881144403	-66.4789495255849	19.0745192209878	-67.0298952426611	9.69256305666227	-0.54711405374786	-38.7397262892928	
22459000	-0.582179922789947	-45.7591027873141	-49.0453401582514	-23.3783496317143	-48.9144417334559	-23.4699726367596	-0.640428700729887	-39.5777120792564	
22708500	-0.366619778491725	-48.2515840281012	-55.9698237876989	-104.858528297573	-56.0443698918043	-108.821334784749	-0.670593043406368	-40.6102542597674	
22958000	-0.24054054161951	-51.0366062478607	-67.7373970709109	-118.439820851242	-67.0133936712834	-130.174323270364	-0.521780154398353	-41.429500936016	
23207500	-0.0984328722389183	-52.9605885307772	-71.0582393426276	-67.579582344938	-70.8766692913684	-58.4895424056914	-0.291069377763082	-42.3795663041062	
23457000	-0.0484752987760672	-54.3229319513496	-69.7846819935432	-59.9422784938115	-68.6016299549045	-66.6226174909005	-0.219221336875244	-43.1979975108672	
23706500	-0.130497693576407	-55.7965003874982	-69.4238910250901	-73.4886499602065	-69.4817965680624	-71.9854783359773	-0.375069219216348	-43.8274929232931	
23956000	-0.270282049888837	-57.8747104647193	-70.0445540785056	-53.0891355345654	-69.6569258385947	-64.0395308088459	-0.708975451943502	-44.3531505634607	
24205500	-0.353596323220141	-60.5454157753611	-63.1143488103848	-50.9778750391206	-63.1516805902289	-48.7380574905572	-1.02783174564533	-44.3624642605491	
24455000	-0.313012963720955	-63.3174851535819	-61.5167697793582	-90.7165625796798	-62.6075433482543	-86.3096658153282	-1.06262617832015	-43.8594140169283	
24704500	-0.178755551232549	-65.5968913209207	-65.844901973002	-140.015584665843	-65.6123572534921	-135.387277364374	-0.808990134315787	-43.7613958598929	
24954000	-0.0841684407027207	-67.2196132321745	-84.4797639840008	-34.6644096180484	-78.3652336487628	-35.3129741715625	-0.562316143865529	-43.9093611305585	
25203500	-0.123726995382648	-68.6326407495828	-66.2496365482523	-50.565932949215	-65.5001139465702	-54.5134887877924	-0.427348719562646	-43.8215653731472	
25453000	-0.293373178809441	-70.3609504102331	-63.3829018174462	-77.9806567842803	-62.5494510189969	-80.735748864198	-0.438958826379097	-43.9957995607238	
25702500	-0.460845171548347	-72.633285757224	-62.081248998424	-92.6369157279977	-60.6579108918035	-96.7666485825656	-0.542161826101502	-44.8477739991943	
25952000	-0.534103497987543	-75.2354272380706	-61.4731454009602	-109.302320666559	-62.3520547842462	-102.294640007702	-0.624145776967799	-46.2940212930959	
26201500	-0.467276436404262	-77.5767298635552	-60.5639563907655	-104.952089551648	-59.9598374825169	-104.581563502952	-0.613640384237965	-47.9233722075836	
26451000	-0.358314451470155	-79.0976243985523	-58.9865565948952	-109.389031420877	-57.9462675101811	-112.757706693161	-0.526037852117059	-49.048789392075	
26700500	-0.307188103366033	-79.9563268048871	-56.0786787032115	-122.892433557103	-56.2138223154322	-126.542064649291	-0.473292749975923	-49.5008991958605	
26950000	-0.353222745917719	-80.8726977654758	-53.7274047267036	-143.144317580428	-53.2827474671564	-144.317509202924	-0.560227969896833	-49.4008667773711	
27199500	-0.4561012250459	-82.6406917895691	-51.963737143864	-164.728894174858	-51.9036035382609	-167.139603952824	-0.784222719267391	-49.1470100621938	
27449000	-0.518243294092849	-85.2072636175632	-51.6143966305624	170.558461025998	-51.8280805190102	171.132432525708	-1.01528368881243	-49.0783074071439	
27698500	-0.458834991265334	-87.99837818784	-51.5201914683387	150.204973300636	-51.4593273414282	148.945309587574	-1.10478940891503	-49.2211231393902	
27948000	-0.311561394719357	-90.3656145371584	-51.8399946397228	133.951884426754	-51.8045069714655	132.114031901488	-0.98200107279443	-49.5158900468902	
28197500	-0.193530703251649	-91.9634120077942	-50.3736334126037	120.366863997255	-50.2992756929137	119.025123903505	-0.735868701267744	-49.6711797317732	
28447000	-0.176996711123863	-93.2441868025289	-51.3436175773892	95.1273165398652	-51.1890105454762	94.321875236927	-0.516962462037367	-49.645057167322	
28696500	-0.291417449704253	-94.9585405702251	-51.8943554291545	83.7728885259821	-52.142214469884	83.4431567438822	-0.45754720911961	-49.7479802876185	
28946000	-0.417918529609563	-97.3306664591582	-52.7724208596468	72.5854248771483	-52.3469655791174	75.8122519545442	-0.541648516712869	-50.4425130832394	
29195500	-0.452557470724319	-100.189420813386	-52.4604567806779	66.0302359159821	-52.7683533494861	65.0659584735702	-0.685699877616341	-51.8407202083862	
29445000	-0.360952525703414	-102.927433335346	-51.8546064254968	58.4678861291922	-51.5538576505504	57.7321434962253	-0.792483024134426	-53.6889247078426	
29694500	-0.216287860661926	-105.044889465839	-50.2844129271548	46.7886730975751	-50.4165238284873	44.8648203474135	-0.882817758360916	-55.0480846599463	
29944000	-0.147838619176166	-106.533143519918	-49.0813849764235	29.7376720904016	-49.0585293784598	27.9336981680289	-0.929412970080384	-54.2349646415041	
30193500	-0.223397452864722	-108.030829674943	-49.318708011578	11.2914294421093	-49.5810738325007	9.88449539519844	-0.754274158048524	-52.4729250038614	
30443000	-0.375500723916258	-110.178287093399	-49.9781947389881	0.145641210708216	-50.3750061845815	-0.334183737092841	-0.621264704725861	-52.0447717799983	
30692500	-0.488430439185033	-112.995646345634	-49.7651109786207	-7.31108540988484	-49.757762567358	-8.58754916016816	-0.651735165122341	-52.9204936285835	
30942000	-0.472158148124987	-115.978297041722	-48.2676949320969	-16.5475011175975	-48.2067120425158	-16.6929188010629	-0.743908833807425	-54.5934477208954	
31191500	-0.343396121690379	-118.553770472833	-47.0637449266342	-29.5363357823809	-46.9656913180961	-30.5392012547741	-0.782708083094972	-56.4740108962673	
31441000	-0.209608200735662	-120.505280287261	-46.4645712550048	-44.8805104551241	-46.5473973636351	-45.1458316553486	-0.737965123411911	-57.8717409656177	
31690500	-0.219849053228654	-122.288191459684	-46.2347125958775	-49.5681540215554	-46.2632503465522	-50.1423528715192	-0.699508407011901	-58.2836611041697	
31940000	-0.399602347168407	-124.316531105679	-43.0362602148007	-62.0905741400356	-42.9255411483634	-61.912601011242	-0.777879389064944	-57.9076701440035	
32189500	-0.568315286500723	-127.067555691404	-41.5338836886144	-87.246403532672	-41.4351132963191	-86.8895253129948	-0.98287676950585	-57.1201779944171	
32439000	-0.647162771570236	-130.673096523089	-40.7469526410488	-107.506738161253	-40.5743613947367	-106.921234712571	-1.17540451449543	-56.6279443022742	
32688500	-0.62756714180107	-134.375975566199	-39.9689256455926	-125.801287142944	-39.7521397532303	-126.256780820535	-1.23268728038779	-56.7179109357994	
32938000	-0.608229459316748	-137.701763368031	-39.1164732754973	-143.789917371773	-39.0841225681904	-144.301086777817	-1.11114350756531	-57.4141108519109	
33187500	-0.78134156395146	-140.809663458734	-37.9417943872098	-162.407910517387	-37.8205382685363	-163.25110806962	-0.855466345493696	-57.9949665669096	
33437000	-1.38292587606362	-144.072076364681	-36.4379732306025	176.116860648538	-36.3854626189659	175.401822982091	-0.624159684767627	-58.3458014264488	
