!Keysight Technologies N9923A: A.12.45
!Date: Friday, 08 August 2025 17:38:04
!Timezone: (UTC+08:00) Kuala Lumpur, Singapore
!Model: N9923A
!Serial: MY61181427
!GPS Latitude: 
!GPS Longitude: 
!GPS TimeStamp: 0001-01-01 00:00:00Z
!GPS Seconds Since Last Read: 0
!CHECKSUM:1327263846
!Correction: S11(ON U)S21(ON U)S12(ON U)S22(ON U)
!S2P File: Measurements:S11,S21,S12,S22:
# Hz S DB R 50
2000000	-0.0799025382503479	151.459628472859	-89.2550697787529	-128.502149615548	-85.6838411932321	-126.996715085249	-0.040727449617206	-3.50780653688395	
2249500	-0.00166063623932546	148.3091242008	-89.5005114352952	118.991596583786	-87.3534052784489	132.38868836324	-0.132379107823958	-4.10368415568558	
2499000	-0.0131027068083534	145.274121545275	-75.6584865202902	141.383212754242	-74.4144617512761	148.196052402638	-0.170215334704618	-4.97793895848468	
2748500	-0.104786415905295	141.997534696377	-63.1681178477891	141.000970243062	-64.2822568107009	138.750978721815	-0.122437863664669	-5.82116227965403	
2998000	-0.264654579525997	138.569053229873	-47.5753534740044	53.771012458688	-47.4322366219602	53.0550905445748	-0.0484982599526648	-6.27930164953786	
3247500	-0.212501067634078	134.808789585467	-57.4538041137103	-22.7399815239889	-57.6962962311195	-20.5042407044522	0.0324079653241081	-6.43899376931476	
3497000	-0.133241435518603	131.12971103834	-59.3726107188431	-30.3899606778402	-59.4247031282158	-29.6765001394303	0.0126038991086894	-6.57938889600413	
3746500	-0.0378177197921428	127.969791112587	-58.6555467889337	-36.8219093668185	-58.0996134923118	-37.2385109407121	-0.0720893529632824	-6.90608732017768	
3996000	-0.0125177830776432	125.082877529436	-54.7721561735191	-42.0111592993433	-54.5202433121818	-43.5659173588221	-0.160200104720691	-7.69415387969609	
4245500	-0.0858987716791001	122.024971451842	-47.5384342279853	-54.4538253079957	-47.6030913786504	-54.6347194822097	-0.193926710577036	-8.83698076081352	
4495000	-0.237530170257804	119.124089065037	-37.2438388382561	-170.810059390663	-37.174670931984	-170.796303940365	-0.22618188818044	-8.24567901762327	
4744500	-0.230436917438098	115.29717081227	-47.7316541251053	140.820617445818	-47.6270066829565	140.5560676697	-0.00159348294671705	-9.373589970542	
4994000	-0.222123008654228	111.43669440868	-50.0582266045688	116.974879770228	-50.6566153730888	116.578858455279	0.0341051888080259	-9.7687739673285	
5243500	-0.0826227378040029	108.668837769718	-48.8203428230346	117.096406482786	-48.5737434732917	116.556831620805	-0.0640291465351235	-10.267853768616	
5493000	-0.0246841993786862	105.852176930116	-45.8030092701721	62.0553722415673	-45.8152734243615	61.3403993816352	-0.377610357276233	-10.1565729034748	
5742500	-0.062552787197139	103.08092790232	-51.7326603228452	-2.21817920568804	-51.6115786336729	-2.66412987641471	-0.285284632946295	-9.61274314857025	
5992000	-0.197919478021775	99.7347771064576	-61.1462013792013	-18.4281736910593	-60.7707005163427	-17.3219764708816	-0.191270435190222	-10.8142595874401	
6241500	-0.313572151229178	97.5906895375994	-57.4439153030914	-11.9965817791182	-57.1763481160187	-10.8017521283335	-0.0503434782401063	-11.7821290513993	
6491000	-0.232773747294661	93.7177139965357	-62.7861978568471	-26.2374684605435	-62.9769044887762	-27.7394907199723	0.0188183247787608	-12.2080750334609	
6740500	-0.134684205143355	90.4616950528494	-67.8301603816399	-19.496004195424	-68.8633742745585	-16.438746020645	0.0373924016702568	-12.5276758829478	
6990000	-0.0417057636266031	87.7324968957944	-57.4499594710348	-18.6208117655731	-57.4155520120032	-20.1385467081392	-0.123946620333014	-11.9323154901461	
7239500	-0.039570009141911	85.2965301080969	-61.3981780242267	-46.3302710557842	-61.8342781240106	-48.9040830354802	-0.124541478624444	-12.8248222902668	
7489000	-0.126420258871951	82.6242738886276	-62.4013599877673	-53.3013103317333	-61.9841639170293	-51.5068382630922	-0.173419395299886	-13.8931823948156	
7738500	-0.228752329980925	79.5466544215904	-62.1685555714458	-57.3151290766474	-61.5631570502031	-52.2155897335235	-0.140989926649855	-14.98696966856	
7988000	-0.258426077385234	76.2577159807816	-60.9349188984386	-57.2284916851924	-60.8115380467803	-60.7428961597025	-0.051720898481053	-15.8085134910322	
8237500	-0.198262680480468	73.0541257771829	-55.1057802165481	-53.0979369158665	-55.0335007888438	-53.4199297528885	-0.0336265480497288	-15.9881676860786	
8487000	-0.0952413122449735	70.3271233085948	-50.1109130703953	-87.6100994889872	-50.1262087563736	-87.079823098816	-0.057170538919211	-16.4052554550699	
8736500	-0.0648421268821602	68.049697483252	-43.032559087779	-143.96297569576	-43.2331206610518	-144.443916003261	-0.325539304111607	-16.3926211335325	
8986000	-0.111476663976332	65.913561250507	-44.4536759073846	128.154209984534	-44.480918848379	127.956690245462	-0.307091003242375	-15.761269092879	
9235500	-0.21558963204977	63.2446128695294	-48.7470607983847	74.4625287656789	-48.8723139108737	72.9996844585952	-0.273321638588068	-16.9500628841838	
9485000	-0.282438993547066	60.1847422143871	-53.2892799687556	28.6915644348999	-53.4609607833814	30.1913854634217	-0.183508914973168	-17.9308400231965	
9734500	-0.249116354490643	57.0470144192631	-58.5410224351428	-3.92528767512888	-58.8782037224357	-1.85945359736241	-0.0588297556834997	-18.6162049003572	
9984000	-0.1417464532269	54.2525269727727	-62.9432512044177	-26.0797226959401	-62.6055400744736	-26.8871545417535	0.0123528573298189	-18.9530319257988	
10233500	-0.0525174314558781	51.9490455506811	-66.2105167506155	-51.3279170269903	-66.3932756748388	-51.7247419357895	-0.0224929154268535	-19.2601990357209	
10483000	-0.0545732311334628	49.8698629133673	-65.2575974128272	-76.9756642169656	-64.3803465554108	-75.4465152175812	-0.136885379913616	-19.9042120530055	
10732500	-0.150586185574433	47.5229025007205	-60.7330030303176	-108.290199017742	-60.8840990165012	-109.95655862058	-0.276028880567867	-21.0668200405234	
10982000	-0.259585845670635	44.7329334154095	-53.5553591897897	162.287919847544	-54.0323189505335	156.757838382715	-0.371435750420707	-21.864288636348	
11231500	-0.280336249398522	41.6575026932209	-55.9228896820532	69.1380222328845	-56.3597232452618	66.3308001919257	-0.325882130143081	-23.3022110190334	
11481000	-0.203975097855636	38.7558260274263	-54.8075382450207	-15.8425636181698	-54.8257555015704	-18.2481521583805	-0.449687293458613	-23.0849958242318	
11730500	-0.0946226087736655	36.3546635128572	-54.9151508150973	-114.920856048209	-55.3112812487824	-115.18154945458	-0.46782285550791	-22.1991529829752	
11980000	-0.0434399483744083	34.3323279530234	-57.2769764976102	163.107047815557	-57.0632025928559	161.282810320354	-0.531236005118783	-20.4965812959868	
12229500	-0.102266862067997	32.2813873876019	-61.696478478964	125.345779354385	-62.0881833899204	122.400221427182	-0.401790751726807	-20.0131489387675	
12479000	-0.220658223727052	29.7433358143744	-63.8501949267246	97.0706707444336	-63.579929098214	93.909586673338	-0.324431759965751	-21.3821824504635	
12728500	-0.299816403094276	26.7413916712198	-65.4596974986976	70.1355767062375	-65.4843352188988	68.5423570271458	-0.252660161151948	-22.9811180778687	
12978000	-0.267887956258876	23.6269819611903	-68.0504609223022	83.5288966469462	-69.6797929665816	81.60358060414	-0.171574452938344	-24.1213603766939	
13227500	-0.162140318594923	20.8863185598003	-64.7397132822976	103.991987403118	-64.8078084714038	102.699121565961	-0.0878253490241526	-24.4336498377325	
13477000	-0.0722734570257503	18.6148366728529	-60.4931903375537	94.7426006653107	-60.0749610301944	92.7599084399295	-0.0556173408389994	-24.6498838747053	
13726500	-0.0831151481477377	16.4816358934491	-56.0055319017808	71.7899144976698	-56.169925052827	71.093781095246	-0.176935184668236	-25.2572781653194	
13976000	-0.193471173560509	13.9476011113647	-53.1381367317744	9.43587457298351	-53.6661533492053	7.42420880501354	-0.427935295133874	-24.629288638995	
14225500	-0.317504459454383	10.7257929890296	-62.717797616846	-8.0380263879698	-62.6116478459858	-7.93975382602186	-0.259850384967477	-25.6015180102327	
14475000	-0.361482200832237	6.94796639340445	-63.0156045863537	35.3978442211191	-62.5906481245189	37.2522398045894	-0.18647956350468	-27.1989870132996	
14724500	-0.309102875117676	3.02775633835103	-57.3124580158697	50.0023792299836	-57.0519091935354	47.1350180441197	-0.0840375476968185	-28.3622278027879	
14974000	-0.25511035516497	-0.913424979285732	-51.9993489035122	43.9859916348791	-51.8103756574776	41.9892443659648	-0.0470720346967956	-29.1561498684496	
15223500	-0.326427042394978	-5.3193772712594	-44.7552724803842	29.8486318658431	-44.6802097313343	27.8684492996553	-0.162072283799654	-29.861915690843	
15473000	-0.70679847923814	-11.9342001320646	-37.4580606205668	-5.65809848818581	-37.7385881914692	-7.30617312100686	-0.555806216024141	-30.5603555029457	
15722500	-1.75037849250012	-23.4707179367562	-32.1735905764133	-72.6937041804708	-32.4824212019172	-72.5154799473543	-0.888004285316241	-27.9316830075732	
15972000	-6.4485147390077	-45.4281918758838	-31.9486317734426	-142.779379139409	-32.1547395321495	-142.442724619853	-0.51404819981292	-28.1366538245182	
16221500	-8.19996834523245	45.4101002440646	-37.0156751576348	147.016976884412	-37.2980746095782	148.348262181432	-0.304614481896005	-30.4038405975047	
16471000	-2.22606506110673	26.1124507597602	-39.7368090566921	-178.859794727388	-39.4822099067542	179.891939386543	-0.588799817361676	-32.6987393099321	
16720500	-0.951516096988948	14.8711791978854	-39.6326425483061	94.2996538989035	-39.6734540783766	94.8254347029031	-0.313482508238163	-29.1226783267238	
16970000	-0.523046759789825	8.49857136238258	-46.8480070268811	58.1258306355252	-46.9846915263788	58.5821456907996	-0.200744784029256	-30.2396845664346	
17219500	-0.427421875508824	4.01157105526123	-58.3400730005846	98.4360778841225	-57.7322200729939	99.6117920755924	-0.412432104999729	-31.5423681190245	
17469000	-0.458728789564104	-0.0281188744426661	-49.0218339260236	70.9658203981346	-49.0595641511033	71.1291694084901	-0.524521477891605	-30.7804592270561	
17718500	-0.465161496639877	-3.99845932259291	-53.0693432958048	43.0667496558796	-53.1822625997433	41.5112242551424	-0.394990762040899	-32.3192492608748	
17968000	-0.377109446966141	-7.60135764647937	-56.3275537127684	37.6053078001222	-56.4304162690628	37.1418040281013	-0.294817943229769	-33.7262568492831	
18217500	-0.230981736328311	-10.4587233525001	-59.2432149597942	39.2673856411666	-59.0334960544753	40.1076560872421	-0.211908807915599	-34.5446300359504	
18467000	-0.133694946841062	-12.6075401295621	-60.5634992435713	46.2221856970048	-60.2510060071615	46.6222665098197	-0.228755500943587	-34.9455759654164	
18716500	-0.153480675334254	-14.5176373910644	-60.2672148550039	49.4146929250603	-59.9289069874354	50.7511183762916	-0.38333374480049	-35.2898156434634	
18966000	-0.254205639485943	-16.7242651023767	-59.4378298745726	46.9990268690848	-58.9480698122339	46.3504930959157	-0.623650149079245	-35.7619026868293	
19215500	-0.348014306740012	-19.3984685850182	-57.168715867315	35.7644276774296	-57.1955660863433	35.3523002000446	-0.838250507706723	-36.2253068662902	
19465000	-0.344936736541867	-22.278033425558	-56.2509778950498	21.5504739239477	-56.1668885215038	18.9212745874703	-0.909816370586793	-36.3041246011152	
19714500	-0.241510692178082	-24.8232354569222	-56.0286260713206	2.92726017160265	-55.6554371227787	0.481323515764131	-0.81728887064918	-35.8600896175648	
19964000	-0.121236782275796	-26.7510522653865	-56.4005857089178	-15.3137230862747	-56.1777895679964	-18.3815825197073	-0.624302460549767	-34.9378237492554	
20213500	-0.0886281211063174	-28.2557908186767	-57.1947742945008	-35.5380043781656	-56.86797334642	-36.6819183297533	-0.445764181739058	-34.3578775793705	
20463000	-0.164133247350073	-29.8930553710884	-58.4582698923143	-60.8101160705201	-58.0871986640231	-60.2122637966975	-0.37236533136345	-34.6902159962355	
20712500	-0.284324026302212	-32.0478954602102	-65.5861682265181	-65.3652624580834	-64.7765538896413	-64.6149803576047	-0.493611415117791	-36.0186656353946	
20962000	-0.344596229523019	-34.681140385158	-61.759322102305	-53.4622372995416	-61.4476773699541	-55.2124558287409	-0.494522152521435	-36.7854718774254	
21211500	-0.298772221411712	-37.3151512568407	-60.8455898589611	-66.535927182062	-61.3467551304013	-67.9107932899006	-0.420205758091758	-38.1625122541619	
21461000	-0.176193640356168	-39.5075613312484	-62.3349696808109	-87.4972422274481	-62.4957954751639	-86.166031488021	-0.314918508259963	-38.9588046176584	
21710500	-0.0920991253413706	-41.1399987907519	-63.2061665505453	-88.6875085351274	-63.4864750125856	-91.5090905980621	-0.199785469773375	-39.2390892786279	
21960000	-0.125432974694591	-42.639500871735	-61.0597958022036	-133.81610596386	-61.2180195811121	-133.738471365717	-0.228136245411126	-39.6678422145155	
22209500	-0.280911065153494	-44.5614608524785	-62.6307203060082	77.8226349908345	-62.8874763190714	75.2411656379432	-0.380931023024029	-40.0396635699768	
22459000	-0.553221413068689	-45.819872767272	-49.7721259965716	-69.3860470847137	-50.1148129797654	-70.822651571086	-0.514411209945816	-40.7195088371752	
22708500	-0.338405024163467	-48.1981834578296	-57.5188100581592	-164.83945277863	-57.7820935331614	-166.43019738018	-0.535238181045336	-41.859605613777	
22958000	-0.228402290103092	-50.9344730903461	-69.0665894258808	170.495867434283	-68.8078462013353	166.805230326291	-0.471971683850905	-43.233123679651	
23207500	-0.104305692021453	-52.906015055786	-72.7259743986307	-124.23764707016	-71.5964877797817	-108.47602125743	-0.428852890890715	-44.4333251120451	
23457000	-0.059235591462047	-54.3717603455661	-65.5490798746181	-126.705834483557	-65.0452777060754	-124.930440812036	-0.641553797892567	-44.9965414659983	
23706500	-0.128973393430455	-55.9172964663157	-64.6907661662779	170.277178847741	-64.7780120355934	171.28228967335	-0.97659581730494	-41.6709263457143	
23956000	-0.248648295139697	-57.9812222031193	-74.0302020646613	-9.26200694029404	-73.9698394148419	-28.4310065302821	-0.636202995525211	-40.9881432688632	
24205500	-0.321382051771559	-60.5576308146304	-62.4151174751825	-92.9403083261161	-63.1606366593641	-90.4332958174756	-0.617979949701793	-42.7917510293833	
24455000	-0.290128179902848	-63.2286088028134	-61.3598340173259	-141.954194782064	-61.5240163596575	-140.228696843833	-0.609357273552462	-44.5352401692708	
24704500	-0.175893985243019	-65.5089863517837	-67.6383666324037	156.243001933421	-66.5907637978467	158.823149309885	-0.564072883809568	-45.7645351578793	
24954000	-0.0945683469104655	-67.2104739845244	-69.3783442952451	-52.7859198442994	-70.4153192247978	-58.3623389192571	-0.498555657209473	-46.3182433547283	
25203500	-0.129803301814532	-68.7216662388089	-59.1523575403062	-103.902999582647	-59.095920515186	-106.083688097824	-0.55140150783703	-46.6280127171069	
25453000	-0.279177255880728	-70.4807791598204	-54.8549330662399	-144.51159407921	-54.6868316987961	-144.188720611851	-0.764773116712222	-46.5411798579	
25702500	-0.430584001043936	-72.6993849595796	-52.1808051031107	177.079503623341	-52.692840899495	175.921859590691	-1.01965044063413	-46.3507014451916	
25952000	-0.503532400331039	-75.195151454269	-51.9987535651509	132.192912837641	-52.2257450178273	127.884536572654	-1.16494373978161	-46.2185732803158	
26201500	-0.454963354593223	-77.4726384026047	-53.1222134422817	79.0942159675338	-52.992835667268	79.0323744221636	-1.12377298198069	-46.1994443621361	
26451000	-0.364738410954484	-79.0376371358813	-54.5969480386644	17.6916468611417	-55.3692857000646	17.4176409811265	-0.933736793532826	-46.018615130874	
26700500	-0.320585938118507	-80.0104191240572	-57.3720663445576	-51.3348630377534	-56.8758486497945	-55.9915830978345	-0.706506972103297	-45.6472319269671	
26950000	-0.356003773972409	-81.0076200456156	-57.4052071168984	-121.149580823983	-57.7558430717714	-125.374181751726	-0.559565872737429	-45.3783905843496	
27199500	-0.43592687761465	-82.7661829888845	-57.0046379499558	-165.402600067582	-56.6780871309704	-169.011706683333	-0.539202797655263	-45.5988277107303	
27449000	-0.485803308526041	-85.2320236987744	-57.4765696668743	163.605844667405	-57.2866341841824	164.49415039344	-0.573289213081137	-46.5043256724513	
27698500	-0.434949664483322	-87.9212833233562	-58.6669603159478	150.341109193636	-58.654381999315	144.386751977845	-0.576665354936053	-47.8970249245766	
27948000	-0.30729679036628	-90.2615861526908	-59.7311083113746	141.825988076705	-59.6771199457286	139.234152033049	-0.496305228382164	-49.3538681125059	
28197500	-0.20420816132193	-91.9204956005035	-56.1878642349721	138.074494370548	-56.4528060286919	138.393076066883	-0.366884362532809	-50.3838755841738	
28447000	-0.184921651151083	-93.3058990381094	-56.2593063470123	112.632777100925	-55.8435530711424	111.044779978249	-0.274394518366607	-50.9231294381243	
28696500	-0.28280066243692	-95.06719014185	-56.6765177752685	103.984762059025	-56.2302479894183	103.95852044796	-0.307923943623907	-51.2953104888502	
28946000	-0.390539229259212	-97.3847872212472	-56.5284143866559	99.9401842642729	-56.5250543513046	101.157043210917	-0.437833671507362	-52.0235958202798	
29195500	-0.423419796008837	-100.148103311588	-55.5706407062735	95.5558034135629	-55.3409164885678	91.2801824399324	-0.596422190222567	-53.2857857176921	
29445000	-0.34646749951052	-102.825315703095	-54.4789790589354	86.8985475153379	-54.2764925167221	88.9319589013515	-0.701151243216842	-54.8922574087078	
29694500	-0.221766542213374	-104.986917590789	-52.3900704020269	79.2751809447534	-52.5701586752795	77.1717900248076	-0.740800557027845	-56.2792169712519	
29944000	-0.160884842628026	-106.587038047299	-50.7082895027006	68.8125046129491	-50.8385596730593	67.6009911956837	-0.800605991159099	-56.7604329748055	
30193500	-0.224553047672327	-108.167687895742	-49.0425895589711	57.7557261438694	-49.341094673266	57.9859790985471	-0.877923701271435	-56.8290412187898	
30443000	-0.355048691996762	-110.302396692281	-47.2742521480181	42.0954348090544	-47.3048270149203	43.2533511746863	-1.20671759156456	-56.014160843447	
30692500	-0.453618810336093	-113.001551716854	-45.5981650258077	20.4482243771981	-45.5515003185565	20.9235681531436	-1.51591642990682	-54.3674010506423	
30942000	-0.444428403379922	-115.876090836245	-44.8301263728721	-5.42352767516525	-44.776310309147	-3.81469566782045	-1.57257658924215	-52.8408477867428	
31191500	-0.338087338614561	-118.433101664157	-45.4219438232994	-28.3762184891646	-45.1611787729303	-27.5965755196754	-1.35000338696147	-52.4405205586866	
31441000	-0.219926451791027	-120.471512697099	-47.0965477524217	-44.1241249053764	-46.8776723326881	-42.8817187857196	-0.990505124774176	-52.9440677005604	
31690500	-0.228877217020772	-122.378628947189	-48.7623128092165	-44.1060581998837	-48.5564466222152	-43.0672673009662	-0.662709035657208	-53.5726718237267	
31940000	-0.387813844684608	-124.453400748317	-46.7530449758231	-43.9560848874427	-46.4431418990884	-43.5121221536187	-0.489865460561458	-54.1952326117791	
32189500	-0.535744033933408	-127.164849701993	-45.3980872782647	-54.7261296519078	-45.2012608811503	-54.1499542694135	-0.506701893548906	-55.0949210298915	
32439000	-0.610540987602359	-130.657007846252	-43.251306608903	-67.2314192143337	-43.0889231574213	-66.8886634877032	-0.746421804349128	-56.5964039592229	
32688500	-0.608039851603611	-134.287451484235	-43.8396766997113	-82.6879630265762	-43.6465272857041	-81.2552452803098	-0.73572379697891	-56.7678825636409	
32938000	-0.613124734889609	-137.654124653728	-42.0823551916115	-85.6405921920154	-41.6780133863503	-85.5240189208286	-0.70076693005049	-58.9106807857099	
33187500	-0.79599463444536	-140.858955741518	-39.3395659707389	-97.1490721428815	-38.958907497513	-98.049182684239	-0.674886154701793	-60.3565650056983	
33437000	-1.38401888112023	-144.149113708003	-36.2373515160925	-117.069835608092	-35.9276747231965	-118.593233407892	-0.710481845289757	-60.8237290303606	
