!Keysight Technologies N9923A: A.12.45
!Date: Friday, 08 August 2025 17:33:31
!Timezone: (UTC+08:00) Kuala Lumpur, Singapore
!Model: N9923A
!Serial: MY61181427
!GPS Latitude: 
!GPS Longitude: 
!GPS TimeStamp: 0001-01-01 00:00:00Z
!GPS Seconds Since Last Read: 0
!CHECKSUM:0184109161
!Correction: S11(ON U)S21(ON U)S12(ON U)S22(ON U)
!S2P File: Measurements:S11,S21,S12,S22:
# Hz S DB R 50
2000000	-0.0733028730177841	151.516801412316	-80.4717858283911	143.092760965078	-89.2084335480765	122.266097395297	-0.0383768289524653	-3.46610416941131	
2249500	-0.00421289713117162	148.33480027768	-79.3447441845794	-146.437578035597	-83.7798618631091	162.093651584593	-0.119261057058868	-4.04769336272969	
2499000	-0.0158967593429091	145.240033289981	-73.8511074821595	151.942592122956	-72.2261625474086	146.019126066392	-0.152659493937706	-4.87608952575244	
2748500	-0.0985613095512832	141.93025030852	-65.224223555841	138.91061550647	-64.6967227872001	143.288607002595	-0.111180668516849	-5.67861963171953	
2998000	-0.251235611207917	138.368865934815	-47.6843050070791	72.6182945200843	-47.7064480018732	72.2134285688106	-0.047292822512396	-6.17646207709377	
3247500	-0.195774689716503	134.827678610784	-58.4084104005061	-16.8304151607169	-57.4037814445715	-14.7588025698094	0.0257744965295687	-6.32870786220282	
3497000	-0.12184666686818	131.174994154939	-59.4123325165562	-26.8026388960378	-59.5257928297992	-30.4267868905944	0.00637727927912963	-6.52029733499196	
3746500	-0.0380096674927689	128.00200815238	-57.7820804884184	-35.9173979213307	-58.3161129114925	-37.7598158553788	-0.0697657780934972	-6.85343084078613	
3996000	-0.0168023064865842	125.062060016322	-54.1959204231857	-43.3394512095039	-53.863423172067	-45.3486270894949	-0.146027745569747	-7.63285567596115	
4245500	-0.0822489353874528	122.196546148051	-50.3549967625204	161.438997725255	-49.7351831599065	161.12436724372	-0.15779050197498	-7.99431787707143	
4495000	-0.168395088484894	118.736158482876	-75.3135216686959	147.653393083993	-73.041905414513	147.621960352613	-0.0863104289092788	-9.03846983030689	
4744500	-0.22125482099733	114.96369634887	-55.5164149631843	-59.7716551510984	-56.0946295312271	-60.198049519778	-0.0046320993310229	-9.51909533215773	
4994000	-0.194155343443121	112.258676788475	-48.7267599171197	159.6031211729	-48.6336220037117	160.0136502568	0.0312560597544989	-9.60292981577232	
5243500	-0.075117028399504	108.747192370672	-55.8683271851984	140.472107496797	-55.4163712309653	140.377629395531	-0.00794656211219539	-9.8846339455431	
5493000	-0.0211644996604113	105.856206814457	-55.9987082231192	130.383870502326	-55.9492089517541	128.973596017228	-0.102449385906762	-10.4572090366688	
5742500	-0.0671237151271368	102.969129940195	-46.7342730878113	94.2207077082204	-46.6591698921919	94.2959881174344	-0.280156232224173	-11.850525761361	
5992000	-0.184911361773718	99.6985795672355	-50.583357128266	-63.3552691887723	-50.4218218832981	-62.8816667495729	-0.153373596865937	-11.4833968952923	
6241500	-0.291184737390951	97.5472647306268	-51.9164797381842	152.230752060527	-51.8820969226322	152.228861202436	-0.0441630505906938	-12.521074481812	
6491000	-0.21324101476479	93.725479225375	-56.8877331337648	125.01710693222	-57.4226446494027	124.882397139782	-0.00256415369658823	-13.0226590462418	
6740500	-0.124295310915755	90.5161586000061	-59.2706594031228	110.500425224627	-58.3067035209395	114.075772376521	-0.0025662794838884	-13.1836765990968	
6990000	-0.0421288820727636	87.7563366422098	-59.125417771384	102.470143195336	-58.7577477397411	102.156094136933	-0.0758576525800276	-13.5540976333248	
7239500	-0.0414849627657311	85.2626318257026	-54.0592694142775	93.1449722335432	-54.2008250351892	94.2914781479883	-0.231451942502123	-14.6342218606159	
7489000	-0.121110844148571	82.5486917996992	-50.0330525515859	68.9583280722589	-49.8240960783247	68.5507871414613	-0.475599204396084	-15.7192809089086	
7738500	-0.214467779672188	79.5072679269488	-47.0386808476933	22.9423034460877	-47.1525455101069	22.7928424703117	-0.668786972831484	-14.6240818352212	
7988000	-0.236915026025082	76.274147321015	-48.7389145652777	-21.3419319312647	-48.8514738987199	-21.6698070717759	-0.322492224056195	-13.5754571700096	
8237500	-0.184407082527868	73.1241856764194	-49.7903630848528	-20.3501676424389	-49.6916671486877	-19.82512807739	-0.147826037328715	-14.3263674811475	
8487000	-0.0908594245808446	70.4090448122843	-48.4397587546514	-54.8643546195544	-48.2541106707316	-55.433080394033	-0.0603182931468926	-14.3924499492326	
8736500	-0.0548320394928387	68.033540789065	-46.8034211055772	-80.7108463460029	-46.7929408750329	-81.732526525001	-0.10372374048571	-14.9910696205725	
8986000	-0.118780277304532	65.7593064679474	-44.7907375357219	-121.283775902724	-44.8641537617354	-120.776855308705	-0.209476822451231	-15.8458147741681	
9235500	-0.206152732258814	63.1918819073859	-46.4540196331927	-171.403132404344	-46.4526847680926	-171.244346193953	-0.249052858896766	-16.5864298834768	
9485000	-0.254540843066394	60.1385251932755	-49.8880953252926	158.129371442323	-49.7127964605692	158.440709298918	-0.167914929793005	-17.3860490510308	
9734500	-0.224602320958923	57.047642169173	-51.5873526175359	137.876450811333	-51.5599399681029	139.339469069634	-0.0606850352969137	-18.0056248487697	
9984000	-0.130609217524181	54.2762526997352	-51.7075792065376	120.788861915751	-52.0318502728038	119.277340259542	-0.00289038907751164	-18.3574367375329	
10233500	-0.0549983514316046	51.9420367438081	-49.8263179346499	80.0622997445247	-49.9417377435579	80.6891682142341	-0.089429462153677	-18.6508467697508	
10483000	-0.0583028271127112	49.8490216548176	-54.8329353006726	5.3782296387151	-54.9152901645856	6.25476668080242	-0.174293469072968	-18.3039129781355	
10732500	-0.141944302405846	47.4703803874505	-64.6314173742979	-24.9972481290339	-64.3300609439039	-21.2335484594394	-0.196772711229832	-19.137101826364	
10982000	-0.236416398328025	44.679203382389	-75.622014624326	-16.2528315384569	-73.8445127529758	-12.3018712509441	-0.188860109890345	-20.2344516776867	
11231500	-0.255880691006497	41.6391985520875	-75.610297056071	16.6074187930924	-76.0400637525812	17.3438657750965	-0.118471259423137	-21.1292742343473	
11481000	-0.188026965088512	38.7893880611459	-68.2374537987521	8.14094650467627	-66.6057343790769	8.62826747558917	-0.032241721706141	-21.7007005835556	
11730500	-0.0907376365156751	36.3910001654168	-62.685773026279	-65.216372031216	-62.8893854461682	-66.6861755444573	-0.0127422213929144	-22.0172681278539	
11980000	-0.0443193703876587	34.3182146566933	-69.4582950486068	-128.479432334133	-70.4966157597972	-132.857157008948	-0.0696056670193286	-21.5901754712965	
12229500	-0.0975300135789138	32.2217497919506	-77.4004346194214	162.418068686462	-79.5325042147659	153.612838096863	-0.135324449794103	-22.1821468929753	
12479000	-0.207955518275381	29.6842861558668	-77.8651247530939	-143.521766389554	-83.7255168996856	-168.364194802768	-0.192520733424705	-23.2424297859476	
12728500	-0.27585750736773	26.7309379342604	-76.4387973979065	-151.96966806376	-77.5306792106013	-174.458979955866	-0.178323417852942	-24.4072594366933	
12978000	-0.246525103128278	23.6760077740157	-71.0250160288355	162.898027510821	-76.3219022800648	170.378613410933	-0.108886124963418	-25.2883907996734	
13227500	-0.153777287635316	20.9517108103837	-82.9249397784459	-173.890207297607	-79.9426466321892	164.886475477416	-0.0389946085737034	-25.7139908205716	
13477000	-0.073551111622269	18.626371813457	-72.831516235317	-148.523105166737	-73.4960185322905	-144.214380355683	-0.0336263959917596	-25.9661796095839	
13726500	-0.0838143554148776	16.4245850651563	-68.928363969354	-158.266778871577	-67.7714712015341	-159.957410697428	-0.113932378345239	-26.42529775175	
13976000	-0.182936769077555	13.8456792006257	-64.0030059081707	177.371590412056	-65.4967412918713	169.188192709207	-0.225878709087511	-27.3338274173467	
14225500	-0.296087869766899	10.6461800658642	-63.8745327917771	-177.947472883672	-63.266049515133	-165.490331783456	-0.324085902591338	-28.7439106343272	
14475000	-0.336653848303473	6.9370892660706	-56.4866743578836	-178.28433821731	-56.6117736902524	-178.670211487942	-0.395088986340069	-30.222516048786	
14724500	-0.29460479871955	3.07575561205678	-49.7408151341652	156.156482007284	-49.901296445002	156.041886132854	-0.5463150130972	-30.9212810290798	
14974000	-0.249771981960592	-0.850948505922319	-47.2157703322658	95.6449900602079	-47.4222191917732	96.1478069494553	-0.38924919360793	-29.0471239665866	
15223500	-0.320109147785641	-5.30056029677776	-47.1165075936577	82.1585341566021	-47.2235055488408	80.9183327595359	-0.487077453720942	-31.703912450127	
15473000	-0.674165881641589	-11.986228981551	-43.8296150132447	84.4474527307745	-43.789634270947	83.2209677267862	-1.248477695471	-31.4507341413129	
15722500	-1.70803740467895	-23.9267651351489	-36.8374320040529	49.3587318057674	-36.9271446766874	49.0655369732203	-1.45358857519669	-26.0391114900215	
15972000	-6.5843919494163	-45.5576635622846	-31.920636085725	-8.01804649259787	-32.0260097256875	-8.08811656957862	-0.80624245177977	-25.6393695254834	
16221500	-8.09835726922916	44.7177105468603	-31.1471546729529	-98.0733790056073	-31.1725722969546	-97.4049842371594	-0.790849285044998	-29.4372499083611	
16471000	-2.20097264926241	26.1707251541819	-39.5108812051256	-128.604739447055	-39.506878997288	-129.078501692429	-0.436710421693328	-26.7655816834662	
16720500	-0.959284609090406	14.850905549056	-41.0612453733383	-153.782993706252	-41.0603435123744	-153.978285437462	-0.169678721863709	-28.220280070504	
16970000	-0.533276287039071	8.50617641715012	-42.8480644634432	173.235415015442	-42.8869511458892	173.115091496909	-0.189564371653042	-29.6354138948971	
17219500	-0.4227182405984	3.97136482492441	-47.6970118022014	128.884243038809	-47.5669994930199	128.399553537267	-0.579712179539236	-30.3547922922051	
17469000	-0.443266721126346	-0.098814382134358	-55.0275428655033	139.041487683743	-55.4622811073225	139.750045547648	-0.558655048887213	-28.9906835376336	
17718500	-0.441410382004806	-4.01984892202596	-56.3911557392302	139.398487718915	-55.6032970348319	141.070128040752	-0.396589280512285	-30.1416837004648	
17968000	-0.360056262346889	-7.59006217416327	-56.5708701097724	128.405437264356	-57.1277455077788	129.903130652748	-0.252804571328108	-31.3415110053912	
18217500	-0.225088519453542	-10.4575769184407	-58.9096711784524	119.269970235419	-58.3564726928717	119.946082975943	-0.121986561745696	-32.0557001022589	
18467000	-0.134550333003957	-12.6580735943403	-60.0479370945841	117.293956838977	-60.6758288735933	117.481349113829	-0.064342508226328	-32.4088322842593	
18716500	-0.146503551046267	-14.6074622880912	-62.373371087192	107.06262368047	-62.2377559743337	106.965183128312	-0.104115808286532	-32.7937754123503	
18966000	-0.238080900860257	-16.8085030445754	-63.8265123968896	105.371806412785	-64.9764412671204	101.242720008763	-0.20087761356072	-33.5112132027264	
19215500	-0.323499582099028	-19.425877840335	-64.9558636391318	88.4445627781511	-65.4970040778653	90.2588298825621	-0.276795119108924	-34.6346518724419	
19465000	-0.321308688908093	-22.2287034145194	-66.52324515642	94.9624848984848	-67.6299903947822	92.2622040741647	-0.332728500399039	-35.7542973008494	
19714500	-0.229324456011281	-24.7591101506666	-65.9426106251035	102.971444941562	-67.8908321931693	93.929362890817	-0.189384059392226	-36.4620801505333	
19964000	-0.120521651141215	-26.7400259520999	-66.8683038086401	90.2341029096918	-66.9758055472843	99.5984580889091	-0.117334190663295	-36.960079294077	
20213500	-0.0901478697001521	-28.3406113596735	-69.0283551433788	109.481411454131	-68.7817088846723	99.7360834191335	-0.1052872463809	-36.9757718759805	
20463000	-0.156925819960996	-30.0349435400262	-64.1456592611342	113.184377066221	-64.8495742362788	115.79741859456	-0.165347695848108	-37.3521929220978	
20712500	-0.26207129730233	-32.1597718076534	-66.2502520668395	113.651523546619	-67.1798983307555	107.297547284328	-0.261291059285228	-38.6431106842139	
20962000	-0.316555220437703	-34.7134597025893	-61.8856735833208	92.7233467665577	-61.7141832433197	96.8532611848857	-0.377252333990923	-40.0686713573083	
21211500	-0.277373430426863	-37.2573217363628	-60.1598458175962	73.9749458292015	-60.2373168587987	71.7596694017712	-0.440240757411311	-41.3348047712262	
21461000	-0.168722197258812	-39.4419474923762	-59.6370039325553	51.7956441182092	-60.2247067005981	50.5181740636707	-0.449693574581051	-41.8415796013852	
21710500	-0.0933825434931272	-41.1275006716989	-61.3698444121071	47.5935709422017	-61.8132318978289	44.7721514515222	-0.415143443395554	-41.9001502028565	
21960000	-0.123894288598442	-42.713603659383	-57.9207975164683	36.3786763679443	-58.1031875839585	38.2657259725007	-0.50668813655143	-42.3391358931304	
22209500	-0.266821445616419	-44.6760655227512	-57.9925976857308	-0.247115294005183	-58.115985151574	0.600349819026418	-0.795240099754154	-43.1064964739268	
22459000	-0.525141050387546	-45.9387082831753	-53.6334628270437	-24.562016500723	-53.353299102505	-25.3047296990989	-1.27533499727196	-43.2324043560116	
22708500	-0.312700893926023	-48.2019363158786	-59.1168858744334	-126.973005817442	-59.4706210717705	-127.901731878425	-1.44645831853118	-40.36582212009	
22958000	-0.213955599147979	-50.9029718071099	-88.2274994624649	-112.829241156451	-82.1865693393514	-38.4263252150808	-1.09748549906114	-40.0717348009904	
23207500	-0.102218294527003	-52.9082788762182	-78.1351359438833	-167.52020420383	-76.837848516672	-145.177410808246	-0.83430997444376	-39.7613108327245	
23457000	-0.0613236134931179	-54.4539422724811	-71.5438015444359	123.664989156648	-72.0093351564138	124.448741079572	-0.564318060749698	-39.5779439086697	
23706500	-0.122709755684133	-56.0680931956695	-65.5261288093062	83.4723081591298	-65.5223599400071	84.4094250008726	-0.43154704182803	-40.0790056305842	
23956000	-0.228158862909728	-58.1331150734754	-63.268843373165	54.7905841330749	-63.1205416707104	40.1478974413864	-0.440326440286425	-41.3470214474385	
24205500	-0.294033072047156	-60.6424549047027	-62.1787100065254	-4.1186333172826	-61.5681090188051	-1.71081819782072	-0.578833551986803	-43.2752871163522	
24455000	-0.26811620442863	-63.2324074487687	-68.8816970257666	16.1012687220876	-70.5495490790877	23.3971755893321	-0.726724032433669	-44.0946485127908	
24704500	-0.166199100872215	-65.4796494471256	-61.0896212791525	17.4323289751741	-61.7571057624244	18.1959020258498	-0.602193552174128	-44.5663328065697	
24954000	-0.0941885755478425	-67.2247986197015	-60.0409936212874	-14.8844837478225	-59.8696078046338	-15.6135346903361	-0.52086276613534	-45.8262655721342	
25203500	-0.128347665333425	-68.8037516962666	-62.1013946945662	-28.2742336307231	-62.2809948971271	-29.4527398709378	-1.02030323634374	-46.1317411475967	
25453000	-0.266914641094628	-70.6132305050365	-58.5274498607768	-46.9738996027589	-57.755902257239	-43.646637210613	-0.683694340308537	-41.2318743441987	
25702500	-0.405753765517764	-72.7963410943229	-57.8140883283559	-66.0537724836756	-57.7529248634449	-70.9484170424338	-0.518617326577496	-42.8331537933636	
25952000	-0.476045109415386	-75.2274342831601	-57.6564719244041	-93.2085562349329	-57.8914632701068	-102.319494977023	-0.481625052713604	-44.5755741824445	
26201500	-0.439634354321745	-77.4779683897462	-59.4643514997263	-115.679702350884	-58.9517428696491	-124.008016613799	-0.440002447678314	-46.2976868385239	
26451000	-0.362454617767748	-79.0679258979315	-60.5092508325905	-136.490395046245	-60.9868068445864	-142.040432065825	-0.351162475740387	-47.5192899981751	
26700500	-0.324649407432837	-80.1074832727777	-61.1815628757438	-165.062918447321	-62.3309288134319	-161.824851882747	-0.279172194932397	-48.2304779163594	
26950000	-0.351715119955227	-81.168649995449	-62.0512423239635	171.127750503251	-62.3316687052469	163.032421591765	-0.301365112221884	-48.6191542469007	
27199500	-0.417537656218331	-82.9317388597512	-63.8013196563572	146.379417218359	-65.0389389862186	147.87489197035	-0.426753691654535	-49.1259415618815	
27449000	-0.46086705914646	-85.3159293611156	-64.8574218542221	113.291831030895	-65.6839548561939	131.791905280602	-0.58512248922417	-50.0377362005303	
27698500	-0.4118202631103	-87.9257067663456	-64.1804752306316	92.0376515788711	-64.1773412272884	71.075916020242	-0.710075239805769	-51.2356005562132	
27948000	-0.298709861428986	-90.2628655539941	-59.8910592040934	64.5147663649612	-60.489291500896	62.4480967309798	-0.761956631475857	-52.3312246755809	
28197500	-0.205792609013544	-91.9952166443523	-55.3214755521964	-6.30921336118276	-55.2245373280263	-5.02238900842746	-0.774998214709446	-52.8800907789588	
28447000	-0.187155565594002	-93.4892806430564	-58.8060551274173	-45.2768574980246	-59.3101372387657	-47.1219575415993	-0.822983448799582	-52.6368845131674	
28696500	-0.271682460849927	-95.3002771102693	-61.3596784939331	-59.2427626114348	-60.3918944475418	-55.070071403649	-0.954505059106106	-51.9277978079652	
28946000	-0.364692708974584	-97.5909316307815	-60.5856486144573	-64.9906035654657	-60.2581574707138	-65.7327766526412	-1.11989606889859	-51.2721340816246	
29195500	-0.391754608218882	-100.228517980383	-58.1043926806307	-75.9865055684633	-59.7629966644332	-79.9028523555068	-1.24059863608496	-50.9383579794367	
29445000	-0.325636790131886	-102.807486018346	-57.9840222255949	-79.9682246633974	-56.8441239930626	-81.5790499730089	-1.23277565347888	-51.021336506888	
29694500	-0.214416129002138	-104.947493647503	-56.5660282001734	-95.7511930443387	-56.4793150261403	-99.428817576097	-1.08934043994811	-51.1608321713412	
29944000	-0.161843793632914	-106.611059929686	-56.0317111848883	-106.964061275585	-56.4706866743186	-104.458726919013	-0.89083119652315	-51.1817332908468	
30193500	-0.222414896137229	-108.286449622582	-55.2312340185065	-116.99579983909	-55.3847961297063	-116.212231505965	-0.710281897802698	-51.0338414328216	
30443000	-0.339941913394925	-110.472618924453	-53.866519469849	-121.462114906089	-53.48151165397	-120.169734501252	-0.694829435355872	-50.9387853534773	
30692500	-0.428085842958115	-113.146517897234	-51.3890348612651	-131.144058902665	-51.4930270221335	-131.80543133352	-0.723271277428635	-51.2751276262194	
30942000	-0.420874884593728	-115.956454572738	-49.707425918339	-147.682117274741	-49.8906131027346	-149.268966499856	-0.737934224611565	-52.2134519439474	
31191500	-0.323830306579468	-118.465598966597	-48.9784125764921	-171.143644868819	-49.4352894258688	-169.884137205287	-0.688251583900764	-53.5168801550048	
31441000	-0.217714109892825	-120.540415094667	-49.9920382435084	174.212666050448	-49.8425969187269	172.544485621712	-0.556665604098422	-54.6577063806271	
31690500	-0.227675758517639	-122.503984009637	-50.8235062494095	175.856127594186	-51.1148595625367	176.829415471449	-0.417166027175162	-55.3477667721684	
31940000	-0.373989291444565	-124.618511816394	-47.0658935906702	172.711358179732	-46.9425216121501	173.670745745025	-0.354875957743624	-55.8012801087389	
32189500	-0.509164513732623	-127.292232474481	-45.5907705492247	156.312206972015	-45.5143484032518	156.500483343268	-0.415715784147543	-56.5562509431846	
32439000	-0.57754907392726	-130.703094039491	-44.0745812536042	145.042162364675	-44.0969818492683	146.467319390052	-0.686236599160868	-58.1815774688098	
32688500	-0.585280435219734	-134.263863291323	-43.504479784862	127.659513021444	-43.5454499754354	127.037793851331	-0.725896308666007	-57.1746143052201	
32938000	-0.602664168956353	-137.64410603414	-42.0735347813322	120.002472185721	-41.9830976095547	120.722712319567	-0.617578357537114	-59.4011148315492	
33187500	-0.791196873660426	-140.936082042209	-39.598733121086	109.755115674769	-39.4110851097763	109.452642170969	-0.588792753698019	-61.0699958467939	
33437000	-1.36963232405309	-144.361607552623	-36.4921609476777	92.6653435794005	-36.3058361825148	92.6580988481178	-0.6188279119424	-62.0883810038293	
