!Keysight Technologies N9923A: A.12.45
!Date: Friday, 08 August 2025 17:38:56
!Timezone: (UTC+08:00) Kuala Lumpur, Singapore
!Model: N9923A
!Serial: MY61181427
!GPS Latitude: 
!GPS Longitude: 
!GPS TimeStamp: 0001-01-01 00:00:00Z
!GPS Seconds Since Last Read: 0
!CHECKSUM:0531525326
!Correction: S11(ON U)S21(ON U)S12(ON U)S22(ON U)
!S2P File: Measurements:S11,S21,S12,S22:
# Hz S DB R 50
2000000	-0.0813297302444151	151.44958905238	-87.180806767796	-105.25785120053	-81.1977596396471	-133.051993838921	-0.0415987885099804	-3.50558426220045	
2249500	-0.00260315147350058	148.303920177283	-86.5546027509717	-102.782579143284	-86.0023524944035	165.393178614923	-0.135657650679575	-4.07379100333133	
2499000	-0.0123261087606843	145.279484802891	-75.633618697356	146.187335725417	-75.742315267008	147.956442558395	-0.173179142655451	-4.98386002971468	
2748500	-0.105994876091838	142.009076523909	-65.2825268577529	141.084551689566	-64.3384479190708	136.292979146396	-0.124237615674521	-5.8248865700582	
2998000	-0.267245040479407	138.567055539615	-47.728441230871	53.3122606150157	-47.8970045199691	53.413020545492	-0.0473910030856884	-6.28161353902354	
3247500	-0.219260723003185	134.819476381681	-57.8425797687407	-19.7685033359866	-57.7729051099529	-19.0827413891954	0.0336949725621037	-6.43545366974526	
3497000	-0.136131540423473	131.127324255268	-59.5079108705874	-31.6427436468088	-59.8140340176136	-31.1922839930939	0.0145031749367555	-6.56710516323901	
3746500	-0.0385388165100322	127.964971947545	-58.2883412272911	-38.5016263795034	-58.2184402054109	-38.0033287041227	-0.0726496991344459	-6.89408456506622	
3996000	-0.0131601662598563	125.082685027142	-54.4259614698036	-44.5807172774193	-54.3516744388874	-43.4513034140561	-0.163854194101728	-7.68547112430127	
4245500	-0.0872524001911227	122.032687158969	-47.254645715268	-56.2856383317989	-47.1753300144439	-56.7709923386973	-0.202218035045045	-8.84523132581704	
4495000	-0.240463973435123	119.07290857386	-37.3966961496772	-166.061916488881	-37.4556470476277	-168.635574112091	-0.233087452179088	-8.2501983478231	
4744500	-0.234946455357421	115.311030823054	-46.1528837255286	142.812420956062	-46.1712670793922	142.194866731456	-0.0022328399118459	-9.31874159580632	
4994000	-0.202166740103277	111.582087979409	-46.3740370843029	120.46264370318	-46.3596362105211	119.302881330955	0.02889107364706	-9.74879454807337	
5243500	-0.0860128951196904	108.721627264163	-51.9401542750254	106.655514411521	-51.4032599892523	111.63880357683	-0.0775362148963725	-10.2569673940117	
5493000	-0.0235834161371402	105.874088653574	-47.1695009942112	38.931337438999	-47.121590876714	38.2736031038021	-0.356215764636844	-9.31614189755884	
5742500	-0.0623681135492422	103.085345935647	-54.7325418288571	-11.075939024748	-54.7969322138353	-11.4933088228001	-0.237444232723074	-9.72429426987361	
5992000	-0.198719934998862	99.7495950288067	-64.8325134335909	-8.9628388770899	-64.9346007822357	-12.119632123027	-0.181033778598456	-10.9189608313411	
6241500	-0.307969072571879	97.6139219110367	-56.6227978844534	-13.8483560614696	-56.9023929741485	-10.3581224732111	-0.0557340686949371	-11.8307535880774	
6491000	-0.235960369375392	93.7207592213421	-61.861705930667	-27.4446474471814	-61.5529304039249	-29.4618445695629	0.0209528343867063	-12.2213195416943	
6740500	-0.136607276014584	90.4586913188425	-65.8422069742665	-31.5054560313718	-65.5764310653577	-29.8588247642663	0.0413298930281221	-12.4926038677281	
6990000	-0.0425751936245335	87.730977392292	-59.0895889216371	-26.0588842355162	-58.6854398247795	-25.1012460622397	-0.116923135850771	-11.9674100199627	
7239500	-0.0397698643691355	85.3027098344267	-61.95564025544	-49.5289814501568	-61.6182424499603	-52.1954808250432	-0.124661011264254	-12.8816282176063	
7489000	-0.127915235500529	82.6353493547688	-62.7281891424451	-55.689916647708	-62.2026300704292	-52.2466556183208	-0.176954600278789	-13.9467495673488	
7738500	-0.232240693106447	79.5530137585509	-61.5407976251968	-55.8492351295825	-61.6585967851673	-52.5830078176566	-0.142904291796987	-15.0525618486092	
7988000	-0.261514661375384	76.2575681946533	-60.1866173694103	-64.2121239855774	-60.1590374104557	-61.241374289603	-0.0511760542321583	-15.9001533398924	
8237500	-0.201049751324946	73.0456878530131	-54.7638837531805	-60.3860325839629	-54.6578299343302	-58.8562127677056	-0.0327494748159351	-16.0738894121944	
8487000	-0.0969774624564448	70.317095877556	-49.1755212460272	-90.0730817277433	-49.028843931121	-90.5017411109263	-0.0581962767348458	-16.537452678595	
8736500	-0.0689177175887535	68.0642875769965	-41.5864420644632	-150.144580133519	-41.5579968046352	-150.194964813876	-0.358223861746019	-16.4894328072692	
8986000	-0.108769803668084	65.9315789404009	-43.2257679672245	123.110972867197	-43.1837273704812	122.944591095764	-0.314413156838617	-15.8241119154776	
9235500	-0.216477937527969	63.2339740991192	-46.8465237476841	73.1939798219723	-46.6354921075344	72.15676438905	-0.294860122702632	-17.0600810516511	
9485000	-0.286916360044399	60.1703076002034	-50.2683221425171	27.2299461296067	-50.0889127101315	27.2359440612606	-0.20857413536084	-17.9575597803122	
9734500	-0.253163723313776	57.0426022862931	-54.597198558442	-7.49323406359433	-54.3247520076003	-7.45761187711654	-0.0708400497014635	-18.602385251931	
9984000	-0.1445880006098	54.2461980860847	-58.4913899170326	-34.8778718763847	-58.3877573897202	-34.4835961783747	0.00761956015844029	-18.9754343517332	
10233500	-0.0536803500450715	51.9474297227607	-60.2905060576869	-57.9434504662786	-60.5573629857086	-57.6058061746944	-0.0305018493159736	-19.342496022999	
10483000	-0.0558765672032054	49.8762119997766	-60.5157985056255	-80.6417860810352	-60.5538913437076	-81.0522813931131	-0.161090851297393	-20.0895453574772	
10732500	-0.152222219295422	47.5383556777921	-58.6141073493006	-105.071462552431	-58.5556783068471	-107.081709449386	-0.351452183024935	-21.3922183202836	
10982000	-0.260670960352532	44.7316015798948	-55.3116552530714	-164.848728360481	-54.8022195933835	-161.171912895761	-0.631780267882879	-21.8730627935653	
11231500	-0.284143512541225	41.6410175815976	-54.8615727787197	131.984306454655	-54.583012495914	130.462606725314	-0.418512311744964	-20.6882886035417	
11481000	-0.207782228206861	38.7440066833063	-56.9590529116902	67.2170864056162	-56.4801418260348	64.902001733519	-0.163263592762276	-21.6164711972937	
11730500	-0.0956665150588389	36.3571169685881	-65.3610466930096	-5.02585495654014	-63.8843406912159	-14.5970064707509	-0.146692122642736	-22.2441567623223	
11980000	-0.0437269663074413	34.3388931610643	-74.4424705389047	-103.212342321114	-71.2814672502963	-115.176570080646	-0.379160073128996	-22.3823649083523	
12229500	-0.103672603915577	32.291332701532	-63.630553268826	149.956778437928	-64.1069952915568	144.688570975225	-0.542710798886901	-21.008033594134	
12479000	-0.225512123015894	29.7463348316779	-63.6028897514055	83.4594061580931	-64.228192423736	83.0862331764202	-0.409687119856493	-21.2757755755183	
12728500	-0.303551766242365	26.7416326042134	-66.1518223125162	54.7113395261195	-65.7413103560627	59.2416218676244	-0.272552810823178	-22.8034713212782	
12978000	-0.271266176759188	23.6143421706847	-68.6382337400342	52.9313195586513	-69.5358678034974	61.8985756716468	-0.161181689240344	-24.0363478609497	
13227500	-0.163778138522962	20.8754252950876	-67.3472872674821	91.623394771606	-66.7843269694194	87.7126705905818	-0.0698985675384972	-24.4750214584532	
13477000	-0.0729412434386355	18.6119512087825	-62.1050133822129	87.7589333983051	-61.8437590275404	82.0975942619698	-0.0401399820507992	-24.7221649460972	
13726500	-0.0841057408192611	16.4902063893271	-57.395510896904	70.8520387450342	-57.294459229523	70.5365388827861	-0.140373690206255	-25.3497810138741	
13976000	-0.195513664689679	13.9576930296354	-52.0921983372329	35.8628961308851	-51.8128031438728	35.4550401534714	-0.426436123191492	-26.1223328155341	
14225500	-0.322200527481765	10.7354831811933	-52.4771972639601	-29.1786627448881	-52.583158246428	-30.1972585756718	-0.413201693478731	-25.2142939187511	
14475000	-0.365007357738611	6.9489360392222	-59.0584637970742	-42.2090127290172	-58.9408995344025	-38.5387937080857	-0.222725847296617	-26.910122487769	
14724500	-0.310727369365981	3.02523811716442	-60.8374459487863	-2.77146272947119	-61.6223025711541	0.0825392195698564	-0.0978850051745717	-28.3001888241915	
14974000	-0.255563911159278	-0.915447483165991	-54.6619282810655	27.6824393035494	-54.1865590903044	27.244949506196	-0.0717956987775459	-29.4248740400377	
15223500	-0.326136971763793	-5.32872239550667	-45.9805019075853	6.04743452441547	-45.6598878891748	4.09284772672621	-0.41793836160716	-30.2084840398738	
15473000	-0.710348354817414	-11.9260873110624	-39.9480647165792	-18.2229989243544	-39.3934946023681	-20.2053019097308	-0.527034867737125	-28.5118979778831	
15722500	-1.72659319656401	-23.4980047619809	-32.8415129933134	-93.3419401938195	-32.8863104360808	-94.5196171318864	-0.694379873034672	-26.8530848879945	
15972000	-6.50598303231787	-45.8404678933624	-33.1699185118413	-154.72846755039	-33.0827329273252	-157.906900880799	-0.399958672430277	-28.3251001204904	
16221500	-8.14568671820383	45.4825445770458	-36.1228124281236	138.554537348582	-36.1780865105655	138.115686729293	-0.263414821149236	-30.2966523271141	
16471000	-2.21073325110124	26.1503235532282	-43.2558747339017	115.986466873205	-43.2321789298836	114.09970530684	-0.216318326002194	-31.9283640417706	
16720500	-0.954833039488628	14.7990455254822	-45.3500226031967	115.814743472588	-44.6616748856391	117.109474670615	-0.348788861173738	-32.7153618265603	
16970000	-0.521821605902696	8.51302804336359	-40.9896657093122	70.7231970761439	-41.4601769120088	65.8052317384229	-0.553317855024204	-29.2276741632748	
17219500	-0.42874851058279	4.01868510888639	-52.4218694008822	39.1762262298703	-52.7564097954645	38.5791026083543	-0.478324949454537	-30.8707753314898	
17469000	-0.462307055927676	-0.0236245508095396	-49.0525365990925	51.0033891813026	-49.0361105328439	50.6564912002256	-0.539732022270813	-30.1441503181444	
17718500	-0.468942576380578	-3.9997175908013	-51.7036967403769	25.1325018441811	-51.7974540218903	25.031785297312	-0.372741523010714	-31.9044422212261	
17968000	-0.380711649181459	-7.61136722059499	-54.9049914305034	15.8557539204938	-54.80149465854	17.9144331706223	-0.26041715255306	-33.539359093535	
18217500	-0.232823375567271	-10.465160470524	-56.6096949088124	16.1469074779531	-56.5694302001413	14.1014748035492	-0.181183856416803	-34.5384491410489	
18467000	-0.135070318206279	-12.608280094472	-58.2277775973072	13.5313894359956	-58.0063454157638	14.52712853081	-0.218849490742187	-35.0852908557506	
18716500	-0.153793311744983	-14.5128262688956	-58.3579463130946	13.49647590475	-58.2095540342647	12.4017023493819	-0.419938555322436	-35.4796901688115	
18966000	-0.257803269396058	-16.7198381242007	-57.8294688989212	4.73407397948261	-57.7088434897249	4.4628115270566	-0.727516422920963	-35.6733472864767	
19215500	-0.353103357151919	-19.404497256879	-56.8076846770416	-3.91006524104312	-56.615764209897	-6.3030873855514	-0.949621664778631	-35.4479869805009	
19465000	-0.348820870168792	-22.2930223648784	-56.5442993521267	-19.2371015032112	-56.3321197942884	-21.8381313522021	-0.927206230626243	-35.0710112301984	
19714500	-0.24422706431492	-24.8349534857946	-57.156929029246	-37.1489691309546	-56.871038368624	-40.0620917503955	-0.725130827189574	-34.8093073996071	
19964000	-0.121617475917407	-26.7522455036605	-58.1923101850743	-52.6374763418955	-58.1210296410813	-56.9904918979682	-0.487796094468882	-34.4883798700323	
20213500	-0.0892577444450884	-28.2434179385969	-59.1669581528323	-68.4585818919744	-59.3392905680177	-70.3238129433635	-0.34478888864552	-34.3458888778327	
20463000	-0.166353766206186	-29.8758025984801	-59.9968178968404	-85.588990881852	-59.9316083680948	-85.9312529405396	-0.33258804074653	-34.6854826148119	
20712500	-0.2881435013249	-32.0291009450613	-64.173388170168	-92.8814269889711	-63.4105363986518	-92.6930732395206	-0.409575309745732	-35.5817327524138	
20962000	-0.349094072754001	-34.6748383634544	-65.2392237502512	-91.1397221885739	-64.5470714046992	-85.6742090052245	-0.421234294989284	-36.8001498741432	
21211500	-0.302384108723165	-37.3197217944525	-64.5817749333268	-91.7922513900709	-64.7301349756457	-96.6631910709308	-0.353525588021886	-38.11797536983	
21461000	-0.178385906603068	-39.5121188147582	-64.9623007934231	-102.284911711784	-66.4703455660747	-101.43630012375	-0.225317889404199	-39.0504387157465	
21710500	-0.093451267979139	-41.1328310225589	-65.4238980269554	-101.98104887039	-64.3789221508566	-103.129422900602	-0.132773371735128	-39.4641867609813	
21960000	-0.127540601747367	-42.6272444641834	-64.5109818649871	-123.03817245546	-64.9972460713391	-121.736053574594	-0.152683140260155	-39.7504411660243	
22209500	-0.284862231762925	-44.5505432495358	-67.7698648148758	-105.042248572545	-67.5732794693688	-102.801209797799	-0.268096837429502	-40.3380198444839	
22459000	-0.556966681595314	-45.8214356842923	-58.2941641902979	-119.186943264012	-58.6301050316113	-120.245031581133	-0.402307690421629	-41.4480597105547	
22708500	-0.341711452524845	-48.1975062031009	-62.3768760465788	-166.584510693328	-62.6032261411879	-173.808983277281	-0.47667191381934	-42.9096074534198	
22958000	-0.230263619872305	-50.9375266216693	-71.0633231005232	167.890850290317	-70.7207974818746	171.5474714044	-0.467107343578677	-44.2191822265476	
23207500	-0.104966082732136	-52.8982257279857	-75.83246359786	-132.872634554668	-74.2122822916679	-123.57727952694	-0.434875588274611	-45.1103323769498	
23457000	-0.0601164474760482	-54.3556028429101	-66.993408857403	-115.47632604419	-67.9548095360823	-118.457728444812	-0.523950694713532	-45.4634823907571	
23706500	-0.131182390215516	-55.8950591955761	-63.5465459890792	-128.426320869423	-63.513792093789	-135.463913906877	-0.77884646854437	-45.0511091407052	
23956000	-0.252789707813493	-57.9651372432738	-61.295274586887	-146.183467201563	-61.4853070920205	-157.173641395714	-1.06597476535745	-44.7791684018371	
24205500	-0.326106523551673	-60.5465381854499	-65.6762793757449	170.947108681759	-65.5537114783686	163.373507286963	-1.34062426676098	-43.6428360089501	
24455000	-0.293703092302101	-63.2336943302759	-62.5850005111146	-156.822765398809	-62.436340192131	-157.079377768078	-1.22119163436632	-43.2979363892781	
24704500	-0.178026141590637	-65.5070417949209	-62.0335578616979	156.670903333154	-62.0193435176207	152.510203042346	-1.04547694685275	-42.9762348181386	
24954000	-0.0954307379396556	-67.1972355848359	-68.1399483431139	159.683625464945	-68.8591273275097	149.14163773527	-0.755521157661843	-42.515768764786	
25203500	-0.131500082153848	-68.7035432907027	-64.2713921310921	-166.409126596323	-63.0346972536473	-164.655997928891	-0.543449253596064	-42.3664814783597	
25453000	-0.28428981890554	-70.4669059432813	-58.7583874836641	166.829748732344	-59.4221742347575	168.525874230448	-0.485785189226825	-42.6291986533261	
25702500	-0.436377548167197	-72.6899573683198	-58.2065959263605	135.094209098317	-58.2499819872934	133.425679608626	-0.523178685376852	-43.5239016718807	
25952000	-0.508028468087414	-75.1857207194705	-57.730288809149	99.42421199267	-58.3288468524631	97.8310713604298	-0.546128619223213	-45.1038079398528	
26201500	-0.456716066742938	-77.4749822841433	-60.7428630475455	56.4243616741774	-61.8139052985953	58.0092482080511	-0.566715713470489	-47.3458919886443	
26451000	-0.365461817685958	-79.030015169447	-65.6692030148492	30.4542641914274	-65.8458449401292	26.8689289720103	-0.738758267806757	-47.6389987140382	
26700500	-0.321654736717824	-79.9808162855782	-67.0605476140369	-79.2856735550808	-67.612888951567	-110.286428005546	-0.50421682476277	-46.3561506769594	
26950000	-0.357897474724231	-80.9809006931975	-61.7599735604885	-171.259471840127	-61.024506351141	-176.791383658218	-0.335142892097198	-46.3560589213342	
27199500	-0.440718926888517	-82.741288203772	-59.3659263676473	155.762798092487	-58.9336456634298	152.64633287539	-0.353880121481189	-46.9770063399657	
27449000	-0.49209229500445	-85.2164743195676	-58.5609515632886	132.417439371713	-58.4781182857707	126.490924449773	-0.439301959363903	-48.1298696602781	
27698500	-0.438205023048176	-87.9159700914526	-58.5096486580482	112.767321057188	-58.4964386194165	107.764334676436	-0.489426458185665	-49.6814654816642	
27948000	-0.309107393320034	-90.2552528545458	-59.2165029740642	104.020850779632	-59.3385994689456	104.179628591985	-0.452685294493896	-51.2786569881847	
28197500	-0.204779419391091	-91.9057414407626	-56.0372939889789	108.39371279786	-55.4554122676696	106.386629830928	-0.369761706704683	-52.4342442208123	
28447000	-0.186818951326887	-93.2812207248145	-54.6705280750996	84.4154629771955	-54.4388542737443	82.7344007954816	-0.33645951432858	-53.1037564271611	
28696500	-0.286396380274925	-95.0425786397946	-54.0931889496949	75.170828032602	-53.6294491328114	72.8370650242805	-0.451281571383564	-53.5976489050096	
28946000	-0.395307242789103	-97.3766616412395	-53.664853634678	62.5554269193355	-53.5143961881548	62.6689350251203	-0.693385416346766	-54.4127234223877	
29195500	-0.427808090407507	-100.152056554515	-52.3594189668786	50.2551253402475	-52.4349079240435	50.3129668364849	-1.00752071780583	-55.5551396974432	
29445000	-0.349037156197798	-102.832237274904	-51.0463327243226	38.3173440841818	-50.7704581528323	36.8761919185289	-1.30779060463202	-56.4788379624988	
29694500	-0.221893287193712	-104.987239699735	-49.7437617712361	23.0746251107778	-49.4604329902063	22.1639475885428	-1.50608555716738	-56.0144850416342	
29944000	-0.160950564764957	-106.568733335485	-48.8565476768989	5.48567858798087	-48.8847195677989	4.35159644418681	-1.46024887965286	-53.6072113974218	
30193500	-0.22672078080182	-108.143762475434	-49.9031226945241	-3.28795258790597	-50.0845164122693	-6.35920287452005	-0.987539750755912	-52.9580927791798	
30443000	-0.359565119327024	-110.284665063046	-47.1598645763565	-15.0299857973589	-47.2512297710025	-15.9736460467198	-1.33456600336041	-51.6087015230741	
30692500	-0.459255471917374	-112.994430874387	-46.1390781174508	-35.4196259671678	-46.1646163665282	-36.4615507991616	-1.23521456753604	-50.3008565588997	
30942000	-0.450086957434602	-115.875131253859	-45.6841511184426	-55.4514065213182	-45.7538702574304	-57.4796599602062	-1.12177025528927	-50.7419509374247	
31191500	-0.340489857873544	-118.415839081021	-46.165978790082	-76.0726075149685	-46.0909333806025	-76.5394449080641	-0.953998151067836	-51.9492387876274	
31441000	-0.221507740267701	-120.441039466909	-47.4711652961505	-89.8487738983399	-47.3288271837354	-90.5051538835586	-0.713711036573664	-53.1870672235185	
31690500	-0.23193878190218	-122.341372077548	-48.2795853016447	-91.2447406269675	-48.2888453665142	-92.4954302427427	-0.486666312199026	-53.9797915651767	
31940000	-0.394202088561431	-124.410911858282	-46.6962274293759	-99.6785797172891	-46.4738936211419	-100.53230958766	-0.379684048683507	-54.4308392329523	
32189500	-0.542310433587654	-127.130535280567	-46.4702313760166	-112.034590552656	-46.428399730128	-113.041813779732	-0.416364374098603	-54.9764438887293	
32439000	-0.616011283178696	-130.64155299574	-45.7787783931472	-118.139364133061	-45.8043893980346	-119.69658180222	-0.537737091102521	-56.1257290911946	
32688500	-0.610253238345087	-134.274341665553	-44.9657603137215	-128.581604595544	-44.7906445432555	-129.488302667348	-0.613239070173589	-57.4139034485525	
32938000	-0.61154051539564	-137.632534047673	-43.5824996428982	-134.891571139028	-43.5486231921597	-135.709464115297	-0.605294285178904	-59.2186806117315	
33187500	-0.792667103711314	-140.828458903863	-41.4745428333407	-144.835676849837	-41.3451857923269	-145.610486593558	-0.539799818295454	-60.5588238916403	
33437000	-1.37873047326004	-144.154926770112	-38.6213084977647	-160.175520362233	-38.5135143845167	-161.134755846203	-0.516014202983508	-61.3127635566292	
