!Keysight Technologies N9923A: A.12.45
!Date: Friday, 08 August 2025 17:53:36
!Timezone: (UTC+08:00) Kuala Lumpur, Singapore
!Model: N9923A
!Serial: MY61181427
!GPS Latitude: 
!GPS Longitude: 
!GPS TimeStamp: 0001-01-01 00:00:00Z
!GPS Seconds Since Last Read: 0
!CHECKSUM:1937174889
!Correction: S11(ON U)S21(ON U)S12(ON U)S22(ON U)
!S2P File: Measurements:S11,S21,S12,S22:
# Hz S DB R 50
2000000	-0.0945189254409945	151.314335504718	-85.3037779804027	119.708927768048	-87.0039232340397	-107.628854989534	-0.0388349211690658	-3.34583493403673	
2249500	0.0111325915633727	148.224616163265	-78.7868106583454	177.941342857844	-75.1733926623327	141.547650996101	-0.15855062112309	-3.92452654926391	
2499000	0.000465904867717058	145.31377785651	-62.4901336433547	124.723795391225	-62.1741256661142	123.20440871318	-0.220158517896328	-4.94455431743844	
2748500	-0.121357301678385	142.197566214118	-50.2048000209862	16.6235674339183	-50.2031340047331	18.0167988743306	-0.186008202023561	-5.31931020387331	
2998000	-0.246819751231181	138.506581121129	-50.8457631784664	-33.9542228413378	-50.6467301460274	-35.0179013830954	-0.0221671291218785	-6.03006839389037	
3247500	-0.29319545349434	134.803717583495	-45.901516776701	-138.014901356246	-45.865411331054	-138.16757324276	0.0192512710664387	-5.84722067472616	
3497000	-0.162512002495964	131.019627878411	-56.4596542023588	177.376218449418	-56.5147760267675	-179.791742959066	0.041266199264196	-5.89385279805985	
3746500	-0.0355099671784593	127.879941434327	-55.5108881242111	175.89314935964	-55.6232472189664	176.939288965722	-0.0751281148206854	-6.18891070526093	
3996000	0.00273639444112549	125.119172528935	-55.5766111554726	151.018480038621	-55.6277017498021	147.518627454005	-0.183614795995483	-7.09711270178131	
4245500	-0.0839874669091691	122.220843625909	-52.337694594794	128.562428733809	-51.6393260426737	127.099138403158	-0.220061474947955	-8.38825535265203	
4495000	-0.217841438854503	118.957813942583	-51.7921956970007	0.146999667501023	-52.321808251725	-0.0707921168282588	-0.145278065899929	-8.71853316465317	
4744500	-0.280705955890053	115.051180909441	-75.0453053749968	-27.2153619730439	-83.7021190096905	95.9771823002119	0.0145836011392597	-9.41051566085134	
4994000	-0.298090386422216	112.220289709477	-52.2013815073124	4.90743015905904	-52.0544686017004	1.80127251306593	0.0738539423055236	-9.5222983015359	
5243500	-0.0853938430947164	108.583234635017	-61.1223845436792	-37.7278765044403	-60.3869246127872	-35.9665378433219	0.0172472226010059	-9.6700761798792	
5493000	-0.00279497739665234	105.834651856144	-63.6375752426686	-48.3468651038304	-62.5196388112104	-47.4835270175447	-0.118030882048708	-10.1946507041171	
5742500	-0.052482441233966	103.15791514436	-64.3416217204987	-55.6789724245881	-62.8768384314186	-58.7293404976001	-0.235074433113305	-11.3202022450036	
5992000	-0.217332452644421	99.8729085180651	-66.8295660485515	28.3191856856076	-68.2883172982496	15.4321193477626	-0.317307288400795	-12.6473883739554	
6241500	-0.368408903956336	97.6354371292562	-48.3144964800089	-121.300250012848	-48.7767401695664	-125.674249926291	-0.260769008585223	-12.0211979279214	
6491000	-0.279039074026633	93.624504867566	-58.9438242614178	173.294596593659	-59.1012242514084	171.813260662218	0.0089528709026075	-12.1156606461136	
6740500	-0.152912043488047	90.300237860414	-68.9663415817599	-166.518140172027	-70.1804986143293	-172.977516037196	0.0645279728135262	-12.6178738110861	
6990000	-0.0323345476717823	87.6314386147425	-57.7723553222612	-143.797489247155	-58.0715665918519	-140.964452642675	-0.207933568565792	-12.8316628206387	
7239500	-0.0255804999783964	85.3353757384885	-59.6028685759813	155.023941886859	-59.5345846161165	154.49928303817	-0.213100601758903	-12.3076701113473	
7489000	-0.134285817493893	82.7537931187782	-61.8173604609119	136.60324697512	-61.8249234566823	137.72553181819	-0.236832951562576	-13.5758054617583	
7738500	-0.267465088554279	79.6456470655534	-62.8449170843638	130.627327765627	-62.4709973231217	126.875449379064	-0.180220244401773	-14.8500833560335	
7988000	-0.308056456902335	76.2234422417359	-61.3602835983542	116.300146581442	-61.3735145426886	115.777820243948	-0.0483101183775084	-15.6842504901584	
8237500	-0.228968598090057	72.9116597872905	-58.8211114386005	115.208998053856	-58.7363829194581	114.87365382546	0.050640283589245	-15.9712123625152	
8487000	-0.0948526907512029	70.2007311843613	-54.6813256855272	94.2338816025446	-54.5450251583182	94.1098203048996	0.0389865155476694	-16.1207288434587	
8736500	-0.043820947592913	68.0157532313232	-49.4762891930691	61.7525796970159	-48.9698476708822	60.7843275230377	-0.110868627741159	-16.6047341381481	
8986000	-0.119544809183459	66.0512550515107	-45.1120090121311	-2.71655185584189	-44.8652817655975	-4.43445934159921	-0.31907873552444	-17.30668105076	
9235500	-0.236092840221507	63.4254524149405	-46.1358256095216	-60.929177585614	-45.8756477640417	-63.0111881224518	-0.409133890862238	-18.4022334007894	
9485000	-0.325523989395265	60.1871736920244	-46.9700256808509	-108.448960527507	-46.7532020891763	-110.523111078432	-0.440081575985279	-19.0179703112668	
9734500	-0.291392368956252	56.9046527903992	-48.7439246206598	-157.148413753202	-48.6144326321941	-160.020462083989	-0.288662263590918	-18.3355016151392	
9984000	-0.155313288130312	54.0746742275792	-50.8998813651082	162.700181759027	-50.9553084666675	160.225792597142	-0.0753051396715915	-17.9871900934718	
10233500	-0.040508819191933	51.8618247674921	-52.312396262253	129.757515530786	-52.1782314284706	126.715650725464	-0.0440774264238876	-18.2122683237067	
10483000	-0.0444093441013923	49.9327430321545	-51.7505362478004	78.5191054596579	-51.8640910597285	74.0155788753933	-0.217819461206657	-18.8204066430669	
10732500	-0.165011547898582	47.6913657742867	-56.7080870989487	3.686559037425	-57.1930147323185	-0.398990694044076	-0.326108848996285	-19.1075556709113	
10982000	-0.299989199245885	44.8280642565564	-64.8373958507769	-24.5674014252638	-64.6599626260252	-26.5891025065631	-0.278532541464563	-20.4536876605606	
11231500	-0.330435937673115	41.5823287872514	-71.0731241787712	-25.1273537615659	-68.7221842689728	-28.4058486993697	-0.164306138433461	-21.6591782168155	
11481000	-0.232580531575712	38.5707702986186	-65.2733768055448	-16.8401804626983	-65.779005145075	-10.9694786348458	-0.0364187622603749	-22.3231182874502	
11730500	-0.0909308490833405	36.2119212563298	-60.9269374243004	-73.4657967168692	-60.6220117934796	-73.2580782542565	-0.0129862066433215	-22.4798915644628	
11980000	-0.0253542048595399	34.3308942457153	-60.7797458930563	-113.987485384477	-60.3266516166063	-111.790687849786	-0.107683372794304	-22.6327552440629	
12229500	-0.100532219190521	32.4155695946931	-59.8420536714132	-151.461249416117	-59.7169817617138	-149.029734688986	-0.324137858892161	-23.3777887363908	
12479000	-0.253585058060596	29.8870750954942	-61.4749066926737	-165.115828243674	-62.1496133904522	-162.693895410187	-0.590237855960729	-24.5783786356881	
12728500	-0.351544039889389	26.7624044676935	-59.6221089892706	154.094378021065	-59.9091312983355	159.383841365075	-0.66858193507125	-23.9706870779839	
12978000	-0.31007352490018	23.4923572757974	-62.7190823704247	140.100380993941	-62.851004973344	143.367867166184	-0.362279283973054	-24.2509394021719	
13227500	-0.173386989470127	20.7102194329701	-60.0719514535968	141.820025120709	-60.0605648219203	142.386913670214	-0.189605443260044	-24.5556067727429	
13477000	-0.0578682440058238	18.5430761490235	-57.5948942323999	125.062645947218	-57.5988527379357	121.865214405172	-0.12008580117117	-24.3538351956042	
13726500	-0.0702077407263115	16.5680917798086	-56.388829202027	104.616338640418	-56.5414032440781	104.660879749448	-0.177442527954451	-24.4902653813402	
13976000	-0.207019918763432	14.1107562150452	-55.1514131623481	87.3634884820613	-54.7897151517341	85.8607271407056	-0.297933279693341	-25.3291311332031	
14225500	-0.362392016773723	10.7968825908022	-52.2694847775084	69.7200768446513	-52.0450187505438	67.6246971388567	-0.397118433531642	-26.8733996974815	
14475000	-0.413034269498567	6.84108720662876	-48.819452586149	34.7331345932129	-48.3933548038815	34.3041140727948	-0.512305929230671	-27.9126749605432	
14724500	-0.335816493598801	2.82136005664837	-50.6606369244221	-7.48632072774044	-50.7554272839965	-10.2623437035856	-0.272627232816432	-27.1764110046954	
14974000	-0.247954278238917	-1.06096780595891	-52.9859619345929	-0.160923127196703	-53.0587558715963	-0.368489817009914	-0.0483903070292148	-27.8371496958032	
15223500	-0.305633278083668	-5.30602085323089	-50.6500257529182	-2.19693603844789	-50.3578067455379	-2.35094571722526	-0.0752772385485788	-28.4831579752666	
15473000	-0.702340556278672	-11.8308710529846	-43.4650611560804	-5.89746964025085	-43.1648423402642	-6.19904759695462	-0.355844040186912	-29.4194867427517	
15722500	-1.82905348100222	-23.7374943716657	-36.4423447523743	-52.3156110293353	-36.0880868138929	-52.5889900602787	-0.739602248061614	-28.6700377725376	
15972000	-6.77103330139757	-44.3807978651386	-32.3769362035579	-95.0738092823851	-31.8625457163819	-101.52036185178	-0.580278669880149	-29.352428486679	
16221500	-8.45619808529745	45.3231076574046	-29.266385811058	167.133197347794	-29.6106587877101	165.450076732172	-0.492884890782835	-29.7915002008757	
16471000	-2.2211247800526	26.0814212313175	-36.0719178628096	106.211554272019	-36.1394667783162	105.88383490487	-0.198437201348104	-30.8063079870579	
16720500	-0.931389927598373	14.6129100930857	-41.4378642031018	76.9648401569425	-41.3507330391323	76.0503203387161	-0.134662439369305	-31.498583495205	
16970000	-0.502932941126435	8.49840373092132	-45.9960747661672	60.3582134030288	-45.8068295346714	57.9677955147287	-0.307332322923269	-31.7195839514542	
17219500	-0.429543789220258	4.18384734959908	-48.1348702665661	57.6571757242257	-48.145445242577	55.1172558676809	-0.583498324295922	-31.144625812436	
17469000	-0.497055979748339	0.105668532671114	-48.1450290354053	38.0936344212387	-47.9517417476857	37.6183676684461	-0.584034257419241	-31.2016681401781	
17718500	-0.52080562276163	-4.02294579887171	-49.2961238880921	18.6669139584789	-49.3576327182853	17.3854136250291	-0.516439094759193	-32.9894794420067	
17968000	-0.414197196508425	-7.78295136267916	-50.4261631591142	0.570811481851411	-50.4501654228752	0.256069434167694	-0.486096203656318	-34.422199647288	
18217500	-0.23421046084306	-10.6456679792791	-51.674120648603	-16.9778408853548	-51.7787135708004	-17.8236147568318	-0.448441837566145	-34.0261254576786	
18467000	-0.115469426104661	-12.6496319652398	-53.7801204854415	-31.1472456403751	-53.649860007508	-33.7966391160149	-0.323841364710008	-33.0282588508335	
18716500	-0.143714610895039	-14.3982425765202	-55.0203198450784	-42.7407649177791	-54.6983823231733	-44.5859631734691	-0.302579578320479	-32.8997935156991	
18966000	-0.27770591078773	-16.550156469529	-55.6333631484965	-53.5732666083779	-55.2118094473222	-53.5456976114948	-0.400423492932479	-33.6560923108451	
19215500	-0.400130449519925	-19.3413190100971	-55.4584302424646	-61.1007346857373	-55.2377627177224	-62.6998976190003	-0.49145284708736	-35.1408101592312	
19465000	-0.394646871018167	-22.4021985495069	-55.2668517748241	-70.4940765105892	-54.7394675772586	-73.2577746637697	-0.487608639778294	-36.8022520614685	
19714500	-0.260985361244754	-25.0257663370364	-54.7724938288521	-85.0177024215576	-54.7261929151785	-86.813414101605	-0.413400094440957	-38.0323546365498	
19964000	-0.108456622883732	-26.8674766993632	-54.0408221585842	-101.911888077821	-54.1208897610567	-105.44974628403	-0.396540742454363	-38.3212462075822	
20213500	-0.0698182290149023	-28.193559243576	-53.4109624771868	-126.330260133679	-53.4037394826684	-126.331634706758	-0.526150356501778	-37.6168325491868	
20463000	-0.168723857006352	-29.7012075335491	-53.7132799277047	-147.987023265493	-53.5461118725754	-149.49608814383	-0.688509043107275	-36.3558981306281	
20712500	-0.323758812087515	-31.8770839433582	-54.1852120922577	-165.440940396878	-53.8854557509866	-168.253624243354	-0.736859179969304	-36.0705258027798	
20962000	-0.400314311200585	-34.685472721759	-54.3580691167541	172.282639377973	-54.593787943653	169.824573005628	-0.701081179572732	-37.2643240070545	
21211500	-0.338167773041447	-37.4791645322384	-56.2405506006934	152.114891788462	-56.0963571377338	148.901345837005	-0.629827363788614	-38.5444253801784	
21461000	-0.179625022594202	-39.6719119983604	-57.033802313066	140.736756906634	-57.1914470483854	140.052694022729	-0.42324485578893	-39.0324461950039	
21710500	-0.07414893238969	-41.1619149908193	-56.699425132937	128.914509230699	-56.8836469253039	129.422875420586	-0.254670470301974	-39.2962755690059	
21960000	-0.115767592676429	-42.4873430305474	-57.2916747871361	111.59608228982	-57.8109103940795	113.281007036515	-0.273357620728744	-39.4424981006598	
22209500	-0.305334953698115	-44.3535759449731	-54.6358324081364	132.607304655046	-54.4398572834689	130.852893319418	-0.429643686484358	-39.8673276655607	
22459000	-0.605083880137926	-45.686006084372	-46.0634433789163	57.513345998489	-45.975942027028	56.1097038040253	-0.615918739422016	-40.9318798284822	
22708500	-0.390295534689951	-48.2860678061091	-54.957026117181	-24.5758260385874	-54.9574137690875	-26.4397319346755	-0.752089586529028	-42.4266032842363	
22958000	-0.25094884958909	-51.1252213317226	-66.3595489862049	-27.6784997164182	-66.3820143075762	-32.0275259050085	-0.803565843870921	-43.1982310292489	
23207500	-0.0933610968024051	-53.0229685194656	-66.774263985982	13.3451947273196	-68.4388030239278	12.7920544436176	-0.684111517920544	-42.3858761090272	
23457000	-0.0395861557864511	-54.3093589303017	-67.4254802904235	-0.002331540638462	-67.832600284873	5.19988179162215	-0.452808091126024	-41.6185476182429	
23706500	-0.130920489337475	-55.7135793632411	-73.6139211304398	-10.3661766657082	-72.1132517999366	-11.6695479778954	-0.403986101515216	-41.7346027108001	
23956000	-0.285459040443938	-57.792666471673	-73.6484595224243	45.7558795015786	-73.4013970106149	44.7714132261899	-0.540553403004079	-42.5173401404157	
24205500	-0.377077709748218	-60.5452407495868	-65.1819232629667	34.9919708747158	-65.8615602598096	35.9119271895408	-0.708159924322038	-43.790405451381	
24455000	-0.331368683372365	-63.3932288391638	-62.9094134392684	-5.14895358677898	-63.4357796999127	-9.93910062572134	-0.786107502956583	-45.1533511726829	
24704500	-0.180780845093372	-65.6780226290172	-67.6744148756498	-67.2395202554744	-67.0096908062816	-60.9964266071175	-0.723533077098286	-45.6246079526922	
24954000	-0.0755433473806753	-67.2339916048989	-69.5651712872957	120.474713073586	-70.8175536251531	110.67601628402	-0.575328848357799	-45.416759096876	
25203500	-0.117465184008376	-68.5574376354845	-57.7260032826824	62.3843566486689	-58.4288760962404	60.4769503985625	-0.496085437220865	-45.0223531379148	
25453000	-0.300977441372559	-70.2497359965034	-53.7283916739098	4.24711412891738	-54.1405471461581	7.51719504161188	-0.611133815262974	-44.8384598333763	
25702500	-0.483560662951545	-72.5655131764721	-53.3555144219149	-42.8335014438773	-53.2547232078862	-41.4313824027748	-0.779489003172879	-44.7593694110075	
25952000	-0.559234099250823	-75.2670173971754	-55.3699161277177	-73.8040416252179	-55.4245531283717	-70.5963873548199	-0.823543706550645	-45.5751956083819	
26201500	-0.480690492223637	-77.6726761540804	-57.3985869897696	-81.1345294896705	-57.997203962762	-82.4844117760062	-0.737831361302923	-46.9644350984237	
26451000	-0.353746219355759	-79.168341106971	-57.2898098077845	-85.1766309017285	-57.5544336123861	-88.1760115088627	-0.568771935146667	-48.0049404004329	
26700500	-0.295521930730317	-79.9386397034058	-56.0797815694755	-93.1789798572549	-55.5945546709631	-95.4625639944197	-0.430489635860076	-48.4176195628734	
26950000	-0.350885694246788	-80.7676057608096	-53.4972618478862	-114.383719553189	-53.4837738684323	-114.561671009455	-0.438398744181371	-48.4172738410277	
27199500	-0.468831496323896	-82.5252269571491	-52.5839622707247	-136.798927101813	-52.4575716524931	-139.268626274858	-0.60557359669856	-48.5429591448863	
27449000	-0.542928034312675	-85.1610854091001	-52.2113738474078	-156.892328584567	-52.1869687090326	-159.285631878705	-0.821782930975832	-49.2097762000054	
27698500	-0.479124342296708	-88.0456392669181	-51.8447124886141	-177.041804615385	-51.6276512333468	179.770706333409	-0.958554481958984	-50.2267775151118	
27948000	-0.315714379634695	-90.4447438650715	-52.3193142794798	164.137015933808	-52.3081399773322	161.312292502219	-0.93711670555995	-51.0684706200309	
28197500	-0.184991764997157	-91.989376815408	-50.5447239865564	151.863413214921	-50.4062161921334	148.931656718533	-0.793446905201943	-51.1765609868591	
28447000	-0.169164606350954	-93.1858825307693	-50.370581057515	121.402535957654	-50.3200908423765	121.868531576295	-0.652559021623838	-50.6410965583333	
28696500	-0.297810249458423	-94.851445633123	-51.1954552677854	103.551534159498	-51.2770117877954	100.862005618741	-0.631357464830224	-49.989939519641	
28946000	-0.439798604845968	-97.2700137232239	-51.9238442466447	88.5598877827858	-51.8855186087047	84.2139062422399	-0.713220611835382	-49.972721591771	
29195500	-0.47847664228865	-100.237668378691	-52.4471955354258	74.5917555446354	-52.3347031924707	70.2224308636045	-0.816679413260423	-50.8410930378872	
29445000	-0.374076481561103	-103.027948937568	-52.4684243376473	59.1561566233148	-52.3014885553548	59.6355143114423	-0.82541527471613	-52.3389017620425	
29694500	-0.212668787367622	-105.128429294879	-52.2883275064989	47.1855846727901	-52.1081762510167	48.4175701389693	-0.717105468474288	-53.6931376992501	
29944000	-0.137438046608139	-106.536258710701	-51.9457871091181	38.8453732587137	-51.9869344198933	37.0069727730459	-0.570357616591236	-54.3363887390316	
30193500	-0.220767919854219	-107.949308241243	-51.3612614180763	29.6886575431769	-51.6538876636405	27.8451923207766	-0.516732923195345	-54.3054788975447	
30443000	-0.390102964562792	-110.087103078801	-50.1235101539021	18.4701179390251	-50.0480850805446	18.2985201424155	-0.634092410286572	-54.0766856041656	
30692500	-0.513605768496786	-112.972554445158	-48.4010769607565	3.82387588838008	-48.3049946256368	2.62307785448196	-0.844140865721245	-54.2876802378549	
30942000	-0.493110369960918	-116.054953927998	-46.6899863758791	-16.5231330392866	-46.5922012282838	-18.0769554399201	-1.02881465305226	-55.1445225827368	
31191500	-0.348673380830145	-118.65548566249	-45.7343204260998	-41.3354678441431	-45.4835483724188	-42.1117963055718	-1.08295003671122	-56.2168586060923	
31441000	-0.201712783993833	-120.546115408233	-45.9892438524339	-64.0911910463161	-45.805043285697	-63.9983745644381	-0.972224316049075	-56.7583281426789	
31690500	-0.211501029694785	-122.235150905874	-46.295254923994	-74.4039979101539	-46.2014973369058	-75.7583982549858	-0.793676540503515	-56.4722655028806	
31940000	-0.405715428962633	-124.208578140288	-44.113809681128	-91.1640003116163	-44.0851170115838	-92.5503061977467	-0.700555329082535	-55.8050320905259	
32189500	-0.591097395001163	-126.997850260577	-43.769114742677	-115.228699301887	-43.5618674365439	-116.354433087255	-0.741774856601426	-55.37819284478	
32439000	-0.671675109793235	-130.725339004412	-43.4102184044278	-132.942931131294	-43.4336247824035	-134.274628260182	-0.846535541064719	-55.8974471687038	
32688500	-0.638862937274544	-134.524345694853	-42.9642839983249	-148.61047638152	-42.7903362514669	-149.989997782885	-0.919651799142586	-57.2461403733458	
32938000	-0.603966555241418	-137.848157070529	-41.9470549515861	-162.997657115784	-41.8462067234447	-163.88574195968	-0.889873324010471	-58.9836323936765	
33187500	-0.775552062826816	-140.870156466867	-39.6597807530725	178.105163952884	-39.5126177661631	176.208320019525	-0.780947471586707	-59.6489266379745	
33437000	-1.39939891373463	-144.050601951463	-37.9119779647359	153.926566700634	-37.7495780046342	152.559605511484	-0.622915446095911	-60.0145471815662	
