!Keysight Technologies N9923A: A.12.45
!Date: Friday, 08 August 2025 17:45:39
!Timezone: (UTC+08:00) Kuala Lumpur, Singapore
!Model: N9923A
!Serial: MY61181427
!GPS Latitude: 
!GPS Longitude: 
!GPS TimeStamp: 0001-01-01 00:00:00Z
!GPS Seconds Since Last Read: 0
!CHECKSUM:0132950265
!Correction: S11(ON U)S21(ON U)S12(ON U)S22(ON U)
!S2P File: Measurements:S11,S21,S12,S22:
# Hz S DB R 50
2000000	-0.0870640046318569	151.393643191565	-79.6427622672526	153.868015764536	-86.5969444896311	160.942376546595	-0.0450253527875136	-3.48588276134465	
2249500	0.00459139139085481	148.266721880865	-75.8341390606607	159.62490976853	-79.435007157271	163.932498946143	-0.150712461585404	-4.09068064953543	
2499000	-0.00547362508638143	145.288386785966	-67.1256380199705	142.280511118895	-68.6956140069809	135.938852076221	-0.196362866346868	-5.02458203677804	
2748500	-0.109910159793304	142.100189767234	-59.0647256291513	-10.4045124634196	-59.6260661187099	-12.0794358669852	-0.138915615969646	-5.67086610793724	
2998000	-0.263681423645776	138.334308044373	-55.8499947823834	88.8357653458063	-54.8788232565062	83.7619261903775	-0.0310650176507961	-6.28886065611792	
3247500	-0.23925108888574	134.787082596747	-57.149259944771	-25.2496138130452	-57.3035779813617	-25.5676736394067	0.0469747075524124	-6.3832721509193	
3497000	-0.146354159479707	131.051785594625	-56.2234284405667	-43.824454564672	-55.9915651730446	-42.5675553564106	0.0157980002902705	-6.49045606689975	
3746500	-0.0379416787273956	127.890617249854	-51.9347085414666	-62.6803752108026	-52.2005027808626	-62.2984625283581	-0.111522065952275	-6.82386634204894	
3996000	-0.0175555728697789	125.105737926223	-45.2410021018883	-121.474481506575	-45.1451402864204	-121.476677548612	-0.329276995125026	-7.09757990207606	
4245500	-0.0861653594855332	122.233543969156	-48.3629601099042	175.294276454571	-48.3178667322913	174.003394934881	-0.224671813470743	-7.540923957141	
4495000	-0.20011776206966	118.850906216885	-49.6973943256478	154.424427159656	-49.7707963225513	153.883161562986	-0.108177929179829	-8.59871901179398	
4744500	-0.264392037718267	115.063026559863	-45.9628959312759	134.784710669399	-45.959112311677	133.995062952256	0.00716521430022967	-9.21226590863747	
4994000	-0.260375389957008	112.035786505233	-41.1484038258405	23.062858024339	-41.1447939789942	22.310034141999	-0.00905951545265882	-8.88632567141144	
5243500	-0.0839746670795018	108.640092583112	-52.5479912198415	-22.8234140403926	-52.3670224758793	-22.7664393367734	0.00545089464468091	-9.07328518851733	
5493000	-0.0110464528167171	105.841515543063	-57.3542589581826	-37.1462531115514	-57.1600997139729	-35.9792666172656	-0.102732961344075	-9.60699003137823	
5742500	-0.0578517496395462	103.095979577506	-58.1286052339831	-50.5827004441495	-58.1211540869033	-49.4564554623406	-0.186830705537202	-10.6064107052254	
5992000	-0.223721900489357	99.7623109757075	-51.2276547968275	-89.9259878838536	-51.5305613580391	-87.726392922429	-0.189433945288243	-11.8271725001763	
6241500	-0.342221482999909	97.4338688971715	-42.7211284567468	71.6522273300156	-42.4424251948787	70.3423272914309	-0.197541703374676	-12.6120636100104	
6491000	-0.253710345279347	93.679055252218	-58.0767440978851	-36.6514922981599	-57.9368909599729	-37.6599279392975	0.0237156942349708	-12.5361819456948	
6740500	-0.141446805341873	90.3940485607923	-61.3407129277851	-49.3802844974316	-61.2011641535735	-48.8929093492973	0.0514602145354521	-12.7674529457773	
6990000	-0.0358553889865426	87.6879612071424	-61.0921295325289	-57.8578870573077	-61.1456505916374	-58.2828844124897	-0.0298766397907347	-13.0917777583071	
7239500	-0.0316054009655481	85.3182264283251	-59.6441380771196	-64.2034513094828	-59.6267472823807	-65.9300387559498	-0.161192911381865	-13.9021821135151	
7489000	-0.13025286343638	82.6847864375192	-55.9076340429985	-77.4445832438003	-56.0978497253845	-76.1050772436149	-0.273818561059925	-15.2706851607313	
7738500	-0.249412995525427	79.5832420235878	-49.9605687947059	-114.24946673156	-50.1921870516721	-113.114285389151	-0.4855231184499	-16.5446161298128	
7988000	-0.282169405914705	76.2428293691017	-53.2828006385897	158.3234276737	-53.1698004284023	158.230120180753	-0.197751596760408	-14.3630853046691	
8237500	-0.213354693662718	72.9826840953616	-60.4506429960273	-173.999608887272	-60.2933507439	-170.600574932646	0.00392453012033596	-15.7145178401785	
8487000	-0.0995117039812289	70.2759371664241	-46.2275554372375	-162.269823890446	-46.1460458112157	-166.925016521244	-0.239888279983838	-15.7452175902961	
8736500	-0.0449826844439861	68.0570894872589	-45.6771066672077	118.851439630084	-45.8324146642544	118.008888441757	-0.138654584414687	-15.0808553159297	
8986000	-0.115080715872453	65.8862317166466	-45.2896571901522	69.9639423459242	-45.2477215194886	69.2742359908737	-0.237942645592049	-16.1781464158535	
9235500	-0.230573980495923	63.3281745220629	-46.5262617308454	16.081879541285	-46.5826867292397	16.0867389513217	-0.295417934548811	-17.1309863227713	
9485000	-0.300766559825892	60.1923399988541	-49.4330390766036	-23.4923003100245	-49.4058656551441	-21.6154263323102	-0.201466176055066	-18.0680981466849	
9734500	-0.265673921012519	56.9691259576164	-50.692784784932	-52.016382865172	-50.5572375780466	-52.4972633084355	-0.0805292946655003	-18.7794561170727	
9984000	-0.147717274873541	54.150384175658	-49.8149928357773	-92.6247863892132	-49.8199406141152	-94.0011906283529	-0.0730720242784687	-19.0121937577457	
10233500	-0.0486587366725624	51.9161637341783	-52.0231021104947	-161.729489805425	-52.0488826962305	-163.741789002041	-0.133438053700505	-18.1608435951209	
10483000	-0.0486540980536995	49.9206548062519	-58.7445947453683	152.941698596071	-58.8222165186349	153.094078378455	-0.151314023481463	-18.4968134272907	
10732500	-0.156129930854522	47.6095098082386	-63.8754293610577	132.317923750158	-64.1129778005047	128.497658222271	-0.228767748369108	-19.6459898298647	
10982000	-0.277008132637259	44.7752780153641	-68.4517497952629	109.902127318767	-68.1428702783407	104.990268250411	-0.237846530991179	-21.05315953778	
11231500	-0.303116285325085	41.6098587803362	-68.182302148852	117.206616941181	-68.8236287830809	102.663200000966	-0.160725665260412	-22.257345817175	
11481000	-0.216803318877181	38.6633926860397	-64.3827584599291	133.21683727373	-64.1102303088553	130.293278963173	-0.0828876288621891	-23.050392060062	
11730500	-0.0922255507818793	36.2816833918923	-57.5579335060399	78.9255872553524	-57.5723868251342	79.2813555915921	-0.118154791737518	-23.3870747503123	
11980000	-0.0340927318158807	34.3266724290007	-56.1766780991617	16.5182528051131	-56.1443306114057	18.355892858972	-0.353229149075679	-23.2511824820877	
12229500	-0.100533509561039	32.3391591918077	-62.0142489609515	-15.7724370497537	-62.0345273280337	-15.5292913562	-0.617428903533295	-23.5613654213824	
12479000	-0.236814711356609	29.805826941155	-58.7118904483127	-38.6526763694363	-58.4307730923112	-41.5454822913244	-0.72128227501023	-21.3281921505019	
12728500	-0.324289214586117	26.7451081716861	-62.095803963409	-60.4468759928715	-61.4917216440899	-64.5970254786055	-0.398991914423908	-22.5608357768307	
12978000	-0.286855293792308	23.56305029384	-65.2613654968523	-58.5020183654807	-65.7845539363079	-50.8972305609121	-0.219036675573183	-23.9371473436151	
13227500	-0.166897992402135	20.8044078365703	-61.6803559028003	-47.0378106792455	-62.0294597246752	-49.7505436117032	-0.0888176300412254	-24.3733740133296	
13477000	-0.0646009163963316	18.5785090612586	-59.4429863663384	-70.1966729085611	-59.0034401058494	-66.7085833077101	-0.0305998299037713	-24.5337707933356	
13726500	-0.0760981912140782	16.5205850906305	-57.6755040928944	-79.0333472491672	-57.5607119007569	-79.9314442499223	-0.102673325608737	-25.0276382026547	
13976000	-0.199345743158313	14.0145805159303	-55.5511097953913	-89.2082415800589	-55.675688571436	-88.7977681001834	-0.257956597796396	-26.1283544250248	
14225500	-0.337984566724702	10.7469238992703	-52.9310664013894	-103.619285715301	-52.9499792135197	-102.735445411723	-0.454289266536381	-27.6144570317983	
14475000	-0.383688984110784	6.88794687746522	-49.8329564203594	-120.453335737267	-49.6448585436959	-119.425082165009	-0.445139219546824	-27.5827414956771	
14724500	-0.321476352642636	2.92400336198082	-45.8005074342556	-153.653924074078	-45.760246166429	-154.800777921751	-0.480142672015222	-28.5939884737611	
14974000	-0.252383149489505	-0.975021698709437	-45.9076195632072	168.060329027381	-45.9564734792044	168.345318445886	-0.358557348200234	-26.7054179741186	
15223500	-0.316368458560652	-5.26397423927534	-44.8862468506809	133.094505166637	-44.9587903062998	133.132969870682	-0.183820267023937	-26.4905104526453	
15473000	-0.690902155617604	-11.8318342242001	-46.7436954665444	116.586139809475	-46.8900943245038	117.605166939072	-0.195977323722778	-27.2055687010579	
15722500	-1.76680192891226	-23.8277228953506	-47.0402756109773	113.46101752468	-46.9619233420673	113.297238545025	-0.288404093906482	-28.6913474950368	
15972000	-6.72365712328458	-45.6367157369746	-41.2837262217013	120.697835015145	-41.5086946418532	119.537491866697	-0.402675743017674	-30.8564630361958	
16221500	-8.08181358305489	43.8982737631241	-33.63965826564	55.6108636986868	-33.7273453690289	55.5444574105425	-0.642217770302874	-31.8329738695431	
16471000	-2.2678804721222	26.0157815499736	-36.089491193319	-25.4816951851885	-36.0473799610533	-25.3164290667929	-0.420183859162069	-29.5283864755675	
16720500	-0.956554606324398	14.8057093795584	-42.0117534128262	-61.4663916875014	-41.9752336008259	-60.006410775259	-0.1349814172201	-30.2092812857304	
16970000	-0.510748864537456	8.56091612125913	-46.0398485849488	-78.4896235929261	-45.8324893459045	-77.3385693145119	-0.152174200148936	-30.8873962016478	
17219500	-0.428544974214987	4.0961475393339	-49.2323849107808	-87.90413676309	-49.2327082970149	-88.8697413316882	-0.303925178660094	-31.8200785526749	
17469000	-0.476967790934407	0.0272402579459082	-50.7621473271661	-89.6543329252279	-50.6215355050084	-90.0217207116378	-0.493375138690326	-33.2752351557172	
17718500	-0.48970790193521	-4.0181973946193	-50.5476895895492	-97.6774829878282	-50.2603813932282	-98.5941673366079	-0.671782704281327	-34.6738047940551	
17968000	-0.393235828185809	-7.701149467887	-49.6009010682399	-115.121740204048	-49.6936965102162	-117.210934961372	-0.788988247213446	-34.5974001903655	
18217500	-0.230653958379963	-10.5594293123614	-50.4667009707046	-143.046565974715	-50.3121689632546	-143.941206093774	-0.631042874492676	-32.8387019954357	
18467000	-0.123648299468081	-12.6412011693876	-52.7203367440306	-163.629895058195	-52.6099456440975	-164.852582842696	-0.349442554472254	-32.0089351726243	
18716500	-0.148185739634992	-14.4750681668097	-55.2292759363062	-175.530146824542	-55.0172648950106	-176.307438092098	-0.253337009271483	-32.4610154891288	
18966000	-0.264768095304823	-16.6546771296514	-56.7753216600945	-177.038842505669	-56.8389784660407	-177.215526471024	-0.333504572443633	-33.7374853831065	
19215500	-0.373602245241257	-19.385577006857	-56.6469818624305	-172.44411391475	-57.2713350173622	-175.745587907463	-0.478065588439075	-35.5381530687901	
19465000	-0.368383250168969	-22.3462204941523	-55.5163834423235	174.669788750472	-55.3747083365646	174.342149143401	-0.609208556537647	-36.951953045181	
19714500	-0.249992223483345	-24.9191246425896	-54.2182763958952	152.043144011457	-54.7822995876507	150.734130738628	-0.648687778322696	-36.8573596005687	
19964000	-0.113734591415695	-26.8100679414121	-55.6085633415621	129.896700774411	-55.8019648946675	127.367660124506	-0.452113720575954	-35.6115758485338	
20213500	-0.0795476893168477	-28.2300361586357	-57.563274967628	117.194484337057	-57.8721385547698	116.733899824351	-0.271945586260389	-35.4500696355518	
20463000	-0.166399147408387	-29.8171137955962	-58.8101448403291	123.726430825818	-59.3388446061241	122.382671961735	-0.31384361479865	-36.0820294267109	
20712500	-0.302184769116461	-31.9823245205273	-56.6226069907219	111.075427594981	-56.4311819748815	109.841890171451	-0.484573655234695	-37.0759525480686	
20962000	-0.369571356805362	-34.6914951411616	-57.0573301728911	80.3856185233807	-56.8816351352772	77.689581778657	-0.55633540657741	-37.9857685582041	
21211500	-0.315831660972058	-37.3989375520568	-59.9146873874689	71.1356915509115	-59.9197938465193	69.1584279810532	-0.463294103617037	-39.3970131458323	
21461000	-0.176390662485042	-39.58361740857	-59.6319302811567	75.436560757938	-59.3730922995179	77.2882239898942	-0.359146574603379	-40.650020829277	
21710500	-0.0823376795314638	-41.1471732150824	-57.3175429247016	66.6099835475202	-57.1156057563478	65.2352017458027	-0.379306409045989	-41.1034726332929	
21960000	-0.120469821085393	-42.5700429185591	-60.1873814696033	32.7669180901182	-59.8381839857035	33.233889195472	-0.527338429763606	-40.5225536728241	
22209500	-0.292051548877125	-44.4785759832684	-53.944329802233	85.6965172526724	-54.0455697945159	83.9903536456479	-0.71987546440409	-40.1712289227022	
22459000	-0.579745912973025	-45.7918581480093	-44.1922958023592	-9.46355931653104	-43.9652149387077	-10.788104661313	-0.890638684952103	-39.9821361242109	
22708500	-0.362256130870079	-48.2537680966645	-54.1419974002802	-102.948455057033	-54.4340347140499	-105.176699633884	-0.810544002373449	-40.0038291419903	
22958000	-0.237294700933322	-51.0331986666025	-69.5060583284967	-107.547721592378	-70.3369806009403	-107.782479815233	-0.546934266989114	-41.1817557641561	
23207500	-0.0977901225293311	-52.9593506686234	-72.4258793873136	-43.6303950268839	-71.9576659279269	-29.3021905005091	-0.338019557998847	-42.5249435514573	
23457000	-0.0486261178319837	-54.3404611909414	-74.7883437148439	-23.8453651086723	-71.9000269756685	-23.4075136050065	-0.323618917658828	-43.3522812993564	
23706500	-0.129110858334144	-55.8216943248577	-74.6045113638259	14.4340642831679	-72.3948033712878	2.98010660058184	-0.533302933281055	-43.4405841087192	
23956000	-0.265935081090096	-57.9058582867879	-64.8063053338611	11.4755480173967	-64.9029761745514	2.43116534244508	-0.803776337431251	-43.0454429703249	
24205500	-0.348027923625198	-60.5681345826251	-59.7769363670593	-36.9493386839869	-59.8092630686802	-35.5253187506076	-0.949315472271975	-42.9136365820757	
24455000	-0.308617938968177	-63.3220106651674	-62.9497235742727	-84.7001966196048	-62.8348646112371	-83.3959298950838	-0.883414993218127	-43.127134852446	
24704500	-0.175856339322825	-65.5950750855948	-76.6079998151021	-141.154346298174	-76.7986910732654	-126.850866983682	-0.657137581088249	-43.7430460425584	
24954000	-0.0832857138003816	-67.2235247488024	-67.1329009146418	28.5071769595023	-67.3248403328663	19.4370979000153	-0.461594393416227	-44.1525216495919	
25203500	-0.123470916495332	-68.6481542355259	-60.691819418678	-17.0222200249421	-61.053745857565	-19.7146787893979	-0.367368109278859	-44.1780493191948	
25453000	-0.290465841087278	-70.3884989941417	-58.2764837971516	-49.473266527162	-58.3019286693312	-48.5927745093926	-0.409656165123922	-44.3711077406895	
25702500	-0.457840394560688	-72.6543197758913	-57.1885784962513	-81.2026306756032	-57.2247229382806	-83.3355451007231	-0.529414004654615	-45.1783636434765	
25952000	-0.529648108333669	-75.247425432168	-58.6836988191426	-114.906658345029	-57.9326562544929	-115.002695637952	-0.621039040163946	-46.5854615058638	
26201500	-0.465683735567856	-77.5870240882698	-64.1991056838238	-128.205734222591	-62.632907391181	-143.827635939684	-0.618280051106724	-48.2100819062796	
26451000	-0.357932477144118	-79.1080228853205	-67.2340862799279	-26.9369956188863	-71.0537296480352	-53.8229558346896	-0.544084488854253	-49.3637181179455	
26700500	-0.30780537288686	-79.9785104812269	-57.0089537556309	-46.8716842678324	-58.0520282803764	-52.4656237917281	-0.507934808053266	-49.8454508908669	
26950000	-0.35366656649609	-80.9039209946573	-52.9612451991826	-88.0834586787058	-52.7345373396877	-88.4435971700127	-0.615807298375185	-49.7357827283462	
27199500	-0.451570962467193	-82.6706824565639	-50.9001061078789	-118.460636043497	-50.808499270269	-120.479794283852	-0.864842126788813	-49.3914610619996	
27449000	-0.513505778622016	-85.2188519872536	-50.2230145432162	-148.22814995322	-50.1925788768226	-148.08965030016	-1.10604647325632	-49.0592415326677	
27698500	-0.454293446126072	-88.0111019359653	-50.5978258571628	-174.367100972275	-50.5857817869783	-173.163108685634	-1.17533815873898	-48.8989802354403	
27948000	-0.309226091716064	-90.3733245103202	-51.6652968851899	164.521608442874	-51.3789498293158	165.64173187342	-1.00335070312728	-48.9800824169902	
28197500	-0.192987174666012	-91.9752777959319	-51.1502153303677	157.318345286044	-51.0060467340322	158.373582888147	-0.687554526347865	-49.2030967399052	
28447000	-0.177315208839026	-93.2769733481589	-51.7539110755424	132.439658460804	-51.9563046366032	133.58787213961	-0.421990677672232	-49.6297003134412	
28696500	-0.289375163913312	-95.003943509639	-52.7767821342389	124.285278892922	-52.4176733097894	125.764101127636	-0.381147925569361	-50.3890440617007	
28946000	-0.414053127274937	-97.377370252653	-52.6735965543058	121.005102556899	-52.565330094189	119.621241109942	-0.574116270475716	-51.5495704654097	
29195500	-0.447617304046806	-100.218919926276	-51.6751487899942	111.796859368289	-51.3809632220562	110.376901932128	-0.895217828233633	-52.4871810298385	
29445000	-0.357340675148921	-102.927012228894	-50.7069831378846	96.4659589840082	-50.9556418173598	94.3175137697216	-1.04810993409222	-52.7318016496833	
29694500	-0.214812564982338	-105.041315401663	-50.7088749958135	79.2699902304586	-50.5759887764071	79.3944035000077	-0.921080718125257	-52.7987175407771	
29944000	-0.148532104240106	-106.542503850583	-50.7339687040616	69.4553482188845	-51.0102074806007	67.964303856316	-0.684056387229559	-52.8823206975505	
30193500	-0.223307076241763	-108.050096358673	-50.8869218491756	64.1336043288343	-50.6700610924093	62.0023828454087	-0.53272618704817	-52.8652786201485	
30443000	-0.373237756828038	-110.203544779596	-49.7553845760108	56.9462734009407	-49.9722734959819	58.3008877122098	-0.554552213154084	-52.9155910573016	
30692500	-0.484716459328753	-113.017922667134	-48.1783323355698	44.7197341034451	-48.1631473384052	45.4693347006784	-0.67245112087213	-53.5353177505232	
30942000	-0.46706828398435	-115.990765685206	-46.6674889956258	28.500878047338	-46.5968506835677	28.9669431443453	-0.78998084123238	-54.9239797270452	
31191500	-0.340190599924394	-118.55644119385	-45.6434772856533	9.78092542728375	-45.58860352761	9.6041407742773	-0.833832705386421	-56.5017493749216	
31441000	-0.207962362718873	-120.524711415823	-45.6351412755647	-5.71323951421477	-45.659858012412	-5.66882772629985	-0.771460547595756	-57.7771614467534	
31690500	-0.21820978024021	-122.321100871491	-45.5117437588066	-10.2262112456456	-45.287275385269	-10.6216640403834	-0.712653880023685	-58.1577506220994	
31940000	-0.394323300411885	-124.354943089035	-42.598370613401	-24.1090239543002	-42.4450313757964	-24.0852299407108	-0.760651192853854	-57.8714628831145	
32189500	-0.561311834183609	-127.112896484927	-41.5271593286853	-47.7947760829467	-41.3061572103514	-47.5508995582306	-0.951286444057934	-57.3771555062259	
32439000	-0.640060086134013	-130.711414442793	-40.8432420086152	-67.5638495538034	-40.5835594282631	-66.7210094696369	-1.16854327787086	-57.1845773664736	
32688500	-0.624322896434604	-134.407452762379	-40.1279383464144	-84.5193331445067	-39.8540888845019	-84.977169888196	-1.27405585322728	-57.3066530063485	
32938000	-0.610397192639772	-137.726705171035	-39.2420881643683	-101.859656487312	-38.914748872673	-101.957884212503	-1.19918220827315	-57.7979952272083	
33187500	-0.788718492465258	-140.821773397592	-38.1709434867086	-119.5646634983	-37.9107451208001	-120.82848625148	-0.955466990970273	-58.0281856523884	
33437000	-1.39019525934109	-144.050962781442	-36.7962301397948	-139.961210776537	-36.6943911660115	-141.646671788236	-0.705083746002334	-58.0699639768137	
