!Keysight Technologies N9923A: A.12.45
!Date: Friday, 08 August 2025 17:48:19
!Timezone: (UTC+08:00) Kuala Lumpur, Singapore
!Model: N9923A
!Serial: MY61181427
!GPS Latitude: 
!GPS Longitude: 
!GPS TimeStamp: 0001-01-01 00:00:00Z
!GPS Seconds Since Last Read: 0
!CHECKSUM:1061753903
!Correction: S11(ON U)S21(ON U)S12(ON U)S22(ON U)
!S2P File: Measurements:S11,S21,S12,S22:
# Hz S DB R 50
2000000	-0.0901161592535361	151.364869558573	-78.2445498491995	-139.908795352469	-82.4273779280829	151.644687011841	-0.042427721492495	-3.4565392467543	
2249500	0.00565103615915161	148.250550007188	-76.1962869737802	173.077534089076	-76.4997966335824	156.58373805347	-0.153047833735941	-4.04716601647696	
2499000	-0.00448243469557711	145.303728553126	-67.6619860011495	125.207847719609	-66.528477428224	145.352988687409	-0.199623273098555	-4.9957529880891	
2748500	-0.130629766676985	142.127886557007	-47.4283920295781	62.6389693809755	-47.3678661092617	63.4225275825644	-0.211881843776675	-5.76868775775797	
2998000	-0.232116761417237	138.450853389303	-54.8937220501868	-34.872512733522	-55.0113215025479	-34.4539521663632	-0.0231072253292818	-6.15791233726764	
3247500	-0.255031314822312	134.84470500569	-68.3254152709907	-48.358566342729	-69.5068943958841	-62.2451678611273	0.0566585146771823	-6.29789295796522	
3497000	-0.154224979973821	131.031977418317	-56.3987057438996	-52.7031549798633	-56.7216360665468	-50.0616028794902	0.0148245679566132	-6.46923724273602	
3746500	-0.0434452930320013	127.884309081491	-49.2072422233837	-97.4105178410215	-49.3152592630399	-96.8418370320944	-0.179670701631854	-6.54435441138927	
3996000	-0.00787813401675865	125.150524387126	-50.5918056604916	-173.370691857831	-50.5353390894746	-173.428221006075	-0.219552405034518	-6.55513868234759	
4245500	-0.0836568849049349	122.220503337883	-53.6146002873009	163.318964711561	-53.5007160522241	161.140808135511	-0.19821142729999	-7.73762332146831	
4495000	-0.206121127101709	118.837782956309	-52.7824358409633	148.665105754436	-52.7421085626459	147.60703172708	-0.105576558811254	-8.73204286673518	
4744500	-0.279638161440902	114.966215579135	-46.7116281599387	129.903052976137	-46.7387185727375	129.991125330904	0.00878331124853337	-9.29338840211221	
4994000	-0.240585709806425	112.063077745616	-45.129539025992	-1.24737740998567	-45.0986375519589	-1.88947167697207	0.0461970675894594	-9.04862847715303	
5243500	-0.0853766999016388	108.605678171063	-55.150957545262	-30.2499701824166	-54.9511392003703	-30.0866632664265	0.0134134704020472	-9.28286256783847	
5493000	-0.00968616187796672	105.841865831891	-59.2993860701692	-40.2010100388365	-59.3825267452628	-40.1599085409106	-0.1045405987085	-9.80160916580173	
5742500	-0.0574813589881037	103.131250141439	-60.7308896460772	-49.1110454071896	-60.2789245056639	-50.334489208206	-0.19628811212203	-10.8270293709758	
5992000	-0.216836996412888	99.8200867782284	-58.9967506380684	-77.9808167586663	-58.9089147369156	-76.015971571831	-0.19263222700952	-12.0402367707625	
6241500	-0.346478380573149	97.6321233242297	-59.4462856073211	96.9471745074179	-59.6890116595092	99.0867814844458	-0.118766740182593	-13.2471055151529	
6491000	-0.26442822718483	93.6700625107815	-59.6523004076887	-41.1532768442685	-59.8040439741008	-41.7271553533711	0.010433606208955	-12.4609462759143	
6740500	-0.148575671651128	90.3680616427175	-61.1205020327981	-57.1368096071614	-61.1351767171794	-55.8766047227955	0.0511300204808754	-12.9807313802528	
6990000	-0.0369532777292435	87.6706170310995	-58.756812097634	-69.0886969856215	-58.4241199701959	-71.7420175860409	-0.0572241295565098	-13.4614614445071	
7239500	-0.0325201287811679	85.3212692029406	-53.9322856354568	-93.2533075289015	-53.9404398811513	-91.5661111477806	-0.294500304137993	-14.4406078292966	
7489000	-0.135968217580128	82.7160444729915	-50.5789040587559	-149.166779670118	-50.5414745703502	-149.060194615458	-0.577627655922926	-13.9145309373201	
7738500	-0.257640490469268	79.6234379320167	-53.6242434955056	160.835074445679	-53.6128972382987	160.113806893406	-0.304555006404244	-13.9076620600247	
7988000	-0.293820365185924	76.2352087866533	-56.8140571505988	138.08998312728	-56.494283820813	136.367253028271	-0.0804294083518034	-14.930626716781	
8237500	-0.221758185150138	72.9571715553897	-55.5634776202467	150.599261548941	-55.6450673608646	150.167272899084	0.0153126385198239	-15.3668799851799	
8487000	-0.0964991628350281	70.2470147642305	-53.6895857186337	119.888141233832	-53.5549018713764	118.197949223611	0.0391252952782021	-15.4527085461876	
8736500	-0.0466151039050645	68.0189519802599	-50.1718298004443	92.9171561268547	-50.0512599275349	91.8096231714845	-0.0688005152008033	-15.914802120889	
8986000	-0.123993149535218	65.9456728272685	-46.0238775327405	37.0486364314758	-45.9782846592211	36.7674314766058	-0.249403921907872	-16.8812452576935	
9235500	-0.2328026893609	63.3868458959963	-46.5841405097623	-31.7363295319822	-46.5474893608845	-32.0029968061587	-0.359079487041501	-17.7097617826958	
9485000	-0.313332836017639	60.1910476650679	-49.54787906971	-98.399195332382	-49.2254800879808	-99.0187415322475	-0.332658137025093	-18.1266131653134	
9734500	-0.279448369002232	56.9803743625357	-57.4912635923533	-161.929570777344	-57.6351915555554	-164.078864441183	-0.106948455651617	-18.1835510485943	
9984000	-0.152340946399774	54.1539589735896	-67.5758563795997	171.567514483822	-66.6468923719075	170.624011299048	0.0246568515224477	-18.5277355490015	
10233500	-0.0467230478076621	51.9007034652396	-72.2112738217998	-171.660478469739	-72.2396659168156	175.417875120489	-0.00497051599815676	-18.7885210061197	
10483000	-0.0487139093656239	49.9129738194051	-80.2471276193938	72.228753815744	-80.9436438867421	76.3747540704024	-0.125607856175374	-19.3681008001744	
10732500	-0.16576706271341	47.6410132536704	-68.5254073550627	-82.6497034546344	-72.0629276281945	-75.5311856152693	-0.254359253202931	-20.5807062674807	
10982000	-0.287722858123712	44.8081214392462	-71.637636894093	-112.633416808804	-75.4545594165543	-105.391350968001	-0.320334685236666	-22.1292585577157	
11231500	-0.315379969690447	41.6065681119106	-70.0784895385761	-169.813903813568	-74.356971782753	-156.597196803713	-0.330941996011758	-23.2987219926245	
11481000	-0.225298070308298	38.638274802365	-59.866954477608	127.66752949256	-60.373608092364	136.371101054367	-0.388848304019466	-23.1043568470902	
11730500	-0.0953888914844086	36.2666422779296	-56.3464057063386	32.1846173594417	-57.1312305242502	33.6207702667184	-0.37504000233941	-21.8783490781405	
11980000	-0.0348359483997446	34.3335856637177	-57.3553084572603	-47.3728125556333	-57.5138508564253	-46.0663556862001	-0.339577927128431	-20.8260595243866	
12229500	-0.103720175557617	32.3678665806861	-64.0012301115437	-108.514402326546	-63.3610511595562	-104.993850701268	-0.42179745290595	-21.0510940310272	
12479000	-0.245877044628743	29.8389949658872	-66.376545676508	-92.230860812929	-66.5111152132015	-94.7917816151976	-0.386500764311058	-21.7415687260234	
12728500	-0.337129936818087	26.753840637189	-66.654044962025	-94.6090057031012	-67.6088650659576	-100.940897483498	-0.28724388310627	-23.2304970114023	
12978000	-0.298252934960424	23.5340637909297	-68.5664951549554	-106.835278238429	-69.7892732697989	-103.047405376125	-0.149003335634523	-24.3653219855611	
13227500	-0.172304548193837	20.765861108534	-66.5288237199229	-95.8864141223151	-66.2323215039249	-96.2894795031824	-0.0294339142317182	-24.8253220802948	
13477000	-0.065690889283894	18.5606013228253	-63.0694895408085	-99.3485560533085	-62.7559517602613	-97.1618285918025	-0.00232045999358436	-24.9724314617178	
13726500	-0.0775854950650588	16.53500548092	-59.5032558616582	-108.285800599209	-59.7877093707775	-112.273481302847	-0.0980861137016593	-25.3999880211923	
13976000	-0.205140028849549	14.049152319154	-56.0147358550668	-120.688438937542	-56.2118892057616	-119.174565849002	-0.273279774323728	-26.4946190899175	
14225500	-0.349817420047903	10.7714058851548	-52.2383861033018	-137.330766140929	-52.0895161187127	-137.448958494937	-0.45752816782344	-27.9502121884901	
14475000	-0.398780404452503	6.88024892132819	-47.5794963582501	-164.752873399543	-47.5859370070288	-166.283568846997	-0.646019426680034	-28.9443110471687	
14724500	-0.332164946648319	2.91858565205455	-44.5099374295583	151.834484070781	-44.7073198015342	151.249320278237	-0.552759545057623	-26.9525518110731	
14974000	-0.254014047111634	-0.974910604365777	-45.7682223960136	115.739901488826	-45.8472043795969	115.659218679769	-0.180281692399309	-26.6521972660839	
15223500	-0.312895495959334	-5.25884390523603	-44.0331883455316	92.8200295557974	-44.0262936583366	92.6277888768478	-0.0911743743964759	-27.2740555177768	
15473000	-0.692075667399206	-11.8244235630342	-43.406193525142	74.2909030712762	-43.4057051318919	75.1328784632577	-0.194749762404685	-28.2459417828542	
15722500	-1.77517826865032	-23.8858372240909	-40.3886751304242	54.4915001711255	-40.3500785173069	54.3670000001498	-0.392497247692351	-29.7946660863629	
15972000	-6.76209643329886	-46.1075680483504	-36.0635797534009	12.7958080608751	-35.9524416497453	12.989556033678	-0.646993689080066	-31.3852220586079	
16221500	-8.04033204059822	44.9963796572483	-36.4546829345354	-54.5430916843621	-36.3041029391835	-55.2198100801465	-0.797873977011686	-30.5206162157669	
16471000	-2.22283557585124	25.8797427256739	-41.0704871171241	-89.346841930283	-41.1258664280126	-90.7211099043183	-0.419420321427131	-29.2898236410655	
16720500	-0.947862608347475	14.6444547858927	-43.0514032128455	-106.681216202495	-43.1909305515544	-107.101469438492	-0.120554181175684	-29.7868826444391	
16970000	-0.516121773779257	8.4896057875234	-44.1320919499097	-133.221803033578	-44.1104618581292	-132.998364996816	-0.119133391224008	-30.661347324029	
17219500	-0.43256626378377	4.10318479856123	-47.8872715476556	-152.304382117387	-47.6444371032512	-152.75732000609	-0.342861841354419	-31.7898667916104	
17469000	-0.490578202158607	0.0471866284602763	-46.5168135407054	-163.87829172331	-46.4069136686003	-164.505447873955	-0.577840223368125	-33.0351477827453	
17718500	-0.505357432015022	-4.01474872424425	-47.3370181897707	164.226736064973	-47.4479236507909	162.489581390125	-0.806966098927217	-33.3137741405631	
17968000	-0.404918648827131	-7.71516079977345	-50.4541591503761	138.766827833228	-50.4227106523932	138.280354349249	-0.624129935933331	-32.5581567794574	
18217500	-0.236384404357825	-10.5704405616743	-53.6673561566407	125.923746137496	-53.852352886439	125.205499181781	-0.320712542049123	-32.6359796533512	
18467000	-0.125277879981131	-12.6292173950523	-55.5375536025471	122.551919591327	-55.5323297749138	121.700677423627	-0.175186300762567	-32.8403725349305	
18716500	-0.151995985224667	-14.4404265912345	-56.705357847813	117.093941190184	-56.6094014499219	118.599045974397	-0.203594641317611	-33.2150260610241	
18966000	-0.273388702144041	-16.6129250071217	-57.2243395908363	115.180521537621	-57.5657141207155	113.474686207071	-0.332748030685354	-34.0968158733828	
19215500	-0.385852144363984	-19.3683483526293	-57.2276028904574	108.350954635024	-57.0368706587616	107.756238849727	-0.440647118324678	-35.5611155336305	
19465000	-0.380016557772375	-22.3605617203492	-56.5751896785579	99.7618506172088	-56.6627979295164	98.6569253442684	-0.457670540868905	-37.1700364741596	
19714500	-0.256947637101733	-24.9472845339168	-55.4238682606883	87.7126193312918	-55.6048472608663	85.6020694874698	-0.411012645363236	-38.3696944732439	
19964000	-0.115429819657473	-26.8097050004149	-54.4834305822294	74.2183901967561	-54.2728387493964	73.1147282095426	-0.422870860447664	-38.7068476137995	
20213500	-0.0795344111801042	-28.1888394443075	-53.5131386914364	54.0269344308812	-53.5942320800763	53.9200382372553	-0.59653035907617	-38.0779327974617	
20463000	-0.171305702668269	-29.7478674358667	-53.2326906734748	23.955824319051	-53.0675414858998	22.6508134695722	-0.814984826073993	-36.3089680015209	
20712500	-0.31468096406536	-31.9203934899621	-57.3500120334469	-4.62165976958444	-56.9582911329124	-6.10019347414381	-0.672525725088494	-35.5950841156137	
20962000	-0.385639384685609	-34.6714088419555	-55.8695802027876	11.8526567242096	-56.5406771200216	11.7419602345651	-0.729379505632234	-37.9146266662867	
21211500	-0.328648024504479	-37.416787572531	-54.5565446898986	-10.0240485162115	-54.9425814364661	-11.3348093961376	-0.724068219607232	-38.5155208293464	
21461000	-0.182939200588197	-39.6103529418614	-55.5097139769816	-31.140385801204	-55.6489278378855	-30.6991967711845	-0.544165937716778	-38.8209967280972	
21710500	-0.0836582478549183	-41.1477166549438	-55.550358880145	-44.3717680035295	-55.7613088281364	-45.274227593099	-0.408833731885921	-38.5286347238979	
21960000	-0.123449053528915	-42.5348075287691	-54.8334839364683	-68.8087267739997	-54.7729143627469	-68.2697542166312	-0.337487390327489	-38.0861848847758	
22209500	-0.301822934593649	-44.4338413417679	-55.8849233795761	-97.3587832577311	-55.2568849813619	-95.1938680066431	-0.380333068261962	-38.460960115019	
22459000	-0.589576498393041	-45.692189321831	-56.0931852442914	-134.436235702427	-55.4175280298473	-135.946046396131	-0.468782353552515	-39.6278776190473	
22708500	-0.375103741985856	-48.2442814379941	-64.8646260546537	-158.628845807339	-64.9970992730705	-156.826202049134	-0.498772293740101	-41.3000957614658	
22958000	-0.245566788088614	-51.0322055607628	-70.4001066486169	-141.984656374275	-71.1528629630251	-137.997467066409	-0.447108268979594	-42.8745547989862	
23207500	-0.100588079043795	-52.9497693723491	-73.8664109062393	-84.9790309814931	-76.7571738956543	-91.9147018056176	-0.392244493670503	-43.5707756602032	
23457000	-0.0497320327996564	-54.2947322583696	-66.6144086035214	-88.3384377133949	-65.3489502253967	-89.5159935376652	-0.321794058165157	-43.3523495192928	
23706500	-0.134332282180696	-55.7437722952949	-63.5220231960441	-108.778712056915	-62.9334157266219	-110.500517667599	-0.398696412966935	-43.6565125988195	
23956000	-0.277952589081472	-57.8267723283344	-62.2117756084383	-131.070507051617	-61.7885829055385	-130.904898630157	-0.647781078581888	-44.4086417627149	
24205500	-0.362613525952387	-60.5189172307311	-62.9791239133619	-155.699131847185	-62.2256944176026	-153.92159818702	-0.948166531115233	-45.2262915519578	
24455000	-0.320924619266182	-63.314672699136	-69.3050237813184	-152.688821808029	-67.6501579065698	-152.752218286544	-1.09970048346583	-45.3699609374584	
24704500	-0.183172262203788	-65.5983265759865	-64.9443705926024	-141.474458914793	-66.5200119861135	-143.886167832117	-0.977956093009041	-44.8191651850117	
24954000	-0.0858262800198972	-67.2040418590503	-64.8963344761126	-160.706326199644	-65.7404166810232	-163.609738490469	-0.754095654022626	-44.2775086313464	
25203500	-0.126282915150514	-68.598804678139	-62.9338212333468	-133.429371648388	-64.5691964955428	-136.183339660206	-0.615067548755352	-43.5038984348059	
25453000	-0.299949457236398	-70.3208301271956	-57.7578203595716	-157.718444053164	-58.3986335312186	-160.636858694058	-0.568582544815325	-43.13184295419	
25702500	-0.470829744523507	-72.6005092074795	-57.9171800417381	170.767692680983	-57.7336839185615	166.820205664864	-0.607731163404265	-43.7396042664671	
25952000	-0.543019133724756	-75.2130419627493	-60.3198665001008	140.435276910236	-60.2474183983126	142.403519870161	-0.633345335378551	-45.1364517196099	
26201500	-0.474031742262129	-77.565320553466	-66.4070677048348	139.712701531743	-67.1847297552713	139.859064994193	-0.568778574413261	-46.8139754633185	
26451000	-0.359893451003009	-79.0781308923762	-63.1275316037058	-177.369091409755	-62.3695699336125	-177.652653430927	-0.426828707913916	-48.092486967949	
26700500	-0.308167759008356	-79.9181696323966	-55.6480138249983	166.45231842115	-55.5098879673413	168.147176393564	-0.31557735715526	-48.7605351890326	
26950000	-0.357322001281626	-80.8244951179058	-52.9034605679386	141.9485265715	-52.4609669252163	142.04845508883	-0.348851002894295	-49.093614959221	
27199500	-0.46312481858371	-82.59127443167	-51.1105083845881	117.761360943925	-51.4010964223577	113.613673985653	-0.555009302277704	-49.5914380834199	
27449000	-0.529415106946509	-85.1713671259586	-50.6499927080021	90.9456416724129	-50.7726597208391	89.4222170320505	-0.847546359596881	-50.473447826053	
27698500	-0.467000516851773	-87.9789834558258	-50.8472439418228	68.7527327228562	-50.5329425548717	67.9135757525541	-1.10821479104077	-51.1948533503901	
27948000	-0.315917848404946	-90.3543606146077	-51.5127799976048	48.8282872339817	-51.3126033614919	47.1988074535633	-1.16475909189962	-50.9909237128372	
28197500	-0.194583245769518	-91.9285984434192	-49.2046385611666	43.5076002171079	-49.0881338542051	40.4131815123868	-0.952253229151763	-49.984966470606	
28447000	-0.178610023814631	-93.1951312976647	-50.2422708108757	6.76401382416938	-49.8513405699305	4.61492335210896	-0.649717639304864	-49.3717901574992	
28696500	-0.296138662780585	-94.8965779033947	-52.2425146746021	-9.18291927546341	-51.8430778215468	-11.6863535344139	-0.524853719912175	-49.3207051239052	
28946000	-0.427172938727145	-97.2847677955047	-52.5450627632166	-20.2730981014319	-52.7170299590391	-19.5965200932556	-0.56570112045276	-49.9979340434865	
29195500	-0.463578193951457	-100.176374805073	-52.9360458145236	-25.293804513109	-52.5357536521595	-26.3046032711814	-0.678450210224169	-51.4530248755114	
29445000	-0.367472630715313	-102.929630321288	-52.2757192734601	-32.2187968517295	-52.8118261950364	-33.3816928721089	-0.747945546824762	-53.3454360175189	
29694500	-0.220072453683247	-105.046645660838	-51.6358377479138	-40.2065126937595	-51.5302024959617	-42.2415281026406	-0.752754499169017	-54.8824661574035	
29944000	-0.149844578599189	-106.512445421259	-50.555926077916	-51.4561446471327	-50.5125094857663	-54.0015619426762	-0.750720906530987	-55.0906688923576	
30193500	-0.227922588204849	-107.987102552632	-49.7246116970938	-66.0645887325322	-49.9488781513815	-67.0388264859758	-0.751982594489531	-54.2042772726619	
30443000	-0.383695911137676	-110.127944977874	-49.0486002754019	-77.7813146559988	-48.8292166567599	-79.4257122096002	-0.817135305307431	-53.0219698445298	
30692500	-0.499043451228564	-112.958835975172	-47.621012922519	-94.2063126581334	-47.6072091516689	-93.4341785175949	-0.871503022720324	-52.7054172301278	
30942000	-0.481423167403215	-115.955319619006	-46.6039092696854	-110.723330690023	-46.4445990316937	-111.568584304829	-0.887607628197195	-53.7056579539203	
31191500	-0.347766904205942	-118.522626393835	-46.254708159733	-130.202068126429	-46.2839181023009	-130.444756539279	-0.833275612934389	-55.4831996768877	
31441000	-0.210432151713701	-120.457839769713	-46.7113548690764	-145.100141577391	-46.4482889731817	-145.21030913185	-0.716572921852913	-57.1274822597371	
31690500	-0.220521942462693	-122.220890981131	-46.1922299402609	-151.101321744678	-46.1686597886614	-151.603958399194	-0.660854193924751	-57.953230788979	
31940000	-0.401763114973726	-124.237188133073	-43.6453773514409	-168.524940092797	-43.6261823491561	-168.331879152082	-0.786226687813544	-57.7063161395204	
32189500	-0.573918303830064	-127.022495108506	-43.0682668777438	169.860512947945	-43.0155736506246	170.411484982411	-1.0141987579241	-56.448289945022	
32439000	-0.652704399574061	-130.6758752739	-42.925455914511	153.80723495826	-42.8238472877188	153.516741431816	-1.10948162666507	-55.630722692698	
32688500	-0.631572765065214	-134.424753765098	-42.4541187830605	139.767697466009	-42.3700887238175	139.78471467937	-1.06237404176306	-56.2737408419891	
32938000	-0.613372137590161	-137.76671363766	-41.0676821861208	125.663555265545	-41.0199165263201	124.549392907087	-0.960371038368702	-57.9929653095696	
33187500	-0.793676669100899	-140.868892467125	-39.8160852031386	111.253350476225	-39.7303403368393	110.391341052439	-0.742362136708026	-58.7690666495257	
33437000	-1.4169659202703	-144.092118706907	-37.6232507999944	92.9471670346943	-37.5676769159652	91.7888740731014	-0.574067752051621	-59.3262113706566	
