!Keysight Technologies N9923A: A.12.45
!Date: Friday, 08 August 2025 17:50:07
!Timezone: (UTC+08:00) Kuala Lumpur, Singapore
!Model: N9923A
!Serial: MY61181427
!GPS Latitude: 
!GPS Longitude: 
!GPS TimeStamp: 0001-01-01 00:00:00Z
!GPS Seconds Since Last Read: 0
!CHECKSUM:1462247694
!Correction: S11(ON U)S21(ON U)S12(ON U)S22(ON U)
!S2P File: Measurements:S11,S21,S12,S22:
# Hz S DB R 50
2000000	-0.0914991254737725	151.345603439623	-84.3352989523939	178.166039411053	-80.764785453562	126.585142871099	-0.0403738757706714	-3.41338319193037	
2249500	0.00851945576238974	148.238591437037	-77.1556395978203	169.906976640866	-78.1282037924542	149.353838705752	-0.154929015022198	-3.9995403010169	
2499000	-0.00206598053254498	145.299978366942	-65.72226015193	141.635804953752	-65.1082998881901	140.003358034653	-0.205394072912062	-4.96745250078835	
2748500	-0.128752921520482	142.104978375707	-48.0968344425851	74.5025369725194	-48.0420906004437	76.1647578322794	-0.20974163338032	-5.83566788979113	
2998000	-0.233661680387113	138.530114026422	-51.0571028409554	-28.0376024567204	-50.8450832112001	-27.1378676722284	-0.0242791583681456	-6.08752866063395	
3247500	-0.284326727414917	134.674719132522	-46.0618235041281	-94.5546954642455	-46.0968136850943	-91.1609865346694	0.0125885643058483	-6.23975125843262	
3497000	-0.158292917703284	131.053901091809	-56.7530067762875	-166.900383069698	-56.1686779556686	-169.619282782982	0.0313049202084851	-6.0056263403832	
3746500	-0.0394922552214036	127.912712666858	-54.2023246356522	-150.373933847454	-54.1574251872214	-156.354176739982	-0.108260543201719	-6.26114986537385	
3996000	-0.000303797200081421	125.135520700743	-55.3558320270261	156.313633470068	-55.4727865191891	152.906803023541	-0.186667525115799	-7.05479867698645	
4245500	-0.0810329648986916	122.224530845285	-61.1458884137696	149.07597099701	-62.100602532183	154.108561018716	-0.223114080714189	-7.70281120224932	
4495000	-0.207559350733599	118.837266917798	-56.1599034646337	148.003480459533	-56.4609055026985	146.652114776566	-0.108138249524247	-8.80292189217749	
4744500	-0.283286580376976	114.932751889511	-48.2740944638564	128.593934025266	-48.3032697073176	128.742807267012	0.0116819337026843	-9.36769599708501	
4994000	-0.236798751164137	112.057890413146	-46.996910401614	-8.58249857889838	-47.0305473939513	-9.47056453492953	0.0608218413310948	-9.22934510687062	
5243500	-0.0841416104071547	108.589136165721	-56.0365176200448	-32.8736252903648	-55.8302374872518	-34.0357386848576	0.0160384978504553	-9.44475640426079	
5493000	-0.00576768808656069	105.831254840113	-59.4497622571421	-45.4262619273091	-58.8281630803885	-45.7740841901743	-0.108674930332605	-9.9680866554028	
5742500	-0.0544166133682498	103.122701750815	-59.5312702072915	-56.4702656954968	-59.1912515663886	-58.6086080878733	-0.207341092570077	-11.0477483240641	
5992000	-0.217475566147955	99.8148116274005	-56.6129307156613	-87.5654608263831	-55.9399974098703	-88.0203974060728	-0.222168424315686	-12.3892755711613	
6241500	-0.344760869583923	97.6150687766342	-61.0630792891059	32.1178214361453	-59.4444211109818	38.9864832018431	-0.288371161833048	-13.0979358524676	
6491000	-0.267412806965421	93.6416756570089	-66.2088480641527	-75.0655132209442	-67.9394757404573	-74.7965608061677	0.00594713667005591	-12.2900965873247	
6740500	-0.148062458827511	90.3355635605285	-62.3955416850406	-71.6751526501309	-62.7201747791047	-72.8504315660779	0.0490272346479349	-12.9029881474275	
6990000	-0.0340883093942872	87.6519939756271	-56.7635467005263	-94.404864751679	-56.8235590455365	-94.8783200795996	-0.123861041281633	-13.4819589818492	
7239500	-0.028815729199322	85.3199828444857	-53.4090745034278	-154.956886550214	-53.2882394636581	-156.04724463763	-0.411684259883851	-12.7671497487586	
7489000	-0.132482386834227	82.7212842151165	-56.5771303646958	160.657420586794	-56.8625797792525	156.617941741006	-0.301434057760224	-13.1572180251104	
7738500	-0.258305292700872	79.6170331504895	-59.4441230308943	138.717066282791	-59.4064317093285	137.897685591553	-0.194410862480126	-14.4799700665245	
7988000	-0.296244398045744	76.2257773109257	-60.33340589659	127.53352572629	-59.9301845874284	126.582728006527	-0.0499969225712575	-15.3495593029128	
8237500	-0.221920769699174	72.9420193593681	-58.0352882175587	137.596647149145	-57.7682735785335	136.398453459491	0.0429440385595419	-15.6365835472836	
8487000	-0.0934595028183892	70.2332418757456	-54.5714096554205	110.149517986077	-54.7501150008303	108.185506651299	0.0473756003154355	-15.7482358641322	
8736500	-0.0437693698091316	68.0052366342714	-49.5063414181806	80.5341993286229	-49.5541009213401	79.3246019663186	-0.0812411081902137	-16.2594755214526	
8986000	-0.121856678582084	65.99966315878	-44.5078311682679	11.5626135509519	-44.4244768423979	10.7706085077879	-0.306983733850518	-17.0311623362164	
9235500	-0.230497353331627	63.360982469499	-46.2293879017273	-59.5078641155618	-46.1301968470638	-60.9217103176479	-0.375768068996506	-17.6999732011325	
9485000	-0.316111449040414	60.1622055742958	-49.016210174653	-113.897715240308	-48.9998523378229	-117.164453464402	-0.304349404836286	-18.343265182659	
9734500	-0.282227348675969	56.9334110085036	-51.9208316963475	-160.211921833979	-52.2188938203174	-164.732763639313	-0.130764591597532	-18.6439909329637	
9984000	-0.152077741867054	54.1260305872672	-55.2486069219912	153.317655516036	-55.7213435839129	151.748132461528	-0.00326561367712898	-18.8419631903297	
10233500	-0.0415727943778954	51.8954336086778	-57.8330546418298	123.947177205436	-58.0448135340185	120.924875388567	-0.0434729871474705	-19.1963567984997	
10483000	-0.043640705992039	49.9273898811305	-57.9821441361542	90.427369222131	-57.6977050728279	88.7599165228339	-0.236921374679181	-19.9374575722416	
10732500	-0.15977440181163	47.6393763809366	-56.5427368751175	44.8028717300043	-56.1801878015588	44.3127233806038	-0.53343436206482	-20.5523428155783	
10982000	-0.290078224957037	44.7855401842647	-56.9448776856573	-10.8058433038834	-56.1496313926684	-14.0918111683042	-0.532010378789448	-20.0673409745314	
11231500	-0.318518218816789	41.5732927209994	-57.7588826354162	-50.8061988541199	-57.4587537037518	-55.451190537002	-0.264820550646351	-20.7872983209337	
11481000	-0.226209532672073	38.5970369899284	-58.7847417309434	-98.496385506753	-59.0373082000806	-98.7856854152103	-0.0652421657891766	-21.7454298925728	
11730500	-0.0906201252236307	36.2386383225085	-65.6918510880549	-135.193921021365	-66.6371397934662	-128.223529961309	-0.05362569879425	-22.0267555845327	
11980000	-0.028562800264837	34.3233214201265	-64.3124977035376	-121.16680874042	-64.0089829233688	-118.865538902428	-0.150086006968632	-21.9437713010094	
12229500	-0.0994102259763654	32.3772155339786	-67.0464187177656	-158.02718241835	-68.2778592984364	-160.710963417616	-0.312256180344146	-22.3261289163072	
12479000	-0.245266421178276	29.8471783013261	-66.2739902506622	-132.74768917993	-65.9414599383687	-123.319402424461	-0.485262766044486	-23.0281281132326	
12728500	-0.339050477244356	26.7471140985513	-68.0137860219524	-144.587743608786	-64.8405308690018	-151.389414096481	-0.393486276877065	-23.5085270893101	
12978000	-0.299614389408873	23.5096234090864	-66.8189124400824	-151.169756515737	-66.0550490432037	-155.867317974136	-0.202760729569005	-24.512919418943	
13227500	-0.169709898429002	20.7394130221353	-63.9000853439169	-161.496746484578	-63.4844427053156	-161.698176375115	-0.0663035353133044	-25.0044701211505	
13477000	-0.0605362525777236	18.5469414834415	-62.6034096706263	-169.507133473781	-62.4147404296716	-173.27899578399	-0.0414156617622709	-25.1769192637531	
13726500	-0.0727345135642092	16.5362321346678	-60.8341022471059	-171.907859093523	-60.8382808426663	-176.889390952234	-0.156363170483312	-25.6003046634981	
13976000	-0.203864788648563	14.0557326211873	-57.6756896369703	-179.869831410376	-58.42506284379	172.631499331413	-0.362328864546532	-26.5237337097615	
14225500	-0.352056755362019	10.7663193807479	-54.0584404045975	159.49146235693	-54.8213165008831	157.597129805352	-0.538751936496399	-27.5649993393997	
14475000	-0.399411213907388	6.85791302283988	-51.4713241293602	130.203292511452	-51.8302195464461	131.261550118635	-0.581264480989437	-28.2423955840894	
14724500	-0.327714191871204	2.86343549905427	-50.8405300157907	104.142238839511	-51.1635079503787	105.063315383772	-0.505768215138812	-27.9814478611285	
14974000	-0.245896809340261	-1.01779934543975	-47.832926246227	94.4812092548884	-47.6628432194023	94.3653363198433	-0.364789161597573	-27.3338211179013	
15223500	-0.304708380899154	-5.30259581672867	-46.1556502120456	64.7010800703132	-46.1075533594083	63.7948851942141	-0.272170175751685	-26.5839923976364	
15473000	-0.689988478171461	-11.8666087740263	-43.9359966993404	46.4838110877165	-44.1135407938448	44.8812100511334	-0.287970027779163	-26.8505643662192	
15722500	-1.79671675766118	-23.9402879774294	-39.9422851499455	20.7407632728201	-40.1579477159472	21.1030209411099	-0.382695678642374	-27.992693903828	
15972000	-6.83726483652721	-45.2949210338068	-34.9853371450567	-30.0889514402508	-34.8110573724537	-28.569810477509	-0.458944396860315	-29.3934322722178	
16221500	-8.19572548797067	44.8654158701119	-37.6521642734314	-114.974259030823	-37.6164554269309	-118.287195379523	-0.382251199940748	-29.9939792802909	
16471000	-2.22087060176802	25.8489129033289	-44.2646211290125	-130.575030260138	-44.4614118288009	-129.778298668356	-0.161545440801458	-30.6710367849967	
16720500	-0.944984366413915	14.5987994103721	-45.679140677211	-137.760000682088	-45.693690245072	-137.067565709563	-0.0613816312993645	-31.1290756319004	
16970000	-0.514118067927421	8.49384056648188	-45.5703545599511	-151.894431733731	-45.4576344370806	-151.451250391739	-0.132256353916074	-31.5961211222878	
17219500	-0.432515885435067	4.14213186828866	-44.8370069764823	-173.617877425702	-44.8487279099911	-173.701260419376	-0.360994063892752	-32.4795367034086	
17469000	-0.491998186359026	0.0799246723945877	-45.8934606047477	159.743735802435	-45.7332903619717	159.10898379433	-0.605326476783108	-33.5302947267181	
17718500	-0.508022361413062	-4.02416991339106	-46.8048862664663	135.657451316553	-46.4234274921281	137.630319432501	-0.766120482840462	-34.369967691608	
17968000	-0.404702348010308	-7.76077243386474	-47.3697839625099	114.722871855625	-46.9504825972522	114.281042377537	-0.77295166606242	-34.3208959622035	
18217500	-0.23120916863574	-10.6251070013665	-48.3738431808541	89.8725322195393	-48.1027711621436	88.8641670426582	-0.600775990770503	-33.1581211642813	
18467000	-0.116864793762278	-12.6707471868365	-50.214297423304	70.1078015558303	-50.1518015743919	67.1259321096716	-0.385627346541392	-32.3262219618095	
18716500	-0.142942101444405	-14.4449413482621	-52.2430108394101	54.0239080944039	-52.0025437923162	51.1000029972488	-0.324128614027983	-32.3525863867756	
18966000	-0.271229057047334	-16.601491495076	-53.8412974425326	42.4036245279206	-53.9627334612893	40.5286971168496	-0.398486766645306	-33.1561201072393	
19215500	-0.387554099592139	-19.3628202936693	-54.8701902383064	34.5484514780828	-54.7637106948145	31.5703656678865	-0.470770811274341	-34.5985084261038	
19465000	-0.38306061713809	-22.3816888727063	-55.4496366844848	24.2057145160202	-55.3599415566909	22.5666314749106	-0.45246480682929	-36.1521827095601	
19714500	-0.255698659765809	-24.985035181368	-55.054806236982	14.5535293563661	-54.8293092617955	13.7456096560265	-0.354948471041006	-37.2612856792724	
19964000	-0.110493215020744	-26.8508735494715	-54.6580165266635	1.65676602536214	-54.9396945755704	-0.0471039149447176	-0.281543022878852	-37.5712457956725	
20213500	-0.0738035566239695	-28.2202864785445	-55.0470111006914	-15.8535027772319	-54.7599855625758	-15.9397544310638	-0.327532391686874	-37.3995880381525	
20463000	-0.167433378475553	-29.7611145883177	-54.8303395200421	-34.4381065606805	-54.6639083891811	-30.7094301236548	-0.506858438070209	-37.2842618046722	
20712500	-0.314302333023548	-31.9398645322166	-55.7504117810971	-51.3152215683836	-55.0175394640176	-55.1768119857171	-0.726125921931922	-37.439364534638	
20962000	-0.386244602328115	-34.702054028261	-56.6520633794854	-72.286780490457	-56.7095976955193	-69.753518443792	-0.782231720446404	-37.934219298786	
21211500	-0.327325886387873	-37.4501900164533	-57.4488468983822	-66.1577198072895	-56.8773648585025	-68.1181921267231	-0.709885377939751	-39.0318334072419	
21461000	-0.177964391596005	-39.637497356122	-56.2187957067314	-84.3429861515603	-55.7875194530644	-84.8324088025427	-0.571194577245583	-39.2667203590866	
21710500	-0.0760888714575088	-41.1534185957801	-56.4614483201129	-101.893722165336	-55.6358047897554	-103.210632440321	-0.415243092103537	-38.9875251841738	
21960000	-0.116505406688793	-42.5203031898827	-54.0583664208604	-112.20792348263	-53.904549014544	-112.198231941063	-0.38261544135714	-38.6289081462303	
22209500	-0.298000011620935	-44.4166768004288	-51.1147544157174	-146.327409127036	-50.986432267631	-146.601282520253	-0.439754067326272	-38.9306375962601	
22459000	-0.59480513618658	-45.704081454569	-50.0772302248669	138.65022421307	-49.9268083165356	137.300872742131	-0.554709706266421	-40.0841155764841	
22708500	-0.377771634177481	-48.2757998669092	-64.1453241276168	84.6496737273544	-64.4326289763336	84.6639882696641	-0.612000645163191	-41.7132094904334	
22958000	-0.244422881519334	-51.0858874514743	-75.9976897897814	124.172100574775	-76.4227274827464	132.709000413794	-0.591905083745881	-43.0809089676877	
23207500	-0.0950748815081866	-53.0005569614293	-73.4507706822915	162.324046855364	-73.8937931145063	165.238649301204	-0.553724100084315	-43.391043252494	
23457000	-0.0427224793156035	-54.3322274418799	-72.262049106505	-161.029413595126	-71.7556306697517	-154.541892916423	-0.48048009366655	-42.3585059194555	
23706500	-0.129919770409586	-55.7785445790785	-64.2142325196355	-154.084821949978	-63.4975815334966	-151.27058721821	-0.42992596359379	-42.2538512023333	
23956000	-0.278053787397472	-57.8695483962029	-59.3694288474666	166.582342706717	-60.1237769443104	166.180303103342	-0.641913417297947	-43.1101602058888	
24205500	-0.364542845395201	-60.5838814580852	-61.4441849635688	123.439770200345	-60.9427691471616	122.409589985483	-0.864684501716818	-43.5497675398391	
24455000	-0.320649461322305	-63.3866459038877	-68.8042663369623	90.1037743492735	-68.1662062006819	93.7877450133088	-0.858718596506685	-44.1965010722503	
24704500	-0.177733034522133	-65.6593623401598	-69.5649998115391	163.055676142839	-73.820393141783	168.195599917718	-0.708627797943406	-44.7964054507451	
24954000	-0.0772122182696771	-67.2363753662543	-63.2348623859447	150.459179930425	-64.6345545819769	151.597087537584	-0.5462302660111	-44.9558530486001	
25203500	-0.11808065291266	-68.6000229949571	-62.4412251358741	111.919799392053	-62.7139093570901	112.838263965372	-0.497872161425885	-44.7204704917979	
25453000	-0.296663484836733	-70.3084030814546	-66.5427465851407	164.701366732395	-67.2115586363869	154.167339959397	-0.564279761688601	-44.2276170368103	
25702500	-0.471526417566291	-72.602340063889	-59.7323324557395	131.492932196233	-59.7304034849097	132.297479656146	-0.6512937818703	-44.6735944973261	
25952000	-0.545722772921326	-75.2552195865451	-60.0733031646615	98.3976512828208	-59.9026762786884	100.093723265679	-0.718005279459076	-45.9745863465855	
26201500	-0.472707990944519	-77.6467622045214	-61.075357091284	87.2326981992085	-60.922055753465	96.9872474700347	-0.686460433140005	-47.5091678560172	
26451000	-0.354139081723647	-79.1545082345841	-58.8419801637204	95.8067553079205	-57.9618891026923	95.2334243104879	-0.569072331159822	-48.5313944701868	
26700500	-0.299971547865483	-79.9729272224762	-54.3936643111941	87.5545761441419	-54.3848026736582	82.9215389037212	-0.475403800676847	-48.8238465223084	
26950000	-0.351020342647322	-80.8464089535463	-52.1880589195703	59.2586009104401	-51.7710763049222	56.6365083252494	-0.506859072189194	-48.6098505109468	
27199500	-0.461047618665294	-82.6096240951315	-51.1258316856756	33.0457268958167	-51.3619438921583	31.0181422386799	-0.6700467867314	-48.4833881673375	
27449000	-0.52976345634765	-85.2054094260427	-50.481469542593	8.33505058650669	-51.027903237905	7.00315792034004	-0.860744306811111	-48.9176176844777	
27698500	-0.46881508327043	-88.0444857653972	-50.7917275786228	-12.1660711402162	-50.7727999217745	-13.1280637698264	-0.966289544333066	-49.780766234747	
27948000	-0.312783318931821	-90.4298240629999	-51.2899755794771	-30.1564795836562	-51.1369288665197	-30.6130844498745	-0.921675101515989	-50.5966918681482	
28197500	-0.188876654730044	-91.999301513992	-50.2739210172171	-44.0711118432361	-49.9456850156632	-43.7870561153536	-0.767161923392067	-50.7936425783668	
28447000	-0.172603424320773	-93.2444968052959	-50.6265242241453	-67.2259427677261	-50.3250437938065	-70.1915909586234	-0.624456283764925	-50.4070754328352	
28696500	-0.293357168131588	-94.936775679391	-50.8494607261587	-84.7837621012196	-50.7603276939334	-89.2501532462095	-0.603856653636832	-49.9188427532787	
28946000	-0.428698324339778	-97.3341218848783	-51.2188020277448	-97.4011981543693	-51.1912268630979	-101.522673823453	-0.68648490692734	-50.0013243674321	
29195500	-0.464819781234012	-100.243175860309	-51.5443346457677	-108.436770925515	-51.5110198333039	-113.182590797042	-0.790411898272559	-50.9036675884406	
29445000	-0.365153417771053	-103.004420290186	-51.5873093673224	-120.467129817122	-51.4514590877581	-123.039546760845	-0.806777438455001	-52.3772455766134	
29694500	-0.212403547665735	-105.108841224565	-51.4413241930329	-132.824195397094	-51.2677857106571	-135.635436251389	-0.708200005445161	-53.704277820575	
29944000	-0.141511495171197	-106.55027958871	-51.0130414042093	-142.656236226368	-51.0002863485748	-146.699348803605	-0.572861772547456	-54.3389015795123	
30193500	-0.220871389186464	-108.014189938554	-50.1613852303584	-155.294329400396	-50.4278595999685	-156.265572542291	-0.520965040034803	-54.329129403303	
30443000	-0.382337440264614	-110.165362603244	-48.9142075775493	-163.428367569511	-48.9815811308093	-165.526205867635	-0.630354240988542	-54.1361701938639	
30692500	-0.499417333156941	-113.033089150139	-47.2769169881571	-178.152282510843	-47.3653014828626	179.922236413238	-0.8260489528482	-54.3994461077121	
30942000	-0.480549818072888	-116.079903808122	-45.7570712605601	162.167937955484	-46.1822519510954	162.751587820291	-1.00358929719141	-55.3048409037763	
31191500	-0.344405350344347	-118.658884876282	-45.3097447552757	138.013862185829	-45.3564131047034	138.452504262746	-1.06784030427086	-56.410071353756	
31441000	-0.203694022925049	-120.56540998628	-45.7412674334415	118.018769479306	-45.5376377965482	118.563487403202	-0.984890659541889	-56.9813971134277	
31690500	-0.213738250476262	-122.289001305539	-46.0021321468099	110.945983968262	-45.874831665295	110.853557547602	-0.843674210740506	-56.6730870645756	
31940000	-0.401656701768211	-124.286812923134	-43.3139002891524	95.5648291356039	-43.0980213249653	95.9470900219468	-0.780996154733808	-55.8922647826825	
32189500	-0.578566426166183	-127.049259690802	-43.0905964020044	71.7480581618186	-42.6800704230355	72.1674952436363	-0.827381005869729	-55.2493543193453	
32439000	-0.658411277087661	-130.720722867944	-42.8806849657164	54.2913695158212	-42.5653288007075	53.3816535221002	-0.915297415743594	-55.5470664236332	
32688500	-0.630673221471674	-134.480164162877	-42.4749392223164	39.637488404465	-42.1271261712587	37.8161101426743	-0.961405815546655	-56.7134127918384	
32938000	-0.603514093592024	-137.810285414568	-41.3757618082146	25.115963621643	-41.0764655931098	23.2060816157808	-0.895276731459251	-58.1929222486096	
33187500	-0.7760623724615	-140.878249217316	-39.9316776780228	9.23563878888515	-39.6393816812108	5.78112464492049	-0.727687931048566	-59.2572624089403	
33437000	-1.38877241104909	-144.095633803453	-37.9463507183773	-10.8440591116184	-37.8662632136809	-13.6957898039583	-0.598697005375713	-59.6746464456505	
