!Keysight Technologies N9923A: A.12.45
!Date: Friday, 08 August 2025 17:27:40
!Timezone: (UTC+08:00) Kuala Lumpur, Singapore
!Model: N9923A
!Serial: MY61181427
!GPS Latitude: 
!GPS Longitude: 
!GPS TimeStamp: 0001-01-01 00:00:00Z
!GPS Seconds Since Last Read: 0
!CHECKSUM:0652293707
!Correction: S11(ON U)S21(ON U)S12(ON U)S22(ON U)
!S2P File: Measurements:S11,S21,S12,S22:
# Hz S DB R 50
2000000	-0.0678827515265795	151.552087037403	-87.945884606271	157.782081812126	-93.3324162984435	70.7760860332322	-0.0344505707110234	-3.34395022740591	
2249500	-0.0104699102781085	148.338216909793	-80.4136280980335	169.628975734925	-77.1734114335474	168.693446282531	-0.0989523826245308	-3.94023458701115	
2499000	-0.0207077432453547	145.202048482456	-75.0331656871593	178.419268335195	-74.0216242755764	155.103627738912	-0.126680287822114	-4.69681323327319	
2748500	-0.0905023736428082	141.880422297431	-65.3920657270485	139.932157168704	-65.5075834537865	145.808149842428	-0.0908236704909734	-5.42772737280295	
2998000	-0.221038890474842	138.252119580177	-47.5902104243821	85.7658858714877	-47.6222488615635	87.6619092847012	-0.0440570137809443	-5.96663574277046	
3247500	-0.183056037354314	134.776123651579	-48.7811376946178	-57.2891832732363	-48.7427701358252	-60.8165187879362	-0.0179676524346778	-6.15951669563715	
3497000	-0.113243257090967	131.254843674661	-68.169956580666	-32.2706762099174	-68.1756223765983	-22.3699722000724	0.00709049470210829	-6.24080285420116	
3746500	-0.0427129077370506	128.069338714693	-65.2400198666149	-21.3129517651875	-64.2170693837605	-14.366771583716	-0.0535011410147494	-6.65123015595997	
3996000	-0.0246154365432825	125.088104770831	-63.0806600135087	-32.7018097130919	-62.9994248315027	-35.0315793906415	-0.115424643534909	-7.30386268901202	
4245500	-0.0763212266841725	122.007560530893	-60.6169457510301	-35.8537478576002	-60.6616042366721	-36.5364456292934	-0.124538837052898	-8.10368028874465	
4495000	-0.153082498579054	118.621813764869	-57.3245702419651	-40.217764700405	-56.5567330745999	-42.215942984595	-0.0731038519233728	-8.81779134307692	
4744500	-0.209185703567211	114.812064764147	-47.5973651712289	-56.9326742925871	-47.4939178896551	-57.439968378803	-0.0112507710607434	-9.29932350768328	
4994000	-0.169290244349066	112.242617318417	-48.3174838421469	158.54075925666	-48.3696287189475	157.971936583378	0.0231283003423901	-9.2951012266373	
5243500	-0.0748822090738652	108.791808236293	-56.2751738249045	144.719589430169	-56.1971575941607	144.020768241744	-0.00819632260139899	-9.61702717691347	
5493000	-0.0294670370983433	105.869033234792	-60.883694696758	136.625630685347	-61.0708457001791	140.547878360972	-0.0768462774530019	-10.0408406666295	
5742500	-0.0648131038504407	102.960285178827	-63.7056903720031	134.98594130332	-63.6053990742983	136.696798971572	-0.127713515521832	-10.8066947805476	
5992000	-0.175637489265813	99.6037722318944	-65.552546667289	128.035560614338	-65.4820214093509	127.174911536665	-0.121523534914587	-11.6276491326018	
6241500	-0.267000387188166	97.5460342451859	-63.0929508073202	148.944557202424	-62.8253884114314	144.342895416648	-0.0351487913947636	-12.3584686584702	
6491000	-0.192989194429806	93.7806816678506	-61.6256968122885	133.211481902427	-62.9841239859152	132.843951414081	0.00368769773115154	-12.7535855417049	
6740500	-0.118371430111733	90.5776833339944	-58.7137998668103	120.561511825204	-58.388112829638	120.870644434223	-0.0483123330513349	-13.3191464322493	
6990000	-0.048928441188286	87.7746577135652	-65.9582054855527	115.868489842607	-66.1618641446288	112.186368301193	-0.0328919499892859	-12.8940581377473	
7239500	-0.049682543020575	85.2159421138604	-63.6626841843419	124.356545391006	-64.0942642510797	119.863031215245	-0.100874036112195	-13.6238454318957	
7489000	-0.116665711012112	82.4707772686979	-61.7593027644791	116.751269554978	-61.8277231093027	118.155627373329	-0.141513939469476	-14.5268672917172	
7738500	-0.19247062942817	79.4342996197476	-59.2644163235436	115.875865808396	-58.8250213461565	110.518169003906	-0.120702449746242	-15.4903181969583	
7988000	-0.213210614559206	76.268015360563	-55.5540957412075	104.310376140631	-56.0045730534385	104.873808300082	-0.063053038818036	-16.3508388559811	
8237500	-0.171541106296449	73.1573486555578	-51.8233740341939	95.3893214688334	-51.9249358630175	92.9753955539439	-0.0808249835589365	-16.4557370541438	
8487000	-0.100673573216352	70.4003971099862	-44.9972806630982	75.2473504753051	-44.913184232595	74.7083409637924	-0.131665784135222	-17.2439420445041	
8736500	-0.0899472817172682	68.155151844023	-37.7614281735608	5.69855110812951	-37.7282406391809	6.24844788632867	-0.461792938276665	-16.4487700600713	
8986000	-0.100007563352733	65.8059554544574	-41.0062095235787	-63.6014562927396	-40.8671555722367	-63.5958080354765	-0.295924442641704	-16.2663742686514	
9235500	-0.180947903104712	63.042436565676	-43.2897048799138	-98.6498048517587	-43.2642892054088	-98.2644516191506	-0.308495802814919	-17.4570588275213	
9485000	-0.237988647394387	60.0695338254985	-44.8377107419758	-137.337825201449	-44.6157230922838	-137.306537895946	-0.282999299803933	-17.9756264182386	
9734500	-0.213694744893736	57.1091207976911	-48.4133054042843	-175.821101219212	-48.1435623176253	-176.048430255793	-0.144800785723586	-18.2944848404187	
9984000	-0.130482908580622	54.3762730123672	-52.7476399617803	160.29759909242	-52.5347570353609	159.481930900732	-0.0571168570903322	-18.8580798030668	
10233500	-0.0627973295508569	52.0024529723731	-56.1732066512133	151.959334391558	-55.9019471349061	148.47138920051	-0.0966562539567075	-19.446958549651	
10483000	-0.0643687179631734	49.7934513342415	-58.4276778634374	139.130931293444	-57.6632940055578	137.821332075927	-0.216324907628725	-20.0250492735557	
10732500	-0.139671307471788	47.3788081297411	-53.2370701831457	175.938676702389	-53.9000091741098	175.456124546319	-0.405412407302347	-21.2809778286657	
10982000	-0.218442712625859	44.6323976462746	-52.7737229380967	112.540310604748	-53.7013287438195	113.697262825956	-0.427792151418832	-21.6929259131302	
11231500	-0.23386481530796	41.6736743130946	-54.1035445424362	79.0553432755405	-54.5483438078972	80.060049679378	-0.507596478073029	-22.5930366596403	
11481000	-0.176464467387187	38.8650853827082	-53.4365835174021	36.7343678470453	-53.730067721218	36.1912944486906	-0.571662288248011	-22.0250990083249	
11730500	-0.0962402361115219	36.4318050603319	-53.4223237389794	-28.4079825023735	-53.66123355411	-30.0752675888178	-0.523777712629475	-20.6551893883394	
11980000	-0.0569916758248095	34.2960307162119	-57.7013099191131	-135.248091562719	-58.9035814967654	-133.955031329566	-0.561389386322992	-19.8109200396305	
12229500	-0.10047581091896	32.135663413512	-72.4440561142592	-148.775659727554	-75.487164033584	-124.229458721005	-0.363535220565247	-19.6393503468456	
12479000	-0.193626190139287	29.6011041395589	-78.8142104328983	-132.52339000042	-77.1459488413526	-112.736706655218	-0.289104659408352	-20.6229587857279	
12728500	-0.252388126948915	26.7145877435125	-72.3918696589681	-173.739023291048	-81.6034576156432	-158.404213091695	-0.194008644498093	-22.1654701441606	
12978000	-0.228759045898211	23.7331392068865	-83.2618907927778	128.964234551269	-77.1164665207722	150.387433032683	-0.116118818764455	-23.3418209287183	
13227500	-0.151364597137207	21.0180499845202	-83.3457760862287	19.0543169048094	-78.8080425816788	-23.1239417381116	-0.0359016509207911	-24.0316709315872	
13477000	-0.0842414814544455	18.6395794897574	-76.0576449706149	-70.3927522454585	-75.9387154298519	-86.943883366422	-0.0531456699141759	-25.1294977921552	
13726500	-0.0930784807746837	16.3657453505335	-66.8162196557729	-59.2323628217483	-66.3174567699412	-69.8440840691359	-0.304515251397949	-24.2271612407823	
13976000	-0.177617277678598	13.7612443772447	-60.3692425752089	-99.3187005825904	-60.0072765484123	-98.5955346662342	-0.231548805134994	-25.0560707181169	
14225500	-0.275943540033247	10.60270062826	-53.7406919406885	-128.746434368162	-53.8905483201271	-131.758118578241	-0.346463578887624	-27.0603803782971	
14475000	-0.315765312145312	6.9932922653716	-48.9785597704106	159.198621803288	-49.0152983276392	156.047110305399	-0.734709579507796	-26.2136229144718	
14724500	-0.284960713821173	3.19139310669037	-51.1310081586615	112.560791347143	-51.6713311699883	110.552030562284	-0.375957452794151	-25.2645673161855	
14974000	-0.258757738631739	-0.780728476724887	-53.0611965973734	82.7508981860644	-53.1219052473133	81.3792071878524	-0.142456502497164	-25.612538699334	
15223500	-0.334237582648429	-5.32054614547481	-54.1761495855038	55.2936759202801	-54.0954074727551	56.7239681395439	-0.106003965203976	-26.0088121217968	
15473000	-0.678969986032991	-12.0842490083895	-56.4541191889442	35.6405886166683	-56.5201709247609	34.5553534319693	-0.112115391502336	-26.5806507158314	
15722500	-1.69982765924597	-23.9708891070641	-62.9259652508119	15.0896625596973	-61.3778588008935	15.2507224871157	-0.161885931682154	-27.5471999910701	
15972000	-6.55608819142722	-44.6969194316396	-51.3116190850253	126.642528758608	-51.8718497461972	124.843114471898	-0.18377795422709	-28.7689806063258	
16221500	-8.24997465825599	45.0460626238347	-40.4561019299319	-16.5191846032062	-40.6479182952267	-22.31474966018	-0.188881228775741	-29.3101598726716	
16471000	-2.20397204457908	26.334421123519	-59.7521609382515	-37.2519684605706	-60.0522659036025	-30.7144997534708	-0.0454421303750788	-30.1765120932856	
16720500	-0.975306984604978	14.9958391270981	-50.2967015547252	-4.08464176367322	-50.0571229393155	-5.05381494257008	-0.0124009768649154	-30.8572754956351	
16970000	-0.539377057332965	8.54940323872275	-44.6020399937405	-53.6313111597436	-44.6545223355046	-54.6979885261852	-0.155908788481557	-31.6113727384211	
17219500	-0.422453591158458	3.84768292344461	-47.2866839469582	-145.604685864004	-47.2156810198217	-144.762561584328	-0.316272648057344	-30.4241709328773	
17469000	-0.426000714044466	-0.181129699348	-58.5120880953518	-176.282709023935	-59.2219130016301	-174.781378377611	-0.23441053145481	-31.3300035322573	
17718500	-0.417749728403653	-4.00876666824364	-66.1977602472322	-136.259219990908	-66.3060770695698	-137.093898387596	-0.217305685815767	-32.6182801661411	
17968000	-0.343800146060139	-7.50417840847737	-65.6272689045597	-117.96318186889	-64.7386568234711	-114.426616525063	-0.174624946006019	-33.7268451941258	
18217500	-0.227447833988501	-10.3655013916339	-61.9418816972712	-124.05323720869	-62.4207915356532	-127.677497249108	-0.144913290788802	-34.2776761793812	
18467000	-0.147479475418959	-12.6375174145849	-62.0444326560535	-140.229091750734	-62.0767978974546	-136.274038343598	-0.131128258857892	-34.3938158926587	
18716500	-0.157468583638389	-14.6720781411018	-61.8736820996313	-148.664478397977	-62.7960447899572	-145.596471777727	-0.180975865131507	-34.8753564494392	
18966000	-0.230769075673474	-16.9026897184126	-60.9565441984688	-152.584422219847	-61.2477808026125	-151.754203543137	-0.31545311607594	-35.7789182586434	
19215500	-0.301144283661231	-19.4658314328827	-60.6945835208144	-163.580026519187	-61.3375880944598	-165.103321496588	-0.489213680967262	-36.8247656251445	
19465000	-0.300705993157508	-22.1733815368749	-60.5790567193972	175.585626697419	-61.0080695072815	170.07047076836	-0.640663857860991	-37.3611593767842	
19714500	-0.223594277154022	-24.6590858590077	-60.8780118012514	144.658455921063	-61.4514559218353	143.772568303329	-0.693900759213395	-36.4947304883464	
19964000	-0.13046756708315	-26.6778226292815	-63.1071225676748	117.66179770707	-64.1437830650518	117.623883816298	-0.371993116206522	-35.3061616232454	
20213500	-0.103603806525628	-28.3566819226196	-71.720343919572	123.918742143666	-73.1376504826592	149.499339236443	-0.167565637491516	-36.709550180867	
20463000	-0.157443412993111	-30.1051418126942	-59.7558658843319	144.44605139399	-58.7008382339168	146.38695042142	-0.511906534954527	-37.521701352548	
20712500	-0.246210302292866	-32.2239097232476	-66.2055582329817	67.7834425772879	-65.8163772120819	56.1616727389095	-0.459726610796817	-37.6977669715791	
20962000	-0.293145111347635	-34.6929277239978	-70.2385149225911	-122.962564005744	-70.1138892995438	-111.456818591712	-0.601775288740972	-38.882470855204	
21211500	-0.26323770716675	-37.1712636892366	-62.0161976388842	157.874865253088	-62.7772941188945	157.118226604002	-0.629388009906691	-38.5505766409519	
21461000	-0.171358044513442	-39.3511794653354	-62.7453821587334	112.67565332236	-62.7368880957994	111.627749827744	-0.382394877454978	-38.940183810854	
21710500	-0.107486946520339	-41.1183998472652	-66.3433880104098	117.43881843296	-66.6174605229775	111.978695282847	-0.274444232389983	-39.9370065787079	
21960000	-0.133680829941523	-42.7869735966413	-56.7009457186308	129.241764826672	-57.1803186418969	126.793835958622	-0.393710970179146	-40.4925957318523	
22209500	-0.259073032681449	-44.7781848052449	-51.2186164352944	51.8871121894315	-51.3870625706944	51.8312325573259	-0.491357310807767	-40.5259860541087	
22459000	-0.50457541166861	-45.9832165774609	-48.2022181103811	-71.6344552158902	-48.3813305699078	-72.478357501119	-0.571106821360131	-41.5183512366863	
22708500	-0.290410287407451	-48.1571009664461	-58.9648073909225	156.51887698848	-58.6782152440108	155.864115047052	-0.770174167233724	-43.4485556216249	
22958000	-0.206298593828044	-50.791053345809	-67.6187977427195	37.9630661817453	-65.5773670573979	42.6870045098366	-1.16532842764047	-40.2634392255325	
23207500	-0.1115565952176	-52.8263854992713	-75.2788220578009	35.1031852690106	-76.4349246967031	50.9745866881029	-0.389816791256351	-40.0715299034434	
23457000	-0.0751405853097561	-54.4565413751364	-74.0558199097497	49.4178210501864	-77.230057278805	35.9510983911711	-0.20701443445909	-41.798121621593	
23706500	-0.125680876660871	-56.1333865404132	-71.3174418143323	15.0558733895487	-72.5986843775858	-5.0053029528567	-0.230733088403557	-43.0525173383394	
23956000	-0.215010527345656	-58.1923099438484	-66.0170054712802	-48.0680920906084	-67.4735057989257	-60.1198730770832	-0.364680391240515	-44.4652223259685	
24205500	-0.27070328501062	-60.6210918117384	-62.3283552392816	-113.292139360526	-62.1338102927744	-113.645049640624	-0.530334350814621	-45.7755334648646	
24455000	-0.251259416738915	-63.1342220529696	-62.5631226258005	-177.333306602161	-62.3584020276805	-170.939926475696	-0.595825841260984	-47.5952528171788	
24704500	-0.16767459846505	-65.3677988486768	-65.2543866176661	147.873343653194	-64.2774398877495	148.146018949453	-0.759811513860083	-49.5139425779055	
24954000	-0.108729028652781	-67.1850548489778	-64.882312966876	150.613816010743	-65.4151501963346	149.674192111266	-1.07825277800538	-50.264755093428	
25203500	-0.140570848228428	-68.8517221488121	-59.4100553942216	141.39055890766	-58.5756281501086	140.772080889914	-1.76158435983932	-49.0865075244423	
25453000	-0.262321011810326	-70.7016426934711	-55.899236693939	100.424796294999	-55.9139087642884	103.546241091393	-2.0736749039259	-41.9555801772301	
25702500	-0.384868079600522	-72.8383910963349	-57.603492642632	64.9629970366814	-57.1064360796419	65.6778011018918	-1.43020506459594	-38.5564563475889	
25952000	-0.453643484551333	-75.1790798024974	-58.993516648264	45.99799349276	-57.2193343382544	51.8554802491133	-0.920405817105581	-39.6552155880113	
26201500	-0.429505812190615	-77.3596993033613	-57.5011726417031	33.9103230292402	-57.7883272105639	35.9094647898784	-0.590072179101019	-41.8509816476369	
26451000	-0.371923014188668	-78.9769969832584	-56.7562173304015	18.7606073415066	-56.7102394411663	17.0692423681735	-0.354453863626327	-43.9178050931647	
26700500	-0.339683076759517	-80.1007993234254	-56.6397244907616	1.33020307678121	-56.7114425691379	1.75673226977567	-0.212894039875081	-45.5315354750284	
26950000	-0.357876134114928	-81.2358185038765	-56.9799298027337	-16.5969859469382	-57.4350437052762	-15.7239011672698	-0.202967696332466	-46.8392987557422	
27199500	-0.405759594414741	-82.9931776255392	-56.4474058205051	-32.1325763708338	-56.9434181475667	-36.2395300926894	-0.327131385370667	-48.2103880458758	
27449000	-0.435868648208143	-85.304320079717	-56.4522732990353	-52.4249917260697	-55.3276828147442	-48.2325962887424	-0.545481978219104	-50.0427809356527	
27698500	-0.393148500678955	-87.8200709386812	-54.9174133564757	-72.0122211281891	-54.6037704860285	-73.1654058754905	-0.919488875704686	-51.9245190055461	
27948000	-0.298146823965504	-90.1279761844577	-53.0863088883574	-103.501088929769	-53.6104935363378	-111.477364302718	-1.44304200504576	-51.1401258004403	
28197500	-0.219713198922556	-91.9162267333401	-55.909313965752	-166.098107450395	-55.3148204356636	-170.777231968821	-1.32783140429897	-46.8607598984309	
28447000	-0.199646733464953	-93.4975671556357	-63.0545911976097	175.49320940311	-62.2224508831619	176.931922044095	-0.791023320493493	-45.3225100599872	
28696500	-0.268430084461498	-95.3539588547475	-66.9702062837959	162.252176356661	-65.1041012447651	163.888606887706	-0.497090057788607	-46.0867221483893	
28946000	-0.345940484431462	-97.6046205340203	-68.3295722420272	178.236487841596	-68.1867429942183	161.773621055811	-0.419410233426801	-47.0280285645638	
29195500	-0.370182609322401	-100.153739868497	-68.0533813249945	150.183002713905	-69.9589084067624	162.075683894003	-0.395662732481574	-48.3769134321052	
29445000	-0.315812445452957	-102.673084001942	-67.9466598557062	146.643657481007	-69.3758059908689	141.421856149629	-0.365055095560589	-50.003743774198	
29694500	-0.224115837562642	-104.841526732533	-67.9922685560644	129.008306211811	-69.1551999568783	126.722948998492	-0.294354277156654	-51.4658498139626	
29944000	-0.179222792626329	-106.603098651342	-68.2368457530268	118.079157004516	-66.0520649781864	126.198450464927	-0.215270200876333	-52.5520646336295	
30193500	-0.228804665892695	-108.353295423375	-63.7942369843948	114.344759994303	-63.2249847099864	113.473339160729	-0.250887612479826	-53.0218245072992	
30443000	-0.328018552324296	-110.546398286924	-63.6204783142429	92.8265129235097	-64.0031288573933	97.9121096165063	-0.223905064111465	-53.4392179124468	
30692500	-0.405030825845626	-113.143014690832	-62.1431472850234	80.1225778799586	-62.2517754888428	81.6722910335696	-0.32890553379369	-54.4221686821145	
30942000	-0.402874046622349	-115.840889224578	-60.8816099892827	58.7984704157752	-60.1796806034551	65.0432560915301	-0.435472127638338	-55.7135095682266	
31191500	-0.323875506780941	-118.322389709572	-58.7001307761256	48.2691824297009	-58.855853931111	40.3857756964274	-0.500812881232384	-57.1022117786399	
31441000	-0.232984594454328	-120.461479246413	-57.3155147243823	26.9331859057845	-57.2265898539575	26.2353482050301	-0.508431833429251	-58.1901567419329	
31690500	-0.242020209453535	-122.527024414807	-56.4179881634153	12.2112107740755	-56.4388464533963	11.7272397106339	-0.505213034118722	-58.956161171481	
31940000	-0.374599443996729	-124.679643210117	-55.1614101799307	8.29511185955828	-55.0317800974756	8.43233922710015	-0.627745710175441	-59.2893744540887	
32189500	-0.488533989716924	-127.323936654793	-53.2147708919379	1.43860413080426	-52.9123579676412	-3.01973771358702	-0.890513359780228	-59.3865591836391	
32439000	-0.554434826687831	-130.623134529846	-50.3753626907282	-18.9538880110439	-50.2969483042999	-21.239486396645	-1.20788473089681	-58.2195534184548	
32688500	-0.574779250961716	-134.120829341858	-49.3567399676762	-29.4575387195114	-49.5027728171348	-33.3841807613737	-0.962072021689414	-59.5308597792973	
32938000	-0.609546122860239	-137.514337483535	-45.7967897998133	-39.8977826602037	-46.0338319901798	-41.8623846610023	-1.32996453202822	-59.8930123501698	
33187500	-0.802363386628656	-140.892430149767	-43.6561157601162	-64.2122833376627	-43.8007574264178	-65.0013905613329	-0.88620019546668	-60.5063424417969	
33437000	-1.36145242890841	-144.417803248472	-41.187727188354	-81.8265912587926	-41.2148264279362	-82.2471416194085	-1.25728010651521	-61.2955268069132	
