!Keysight Technologies N9923A: A.12.45
!Date: Friday, 08 August 2025 17:42:25
!Timezone: (UTC+08:00) Kuala Lumpur, Singapore
!Model: N9923A
!Serial: MY61181427
!GPS Latitude: 
!GPS Longitude: 
!GPS TimeStamp: 0001-01-01 00:00:00Z
!GPS Seconds Since Last Read: 0
!CHECKSUM:0882798449
!Correction: S11(ON U)S21(ON U)S12(ON U)S22(ON U)
!S2P File: Measurements:S11,S21,S12,S22:
# Hz S DB R 50
2000000	-0.0831145817846038	151.430917156739	-82.9877086275631	167.49754063435	-83.375995972868	171.859751374925	-0.0437899307440566	-3.50972035255711	
2249500	0.00275735240941923	148.285253745122	-76.8949491136514	166.554142757322	-74.0722776797706	140.863057549534	-0.143755734831302	-4.12924288803787	
2499000	-0.00764235636158444	145.285800675648	-81.4849289617442	19.6683024501287	-79.5614008650381	-13.4750792825411	-0.183952094164313	-4.93638363185777	
2748500	-0.107292175762629	142.023118233634	-69.3252215480535	138.549064329197	-67.8430716491544	135.335510073273	-0.13015829122926	-5.83534615554696	
2998000	-0.274813830924009	138.468920194589	-49.4309522103397	64.3273699480153	-49.4993162809521	63.8551548590722	-0.0413638727059281	-6.31672601953354	
3247500	-0.230544875647816	134.80177382022	-58.1544205445881	-24.7791012645688	-58.0571158858137	-22.2427714769678	0.0417864083945552	-6.42391905154872	
3497000	-0.141332284169646	131.087006040289	-58.7419229586706	-34.90372569515	-58.4376934638775	-36.3419343779234	0.0191364159673423	-6.52686162564634	
3746500	-0.0355450126061666	127.930542757688	-56.1347193703538	-42.0304286214881	-56.3234910490552	-43.1754977287742	-0.0809379652339366	-6.87266487992419	
3996000	-0.00923995956866492	125.069926599273	-50.956678759391	-57.7715626775653	-50.9364045715861	-57.6542446689217	-0.19891047533972	-7.77248676606989	
4245500	-0.100694188665373	122.102587863715	-42.4018308628538	-108.136141358906	-42.366302571001	-107.710445932551	-0.369569144236101	-8.54446516694857	
4495000	-0.201259571794279	118.907560202046	-44.0280445699975	169.537716753403	-44.0314467597411	169.23018071439	-0.146511286408772	-8.33874539524949	
4744500	-0.24832932143012	115.193255873413	-44.8393763199796	140.76705484715	-44.8967455501943	140.25675715172	-0.000123753249858648	-9.17597801471821	
4994000	-0.249133927554952	111.651744145827	-39.393534849721	81.1191710880474	-39.3396201324391	80.4824578928895	-0.0592470712673931	-9.5915475123871	
5243500	-0.0874699479850116	108.683259048685	-46.9350841248453	-11.6554017669878	-46.9301118622427	-12.8240789372146	-0.0244829655949936	-8.89609962423038	
5493000	-0.0220250797193832	105.893023719499	-48.4427425940171	-114.160292423163	-47.8434839315495	-117.047375965384	-0.235573298058808	-9.60478669385633	
5742500	-0.0561329071328564	103.102100431988	-73.9500202660419	103.603622085352	-71.7633158626876	108.861222836862	-0.190915560398026	-10.1519916005662	
5992000	-0.19623958496191	99.7945413137744	-60.1068599068515	107.024025615386	-59.8714338575615	107.887381196708	-0.172986158702804	-11.2579282536805	
6241500	-0.331720204643648	97.6287184373766	-52.9974913259226	-12.9939070072424	-53.0506222403427	-11.858148227274	-0.0556729552332611	-12.0898546419061	
6491000	-0.243320531593945	93.7025390609407	-59.8311378060152	-36.0400007057374	-60.0068385760707	-37.7939284241149	0.0266774914960842	-12.4297055692691	
6740500	-0.136889577038032	90.4349933593346	-61.6828075799896	-44.2296918278707	-61.2671389043483	-44.5910567496111	0.0516537505239427	-12.5443060617694	
6990000	-0.0360878930747039	87.7117857107657	-62.3096954130646	-50.0394992834435	-62.4930177552919	-46.7958027101641	-0.0219352580733571	-12.8063504963167	
7239500	-0.0327576822801262	85.3064763067191	-62.8543684221941	-59.4230368510854	-63.075251355411	-58.5672497787836	-0.135642251301666	-13.3641293416284	
7489000	-0.126125602137963	82.6548583725988	-61.1493942681231	-57.5924782525062	-61.2317100849408	-56.4955426188612	-0.195706663967465	-14.4745040104334	
7738500	-0.238194900249776	79.5669515130708	-59.6955152948255	-66.7474527791302	-59.1621396081615	-65.022299312082	-0.167536319548544	-15.6588232036581	
7988000	-0.270525536115923	76.2370821510001	-56.1009725921	-75.9024497080401	-55.7745007845745	-76.1696592899778	-0.0859784891830749	-16.6274863534283	
8237500	-0.205111498679468	72.9956411081387	-51.6448268515534	-90.6013973594933	-51.6528898338024	-90.1476146974288	-0.0829643276350238	-16.6059630821465	
8487000	-0.0997857031653594	70.2679269809838	-44.2602187647791	-123.885516222949	-44.3001907110138	-123.692247322416	-0.222866085629421	-17.0283703197847	
8736500	-0.0555641053642694	68.1270109223105	-40.2297586586377	158.448906169436	-40.1775587546818	158.599709190881	-0.367701346281496	-15.1442973923941	
8986000	-0.101759396930035	65.8859724340106	-42.5979217823627	100.304760463861	-42.60872953683	100.026205431559	-0.298463940838508	-16.1113972985062	
9235500	-0.220492060609539	63.2142479389636	-44.1420922888294	56.352251812461	-44.1554224291595	55.7458216684683	-0.358912170836224	-17.3352196365789	
9485000	-0.294277140198028	60.1474847483068	-46.3811661948759	12.9619807312928	-46.1915191664746	12.736526389248	-0.283811921630166	-17.9692695693054	
9734500	-0.258917496154953	56.9967736912643	-48.9416173739313	-23.5868861732543	-48.9066188384192	-23.5590641196111	-0.122184000438891	-18.5352724247819	
9984000	-0.142927235347548	54.1987416241375	-50.4502524140213	-56.0770020355983	-50.393989797968	-56.2082531547387	-0.0583756203882196	-19.0483008532008	
10233500	-0.0474487175844776	51.931472402191	-50.8418674474182	-104.465415785623	-50.7753014575923	-104.438007942192	-0.245148579237163	-19.1594330248551	
10483000	-0.0492277352547261	49.9026486559462	-55.5770618354432	-166.992804009639	-55.5680092234885	-167.984658573325	-0.352816133322588	-17.9445049520996	
10732500	-0.151591852610296	47.5767948767968	-63.8785749890343	155.940854009501	-63.5554940239296	151.506293912941	-0.30754785964271	-18.6082885568161	
10982000	-0.266042034882992	44.7515456732958	-72.0352402962101	135.364124282193	-72.9646670023041	119.141499821105	-0.258410260287571	-19.9508113916117	
11231500	-0.290839069331591	41.6197823186206	-76.2611459999833	137.767785750195	-75.2862741309289	146.633533978347	-0.152986445449698	-21.0487182459715	
11481000	-0.209746144027084	38.6950836513957	-68.229979655292	164.558084936044	-67.5185053789209	176.095463488362	-0.0331015417367726	-21.6974068169132	
11730500	-0.0905579249943279	36.3112792490961	-62.603952855688	110.690352193306	-62.0107909945675	114.649957293281	0.00706738765477554	-21.9065943872646	
11980000	-0.0352036613447738	34.3259273576353	-62.2384800472052	52.4366812735502	-61.7887656183217	50.8104299802618	-0.087317173137143	-22.1354910569204	
12229500	-0.0986246040175601	32.3064967880188	-73.8951079509191	9.00352852421103	-73.2985169800027	16.5293303740944	-0.172113562712611	-22.4979753327955	
12479000	-0.228711964472576	29.7685863476342	-70.5051966730978	65.9235913239886	-69.5457356517281	55.5743203101963	-0.259299254433647	-23.979500307064	
12728500	-0.311985689105159	26.734390369931	-64.5495913790836	53.7609958511697	-63.7644600207697	50.8049238032198	-0.329177800683974	-25.8613390718255	
12978000	-0.276615369140177	23.5818632014705	-60.7718712169952	23.7447110804617	-60.4604511704989	21.9915624629588	-0.575706022451377	-25.7152689111147	
13227500	-0.162307991685065	20.8285458076932	-63.9943005358271	-10.6706862567184	-65.2714530186672	-12.8705875810152	-0.112165746119177	-24.6642946078153	
13477000	-0.0657172884311576	18.5722951526925	-63.7443520602973	22.6245107906934	-63.9882252639306	26.1196460823458	-0.0996978119022518	-25.9245442658996	
13726500	-0.076975661942828	16.4783016607412	-56.2809665789653	20.8803864110623	-56.4033991587461	20.4517799672256	-0.355958793674184	-26.7504914570654	
13976000	-0.194779134120493	13.9623423677646	-50.4101545009357	-16.3946096439123	-50.5539638812125	-17.3499142429206	-0.779979858325305	-25.9449102103346	
14225500	-0.327154456173705	10.7227596826658	-49.5601810701363	-62.4383027048906	-49.5692604387482	-62.3620040277283	-0.576775916886904	-24.8191068590779	
14475000	-0.371496659338386	6.91966045460301	-50.4928315328022	-85.0569296325845	-50.4042856952736	-86.4507125018248	-0.329051992780504	-26.8885806335127	
14724500	-0.310747734596848	2.98581305807273	-49.9142263078933	-99.9939945604345	-49.7100155755277	-100.461189223509	-0.302487990787858	-29.0612380158255	
14974000	-0.246510748188139	-0.924400439818775	-48.2716503276081	-117.031050776027	-48.241887807231	-118.229985703915	-0.653952192669533	-27.7895260848619	
15223500	-0.311880245337979	-5.29313714750818	-48.7209751109727	-154.435611222327	-48.6669182524808	-155.371405799393	-0.321229820782612	-25.3897655912476	
15473000	-0.685909900437582	-11.9107529190723	-48.7427574976791	-146.493673740756	-48.5876282779209	-148.079279495762	-0.215205706954041	-26.3296616858643	
15722500	-1.76042978982288	-23.8902691869566	-43.4168475412711	-143.406148067521	-43.7643330722696	-145.339753325511	-0.29181439385818	-27.805602100364	
15972000	-6.68789693073985	-45.8351374673845	-34.5721923436539	179.69747106473	-34.6075844389095	178.458991660376	-0.355897030856595	-29.2080567954638	
16221500	-7.98572965487951	44.355957589343	-33.2068505561123	102.367621780055	-33.3267013281539	102.519893634503	-0.254484120325722	-30.8515967319051	
16471000	-2.24690170064499	25.8360496927548	-34.8443749397705	47.2268961122379	-34.8633880585606	48.110766957224	-0.278617508723536	-32.1456840299608	
16720500	-0.962495565891516	14.8241610901244	-38.0498560985392	-11.3016024824228	-37.8302436882401	-10.760623022065	-0.463953985275642	-31.0797321930179	
16970000	-0.5179273165497	8.52495703280517	-46.7178211670956	-53.641561639177	-46.5953187998748	-54.3067308993713	-0.346379902493599	-29.4913190486066	
17219500	-0.426899145506041	4.05798266704382	-54.9296174455458	-25.3085657910187	-55.0797497020814	-27.9434780569739	-0.310673362953518	-30.2182297044521	
17469000	-0.470464104614344	-0.0118154122795663	-50.6596144707061	-19.6141156545452	-50.700666357027	-19.1233763892768	-0.442178784471344	-31.8770249981181	
17718500	-0.478318960971015	-4.02995402794768	-53.137560877529	-62.6066214383901	-52.7305487308023	-64.2009922988294	-0.475239623654434	-32.0027568615198	
17968000	-0.384509063594495	-7.68647303238136	-57.9481556600377	-52.463045177864	-57.7627404429536	-55.5067568258373	-0.263326457151525	-33.3873842529927	
18217500	-0.228252006578619	-10.5469525017908	-57.7048063030884	-44.3313148196571	-58.0223600118463	-46.343796133796	-0.133942991072613	-34.359666999872	
18467000	-0.124341323278338	-12.6581120956171	-57.0201346690359	-46.25390134102	-56.8318847555739	-48.1446224280632	-0.116981071080734	-34.9277546976889	
18716500	-0.146346587700241	-14.5148223870236	-55.9991978331593	-54.0530412357182	-55.5380814089489	-52.8852844398593	-0.251135436979699	-35.5997657115267	
18966000	-0.25641446492321	-16.692989892406	-54.5197400165943	-65.2403710301665	-54.3697720453499	-64.440812913848	-0.519473920921914	-36.6712601547027	
19215500	-0.358601860963269	-19.3881691755956	-53.1449561030599	-78.802236179859	-53.0686067183342	-82.7090388350248	-0.853726511858359	-37.7437487384609	
19465000	-0.355077946157034	-22.3063057782463	-52.4631926255027	-102.772040040568	-52.2901292095484	-104.479255225883	-1.09778199126672	-37.3502846537842	
19714500	-0.243069013424239	-24.8707854058074	-53.2344116280261	-127.911045018674	-52.9850668338013	-129.906817220251	-0.946514964920038	-35.5603989417709	
19964000	-0.114421579419689	-26.7970049339468	-55.0746037769824	-148.59587605214	-55.1596235695804	-148.84487806603	-0.554237863139157	-34.8223495075731	
20213500	-0.0799966439636025	-28.2672001747861	-56.167029098127	-148.699281878258	-55.9650438970414	-149.50069501078	-0.388160752314255	-35.4686557208371	
20463000	-0.16224820162234	-29.8892316660055	-53.0863001018098	-165.969955166984	-53.0874430984028	-165.121534760361	-0.619634567107596	-35.8329163913888	
20712500	-0.291081846560514	-32.0400302996155	-55.8661797772748	156.410730006451	-55.958800811184	153.267450709418	-0.656928124065514	-34.5533709397716	
20962000	-0.356275330510419	-34.7012720327176	-59.6798254698436	151.43976857901	-59.8417992158068	151.912981497871	-0.486571969620034	-35.9820379039019	
21211500	-0.305328702122843	-37.35978861974	-60.150747584383	151.353133239155	-59.7810818483443	150.805040079538	-0.361521985518633	-37.7225362721886	
21461000	-0.17318526432754	-39.5437861539744	-60.3824964651073	143.652977315838	-60.6336043261577	144.494063412055	-0.208297006993374	-38.9635899100302	
21710500	-0.0837784397694527	-41.1452481190233	-60.2631430016282	143.166599095954	-60.3053761096049	141.798232748647	-0.113421540139257	-39.5848397414191	
21960000	-0.120224839352813	-42.6156131612853	-58.6504442419102	144.552141861685	-59.1474756623578	143.568395220914	-0.148699752583597	-40.0582819469129	
22209500	-0.28501213284693	-44.5499128696936	-54.1314642297614	131.250524084823	-54.2766928674666	132.128468839214	-0.317959753212402	-40.9370075134853	
22459000	-0.562478038515348	-45.823787535108	-48.803125916769	56.8185806862725	-48.5633006974319	55.2592748412968	-0.579697413909825	-42.3128843565394	
22708500	-0.348838702834362	-48.253099508306	-59.8119933195053	-29.9239265206399	-59.8473028466986	-29.9833258131762	-0.8936128156216	-42.9946801518621	
22958000	-0.230194146708337	-51.0063976033028	-79.3668845074495	-0.425739736445116	-83.1673388883991	-48.4457710694756	-0.79993100649246	-41.8126562344694	
23207500	-0.097114470854688	-52.9535546878279	-80.2171011133489	63.1990563969298	-82.9057088120146	27.568126998116	-0.464829220230547	-42.6048348931416	
23457000	-0.0507166230359897	-54.3763469480037	-69.4356636461909	165.521610023733	-68.9571104952786	167.022953595464	-0.481993797866475	-43.6251594974551	
23706500	-0.126249665759326	-55.8992904695846	-60.0474375611741	126.879719594121	-59.9597250157539	129.578894085121	-0.798040833741704	-42.6361207665025	
23956000	-0.255761700556329	-57.9766227442937	-57.7032452455417	77.068246686533	-57.3653426634786	77.0817022843392	-0.737690568887144	-40.9207957957777	
24205500	-0.332963907039309	-60.5925734462091	-60.0262272883231	28.0758459738767	-60.0861557667533	25.9318450354613	-0.640622459907262	-42.6340634720257	
24455000	-0.296386842622053	-63.3016992573347	-67.3243306654744	-7.44534375563808	-67.5159484308173	-12.3498900825121	-0.703254555190604	-44.6651169769024	
24704500	-0.172844962726246	-65.5666206746707	-66.1282698016653	79.5776957316676	-66.0159449148699	79.0072657374189	-0.725126936214954	-45.3199749432321	
24954000	-0.0843868178137218	-67.2217899850038	-59.2868865765019	35.7114267239886	-59.3855955962585	34.9967245424579	-0.617058414146692	-44.5139619048407	
25203500	-0.122770057385637	-68.6905393842897	-62.7359969404095	-20.4647365573641	-62.6918688450196	-21.454192375453	-0.390817473363651	-44.2824934553372	
25453000	-0.283021554479097	-70.4454051347093	-81.8150352428727	-122.210074219515	-77.6450641611533	-102.12679681527	-0.407067747516919	-45.0623984979743	
25702500	-0.442958771177382	-72.6995911780479	-65.1252214953425	85.147420964725	-65.7273716383815	86.3898602128552	-0.575721705459751	-46.2103076827491	
25952000	-0.514453304394437	-75.242279024807	-61.9964395575081	45.9122045642598	-61.8146239679655	46.682197080201	-0.751129766300719	-47.6376025115968	
26201500	-0.456463991623303	-77.5655022005154	-61.1660520310086	23.0168599652612	-61.6138137109266	20.3207231013087	-0.854698389971066	-48.8498335435424	
26451000	-0.357426304725879	-79.1179399863308	-63.0218768343108	22.5973247395538	-63.0924298963854	22.5079355930132	-0.869259054573157	-49.0964973418603	
26700500	-0.310799101969114	-80.033997654122	-57.9539897890548	36.356475585727	-58.866549585541	31.954647660854	-0.829518156443414	-48.2445547102616	
26950000	-0.351810879238315	-80.9976904268172	-55.007176970907	9.71008875366158	-54.7863370552358	8.66584558674096	-0.785322376929553	-46.9906628920224	
27199500	-0.441924162194625	-82.7630292827091	-53.9205626232237	-16.9908655373498	-53.839557489259	-17.7184908636863	-0.787624626311968	-46.2991520053262	
27449000	-0.499207413930357	-85.2748603151819	-53.8005906721608	-39.8556217152027	-53.6771858261946	-40.3611268844361	-0.797706074224027	-46.6154714323977	
27698500	-0.442308457338723	-88.0156680704833	-54.6962366771956	-55.7027812938376	-54.0946066733946	-58.8463066047846	-0.753514699472774	-47.7418226711651	
27948000	-0.305871847197163	-90.3675013575801	-55.1223044127964	-62.4330722751476	-55.0835810630378	-67.7972301543541	-0.617116279336065	-49.1551893757117	
28197500	-0.195692324262082	-92.0077122207093	-53.7735837536931	-65.9877546164086	-53.5485849517933	-68.0451887271933	-0.437144675047368	-50.2451263349485	
28447000	-0.178473039514597	-93.36517674313	-54.0928971330292	-90.0138719325173	-53.3486499634591	-91.5592401361784	-0.315488634209226	-50.8785930553645	
28696500	-0.284455243153267	-95.1172542571704	-53.753522425235	-101.33870251565	-53.383082740944	-102.733119018492	-0.351195296453857	-51.3665540001	
28946000	-0.399138278814388	-97.4590292431672	-53.3035767072254	-108.179945718481	-53.4446801821261	-109.60445607647	-0.517553618945345	-52.2350942797399	
29195500	-0.432453897480506	-100.240681017325	-52.5579410383772	-116.508581036332	-52.6464414159831	-116.453466144478	-0.740612316537506	-53.5706050765782	
29445000	-0.345840936988241	-102.90005698349	-51.3426233157764	-125.430857759365	-51.5951229228857	-126.35159823123	-0.917411080848866	-55.0295270925116	
29694500	-0.212277949106571	-105.008829633473	-50.5393850320938	-136.109806056611	-50.472927450746	-137.909816101398	-1.00529244589985	-55.9078649203571	
29944000	-0.149336977377831	-106.553177264032	-49.3742708842792	-151.20095117111	-49.0732928893452	-151.410201873749	-1.05350188707508	-55.600030840606	
30193500	-0.22165921765967	-108.115296649253	-48.3535587067729	-168.375690674285	-48.2006824651063	-168.675927417144	-1.09593032353932	-53.8530789032659	
30443000	-0.363663298585653	-110.294672366344	-47.8141736579586	174.52074622885	-47.8511902729536	174.496366642635	-1.0132277337451	-51.7345528083239	
30692500	-0.469627417010861	-113.082083232354	-48.2698692367771	170.844550273868	-48.0753924094124	170.28787278387	-0.820911446157978	-52.7457684928126	
30942000	-0.45437673715686	-116.028336590065	-44.7483459474051	153.241490624217	-44.5753092088588	152.632004161935	-1.23429535482649	-54.2826778749123	
31191500	-0.335197090604686	-118.573405442708	-45.0892018868175	124.68541927541	-44.6464222807954	122.98306512484	-1.19327424672596	-53.7703783103547	
31441000	-0.209512386831629	-120.547785547983	-46.0630450157984	105.025633243973	-45.7989923648142	103.214496444847	-0.901155380121694	-53.9073598707968	
31690500	-0.219227259528818	-122.379184326916	-47.1690794572064	100.911446654614	-46.9250755544899	99.0873128687679	-0.592821045407907	-54.5024572006604	
31940000	-0.389368869016772	-124.421334937392	-45.9641699813475	93.5589111971721	-45.787159301281	90.3081080574193	-0.461921101768898	-54.9038656415569	
32189500	-0.547002728074489	-127.150898103536	-45.7524212144589	81.2451341347453	-45.5428422061879	79.0779440030126	-0.500289040334477	-55.3783923315333	
32439000	-0.622534964716145	-130.703507430965	-45.0998873510135	73.2085150137191	-45.097232193193	69.8031823392732	-0.620554254902751	-56.4578124629005	
32688500	-0.611309625105854	-134.362742374258	-43.9206085518467	65.0151219955965	-43.9080015007263	62.8786912297715	-0.730082975256027	-58.011754972055	
32938000	-0.603713549862299	-137.695689133068	-42.0841837568978	55.6617927421847	-42.1498501757126	53.9393087866151	-0.750339428649002	-59.7156113306835	
33187500	-0.783262200928402	-140.852172921012	-39.7358294949972	42.5483648257479	-39.7699301061938	40.508582193056	-0.701851323675676	-60.8716287673056	
33437000	-1.37486758500927	-144.144047022439	-36.9610720631241	23.4541179826141	-37.0092177332722	22.4096356309514	-0.692015699100451	-61.2745240227497	
