!Keysight Technologies N9923A: A.12.45
!Date: Friday, 08 August 2025 17:59:42
!Timezone: (UTC+08:00) Kuala Lumpur, Singapore
!Model: N9923A
!Serial: MY61181427
!GPS Latitude: 
!GPS Longitude: 
!GPS TimeStamp: 0001-01-01 00:00:00Z
!GPS Seconds Since Last Read: 0
!CHECKSUM:0125385526
!Correction: S11(ON U)S21(ON U)S12(ON U)S22(ON U)
!S2P File: Measurements:S11,S21,S12,S22:
# Hz S DB R 50
2000000	-0.0987884633476416	151.252339381208	-81.1293324000402	143.967434186382	-84.9339399602256	161.532630409008	-0.0318337520965697	-3.15515312303002	
2249500	0.016371928523511	148.18541384461	-68.524836824532	129.334668695489	-68.5069858688336	127.321106488831	-0.179341740085399	-3.80143791441666	
2499000	0.00504017971403577	145.344914452653	-58.4790934753329	15.0864905743095	-57.9335914380638	19.5773913486255	-0.252896732142317	-4.28446358667446	
2748500	-0.120076013079175	142.194054841485	-58.8850628262589	-17.7310694442572	-58.7641897609508	-18.5293186915782	-0.149498998276049	-5.38629353862763	
2998000	-0.27564470324598	138.428468643908	-50.5268298735468	-53.8239997400151	-50.6321494399773	-54.2570183498881	-0.0216436530716293	-6.06413949399812	
3247500	-0.284772139870649	134.794978286673	-53.3639842520631	-178.503233669466	-53.4168294611585	-179.077117925915	0.0721077759600051	-5.99045957789782	
3497000	-0.171058779284995	130.943827819927	-59.1964407759058	160.503384872705	-59.1487232309342	165.120205830564	0.0522309854358284	-6.07371395095505	
3746500	-0.0309845952291615	127.816791436665	-59.3336018649335	160.640416660373	-59.1910713250002	160.44013537443	-0.0725116689153963	-6.41963706393766	
3996000	0.00840089928492256	125.101034968421	-57.8710994035858	146.081943102881	-57.9641337236868	145.429563280423	-0.19606280832217	-7.34805404766017	
4245500	-0.0831882702271258	122.232291045066	-53.4817349466866	133.658620212411	-53.3612879915092	132.518198875965	-0.222869489359133	-8.62999854249682	
4495000	-0.253562579198362	118.740427367175	-42.7139656103924	100.133148815777	-42.8208050760907	100.539121356366	-0.184902487157558	-9.87457386672418	
4744500	-0.31153539138875	115.427066739365	-43.2758509105272	-22.2045951372405	-43.2536690330323	-22.6709755940591	0.00487019163305638	-9.41047399445215	
4994000	-0.24320031387041	111.590526452232	-45.4777711203728	-56.0920603444669	-45.4533825024993	-56.3181064698041	0.0699327069552464	-9.77591000035583	
5243500	-0.110006612678202	108.448190093131	-42.9226016653993	-129.537015187525	-42.8037743848896	-128.701812671647	-0.125726755271763	-9.30604093060758	
5493000	0.000306170936022193	105.824877594372	-50.8519411463508	165.228085693937	-50.8591430062597	164.956265335285	-0.138452142948841	-9.17061812997236	
5742500	-0.050284488057953	103.18571621995	-55.672930671813	142.071917955163	-55.7613996678317	142.992611815386	-0.216516982175135	-10.3117338147471	
5992000	-0.230270514575028	99.910677944206	-55.7503022622036	111.662181735561	-55.8133679775028	111.546166584902	-0.200917769605129	-11.5940120300319	
6241500	-0.373283068000922	97.6570689555884	-65.4607903377156	-29.8447314190455	-66.6085479760092	-32.850278804034	-0.0578587826421376	-12.6404592464292	
6491000	-0.295191824629338	93.5909629337732	-68.583562900772	158.599083057042	-69.590440863416	151.728123773601	0.0251377600419204	-13.1791071794237	
6740500	-0.158985854371754	90.2442675515912	-63.3675600377271	112.223842100822	-62.8785581018142	109.499669327494	-0.0937031895899609	-13.2142323158871	
6990000	-0.0277804252240782	87.5914604514977	-70.1909861080121	44.72983905562	-68.5760026490646	34.608086041268	-0.107921218117968	-11.8394492581675	
7239500	-0.0189447721498868	85.3391344719536	-77.07733847902	58.1402911811811	-77.5639568926155	75.9574507478426	-0.171134402728912	-12.8257445575431	
7489000	-0.137226168897171	82.7933387114905	-71.5931316568981	91.6625670378572	-69.4858030981466	85.2508543237489	-0.246429407028023	-14.2218458070003	
7738500	-0.282687472910341	79.670362669095	-59.8716035834221	78.1835869187089	-61.1743812431157	57.0786043684306	-0.2486691985497	-15.5397457007375	
7988000	-0.32699576042177	76.2005975714	-66.5482983351511	5.10914582679303	-67.3931851246583	1.08218624441212	-0.0619637755652018	-16.0651719676884	
8237500	-0.242638497726651	72.8491579080833	-55.8546340103228	12.7206918709031	-56.0972326188362	13.5237517366419	-0.0197147553139405	-16.3305308451662	
8487000	-0.0943247231736462	70.1563192431894	-54.7034078055401	-47.4030658523634	-54.7445965973775	-45.6983520615211	-0.0534699039663058	-16.1237312110289	
8736500	-0.0315946263274664	68.0165538918589	-51.1836829747908	-104.335920988393	-51.2294653072067	-103.825109562868	-0.253668101648327	-15.8050020085462	
8986000	-0.11217172260289	66.0078394848229	-51.960890713195	176.312093763342	-51.8147391206951	175.613090274821	-0.347443869053184	-15.6860449642214	
9235500	-0.254816684338284	63.4397103111687	-57.3361448487847	108.351577189861	-56.9306178633539	105.71153945356	-0.312078197208801	-16.9009981972758	
9485000	-0.348337452269502	60.2187842768775	-64.0312568935978	61.3634107935624	-62.9150037883805	61.3861320079393	-0.194060800514401	-18.1992465829049	
9734500	-0.307133475100821	56.8817388699362	-69.9033815813544	26.7461052400346	-70.0156229272558	30.2713443387106	-0.0363009363398621	-18.9715958167276	
9984000	-0.159511150185958	54.0235629743473	-75.0604801691078	-8.44495166478889	-74.0280502253559	-16.3930276703137	0.0492780801907694	-19.2139822489325	
10233500	-0.0342986388641622	51.8420865916437	-74.7728986704877	-74.7172733531485	-74.6039325990243	-62.5803942691792	-0.0231250008112938	-19.4080956375427	
10483000	-0.0353563832861095	49.9617043324797	-71.4942365750331	-104.06383010892	-73.1118857768784	-95.8615250145055	-0.246192050454294	-19.9955612540243	
10732500	-0.166173594445425	47.7289546674823	-69.4393962392315	-149.393251280089	-69.2732322825939	-147.05693760652	-0.537405578473544	-20.5425781727708	
10982000	-0.315651137109806	44.8409805914203	-69.8676571717208	178.272370316383	-69.9316123556966	-174.265822436429	-0.544522257893502	-20.371351073571	
11231500	-0.350646356325815	41.5380784514248	-67.5356280311336	152.148739649012	-67.2106849432448	148.056666906457	-0.300578448657642	-21.0604739709769	
11481000	-0.245347830272687	38.4989931001566	-61.947200403364	133.036115041943	-62.6717502462224	127.908837433659	-0.0728557972111697	-21.724094375638	
11730500	-0.0895128769940559	36.1573566478985	-60.8489406408603	84.6879706082554	-60.8935291857849	83.1173270095496	-0.0164016390184008	-22.007284733552	
11980000	-0.0177686703641582	34.3254839966686	-61.4871059987887	34.3608229518694	-61.2174843887268	29.5799134757062	-0.174848894613528	-21.8238142554087	
12229500	-0.0975328638930183	32.4583345341292	-66.4782671239363	-10.3143647000521	-66.2912335798275	-13.9664951535638	-0.282318802025531	-21.7117222970093	
12479000	-0.262467451834367	29.9398131229321	-70.8019460057846	-7.87232954072751	-72.0875458815784	-6.05336200800075	-0.339195024335083	-23.0324386984026	
12728500	-0.370697263598465	26.7625542676026	-70.3464001909977	31.2803177859861	-69.6741386206953	35.8144462495098	-0.323893323041498	-24.8016248355064	
12978000	-0.327186469738003	23.4328947173453	-63.1240899303336	32.7912620422634	-63.8325147326023	28.775201168092	-0.304718713988088	-26.1017117273203	
13227500	-0.178013268087674	20.6239911420955	-59.9553633882996	-14.3470505985457	-60.3869932152368	-14.8017941317434	-0.288033427835051	-24.7735135167861	
13477000	-0.0525589159835888	18.4938471553576	-61.3910004602885	-34.6432809182049	-61.5736380109619	-33.9245464716654	-0.054246220374333	-24.657562765288	
13726500	-0.0644480878033253	16.5783271659302	-59.5998024587752	-47.7867786460508	-59.8938892511703	-43.1936835128882	-0.175432666571794	-25.4236972036495	
13976000	-0.211519044637752	14.1540353421464	-56.5627701940468	-60.0752789950044	-56.2884388856437	-60.3233457887862	-0.459481811680449	-26.2524015099273	
14225500	-0.379025098855778	10.8301623299467	-54.0881303672395	-88.4726146882311	-54.0052623806004	-87.9280827888331	-0.647562421429085	-26.534345648696	
14475000	-0.430947191171984	6.81403446853251	-52.9254203260708	-113.389179523679	-53.3184090530994	-114.031924383203	-0.517291079729105	-26.749155448831	
14724500	-0.343309927253271	2.74243870695617	-52.4505620919054	-135.18671922016	-52.3302816097887	-133.342414600706	-0.247111550256314	-27.3086719575745	
14974000	-0.244124040681389	-1.12836493149775	-50.7165727985975	-151.101830209858	-50.5436479132544	-148.42968046245	-0.0675600056994919	-27.6431109336197	
15223500	-0.301821269125102	-5.34675737440707	-46.7046507106975	-159.381797928097	-45.7507271533949	-159.348166148719	-0.0829205038395682	-27.9027472662459	
15473000	-0.716267708328662	-11.6426468205564	-40.8191029256908	149.153717222802	-40.8881291054456	145.302779738408	-0.28663172317461	-27.8589761524841	
15722500	-1.80745192627007	-23.6748680827185	-42.6151199178214	113.340589769951	-42.6642413107591	111.945584411195	-0.368059717041116	-28.8389632281462	
15972000	-6.81009369838237	-45.9858606188614	-38.812925202666	87.3126314873791	-38.7661575183483	85.9960132275249	-0.446913267495993	-30.6573506527518	
16221500	-8.13395725955476	44.71003098605	-36.8444593999884	28.3226462344785	-36.7845830543481	27.18499607125	-0.449100632947768	-32.145331283802	
16471000	-2.25846701471414	25.7109365697951	-38.4072973658065	-19.7970671297938	-38.402382667127	-20.6428735857918	-0.445693929197134	-32.4532370892046	
16720500	-0.941537024594301	14.5458790860681	-40.1359837735024	-59.6943761125455	-40.0359717317323	-60.7456435511068	-0.460360082296392	-31.183742967576	
16970000	-0.495967178168967	8.51281606693333	-42.4395072113118	-96.3006871856728	-42.3663193845687	-97.100031038608	-0.43482514438439	-29.7581961706932	
17219500	-0.428151859967247	4.22115914378106	-45.069505041562	-125.328374911706	-45.0683328489358	-126.777504423714	-0.444631436595102	-29.719802341143	
17469000	-0.511727930977848	0.135370799600865	-48.3108248681785	-147.513676672291	-48.1769182903341	-146.296953181899	-0.478364985752598	-30.9633565762976	
17718500	-0.540599186256527	-4.05840046615514	-50.29816994021	-159.886587457878	-50.1529092180957	-160.096773141626	-0.446367155314831	-32.7619177176122	
17968000	-0.429127530122683	-7.87372200820616	-50.9663103899486	-173.948893921944	-50.9836099693816	-173.633127493747	-0.326517787015657	-34.3144407905846	
18217500	-0.235309390446803	-10.7351120385382	-50.8589933534957	171.726398991158	-50.8782017996997	170.843821613315	-0.234534231610683	-35.1237367112575	
18467000	-0.107424267550495	-12.6801661245451	-50.098576788447	151.956201119916	-50.26515706302	150.881015501143	-0.317916735114847	-35.0519851024189	
18716500	-0.139411196162231	-14.3594579824278	-50.0562375954965	122.388431672129	-50.0130863066918	122.30735708398	-0.543642755167411	-34.0043463027573	
18966000	-0.28324671526533	-16.4688711480371	-51.9081201302907	94.4324197441359	-51.7476784546643	95.2359424430289	-0.648599933102862	-33.2095569536343	
19215500	-0.417899092653682	-19.2985641504981	-53.8723554110141	75.7549316430621	-53.8077526450929	75.9050127329821	-0.627748857262662	-34.1637648574326	
19465000	-0.413079302053488	-22.4258766603517	-55.0109216588597	60.6237760601057	-54.981081511298	61.5620045028191	-0.530230387031653	-35.8526338354479	
19714500	-0.26904998825114	-25.0944451467231	-55.3511138253466	51.6799702650077	-55.2231004373793	47.2453651119767	-0.377423608559552	-37.1870507440002	
19964000	-0.1044053035499	-26.9174664794196	-55.0342973775052	36.3178451929685	-55.2132034615495	32.8792372179535	-0.280633271682428	-37.619942714123	
20213500	-0.0623734951550125	-28.1875947806042	-54.9621502198198	15.8294821322956	-54.8846290058425	16.5288537228071	-0.346562683670371	-37.3572508846752	
20463000	-0.169534908617915	-29.647209625243	-55.1228676426375	-7.5681261786923	-55.042308680573	-8.24902312393575	-0.546282039030754	-36.8298937527669	
20712500	-0.337998375287046	-31.8361011195061	-55.610172039511	-30.2906757403864	-55.5296967055676	-30.3707058910685	-0.7219668006565	-36.689981709328	
20962000	-0.421740898248127	-34.6972925548478	-56.7534619483366	-47.4570272810725	-56.2261347079287	-50.1652012963584	-0.73459503110706	-37.4184998957742	
21211500	-0.352788738937687	-37.5565437506547	-57.5035362970891	-61.8462142429865	-57.0264603596814	-63.1685329086368	-0.593954277189161	-38.6460694540122	
21461000	-0.181949940018955	-39.7545815241566	-57.6511202926162	-75.5393640425298	-57.7335940032174	-77.1214774122414	-0.38668499541017	-39.6166253119865	
21710500	-0.0661459755437001	-41.1912306153586	-57.1445758885637	-93.1205320941474	-57.0568900556674	-94.3134801042615	-0.269008278133217	-39.8847934685155	
21960000	-0.109599157981346	-42.4582061552833	-57.5340573196387	-106.668811370088	-57.1570635310389	-108.75865997816	-0.31165804765504	-39.8328252784559	
22209500	-0.31146463634129	-44.2994882337898	-52.7538584276641	-111.041254498937	-52.7133981226329	-111.490550888056	-0.509570926634118	-40.1355348418968	
22459000	-0.62397906254491	-45.64367043508	-46.3254685942552	170.147514693427	-46.2420718947552	169.791964420297	-0.74432273712624	-40.8943333933812	
22708500	-0.409736277968224	-48.3195061126911	-56.3915651149967	89.5033409253411	-56.5044946392349	86.6839330519192	-0.841170876680116	-41.7506456172904	
22958000	-0.260174498440309	-51.1984236412827	-68.6678283319755	78.3777637046073	-69.7034283862375	77.6898018048921	-0.727814754799912	-42.3915391338777	
23207500	-0.0902524335410614	-53.0802755939845	-68.8311740900433	131.831816152132	-68.8999901853842	130.349598470554	-0.502279491954315	-42.728038173753	
23457000	-0.0314095416194501	-54.3089578934733	-68.195552317025	103.859306277277	-68.2260435343463	103.964874060918	-0.42739919587502	-42.7273701077233	
23706500	-0.130802319389884	-55.6634446097067	-74.2664004175177	134.287003797654	-76.4509058782035	115.39646023555	-0.523036921801833	-41.8990205458853	
23956000	-0.299211476666319	-57.7454068216724	-69.286741054029	151.465085942151	-69.7159392197595	161.502061169179	-0.622794978026724	-41.7726493261059	
24205500	-0.398881357791433	-60.5526661565215	-66.977873215523	117.446000502816	-67.4165869523721	120.298670073231	-0.709572903378684	-42.8270254127261	
24455000	-0.347668810157802	-63.4646781841988	-67.7571862397479	79.6622631300552	-68.1474213162996	84.0639814406434	-0.693953858911614	-44.436385347318	
24704500	-0.183624392238382	-65.7593474077716	-79.3196199805728	31.5205126443532	-77.7875919383519	64.5689101967851	-0.57600254713068	-45.6434358602619	
24954000	-0.0685494731571188	-67.256628463332	-68.0662307267397	170.216141742053	-68.1639586607222	172.802614865389	-0.469643474981609	-46.0830440675334	
25203500	-0.110667338073057	-68.5098008858101	-59.9915617452738	139.760433548589	-60.7717190628664	139.368592377886	-0.479497641759979	-45.7706733724613	
25453000	-0.306957791716922	-70.1611793734312	-56.3853518266996	101.071627147952	-56.3272677526963	103.676681243864	-0.632686335397866	-45.2752072678181	
25702500	-0.502469384185439	-72.5099274759836	-54.5135066436001	64.0395391578339	-54.7745041291825	63.9245228509978	-0.826501545509342	-45.2518060280749	
25952000	-0.579332184920786	-75.2879524358103	-54.2176213062807	23.7818139425349	-53.8617302536304	26.3428325222728	-0.912154356026623	-45.9549857072632	
26201500	-0.491443096631577	-77.7606565223789	-54.8466674754435	-1.8353591280523	-54.2957785471164	-3.59425992744694	-0.820021880286952	-47.101636892996	
26451000	-0.349107632861278	-79.247072285634	-55.7608931964089	-24.411677072987	-55.7690126830493	-26.9555004711419	-0.609047176364527	-47.987763066199	
26700500	-0.285920968990442	-79.9656088581384	-56.4593005029379	-40.6892808829391	-56.8263268371805	-42.4728492632086	-0.439832133408455	-48.2638212921199	
26950000	-0.346883505127537	-80.7346904943343	-56.4754824741968	-56.4906272594146	-55.9469164548985	-54.1753033272584	-0.437002315658054	-48.0749128942468	
27199500	-0.479042413246589	-82.4691140665063	-55.6731685807975	-70.5423601785043	-55.1628906909348	-72.0437556262248	-0.611599121980574	-47.9674179793835	
27449000	-0.563726509318945	-85.1583625825042	-54.9505338602077	-88.4839082409014	-54.120971173564	-88.8682907780848	-0.804409043451401	-48.2333559298261	
27698500	-0.496403375850285	-88.113225791698	-54.1115066927601	-109.721923003003	-54.1617504648381	-111.609977778084	-0.846008351418813	-49.3437855074668	
27948000	-0.319825462280777	-90.5298278780794	-54.1344602062253	-126.216796865167	-54.0189079961084	-129.945226555114	-0.753020174989088	-50.8562602102003	
28197500	-0.176564857852963	-92.0386413408182	-52.6376430873759	-149.947461419313	-52.9409780946227	-150.226272125115	-0.604252939657535	-51.7394455014042	
28447000	-0.160812831267492	-93.1654102068455	-53.2230511774839	-176.922124290583	-52.9913879747812	-177.771150689063	-0.520041494469333	-51.7737545029276	
28696500	-0.299515301312362	-94.7924326192775	-53.2826266033075	164.197206109159	-53.1055733959283	165.622554236738	-0.605124286414201	-51.3137614180279	
28946000	-0.455115232819803	-97.2232195546871	-53.3321521978787	148.388338132959	-53.421035138435	145.420587657217	-0.792813894379412	-51.053090794761	
29195500	-0.499023200643988	-100.253654871157	-53.8035588257616	127.848906413506	-53.3659118662433	125.980848712379	-0.951733310649099	-51.5038861128504	
29445000	-0.385976116405658	-103.101859182903	-53.9896735681204	109.528051237957	-53.8131938645721	108.961050408063	-0.964938284891935	-52.6355162810831	
29694500	-0.2105131807483	-105.193437746661	-53.8417043595617	92.4626402351698	-53.5152964770004	93.1035846728555	-0.820059566587513	-53.6836044918724	
29944000	-0.129255027693378	-106.537509837104	-53.6052104107337	79.976990808279	-53.4864914577054	79.2378005508461	-0.618631433295903	-54.0732424033966	
30193500	-0.21887080856399	-107.895438914308	-53.0068288808778	69.1758219781694	-53.3224086107397	68.7900712896924	-0.514269617680038	-53.868452499856	
30443000	-0.401341425501814	-110.026370765273	-52.1782828035214	56.2682746606566	-52.0295113400064	56.78375681193	-0.599750138976021	-53.567628823515	
30692500	-0.535964392626939	-112.979050468364	-50.7095773932961	39.6315239301127	-50.6719931716675	36.7923830426297	-0.794033538241331	-53.8525775924416	
30942000	-0.511903090573924	-116.14610751909	-49.0730541046389	17.0424810628807	-49.0415002863875	15.8409991235412	-0.971961145662137	-54.9411748894125	
31191500	-0.352813071879013	-118.770691489264	-48.2375435309806	-10.4145227039862	-48.0946742795377	-10.8522281561569	-1.02217264785031	-56.3576572495648	
31441000	-0.193886324939259	-120.620938671544	-48.2914703531166	-33.7713152097123	-48.263090667548	-35.2354616634151	-0.916963395019812	-57.2367180357283	
31690500	-0.202583438927541	-122.23090024211	-49.0302603740242	-46.3084787077624	-49.0708989230235	-47.0059818213439	-0.760291817184419	-57.0846285536108	
31940000	-0.407898377451395	-124.166526368641	-46.5420959518716	-62.1086725638736	-46.4982627440793	-63.4969036790668	-0.692177258428864	-56.366597734942	
32189500	-0.607948418788157	-126.975821645518	-45.8169295884105	-91.7641289638557	-45.8379546317634	-91.6527256457261	-0.768478685744463	-55.784617712054	
32439000	-0.695544059925286	-130.781134355995	-45.7061139379905	-111.585479642876	-45.5612134596324	-112.421326668451	-0.903951100692395	-56.1360062169878	
32688500	-0.653245974531109	-134.650800675579	-45.1342459495976	-130.687473683163	-45.0786148481747	-131.582924803313	-0.990854779010943	-57.3485346460732	
32938000	-0.605755630513212	-137.960609309089	-44.0963606555218	-148.649170812677	-44.0965886627058	-149.39859232075	-0.944496389802359	-58.8948792478435	
33187500	-0.772804590916292	-140.917243929557	-42.5775409022542	-169.600590616145	-42.6166035591855	-170.28146890888	-0.783404110501825	-59.8545124093017	
33437000	-1.40842229835351	-143.989573901711	-40.4287444837122	165.961255777882	-40.3576098289216	165.124664108576	-0.655743456476208	-59.9607626664843	
