!Keysight Technologies N9923A: A.12.45
!Date: Friday, 08 August 2025 17:56:18
!Timezone: (UTC+08:00) Kuala Lumpur, Singapore
!Model: N9923A
!Serial: MY61181427
!GPS Latitude: 
!GPS Longitude: 
!GPS TimeStamp: 0001-01-01 00:00:00Z
!GPS Seconds Since Last Read: 0
!CHECKSUM:1350561004
!Correction: S11(ON U)S21(ON U)S12(ON U)S22(ON U)
!S2P File: Measurements:S11,S21,S12,S22:
# Hz S DB R 50
2000000	-0.0969316156483571	151.278173095038	-83.753020650626	77.8709232861754	-84.947176315715	146.103109022498	-0.0364023915035876	-3.26666868250237	
2249500	0.0124159738552947	148.202381210361	-71.6419292265242	145.216785960767	-74.570809042753	142.305035164919	-0.165210852553606	-3.85737704232197	
2499000	0.000795487986609846	145.323641850678	-57.9055170799803	102.561450570954	-57.7544980598071	103.305111304615	-0.258316503509947	-4.90187028249582	
2748500	-0.118705642421711	142.199252707677	-54.1547563574818	-4.09343130964481	-54.0085967295338	-3.21277418992628	-0.161786146120774	-5.3115510786877	
2998000	-0.258768327667163	138.479602151406	-50.6440989552113	-41.5066251945603	-50.6637866356645	-41.8889384949947	-0.0242148954098341	-6.0141022730371	
3247500	-0.289874745006333	134.842158020235	-49.2954673934659	-162.864184126573	-49.1792724431932	-161.824625677175	0.050993061508695	-5.82775341474089	
3497000	-0.16634102633005	130.988320794607	-57.2779109578078	168.266806223149	-58.1073800371758	170.708911315377	0.0472677550683663	-5.92685429116053	
3746500	-0.0340730196398369	127.858587855989	-57.7072520782571	171.231569088557	-57.8249614131937	169.472438980217	-0.072337729016216	-6.25352805460984	
3996000	0.00679175264832596	125.116578014519	-57.8616242903524	149.745555464368	-57.9101589860747	152.33448598434	-0.185846337293241	-7.15694613489143	
4245500	-0.082614754242088	122.2357971026	-55.1251423831891	140.192504486755	-55.3675269039846	141.874186505914	-0.209379187707574	-8.39833314918237	
4495000	-0.23184524043375	118.781571942356	-47.0973828764682	119.855226670148	-47.3612169367148	121.03467731282	-0.131838902356027	-9.57560941100616	
4744500	-0.333262833086786	115.560796712039	-40.6949118551331	1.82663033440453	-40.389044960517	2.19329115324951	-0.0407653200647449	-9.2991901342647	
4994000	-0.233270940724511	111.647925264353	-47.6724925411618	-43.2190147532611	-47.6520867169268	-42.7893568132732	0.0747459621811612	-9.66849736535264	
5243500	-0.0987880430317873	108.449270390266	-48.0750528735906	-82.7091764714414	-47.3067512251994	-76.2568796053301	-0.0231054526430884	-9.93734516162645	
5493000	-0.00886362142596981	105.880056054476	-47.7988384813422	174.977665773155	-47.6627887833315	173.783478468267	-0.163596843245207	-9.41511281028384	
5742500	-0.0524220649702676	103.190532355733	-57.2835658909957	127.60025081767	-57.4499147111546	123.39882590979	-0.224446092929949	-10.9129209644639	
5992000	-0.223022639665237	99.9153793339084	-52.7281929411233	47.3489990716934	-53.8638478500991	41.1135991373218	-0.369564962984199	-12.09376316234	
6241500	-0.374518776440191	97.6552093956967	-51.6413001937483	-159.276324865258	-52.879543327232	-161.526531857893	-0.116648360902399	-11.8542741696512	
6491000	-0.287236535994142	93.6073381983913	-61.9347186523531	156.154461149445	-61.7548428597281	158.771908974727	0.0410254226487208	-12.3698510755333	
6740500	-0.156927255284226	90.2649375359662	-65.3606311738832	147.027341356229	-65.7256244238075	150.829245078882	0.0761212192038127	-12.6044230786723	
6990000	-0.0310301161371172	87.602736303185	-64.4706946372711	147.317678119993	-64.5559195052846	146.127256145447	-0.0852564808031804	-13.0131523359705	
7239500	-0.023875507299213	85.3247460861626	-66.9470577587352	107.884046259345	-66.6089266148541	100.985581038322	-0.307697345985847	-12.5899386170866	
7489000	-0.136539744308758	82.7633651383594	-68.5746128211029	112.209629464362	-69.439387933153	103.187914625032	-0.260717557992177	-13.6528306963705	
7738500	-0.275636509455597	79.6516535179191	-66.3730507032113	105.40378752893	-66.906617272668	105.621147852766	-0.191386485709606	-15.0495705086173	
7988000	-0.317986992718496	76.1999665481873	-64.3714205785019	97.0195755228786	-64.1931113970413	101.654061102213	-0.0544475323379813	-15.9433247857322	
8237500	-0.236385990340965	72.8765269037217	-59.9502854886857	82.4514729645054	-59.8063348455422	81.9772751329629	0.0439617008923421	-16.2734689539597	
8487000	-0.0968355792675378	70.1778096520237	-56.7862045565977	61.9031638440711	-56.5979347559366	60.3809346605347	0.0125276111082337	-16.4046720537829	
8736500	-0.0400524900070046	68.0335244956493	-51.0361145797338	23.9208855719765	-51.3778516623104	23.8866192927725	-0.176098055412145	-16.7755949835706	
8986000	-0.114675828766194	66.0249177048444	-47.1232812784493	-41.9483339241563	-47.1279716356385	-40.8870186871491	-0.428134790046256	-17.2200730540421	
9235500	-0.248901530210085	63.4410129770121	-48.1900938922601	-112.512761235343	-48.0653888684683	-112.52701629895	-0.541449365694888	-17.3252479055174	
9485000	-0.336968287653237	60.2378725095925	-52.3949032078414	-166.179906657213	-52.7931988492213	-164.515927525661	-0.34574200381773	-17.5183721200438	
9734500	-0.297605404685854	56.9189991663076	-56.9432514692383	162.479517887437	-56.9373531061735	164.306937998134	-0.103923007356792	-18.0722889614732	
9984000	-0.157161700102282	54.0626582852262	-59.3020053339719	146.196613166676	-59.6151438617903	146.335808511894	0.0299922597607234	-18.2735890969575	
10233500	-0.0377652535595019	51.8573072793964	-60.7966046483023	129.28787257417	-60.8126047731667	132.005305314297	0.010235564865352	-18.3923312884423	
10483000	-0.0407014178266231	49.9400856245431	-59.7410397763477	109.759255803682	-59.9086483062409	109.041612063363	-0.119971186270798	-18.9359323776119	
10732500	-0.168958933098022	47.6890380668405	-58.2357994349984	65.3078508650845	-57.9320912592665	68.715275579863	-0.263550382789407	-20.0768395864425	
10982000	-0.31193958538142	44.851793069507	-60.2794636903268	-10.4992930912001	-59.8996440781024	-12.9327815559179	-0.295250303822892	-21.392329343516	
11231500	-0.340832644936817	41.5731002569624	-67.7321044789218	-22.0346665672839	-67.7506382852756	-27.2635848081942	-0.214507411553608	-22.6831752886244	
11481000	-0.237627150414738	38.5419327931618	-61.2256430228118	-28.7470465691858	-62.0248698540206	-28.3783776916688	-0.169444681973904	-23.263277285374	
11730500	-0.0911207082106604	36.1822776467533	-57.4962487640437	-100.918500925704	-57.2839557194193	-102.180589338221	-0.194793103936774	-22.9568299413954	
11980000	-0.0233674517483453	34.3272805058329	-56.7761260865771	-162.906053985752	-56.9359919315194	-163.348221649542	-0.398549902909347	-22.1784772870622	
12229500	-0.100103384873465	32.432704628379	-58.2736867082243	141.339612442106	-58.4543046882939	141.527688149601	-0.490620423695132	-21.2701325116671	
12479000	-0.260745622366827	29.9048747177875	-64.9996648052707	99.9469333348414	-64.1820651973272	101.240928647587	-0.472820530657331	-21.9313491438237	
12728500	-0.361641568223443	26.7552296890043	-64.9622372576285	86.7752581705636	-64.721717687319	91.9542590411499	-0.33721113511411	-23.4163511786916	
12978000	-0.318963594782048	23.4574076874463	-65.3745484802779	90.0023242202468	-66.5605919581922	82.6837359398299	-0.182078238266088	-24.6348196361687	
13227500	-0.176759763198828	20.6697133536251	-63.1073967440605	93.6633111027817	-62.6654460136485	95.2493949634722	-0.0549073121992627	-24.9954733966224	
13477000	-0.0571028731607266	18.516156045029	-60.3296309720681	84.7152261593668	-59.9814129643587	83.2104758874351	-0.0201232283235066	-25.0159701629457	
13726500	-0.0690696698758063	16.5749444199768	-58.0510876431828	70.8739771692152	-57.6511769542304	67.6800565006191	-0.128193168051739	-25.3697714662624	
13976000	-0.211236267772119	14.1267676611623	-54.7314527436857	54.5906176440953	-54.7039032194516	52.4210325748134	-0.326753226790764	-26.3929037680625	
14225500	-0.372212591099127	10.8094184409378	-50.5096387276931	29.216715311571	-50.171754238722	27.8255162972001	-0.536894793588212	-27.7796888150129	
14475000	-0.424594615295546	6.83042636733908	-46.8119686854689	-10.3981831213195	-46.6070223453455	-11.6833925750308	-0.65351704758127	-27.8166048605905	
14724500	-0.342016800199185	2.80451222294211	-46.5445174130568	-53.7840390839058	-46.5544055054608	-54.933365431526	-0.321754145250922	-27.3082024573539	
14974000	-0.246812763992287	-1.07288987327628	-48.1207170436873	-71.1666083651143	-48.0876676714555	-72.2715227886495	-0.104454927998075	-28.2561033131674	
15223500	-0.300753763913376	-5.28032339319226	-44.87672901986	-99.2334834378835	-44.8734610522974	-99.87848575334	-0.263435401072641	-28.8096554695876	
15473000	-0.693257916343407	-11.7876057137005	-43.6387713829232	-115.755127138355	-43.6603131257754	-117.057913104826	-0.574746776468041	-27.4270933404199	
15722500	-1.80650639210178	-23.9093739007058	-40.4007488229105	-139.892647116807	-40.4946020516822	-140.493304990088	-0.504615144539846	-27.182151846482	
15972000	-6.88106964619517	-46.2684863326332	-36.1820933438414	-179.699584872125	-36.2639863253497	179.394466703095	-0.415475153636004	-28.8850704611377	
16221500	-7.9930760734315	44.6032619569312	-35.1402904923645	118.044632504471	-35.1349730905612	117.899417699433	-0.286226050624267	-30.6038168414228	
16471000	-2.24489652765407	25.5819472145723	-37.3762023195809	72.4129933198426	-37.2157732226843	72.3570346861624	-0.159461749173993	-31.7705817455138	
16720500	-0.954904049177472	14.4906547450891	-38.6329131245598	35.1844130038821	-38.4357594401717	33.7111797153332	-0.209282434259076	-32.1793768607367	
16970000	-0.506668270587218	8.52106818019739	-41.4176095010379	-8.64016894984658	-41.6240027130987	-10.9075456691052	-0.42692701180026	-31.1669747928556	
17219500	-0.435073570922399	4.20251332872039	-45.3302994391576	-36.2275013062456	-45.1053177569547	-36.3369871562663	-0.506168718118152	-30.2568066789319	
17469000	-0.506333377192974	0.127450265897765	-49.5850484091395	-45.2125330692321	-49.5445828983047	-48.2140055567063	-0.486980902791605	-31.4649170501462	
17718500	-0.531119250164702	-4.03711557269835	-50.3389201717689	-49.3967975097744	-50.6195702443183	-50.8874029434908	-0.492159667806918	-33.4954646337052	
17968000	-0.421590502506327	-7.81431399253171	-50.1137301701609	-62.9081263717409	-50.0663871315877	-62.8970377465229	-0.468376666253798	-34.9664421687102	
18217500	-0.234457758180843	-10.6747189431783	-49.8840873809567	-85.1014213719637	-49.6867201401869	-84.8141660780792	-0.464966451993869	-34.990162383226	
18467000	-0.111999620136101	-12.6512270947633	-50.5092235336274	-110.913037925227	-50.4025637868463	-111.542397854606	-0.458526509053382	-33.6134592556744	
18716500	-0.141841104495067	-14.3625297619268	-52.1647931928889	-134.00838104188	-52.2288773077785	-135.840125958207	-0.419743301852172	-32.7249798646881	
18966000	-0.282568282071043	-16.5012393032859	-54.1765147310392	-148.979520273076	-54.1081720621481	-148.947107945647	-0.465132219480289	-33.2777198181391	
19215500	-0.410304268303599	-19.3147539748668	-55.3222496195359	-157.308942210325	-55.4206581516735	-157.984326095426	-0.529113203228982	-34.7542388513435	
19465000	-0.405061628926042	-22.4053637503057	-55.9457551050007	-165.247609704431	-55.4006468992414	-166.620526770697	-0.503710229163112	-36.3670947274022	
19714500	-0.265573406141569	-25.048900670619	-54.9472363101544	176.916052669606	-55.1193530493907	179.459523159514	-0.396869629239648	-37.5416606554717	
19964000	-0.108686321749231	-26.872474594858	-54.3949734291985	163.444062840558	-54.3789387166667	162.485304223803	-0.341701688412222	-37.821689661377	
20213500	-0.0685907903143633	-28.166430356471	-53.8299718548142	143.259795266747	-53.8226407376819	143.025518954529	-0.429456538447999	-37.2363293431417	
20463000	-0.171836816306364	-29.6557624470629	-53.4517314647724	119.232991957633	-53.5986701871751	119.506590880042	-0.586003661108326	-36.4008013816386	
20712500	-0.332205116193518	-31.845605539321	-54.3756790375687	92.9904140847915	-54.6399272037901	90.5315838506082	-0.693529506038778	-36.3421574681805	
20962000	-0.412174316388649	-34.6919139352329	-56.4231829163604	71.4811445925771	-56.447519084045	69.9309296596062	-0.680347407315611	-37.4203875550322	
21211500	-0.346390283849742	-37.5226021226689	-57.5152084781248	59.4767869739818	-57.351400079826	60.506859704457	-0.562857973070344	-38.8616365617639	
21461000	-0.182640955711275	-39.724793697721	-57.4631986289563	52.7549373980092	-57.3315859078773	53.3611111744157	-0.384172289219077	-39.9295025945115	
21710500	-0.0715900364744382	-41.1809222537881	-56.3147705278571	41.6674796453667	-56.3189059469207	42.0277756805912	-0.295506261379701	-40.2873476914724	
21960000	-0.11487908586965	-42.4705824946105	-54.2184541754873	17.4222041597085	-54.2461537898994	17.5605152982009	-0.389759401304855	-40.220203811938	
22209500	-0.310669810338003	-44.3205211911354	-53.8476366430722	-22.3955840583178	-53.6632609922882	-24.0884527919047	-0.613702755732528	-40.0541683920406	
22459000	-0.617488215377552	-45.6493003677437	-55.6096153378685	-64.5922586870722	-55.2427893178243	-60.7062146747598	-0.783075943277453	-40.2492338099848	
22708500	-0.401931983124702	-48.3001665738832	-60.3033742348303	-93.4183988818805	-60.2346890911722	-91.0046674722204	-0.789328789918577	-41.272112347466	
22958000	-0.257057466935113	-51.1598107977121	-67.5355338273508	-103.630874997798	-67.4083990917916	-100.430793258081	-0.695412208057254	-42.3507657876343	
23207500	-0.0940321061510932	-53.0491432327651	-70.9782888724191	-61.2095174404484	-70.2384342623545	-49.3784964190031	-0.54238212670514	-42.5624022913202	
23457000	-0.037638105593467	-54.3039700020208	-66.3685017644694	-50.9488783720247	-66.634519660233	-54.3194936663231	-0.432281723792615	-42.0629817208981	
23706500	-0.132883072820553	-55.6831849407831	-63.3038283800307	-73.8544839190765	-63.8900636412722	-80.5795993450106	-0.435968185336036	-41.6343176843163	
23956000	-0.294302904001274	-57.7685644371012	-62.080926271804	-105.602142209888	-61.9301601020774	-104.41557106345	-0.531205713054528	-42.0673185676894	
24205500	-0.389466995789748	-60.5493704752895	-65.7534181067956	-141.539460152083	-65.0343655614625	-142.388733517597	-0.659460454165977	-43.5790248934855	
24455000	-0.340549972766917	-63.4327467673183	-77.6152642103669	-99.3665708086373	-78.0289414273802	-98.3389423023281	-0.744451721472052	-45.1872233966834	
24704500	-0.183450731300264	-65.7221639957126	-66.6585410516749	-75.9438051499835	-66.2775456698296	-78.2932852166397	-0.68732669240376	-45.8796441870457	
24954000	-0.0735974001652643	-67.2439426408949	-62.3106817489544	-114.437339643204	-62.1778604512471	-119.020870641546	-0.569275423609042	-45.7306943860737	
25203500	-0.11492221239824	-68.5214085380452	-63.041149555346	-164.49145014505	-63.0491748244717	-166.426637653691	-0.491885006006115	-45.097704497791	
25453000	-0.305742586901931	-70.1913749517643	-80.4005094482023	25.7937143412573	-77.3932913422723	75.3208226359839	-0.54281099574068	-44.9690964322896	
25702500	-0.494754050832022	-72.5169806549297	-59.3511284967994	-81.6026917499919	-59.8601517712382	-74.6859792304651	-0.72582193706853	-45.6440260096299	
25952000	-0.570243007662429	-75.257310064329	-54.5052724071777	-121.44917919579	-54.8331584034131	-125.435287805848	-0.889602764153705	-46.6707121970625	
26201500	-0.485757277538246	-77.7079934817042	-53.3119127161531	-161.025590966281	-52.7786206147735	-162.943993675617	-0.886363296117813	-47.6156278711639	
26451000	-0.354069807929343	-79.2012452727483	-52.4514761593436	163.720187993374	-52.5258441692942	163.592869959038	-0.727132673851323	-47.9905776684014	
26700500	-0.293217086763862	-79.926308899666	-52.2961696129164	135.762741797916	-52.1056445886977	135.846989328742	-0.541865136626486	-47.764736938866	
26950000	-0.349406676831076	-80.7346561474897	-52.3152102026414	113.862765033843	-52.0913835455203	114.171591529222	-0.470724851021379	-47.3799540961815	
27199500	-0.475695145908598	-82.4788171654488	-52.4911540265242	92.3064094326898	-52.5066789414602	89.6827404616475	-0.553810603583881	-47.4500679241278	
27449000	-0.554953906889308	-85.1347771722071	-53.3035694479887	71.3173427421576	-52.933845391016	69.4077452303949	-0.701155363096457	-48.3965801477809	
27698500	-0.48931958718312	-88.0714322078396	-53.0328551760326	51.413484967173	-52.7855217669646	51.1407412751468	-0.804865602210692	-49.985232449029	
27948000	-0.318390279137804	-90.4669104382354	-53.153989170747	38.0819820622616	-53.0664703855619	37.6588110263926	-0.79611661840722	-51.422914426695	
28197500	-0.182021204093106	-91.9831756474336	-51.5007116674894	29.4667811182177	-51.3105955107741	28.7804191634305	-0.699433450885396	-51.9491191531848	
28447000	-0.165739018216187	-93.1317978380907	-50.905665785002	0.083336304538727	-51.1110965989999	-1.60855272224613	-0.623996935853323	-51.6219186944548	
28696500	-0.299293210693447	-94.7712904101941	-51.6904723357858	-21.2036991379127	-51.3108703238713	-24.1026105006721	-0.681358523116802	-50.8667697365387	
28946000	-0.449273808467189	-97.1913615316643	-51.7586931268454	-41.3110310765053	-51.7707341519085	-45.3580516906221	-0.815579381110974	-50.489312366202	
29195500	-0.491656142458201	-100.206732168792	-52.2649431059714	-58.3939101134551	-52.0362144886486	-58.0697916093422	-0.92569610213063	-50.9793675443226	
29445000	-0.383018975041965	-103.058643539118	-52.6465481688087	-71.9373537820616	-52.459247983321	-73.6817897260302	-0.907276509128178	-52.2365605696672	
29694500	-0.215202189868326	-105.16904315063	-52.9251255686105	-86.2419749727849	-52.6221487301529	-87.119882056746	-0.757902185261181	-53.5131761842909	
29944000	-0.135608535121137	-106.549560227282	-52.951983875328	-95.275464100836	-52.9443988760505	-96.7946850143941	-0.576327771003185	-54.1626959455266	
30193500	-0.22200893078485	-107.929186016645	-52.3068178182112	-108.020380075948	-52.0976938555978	-109.365328943484	-0.50584035539005	-54.1913148965245	
30443000	-0.39679702488886	-110.042750241735	-51.039983453889	-120.072800699225	-50.9372372055394	-122.969468847429	-0.639298936487101	-53.9793680833502	
30692500	-0.524746979170738	-112.951284736978	-49.6737719345168	-137.616847014044	-49.2488540505263	-139.635567634847	-0.878797730045177	-54.0427233399985	
30942000	-0.504406792452435	-116.076081471239	-48.2561584916534	-158.74186602024	-48.399354651737	-159.679084741884	-1.06415972832217	-54.5830906715693	
31191500	-0.35336787725269	-118.705660011856	-47.9544291805346	177.439910243635	-47.8437914504745	176.483271031182	-1.05855214305355	-55.4627489126901	
31441000	-0.200528241824327	-120.583780799887	-48.350591198462	156.152644711119	-48.2532167720015	155.68393884264	-0.86636731125383	-56.2438953443629	
31690500	-0.208770835340952	-122.237058415142	-48.9352896472739	145.308722895796	-49.0069440340267	142.967328162375	-0.646068034056103	-56.4867500136103	
31940000	-0.407304855035828	-124.194573266673	-47.0682646852018	136.746060991771	-47.1105601085522	133.941044278306	-0.562829888067644	-56.3755811301191	
32189500	-0.599583836283582	-126.998622237616	-46.0907313671063	116.643782551577	-45.9136591851156	114.49189682903	-0.668821614363679	-56.3793704594486	
32439000	-0.685714470169086	-130.765283061386	-45.0602965446295	98.1184419629967	-45.1234505196444	97.3667693753447	-0.865531624144814	-57.0445329644997	
32688500	-0.650287911968585	-134.600186932915	-43.8246951149765	81.2968278205862	-43.8755371897702	79.6160405926188	-1.02546255527269	-58.2360205487587	
32938000	-0.610849809585818	-137.914800860054	-42.2269043335477	61.6561809707291	-42.2146180082153	60.5030053435977	-1.03235002242315	-59.4585705420154	
33187500	-0.780706655173645	-140.880745411777	-40.3814274387877	41.1852673955492	-40.3600895621709	39.8875356553095	-0.904877430202072	-60.0243742548197	
33437000	-1.40847151819189	-143.96578258653	-38.2277012686296	15.0169257926236	-38.1748532641256	14.1180594039518	-0.767967490128816	-59.6820797819538	
