!Keysight Technologies N9923A: A.12.45
!Date: Friday, 08 August 2025 17:35:27
!Timezone: (UTC+08:00) Kuala Lumpur, Singapore
!Model: N9923A
!Serial: MY61181427
!GPS Latitude: 
!GPS Longitude: 
!GPS TimeStamp: 0001-01-01 00:00:00Z
!GPS Seconds Since Last Read: 0
!CHECKSUM:1309975169
!Correction: S11(ON U)S21(ON U)S12(ON U)S22(ON U)
!S2P File: Measurements:S11,S21,S12,S22:
# Hz S DB R 50
2000000	-0.0757994151008796	151.499893673348	-83.1046060639562	-166.520560231936	-89.5151544344975	175.312879152815	-0.0395407874093405	-3.48855206303677	
2249500	-0.00267445867946906	148.321567984721	-75.2981772068052	-159.200847045616	-80.1689158156066	-162.585066625977	-0.124164557919821	-4.0752473754038	
2499000	-0.0142549715684023	145.252157166201	-74.2503977143924	146.619660229688	-71.5179397011552	141.108164127248	-0.160234576475475	-4.92629798528754	
2748500	-0.101793926089052	141.953186985545	-63.8491264452919	138.612395693144	-64.4477735267071	139.998417920818	-0.117035028819675	-5.74439983392493	
2998000	-0.258065671862961	138.431584096384	-47.7552405438876	67.6725689460124	-47.757774075836	66.1701260977726	-0.0486484149085787	-6.23424821473115	
3247500	-0.2076784426792	134.822398246288	-58.0716178423876	-15.5102491030887	-57.801857215898	-20.136086072269	0.02761179243371	-6.38018808252004	
3497000	-0.128298118859107	131.155613105946	-59.5370109287457	-29.2955938873088	-60.0510122551576	-30.2783921285366	0.0103259034048093	-6.54948279613307	
3746500	-0.0361380734533588	127.990137515007	-59.7061806182677	-35.7028138099673	-59.1381241516149	-35.6441251429788	-0.0701791267424903	-6.88656332753563	
3996000	-0.0139150065714135	125.077697319813	-55.9598342607303	-38.2829457540218	-56.0105689226986	-40.9900501830876	-0.148745316551642	-7.64570405840836	
4245500	-0.0844307799340254	121.971833885138	-47.0279131534207	-52.3401269908946	-47.0955275535144	-52.7570263360646	-0.181468337534286	-8.77163325549688	
4495000	-0.175864032363132	118.892356161116	-49.6082400584688	151.94102191232	-49.240328393892	152.440167375291	-0.0957181293263693	-8.86551660139072	
4744500	-0.220429633781976	115.077438205135	-79.8132532261356	-160.41021224381	-78.2882763137231	-144.699608999244	-0.00277592451114413	-9.54586299929317	
4994000	-0.200145322266114	112.209379129995	-47.5585659841218	157.162428672334	-47.6174015830065	157.749967066734	0.0321920178139732	-9.67889569482908	
5243500	-0.0756967542461344	108.715021666068	-53.4916572221131	136.071817685536	-53.175928489493	134.960683459748	-0.0132500378675973	-9.99911760558767	
5493000	-0.0189477991210938	105.853956640226	-53.6410753999594	125.345986370732	-53.3609894890768	125.037058635524	-0.123485526860288	-10.6526624132706	
5742500	-0.0617788024317379	103.00978359613	-50.1765546862185	104.105786921215	-50.0533366706965	103.071418163872	-0.280245833551677	-11.9327354446068	
5992000	-0.196390900329362	99.6918025604242	-46.2175011805164	15.1016851046689	-46.4055791773014	15.5552377600914	-0.507726423689028	-10.6571547357754	
6241500	-0.295422188069135	97.5760372331235	-64.9138415181219	-9.65725549921384	-63.7366025392182	-6.35324768212556	-0.082233210718745	-11.4446985827126	
6491000	-0.221001240364905	93.717285491065	-70.8214394265373	-6.61022800560231	-69.1949343004577	-9.76077364867492	0.0114977743654346	-12.2419061936782	
6740500	-0.127285043664331	90.4847592343454	-73.9399798059536	85.8935989188454	-72.9391678907848	72.1498247702581	0.0291377874441083	-12.7084945785021	
6990000	-0.0403939282172881	87.7414600755466	-55.9896933822589	56.9733734625156	-56.1563025012817	55.4494906858606	-0.199534989967139	-13.2785837557437	
7239500	-0.038882774700398	85.2797696452264	-72.7728745746702	1.35741155285339	-74.2120417051988	-6.4021377743336	-0.131668677101437	-13.4169873257474	
7489000	-0.120917328637326	82.5846020767651	-62.0845187661773	70.8103440911497	-62.0944722688917	65.3959282059499	-0.2634134431326	-14.9864256547986	
7738500	-0.218427121135293	79.5179273435659	-53.0319092340903	29.4691560701618	-53.536791355609	24.7834086910422	-0.493832408012307	-15.3179382029895	
7988000	-0.244685473991403	76.2608584915562	-52.753636772043	-22.8448095177262	-52.8867409889212	-24.9903549603117	-0.276185108831313	-14.1810708563938	
8237500	-0.188637550426924	73.0953108807422	-53.0296397739695	-44.4248512809161	-53.4050475301367	-44.5656915475377	-0.0746359468578789	-14.4307571861749	
8487000	-0.0905039896185813	70.3744417925034	-52.4976347117725	-67.5963723586593	-52.4822809185574	-68.3278163872103	-0.0224882554777154	-14.7337240494309	
8736500	-0.0547474119206205	68.0213939211496	-50.1466521693185	-91.8977786265291	-50.1725200362313	-92.4353823259358	-0.0837451454288778	-15.2070556193232	
8986000	-0.124264884018725	65.8103473084122	-47.8561893047695	-135.90236079573	-47.9870209430271	-136.234253144534	-0.182331252283811	-15.9723942686023	
9235500	-0.208598022860173	63.2480650785536	-49.9351980725418	175.740970153786	-50.1614613009025	174.651115682148	-0.208125833933153	-16.878982956014	
9485000	-0.262344274250427	60.1525781533203	-52.9167783912736	147.754725581066	-53.2704543342204	147.97714942621	-0.141089289954067	-17.8002613566907	
9734500	-0.231463464662641	57.029701695063	-54.5010141985574	132.19844305732	-54.4176128808717	130.95327465702	-0.0404805393967062	-18.4099594745066	
9984000	-0.1325193641297	54.2428990066313	-53.779367203504	117.202330870459	-53.828600125238	115.465194980949	0.0152731197369438	-18.7063784190486	
10233500	-0.0539021793197833	51.9242619034704	-50.7959736269052	71.7257915940064	-50.6821827345879	70.3057054874878	-0.0619028496823125	-18.9115106468765	
10483000	-0.0563842582241204	49.8720304048507	-56.6721891016159	-8.56682523562367	-56.7089830067061	-9.67090558505956	-0.130158940611313	-18.8689759243094	
10732500	-0.1440194908079	47.5006620186726	-65.3076599168891	-25.1451745060042	-65.6240775518009	-33.3460060284667	-0.187592389927834	-19.8138090713212	
10982000	-0.243418303190291	44.7009213980795	-72.9068239673967	-10.0301282960194	-74.2817665244877	-13.5611702318762	-0.193339936492823	-20.9661106415268	
11231500	-0.265122382985189	41.6424107474156	-74.4052431052035	22.5856789037007	-73.1420664497398	33.9566507137842	-0.12705578582353	-21.9343985569607	
11481000	-0.193509891511333	38.7663719822137	-63.9114210016985	12.7474109238024	-63.9416052103591	13.5182687951266	-0.0518961365329055	-22.5615338508912	
11730500	-0.0909219837132211	36.370350929145	-61.002537758428	-57.0118338849286	-60.2437075213183	-54.5946375997321	-0.0350505143281877	-22.7485382429049	
11980000	-0.0421073764666271	34.3239591776679	-61.5261055497014	-111.820832601984	-61.2707303128174	-115.070670575151	-0.113561569708557	-23.1529262053763	
12229500	-0.097782050010508	32.2432815158752	-61.2577446812388	-121.294725762712	-61.6104173993793	-119.378458476624	-0.266519905482162	-24.2721904945985	
12479000	-0.213149504461592	29.6996580876241	-55.5530470215661	-166.646665318726	-55.6959977560248	-167.941189574925	-0.727648821878086	-25.2849715284404	
12728500	-0.284469592039184	26.729629931224	-59.2111849484217	113.253265148032	-59.7108044201236	113.467958244162	-0.517797741965297	-22.8634128669057	
12978000	-0.253850048272131	23.6474516081542	-65.9877607782147	125.442866356392	-66.5405618102682	116.614908889634	-0.252455770739232	-24.4202291622395	
13227500	-0.154958522967708	20.9164941031599	-62.5703487252617	139.943882456524	-62.7516591897673	143.905385474036	-0.150645910398225	-25.0996937776746	
13477000	-0.0715027825377193	18.6206288391371	-59.2043854028107	122.516709238918	-59.4788288882722	121.939663282071	-0.105978318403204	-25.6428856657043	
13726500	-0.0815148861937146	16.4511595806893	-58.5763745000919	108.536847197959	-58.4873224761953	106.304891004652	-0.251553594144194	-26.8465774426839	
13976000	-0.184754596902004	13.8871910790538	-56.7334533265969	77.9676488077279	-56.2161190310397	75.4076463561011	-0.856241386270598	-27.2804565175167	
14225500	-0.303162186017092	10.6712249701651	-62.4710057563408	71.0673134052893	-62.306274416029	68.2449694751509	-0.395522862966896	-25.304757435298	
14475000	-0.345058539556805	6.92946570765366	-57.5386809686872	91.0526220892014	-57.1519480054906	91.2317481986068	-0.397345752762537	-28.6169246532659	
14724500	-0.298224772218038	3.04652502276546	-51.5557692660738	83.6341326319389	-51.3413362549509	80.838750845107	-0.614445992148879	-29.1184064711916	
14974000	-0.250036628083612	-0.891884186186537	-46.48305444402	52.570882758886	-46.5487042841964	50.3040369777646	-0.455414020758055	-28.2446258650417	
15223500	-0.322944342906519	-5.31019431257776	-42.3266286965871	2.34321129807415	-42.5003750043863	0.761324429524462	-0.798738498584214	-27.0936927985281	
15473000	-0.681605416727662	-11.9634327748555	-44.0487223795304	-31.5623008348493	-44.1922578663079	-32.7493288155282	-0.645584939553387	-25.067003873443	
15722500	-1.72863696404472	-23.8977074119764	-43.5171833666217	-50.8847943064977	-43.6171514861532	-50.7895455423823	-0.505649890356804	-25.6743841610946	
15972000	-6.62123530667469	-45.1379392335263	-41.0036488282823	-79.9483725999341	-41.162725244053	-80.5892949300257	-0.409218281000887	-27.0534355307501	
16221500	-8.23275635861359	44.3717248781367	-41.8478449701987	-138.347563861202	-41.949210951945	-139.61097021881	-0.279450896937787	-28.3544335150623	
16471000	-2.21553599256372	26.1119456589597	-45.0606587859849	-152.208110022278	-45.2389701763768	-152.681165121266	-0.136031526415195	-29.2353885484085	
16720500	-0.965357426434759	14.8359194297613	-45.8339543926934	-173.422352235528	-45.9817325785821	-173.238730657609	-0.0503745028395678	-29.7456095240679	
16970000	-0.530751284825996	8.54698968848121	-45.4718835168578	157.718646248521	-45.5675645260017	157.361224739986	-0.0994178100746508	-30.3504116762616	
17219500	-0.421841657558308	3.99497674042151	-49.6706487304915	92.3972338041652	-50.1246698018252	92.356065044769	-0.32122155322051	-30.2405215046224	
17469000	-0.448323314283665	-0.0702438877750386	-59.3546658461018	111.649695213028	-59.5660958303854	113.588281995675	-0.290746120594517	-30.8814255384427	
17718500	-0.450276447010658	-4.01991241193249	-60.4748888016772	127.065467854238	-59.6882620092438	123.588483142284	-0.265848460897911	-32.1865276832339	
17968000	-0.365662127386874	-7.60612915611275	-59.9375838396119	118.201946756878	-60.0041498215155	125.046520810109	-0.175409804722043	-33.3035415984125	
18217500	-0.225754567425484	-10.4758926738952	-60.6553116996133	118.67679317635	-60.7168450650076	118.54577867918	-0.0745802518350741	-33.9661221502727	
18467000	-0.131504165993791	-12.6502501075166	-60.8388137200453	118.283639655981	-61.2034868426017	117.363740277893	-0.0437502219532951	-34.3405343017575	
18716500	-0.148106941312433	-14.5857945520706	-60.4621601313152	112.076722695891	-61.2848724150768	113.340616149356	-0.117616542266535	-34.8478409838818	
18966000	-0.242596298434085	-16.7725801915739	-61.8575021357364	109.097989691472	-61.6946984068667	110.436795882892	-0.259458270848075	-35.8171006599228	
19215500	-0.331441187642076	-19.4170179767545	-61.4721140300652	98.8185333683039	-60.8276127499424	102.465051889217	-0.405536358689352	-37.3198622479401	
19465000	-0.329449657251867	-22.2513949175878	-59.9048631556614	91.6306100846306	-59.4792360049057	96.1025812421441	-0.54307059079556	-38.9269463792032	
19714500	-0.232644404877839	-24.7912716929987	-57.076897635079	81.1912630607389	-57.4959313313833	83.427327714344	-0.77894633467149	-39.5306958174446	
19964000	-0.118452243849974	-26.7570005619839	-57.087282433053	47.7193716014991	-56.9584304838091	48.4375386730529	-0.843271164776274	-36.3286336807875	
20213500	-0.0876248967917073	-28.3179882745842	-60.6810278852592	29.2015140449945	-60.9117755910896	29.1378305584641	-0.405901198405067	-35.2545912840206	
20463000	-0.15729244984225	-29.9944054259231	-63.8338931081764	25.7775895323141	-64.4960313289334	24.3847688525623	-0.294153983601685	-36.7166660909557	
20712500	-0.268641425250113	-32.1317959069755	-64.7475875590704	41.5641519473408	-64.5982970717908	42.3035922571952	-0.407741436429109	-38.9908544362629	
20962000	-0.325857736772799	-34.7129687509241	-60.8598771137933	55.7803669166148	-60.6777978781604	52.9326854168024	-0.720797855338117	-41.9933735437453	
21211500	-0.284147423470516	-37.2958326898407	-55.3813123955447	28.103300253811	-55.2796081440348	25.6777876582139	-1.52925278493079	-41.5280108060427	
21461000	-0.169560331940841	-39.4750552071826	-56.1099005820997	-17.9755958198433	-56.3102231039109	-19.6696267916268	-1.06484666974284	-35.7083078876194	
21710500	-0.0903316705111434	-41.137699679232	-60.1571675880586	-32.2787719280396	-59.6990306900286	-36.0091762934208	-0.456679855398233	-36.1558698894595	
21960000	-0.122512503176513	-42.6832724935693	-59.8067490906335	-32.2657839869295	-60.2797240201267	-31.8105181033922	-0.290873765033687	-37.2296165049973	
22209500	-0.270127133551152	-44.6393454761724	-56.8841451714667	-50.2387027072407	-56.783333126978	-51.843361022708	-0.317785837388908	-38.4367463040359	
22459000	-0.534138553516905	-45.896431600423	-53.4388154872676	-123.671226229285	-53.7499127662774	-124.589806417871	-0.409220814215578	-39.9367386429354	
22708500	-0.321655306707736	-48.2217743400536	-65.6903227137552	155.956778363188	-67.0943830471423	160.721287693881	-0.475929187986219	-41.6723650826327	
22958000	-0.217662247512537	-50.9333337148432	-86.3752661406679	110.481689917228	-80.9618405976532	98.6059093840418	-0.525746348623878	-43.1931406863796	
23207500	-0.100834895190907	-52.9318774545531	-79.498580274573	145.876297303411	-81.8025346395944	179.355887769805	-0.576633396904559	-43.0657666503782	
23457000	-0.0583513736598084	-54.4433518458547	-68.3261045865956	92.7242277720751	-68.1466469431719	86.8516763362976	-0.404237140228565	-42.8759809971779	
23706500	-0.122573136435866	-56.0315068607058	-65.5965246785542	46.3924893451556	-64.6529469099358	41.9985838340389	-0.505709399048108	-43.5808778531754	
23956000	-0.234167211895479	-58.1020348753568	-61.5411174897923	7.14502156924731	-60.9113065289269	4.34939177218922	-0.773838214086748	-44.1170148993229	
24205500	-0.302741921502022	-60.634930870431	-59.462481866028	-41.8848838552282	-59.2079737160325	-41.5530260541341	-1.06405483854112	-44.0778305243918	
24455000	-0.27465127479121	-63.2565026023716	-65.1500083136685	-69.8752983949409	-64.5422900939441	-66.4273100453773	-1.05830943299673	-43.504540220402	
24704500	-0.166862082434381	-65.5088175665727	-64.7874103539638	-59.4972837836344	-64.0079532827812	-66.0071598258984	-0.875646057200671	-43.496267798953	
24954000	-0.0908438184654949	-67.2299324780189	-65.5039453054048	-73.6135029406486	-66.5073725504195	-72.5541762355921	-0.679628095497931	-43.52940104287	
25203500	-0.125710795983407	-68.7806576351476	-66.4025631936616	-70.3669755600001	-65.8635132810177	-62.0861679465482	-0.582171300208635	-43.3866213071322	
25453000	-0.269996336499666	-70.5710326525609	-63.2994096039014	-62.7265658003825	-62.5756752006772	-63.9766220719303	-0.594775638058672	-43.2832774760256	
25702500	-0.413309541849011	-72.7704196711326	-59.2239030703315	-78.1536270341823	-58.5332382862487	-82.4589179849093	-0.660729947360433	-43.6555999583471	
25952000	-0.484140077995311	-75.2341478583273	-57.0894704612003	-109.203663570987	-56.7870542136164	-110.202541285043	-0.688165984837686	-44.5022761514785	
26201500	-0.443389188888284	-77.507938993544	-57.682906652377	-144.979049070166	-57.0492476303478	-147.561417837118	-0.62189420583244	-45.5430472941574	
26451000	-0.360406826849625	-79.0914148887848	-58.4186981170331	178.525655009962	-57.9552504235014	173.73220887972	-0.479378616784979	-46.3281908573521	
26700500	-0.31962614224689	-80.0951643070323	-59.9428963373528	129.836152272256	-60.234990628751	126.913266391844	-0.337869318877295	-46.7277587747657	
26950000	-0.350098288293636	-81.1267322890401	-64.013686447981	76.3936500219339	-63.9773075086704	70.7371023479967	-0.287559082681335	-46.9308540420563	
27199500	-0.422536433251702	-82.8824282614657	-67.3310468257091	18.262415567201	-67.2088024130282	11.3603307686445	-0.346315659967018	-47.3505029769466	
27449000	-0.468074973172911	-85.3008235692318	-68.3929357793598	-36.7081760980682	-65.8367030864957	-35.3060011945741	-0.43583197956679	-48.2814386826889	
27698500	-0.419722786528773	-87.9451788325451	-65.0127682881185	-54.0077337362576	-65.3991012663667	-53.6198639939092	-0.483071939499125	-49.6152568417578	
27948000	-0.299419086436641	-90.2774764496387	-62.99936059487	-59.9252944269367	-63.4476407721335	-64.2978717613519	-0.446638382922302	-50.9918323695182	
28197500	-0.2035177855936	-91.9896931916607	-58.6900843939499	-83.2778199769894	-58.3284416876098	-84.1524823986845	-0.361882855544591	-51.9641140194958	
28447000	-0.18396927278507	-93.4466759719258	-59.253153850749	-120.079186294209	-58.4160114194443	-119.539638383761	-0.308128355965276	-52.5222718593413	
28696500	-0.27315831260791	-95.2376437112068	-58.5576617025906	-126.331897977641	-58.3246486435512	-127.223125417069	-0.377284892186983	-52.9551212474761	
28946000	-0.372706125674518	-97.5435468009328	-58.1180274056718	-131.302586289045	-57.740418653673	-132.087294491023	-0.541494605883627	-53.7679246587427	
29195500	-0.402110544723099	-100.228638649076	-56.931341988679	-139.874497813474	-56.220681221302	-137.974299597424	-0.754359709598449	-55.1112304118467	
29445000	-0.330451212083555	-102.839507944512	-55.1148954541687	-143.185333062953	-54.890328224354	-145.940475017679	-0.971349826754612	-56.5944649927546	
29694500	-0.214922931787626	-104.986257210141	-53.887911943708	-155.338827164078	-53.3484251756617	-158.853885739781	-1.08543842473636	-57.1722911491089	
29944000	-0.158816192762622	-106.623122377068	-52.4314880452776	-164.817584265482	-51.9143562045878	-167.944271318032	-1.13639852143939	-57.5818754641906	
30193500	-0.220686634853078	-108.263319181853	-49.6414659974266	-175.831226391869	-49.4378926365781	-178.219369211955	-1.42224764804369	-56.422676040634	
30443000	-0.343405874517756	-110.432584755834	-47.1725429589928	167.033944143749	-47.1847032821006	165.079719355898	-1.61379437219824	-53.8770538514189	
30692500	-0.437085290457004	-113.139835546245	-45.3586937264576	145.874533465573	-45.1763484388275	144.699675278027	-1.67530387444832	-51.76833797285	
30942000	-0.430896023586707	-115.965732821404	-44.2859711063444	119.150067494601	-44.2275540531745	118.630935816977	-1.57260739622103	-50.8325131913787	
31191500	-0.329975120739456	-118.49129099759	-44.5158164267322	93.1096049269643	-44.4758733015281	92.4386762404583	-1.32479632262003	-51.0322272563517	
31441000	-0.217127122727182	-120.539078717594	-45.9675462842028	73.8288408291882	-45.8965193541043	73.8122701919685	-0.988170415814258	-51.8087611326455	
31690500	-0.226256122260081	-122.482515856018	-47.3969880130861	72.8494813863363	-47.2098493492122	72.5166958774963	-0.686323312791216	-52.5125513015265	
31940000	-0.379128628100602	-124.56315898337	-45.7831095125357	63.368869687278	-45.481398867997	63.1214023194339	-0.516761265008818	-53.0476460275152	
32189500	-0.517613229379079	-127.246192007936	-46.2651678854736	52.3391176124683	-45.7612305522546	50.1907785043222	-0.50359866871455	-53.8797545757513	
32439000	-0.589228484701165	-130.689752740862	-44.4285765139611	53.6052981238455	-44.3420127160583	49.8413586021163	-0.76531924521691	-55.4111142582176	
32688500	-0.589979819630326	-134.274321619478	-43.9102976299221	27.3309755673051	-43.830537938403	25.4872572279448	-0.682844244452455	-54.9802256498751	
32938000	-0.600477701219617	-137.632574018789	-43.6247265036371	23.1140580865957	-43.5698907068369	19.9699186347526	-0.578058706069862	-57.074455964576	
33187500	-0.781008706544367	-140.887977208595	-41.8303050339285	17.7909052547239	-41.7252951587861	13.4142004187023	-0.478377072940168	-58.4817052566497	
33437000	-1.35228646946157	-144.283025132894	-39.1371329995949	5.66688846859067	-39.304698973814	1.97181541093064	-0.408906961328262	-59.2524059444592	
