!Keysight Technologies N9923A: A.12.45
!Date: Friday, 08 August 2025 17:37:18
!Timezone: (UTC+08:00) Kuala Lumpur, Singapore
!Model: N9923A
!Serial: MY61181427
!GPS Latitude: 
!GPS Longitude: 
!GPS TimeStamp: 0001-01-01 00:00:00Z
!GPS Seconds Since Last Read: 0
!CHECKSUM:1097725176
!Correction: S11(ON U)S21(ON U)S12(ON U)S22(ON U)
!S2P File: Measurements:S11,S21,S12,S22:
# Hz S DB R 50
2000000	-0.0782899348718975	151.468739834987	-83.5395570415234	-177.601208544339	-80.0518489937057	-170.764032826907	-0.0397223129304389	-3.50033388222679	
2249500	-0.00152250569460626	148.308222476844	-86.606108421672	98.5805274302107	-86.1568415267677	-133.807834407313	-0.130052692574324	-4.09532077155292	
2499000	-0.0132688566488498	145.266004591122	-72.7050716708141	147.011714069472	-73.2514357374413	148.274015515392	-0.167558920659117	-4.96636088093327	
2748500	-0.104200608610613	141.980383284358	-63.5440434661771	138.504601093718	-63.6035877991088	138.531775001222	-0.121346204936528	-5.79776071411995	
2998000	-0.26319963363718	138.542875644443	-47.4610169746993	54.381986931064	-47.3709871695938	54.2329517321946	-0.0494193911836314	-6.2589952350151	
3247500	-0.21178717862926	134.816519328143	-57.5264220252127	-19.2947353399488	-57.8139999135586	-20.3102723536444	0.0307746800834638	-6.41964122269843	
3497000	-0.133642764943017	131.138012544808	-59.205237249871	-31.8233946232992	-58.8712827186085	-29.795978838029	0.0119436862811633	-6.57038505860144	
3746500	-0.0371378299053519	127.976118646088	-58.3663127065703	-33.3644917301065	-58.3958089317529	-35.6619111841844	-0.0721560813412355	-6.89795233547304	
3996000	-0.0132741866614114	125.084792297474	-54.5469913221418	-40.1183457751084	-54.5309622524985	-42.2141362001012	-0.155140706995833	-7.68216756631094	
4245500	-0.0844381280604047	122.018125139723	-47.8885814751335	-51.5806652436003	-47.7713217319034	-52.2702232007932	-0.186366742874325	-8.80337508116428	
4495000	-0.237208131068749	119.127790076364	-37.3039034737432	-169.804185479165	-37.2135464079436	-170.401060700313	-0.221736458717712	-8.27948571034397	
4744500	-0.225192321339731	115.279868704006	-48.7410202536553	141.985825715674	-48.5117649825147	141.0836393812	-0.00352576842484768	-9.39270144314439	
4994000	-0.21506473810989	111.552591096748	-50.2504908073212	126.377350104113	-49.9322798118315	123.843140958523	0.0353568070420111	-9.73783292072891	
5243500	-0.0797447251491855	108.690946759233	-50.5383950475358	125.626653243578	-50.4733606602892	124.491970770127	-0.0381467244455897	-10.185522804163	
5493000	-0.0222372994168679	105.839102411048	-46.8913421856285	88.627591936225	-46.6360183739249	86.8560451520387	-0.29836703319943	-10.8572885708231	
5742500	-0.0632749850388228	103.069230120658	-49.4462712378053	12.9610148338413	-49.5662865954332	10.4628226005839	-0.35254789191446	-9.73630322989927	
5992000	-0.196493364437057	99.719729991021	-56.9366149945462	-22.0334686597818	-56.627040799756	-22.734850573417	-0.211779651121923	-10.7180484635357	
6241500	-0.313211023381165	97.5984161347874	-59.1251383928813	-10.2101420331373	-59.2329571444446	-12.1244351695425	-0.0459667955468118	-11.7758088564371	
6491000	-0.229807359783428	93.7186999557421	-63.9395911823333	-24.9776149449706	-64.6010335711486	-27.0589307810544	0.0166944537594555	-12.2393695671179	
6740500	-0.13212141932832	90.4697379697041	-70.5508295872959	-2.36861229429932	-70.9099673660159	2.59070550075761	0.0333477406603808	-12.6196748173701	
6990000	-0.0411435749471905	87.7403779083203	-56.0913329098	-3.39945550461527	-55.7720826118018	-4.23275416460226	-0.179257734104265	-11.9919370266249	
7239500	-0.0389453627664927	85.2919361631592	-61.1980554413513	-46.7218763290168	-61.2916010779626	-45.0254583290432	-0.126197489884578	-12.7942442029909	
7489000	-0.124367022614176	82.6136871202424	-62.7319660568093	-46.8501333020579	-62.7927921850125	-49.2428673587715	-0.172404863669397	-13.9068509496167	
7738500	-0.225947867897975	79.5398472736856	-63.245935957035	-51.6894094679309	-62.4898129681853	-50.8598116553927	-0.147215167706811	-15.0299468709681	
7988000	-0.253766153735927	76.2545026361827	-62.0866763884534	-46.0796535611895	-61.7853281413452	-52.0794754355882	-0.0775456336078302	-15.7392779313884	
8237500	-0.195501594827372	73.0655955520763	-55.655575722963	-48.4515691829733	-55.4436209651968	-49.5048854718476	-0.0404016386878045	-15.8729515044595	
8487000	-0.0926244106120859	70.3439763873809	-51.4858392222758	-83.5215164132475	-51.2805303051232	-82.9614411300806	-0.0562346873197727	-16.2622301461307	
8736500	-0.0605851384173949	68.0332670554298	-45.1134467092181	-134.138609941834	-44.7124102506944	-135.107438339087	-0.299009988051968	-16.3953211841417	
8986000	-0.114211873128337	65.8928629320797	-45.3918169280312	138.295860900035	-45.1285752731229	137.109380074044	-0.32257904096923	-15.6875676561563	
9235500	-0.213376494128849	63.2396077052674	-50.1519793973909	80.9616920629348	-49.6787699537276	78.9597076290332	-0.274951569996054	-16.8016706872559	
9485000	-0.276558082580961	60.1685703076525	-55.1692494957313	35.6860742475561	-54.929674153901	32.6999006087636	-0.182217744633994	-17.772332237986	
9734500	-0.244448086813297	57.0429042707513	-60.6608742944923	3.13894857588171	-60.1239799529239	2.57416039391655	-0.058266115158279	-18.4465924353836	
9984000	-0.139007991330565	54.2561479501789	-66.0851661850407	-16.1566620147519	-65.8044202474334	-19.0706122953454	0.0145361746132424	-18.7710046017974	
10233500	-0.050816280529639	51.9454632944221	-69.2162683815144	-20.4201643718297	-68.5301763204601	-30.1466394834105	-0.0184149615653892	-19.0614560748151	
10483000	-0.053781031593204	49.8628552145047	-65.1491727279784	-60.1700230549323	-63.7050997282002	-61.2468682038549	-0.121953626842892	-19.6361485389646	
10732500	-0.148075871084766	47.5148668394931	-61.8193699362715	-97.5247452158814	-61.5303063136786	-94.8065465032556	-0.23965888331251	-20.7743756913235	
10982000	-0.255033847949676	44.7134191971335	-53.9867636102122	-164.292090329843	-53.0489103987882	-165.752392243908	-0.376233624813527	-21.686544424445	
11231500	-0.276119776623442	41.652422213272	-56.6546348838253	91.8776852134706	-55.8741699565443	93.6743101903147	-0.201508785456466	-22.595908596421	
11481000	-0.200853771492672	38.7570700842726	-56.5375939651951	22.4033929346186	-55.7392769333469	21.149759950053	-0.231804768776533	-23.5693405152674	
11730500	-0.0927915407858883	36.3596396950609	-56.8261595557825	-75.6503269289476	-56.4718096237176	-75.7127142628157	-0.321411304625706	-23.5108746469553	
11980000	-0.0421545134614822	34.3257178056436	-56.3153972845546	-155.600995870188	-56.0290181053799	-157.752163924982	-0.668210064531403	-22.5566136745706	
12229500	-0.100378601121995	32.2691947592302	-58.3488600810724	146.812231144558	-58.5821874040394	142.986357323312	-0.598884570249715	-20.2195896744712	
12479000	-0.218756908815366	29.7243956688062	-60.6553003180434	106.807347234987	-61.1243953727372	107.263875530203	-0.430091745817172	-21.1739544020717	
12728500	-0.295363904219825	26.7405654675909	-63.3624789874584	83.7373922913252	-63.5548748115436	80.2462057597872	-0.294180531284119	-22.8117368796011	
12978000	-0.263763856175281	23.6328508087493	-68.2185301789983	88.744308279782	-67.3010527642195	91.1721549337848	-0.205709086180982	-24.1061261065122	
13227500	-0.159773330295557	20.8967134894211	-62.7816766799248	112.236724197359	-63.0524697210834	110.337018290521	-0.123520585764998	-24.427945461873	
13477000	-0.0713439148893903	18.6152331214876	-58.6676982509837	97.5063464996944	-58.7157451877336	95.3265909486201	-0.0849116343195921	-24.7083668568673	
13726500	-0.0821562608809675	16.4684838655304	-55.1452015213166	74.4134741047537	-55.2567568266006	74.3953890178788	-0.23069261206243	-25.4552072952509	
13976000	-0.190890432485067	13.9290484201747	-53.3260698032522	15.6969808220021	-53.4398978084773	13.8190406200855	-0.508075620134417	-24.3966638851167	
14225500	-0.313018793969037	10.704801240729	-61.6836494223911	-4.39964369832564	-61.909863040887	-5.75987675617859	-0.283075548567644	-25.2125025610336	
14475000	-0.355993410951446	6.94051296798737	-62.6254143724648	43.99923184389	-63.0018428384974	41.1230851544747	-0.190800541325319	-26.9558470411622	
14724500	-0.304806122966142	3.03176215354078	-57.125520335965	55.693355753715	-57.2342128392942	56.9468867909537	-0.0940724782514766	-28.2217083825713	
14974000	-0.251960165513532	-0.910259647224389	-51.8450112001659	51.0994595407122	-51.5643214926599	53.2226657569247	-0.0754583924675871	-29.0468766123513	
15223500	-0.3255613089609	-5.32999038898802	-43.6471959574037	30.5672162227188	-43.4508303839996	32.3259556538887	-0.220145814976074	-29.4931320376931	
15473000	-0.701623977372177	-11.9319948506203	-38.225594100236	-11.8456620623658	-37.6844274575141	-11.3845331094288	-0.608526213279646	-29.5916995198276	
15722500	-1.74029207378604	-23.5653534440468	-34.5887841498632	-74.7954914697679	-34.3041939539279	-77.0949609201567	-0.720690029872113	-27.1095090745579	
15972000	-6.49380573680076	-45.3908604302433	-35.3789137480352	-137.804267832361	-35.1743506475692	-139.13282979419	-0.420211090335388	-28.2297664135899	
16221500	-8.17279682516565	45.0291085247755	-42.3010331377439	162.124439596145	-42.1301287574423	160.45310018671	-0.262131821698323	-30.3913493943322	
16471000	-2.22511234809675	26.0530756466015	-40.9262931332934	-149.764892588423	-40.4670871247659	-149.990693287182	-0.406867253870456	-32.8428571680104	
16720500	-0.959187749443096	14.9106407075396	-39.1338630191136	116.998541972765	-39.160135441246	113.50479712161	-0.421576287253336	-28.8719471827951	
16970000	-0.522576237488763	8.51264471526469	-47.8813182968936	74.7501229012174	-47.8717128292273	72.2476153126242	-0.209258605791758	-29.7960685580845	
17219500	-0.425964581928055	4.00159405861579	-55.5620959294294	130.308349775589	-55.1661026980364	128.916493969587	-0.407616757365602	-30.9782250623211	
17469000	-0.454456407211642	-0.0417240090006127	-50.6069746816893	78.0981534162334	-50.711750622386	75.7868140325184	-0.421531677472426	-30.7050114263145	
17718500	-0.459871841696335	-4.01017266970466	-55.6917582667553	58.9625663584075	-55.417293484776	55.804948550312	-0.349396838134813	-32.2801746492473	
17968000	-0.372919562674626	-7.61204778696268	-58.7796826988772	56.6203437129738	-59.1541862472172	57.3188142362934	-0.252985059130747	-33.6048686052385	
18217500	-0.228424332954012	-10.4701341582577	-61.1848658395863	67.3129888613036	-61.3594392790232	61.2529152448384	-0.159550430345621	-34.4057086521411	
18467000	-0.132388900781691	-12.623210347641	-61.8968907550219	79.7637709488179	-62.1180434514472	75.3317870927324	-0.153338083489246	-34.8666566134771	
18716500	-0.150969105619179	-14.5375312113026	-61.2665367969245	84.1052831567757	-60.8490310970414	85.1873656917592	-0.274956416943556	-35.4087206721305	
18966000	-0.249256477675815	-16.731355166143	-59.4686757751559	83.7318716383292	-59.3448612679923	81.6563894656071	-0.489642087841759	-36.2859430740622	
19215500	-0.342980011880425	-19.3964477176866	-57.021566917315	70.0128650632148	-57.1766937202638	71.9919459908489	-0.722542375564041	-37.3820518423551	
19465000	-0.34048805807478	-22.2646017539323	-55.2743690499622	56.697709309455	-55.4668905296456	53.0324458289931	-0.903056280273162	-38.0164560313868	
19714500	-0.238675806106514	-24.8092650604136	-54.3762489402538	35.9250301216538	-54.3137378015254	32.7664734806612	-0.986347307249239	-37.393705074653	
19964000	-0.119732961228357	-26.7566157423506	-54.5518696004749	12.0385714731591	-54.2745234979507	7.43418607858209	-0.878877495492472	-35.3374052380616	
20213500	-0.0877319020791652	-28.2811191057661	-55.0964653841822	-14.5846048371487	-55.2482550678998	-17.7360353420235	-0.626004005069285	-33.9261700695689	
20463000	-0.161649929688095	-29.9307403017206	-56.9750776611456	-45.223964512235	-57.4651600823718	-45.7882643355351	-0.471713053084013	-34.052261513161	
20712500	-0.278626894468092	-32.0794434215754	-64.1110898487038	-41.2001072044584	-64.2933511938062	-45.8652277204666	-0.512266938915511	-35.3479530415582	
20962000	-0.339314814177137	-34.6950131805654	-60.6164601989757	-35.9995383031067	-60.7916086298759	-41.1172032248916	-0.483926322389903	-36.5317078584056	
21211500	-0.294411700920494	-37.3159600140157	-60.8046032504407	-52.2987611901011	-61.1327001243899	-51.4795912972063	-0.447432714855975	-38.0080845779055	
21461000	-0.17393922247248	-39.5074298612433	-62.8380564373803	-66.3568561965601	-62.6017561529582	-67.5676729754182	-0.326026169418477	-38.6810704912946	
21710500	-0.091205782879507	-41.1431756577175	-63.6606169246112	-70.3656199818548	-63.519931324572	-69.2139399378441	-0.209070493534963	-39.0256300024295	
21960000	-0.123402284539634	-42.6548961367587	-62.8458632742757	-118.998248312072	-62.8900201736087	-119.178923555594	-0.242506095098347	-39.4627650412181	
22209500	-0.276494283401157	-44.5856175839686	-62.7380895818492	60.4776303238379	-62.2765395115068	60.7140445962236	-0.400524965855239	-39.7399128995008	
22459000	-0.547119864182103	-45.8514972981844	-49.5909481224848	-66.0001809613707	-49.3530997672025	-68.2702693974964	-0.519236745598783	-40.2581107073152	
22708500	-0.33345893215224	-48.2067232984358	-58.1977446495225	-159.197810394831	-57.7957517775639	-160.595301544763	-0.513550370284222	-41.3412643180855	
22958000	-0.225198666669173	-50.9372675343008	-71.508897566393	177.414179218908	-70.3922470939316	-178.28706996422	-0.430832100746779	-42.7686906306219	
23207500	-0.102700472125155	-52.9192189103263	-74.5061399848617	-114.159507793356	-76.4620404433371	-95.6116968755356	-0.388931682333311	-44.0883041617695	
23457000	-0.0581066645661013	-54.4028033984977	-69.9014306061358	-135.484336168291	-69.2250160551785	-127.863100376749	-0.607600451918242	-44.5273931221641	
23706500	-0.126158084445369	-55.9604160335935	-74.2793983870638	148.558897824684	-74.104319338326	155.171543264028	-0.851039748156002	-41.7517143456334	
23956000	-0.243983042912372	-58.022274942596	-68.3682992817277	-14.3824999132129	-67.8954581202072	-25.6623216222102	-0.661185489727824	-40.9545141424533	
24205500	-0.31560495761923	-60.5936791339971	-61.4986439525059	-77.0870129696683	-62.2439537477942	-76.0664606300641	-0.612024068495558	-42.2191594455714	
24455000	-0.285363658115711	-63.2514013915155	-63.0455274474629	-126.425048769543	-62.383757023516	-129.003338651985	-0.547243623656805	-43.832603158436	
24704500	-0.172526894283362	-65.5117986075864	-74.5836009139942	-153.550918451713	-73.5311361633588	-161.049185223127	-0.456610886643558	-45.1558850184429	
24954000	-0.0931576006320475	-67.2192892359059	-67.4768451457687	-55.2076109462148	-66.6006671153249	-54.4631924193316	-0.364082898335004	-45.860477423644	
25203500	-0.127068666495294	-68.7362740654867	-59.7792571041673	-86.0560268320953	-60.0058459397898	-87.2534018027305	-0.356607504554054	-46.3038728729344	
25453000	-0.27576053716307	-70.5094699913362	-55.3446578756942	-118.500122645016	-55.0316961393204	-119.275348088925	-0.49324200550662	-46.8372805924279	
25702500	-0.425686078091981	-72.7302468602545	-52.6184269584956	-157.254765645715	-52.3786262440196	-158.249814306291	-0.73039732768715	-47.7258412661139	
25952000	-0.49868516041581	-75.2084791350568	-51.4105349586408	156.930274281519	-51.3680641461949	154.556002088735	-0.98180659950594	-48.7453099874675	
26201500	-0.45151684304445	-77.4863307692353	-51.0137938219732	99.6295697473596	-50.8785953375457	98.2392226336222	-1.16640461068594	-49.1814505698672	
26451000	-0.362089113158843	-79.0717887635878	-51.4443442521129	33.0929152385417	-51.0843597094365	32.2689618300647	-1.20266909838586	-48.2909666732062	
26700500	-0.31931434444458	-80.0518999425787	-52.2632829561772	-35.8122116758624	-51.6394265605181	-43.4098274936793	-1.05348378467011	-46.5292962596915	
26950000	-0.353190510902472	-81.0523957709057	-52.885266641507	-101.510615901642	-52.9676186920325	-105.669517888596	-0.845403768618286	-45.2301226283271	
27199500	-0.431695237735098	-82.8078506787616	-54.3069398200107	-148.241833365097	-53.5514474130071	-148.951091472033	-0.73393927661318	-45.0364321387416	
27449000	-0.48091845943013	-85.2562679243197	-55.9401362381413	-173.847096468625	-55.6117790823866	-175.531781901464	-0.698741139479658	-45.8536167964494	
27698500	-0.429279280578677	-87.9399956454211	-57.8119297985025	166.274827809043	-57.3399145573544	164.948694616387	-0.657679282280832	-47.2658432233147	
27948000	-0.304460837375916	-90.2751786596273	-59.8042983146944	157.344211530392	-59.9787398202192	151.740336192502	-0.549366817509747	-48.7660605785856	
28197500	-0.202624917317729	-91.9537823101726	-57.6609625898818	164.850701701537	-57.0689865204145	161.989304962305	-0.401440158409868	-49.8264760998557	
28447000	-0.183574392022157	-93.3496178675862	-56.5861387054	140.128621945538	-56.8792496312101	139.809903856045	-0.296224044815993	-50.412070454206	
28696500	-0.278197510853316	-95.117054131936	-56.8813024457064	133.25361379103	-56.9856049797483	131.605286406993	-0.316656021309537	-50.8004908869633	
28946000	-0.384491758272494	-97.437726621609	-57.1057432424037	127.678782344943	-57.0825113557154	129.905439676033	-0.432429488356912	-51.5086737865529	
29195500	-0.416528443975815	-100.175513439641	-56.8153268516757	125.781550941216	-56.4949957108784	121.444866366014	-0.574059307627858	-52.7426495345558	
29445000	-0.342009626062005	-102.831782867885	-55.6990189870619	119.287219025436	-55.1723167143163	119.289446780555	-0.66061217653468	-54.3424193078743	
29694500	-0.218988305935557	-104.997419663284	-54.1131976027962	112.28580343216	-53.6543380961111	111.798582023654	-0.695984352814302	-55.7808692065687	
29944000	-0.159462085926606	-106.607912870858	-52.3087506023383	101.228148583118	-51.9558243937557	98.1680282975196	-0.783063112644464	-55.7140546777667	
30193500	-0.222573195660783	-108.207642474519	-51.2221845989033	97.3087451203354	-50.8974874998021	93.2974361711936	-0.666805023365101	-56.2579571186704	
30443000	-0.351541100908092	-110.351107467025	-49.1946397853069	86.3157488450544	-48.8775207262474	82.9380149635083	-0.956959257169641	-56.3418598243037	
30692500	-0.449626357924685	-113.050116296745	-46.9924284897394	67.7841205406852	-46.8596626529673	65.0684085829845	-1.32119848119826	-55.820265265045	
30942000	-0.441422977468134	-115.909296878322	-45.299070497564	44.5581169896942	-45.4723178522354	41.0621130784983	-1.56734268677773	-54.8376143075673	
31191500	-0.333993312486786	-118.455236470179	-44.9184132132902	20.7114693685054	-45.192054448028	16.9847373972194	-1.51995255910177	-53.8912400218929	
31441000	-0.216988958087217	-120.504770387855	-46.2278036751348	1.14373311684581	-46.3551943408102	-0.791423360634531	-1.2221086804686	-53.4245566016546	
31690500	-0.225964950850312	-122.416158852904	-47.7835569289236	0.917639086143039	-47.8398498405167	-1.84400864843336	-0.87341323665584	-53.2656502141898	
31940000	-0.382317499965017	-124.490970525785	-44.9698924095158	-5.79717152844254	-45.1684159751513	-6.92689065577254	-0.634415208678105	-53.4058029519684	
32189500	-0.528086007391456	-127.195218734243	-44.5046008054856	-22.3447227630981	-44.5470531695534	-23.3611022705244	-0.570178553145143	-54.1202212279335	
32439000	-0.600863798328383	-130.681000516653	-43.5145348838271	-33.2566597753283	-43.3637200372615	-34.369031442605	-0.693316109333405	-56.0305558050349	
32688500	-0.601085333098599	-134.30616081765	-42.5656356290627	-50.2927383522449	-42.7026820517025	-51.7057979574884	-0.900567769997321	-56.1896172336304	
32938000	-0.606313794489686	-137.677081893774	-42.2924853483866	-58.8672867078021	-42.3652426770432	-59.8401441216579	-0.69496067380456	-57.2877646119932	
33187500	-0.788510226243579	-140.914849525538	-40.4793894640965	-67.0462818427231	-40.412356623672	-67.9086354938411	-0.53358817896032	-59.0024232375003	
33437000	-1.37424085638381	-144.279329691132	-37.8238730537229	-82.1744543176316	-37.7390933832675	-82.6531565750581	-0.463421350485949	-60.1503541034237	
