!Keysight Technologies N9923A: A.12.45
!Date: Friday, 08 August 2025 17:41:39
!Timezone: (UTC+08:00) Kuala Lumpur, Singapore
!Model: N9923A
!Serial: MY61181427
!GPS Latitude: 
!GPS Longitude: 
!GPS TimeStamp: 0001-01-01 00:00:00Z
!GPS Seconds Since Last Read: 0
!CHECKSUM:1470373117
!Correction: S11(ON U)S21(ON U)S12(ON U)S22(ON U)
!S2P File: Measurements:S11,S21,S12,S22:
# Hz S DB R 50
2000000	-0.0819616085963605	151.43544859679	-88.2643464076792	-124.100376324039	-78.7986090986262	174.531233937684	-0.0436724250020294	-3.50385471595459	
2249500	0.00272118129312383	148.284934600463	-78.2532150662668	166.076555048555	-78.4128062428704	144.435206267079	-0.142420751045857	-4.12647105249621	
2499000	-0.00812541715717131	145.282104886899	-81.4752428785167	137.921701357699	-82.7404035276604	-150.8939134603	-0.181318712211845	-4.96688204571375	
2748500	-0.106403487096259	142.014570811096	-65.7510428468614	133.000797410199	-65.6707619032969	141.107537868646	-0.129313762191703	-5.83912968242906	
2998000	-0.272827520535947	138.537999081066	-48.4255771583253	55.2911596931386	-48.5224556934938	54.8957026653319	-0.0432431252590073	-6.2991228593084	
3247500	-0.223062490482943	134.791927972398	-58.0032271660918	-23.5781804319248	-57.444207915832	-21.154968287093	0.0394014750369429	-6.42284106694784	
3497000	-0.137771102098379	131.090120943018	-58.6505935473696	-35.6287051173628	-58.6667077653175	-36.0107465112567	0.0176149877388578	-6.52666764095148	
3746500	-0.0358264086200047	127.934675448562	-56.327927084192	-42.2980576416845	-56.3502084981829	-41.2871489782275	-0.0786873765522203	-6.85985109798315	
3996000	-0.00970106933956317	125.065076263107	-51.6962887207767	-53.4602930024313	-51.5745558970784	-52.4039951179713	-0.187160505906375	-7.7347660753185	
4245500	-0.0988425661316859	122.059034542296	-42.7958727520105	-92.5711139211046	-42.6496580811685	-91.951304759271	-0.328927717730775	-8.82751445559356	
4495000	-0.203866473697739	118.937934710094	-42.7858487496147	172.656986474728	-42.8190636460225	171.802378086398	-0.155114120728217	-8.30047836769786	
4744500	-0.24492338864506	115.228321877993	-44.8810810211468	141.401468560598	-44.9494350191593	141.532715294637	-8.54327388652331E-05	-9.19127596519106	
4994000	-0.229133767703568	111.613900274647	-40.6385023723376	96.2438645822117	-40.5296073599599	96.2859671402616	-0.0294212168715161	-9.73029710985595	
5243500	-0.091880339705911	108.704518202097	-45.2145053848109	-7.05043938482309	-45.1583638364794	-7.69335713006158	-0.0400232588508264	-8.8557557872822	
5493000	-0.0139013136629813	105.898553256323	-64.2121040122476	-156.874679990617	-65.2276659744326	-158.698995048511	-0.191804104168077	-9.01866619384567	
5742500	-0.0569839412358193	103.08846362237	-70.3879845543669	5.24904681897799	-69.3182803640655	-7.58929151788829	-0.189893300423635	-10.1162738950873	
5992000	-0.196623014489134	99.7740217635943	-62.747190545386	96.8810926541515	-63.5558980246061	97.0356850095332	-0.171987044870592	-11.206404319468	
6241500	-0.330221974478049	97.614747238129	-53.8464338289033	-12.5485201942861	-53.9365948727392	-11.3900290840854	-0.0508234544345201	-12.0395645897249	
6491000	-0.241179325269508	93.7057931984955	-60.2792817464058	-35.575042389107	-60.079425285383	-35.8666189008632	0.0259661185944432	-12.3714664895032	
6740500	-0.1358855842113	90.4364640113605	-62.360217884413	-41.3046509521004	-62.0983582684674	-41.2361970351774	0.0512835925163941	-12.4895133173808	
6990000	-0.0364942828626296	87.7153326666324	-62.2506015590553	-47.1679309947767	-62.339863585408	-45.9936773135816	-0.0254631796133115	-12.8028520191935	
7239500	-0.0337601547497586	85.3036459094063	-62.931113238421	-57.3757153633658	-63.3719890916738	-54.3693092653037	-0.131999632391704	-13.2339826034597	
7489000	-0.126302495763575	82.6483341453547	-61.5328059863825	-55.8304863512187	-61.5108719332386	-56.765457606012	-0.191308053299742	-14.3467134780612	
7738500	-0.235521175787017	79.5569106651746	-59.6461574282557	-59.9510337131536	-59.8427617831422	-66.5209073897637	-0.160332286363642	-15.515629956741	
7988000	-0.267414269218565	76.2398752151167	-56.8178203949947	-73.4988083915633	-56.6694980959434	-70.9694174978517	-0.0756482801263383	-16.4732829539832	
8237500	-0.203269094541487	73.0071766427617	-52.3867308058629	-84.9577250539227	-52.4505282064353	-84.9744018932363	-0.0716363123166867	-16.4466366468349	
8487000	-0.0982041049300701	70.2784200219304	-44.981137525624	-116.849571414072	-44.9460800832556	-117.542351055002	-0.18443182168133	-16.9520089466983	
8736500	-0.0577813733520193	68.1343690490852	-40.2962351413704	163.7108290104	-40.3356056134139	163.274306847089	-0.363075072224645	-15.205627248863	
8986000	-0.101381011046618	65.8860559788575	-43.1419906867777	103.061681533559	-43.1175139104992	102.651080199166	-0.282375919524432	-16.0839010468681	
9235500	-0.218525418384414	63.2028305090638	-44.9260505089177	59.5386449613471	-45.0240196407574	59.4384524156261	-0.328615385819984	-17.364489824481	
9485000	-0.292484970597236	60.1374140262485	-47.1131993821697	16.2033929294851	-47.0457773870976	16.3608583124656	-0.257245904235047	-18.1243658442871	
9734500	-0.25736786825642	56.9972963047543	-50.0481095395064	-19.7516152090003	-49.9194109179885	-20.3299212225964	-0.109580878042645	-18.7388777217298	
9984000	-0.142746124615007	54.2052240183395	-52.2350202646484	-50.6617949752744	-52.0574240662696	-51.553781391346	-0.0488373584483178	-19.248553344706	
10233500	-0.0474118827722977	51.930545928244	-52.8214443901684	-89.9988918759192	-52.7054737753575	-88.7666616837828	-0.204400275479306	-19.6726227415284	
10483000	-0.0497203968471817	49.8890882841665	-54.8516030523431	-143.907431659692	-54.217664920334	-145.260605222116	-0.488931714901668	-18.697481320658	
10732500	-0.151059704460164	47.560816671001	-61.1998613369352	167.953657569666	-59.9948049152773	162.560562185346	-0.416337873532099	-18.3332551722934	
10982000	-0.263956490607038	44.7412936181277	-67.631299959201	147.240358907089	-68.4149139944502	121.950474198807	-0.305187036179317	-19.576176439963	
11231500	-0.288204306208744	41.6129249092692	-69.5815609703143	136.330756214784	-69.152866596566	122.07470236378	-0.176108970306035	-20.7243889544357	
11481000	-0.207816816416585	38.7003643478206	-65.6438534425157	150.996910386018	-67.0410349236846	150.218448362628	-0.044309768891067	-21.427449130365	
11730500	-0.0906233628051202	36.3171048012184	-60.9223394881111	101.789160122054	-61.9843242081611	104.387668092488	-0.000901309296556601	-21.7002620736807	
11980000	-0.0361705458021267	34.3281520143099	-61.8511803172114	39.4791518478608	-61.7364814875756	41.3555617562136	-0.108585227055761	-21.8732078547946	
12229500	-0.0990223629628545	32.3037086119869	-73.2742411157371	6.99742174333654	-76.2553274575467	10.7738781390655	-0.169311819379448	-22.1709767272125	
12479000	-0.227672544833851	29.7599991085209	-71.0332645766954	62.7679518227183	-68.7511970385048	59.2011816390778	-0.253214969887458	-23.7034554458571	
12728500	-0.30878820280587	26.7316901221888	-63.9853465107444	59.5537628590869	-63.4977088446399	59.4533851652481	-0.380417543736917	-25.718977566597	
12978000	-0.2744793833378	23.5885489430933	-63.7990277519914	11.777384319901	-63.9267169678121	2.51563184272932	-0.304761045550193	-24.0140937320976	
13227500	-0.161224349175834	20.8352299790688	-66.3596634184563	24.547902338379	-66.9011907430236	17.6125336926247	-0.0939203554422785	-25.0523871917246	
13477000	-0.0665667338829178	18.5777291763312	-63.2446589230848	47.4809807581905	-62.8270396152552	48.0017321918815	-0.0721681509083399	-25.7122279109271	
13726500	-0.0780165879916305	16.4744912230031	-56.503275515048	38.5364875299552	-56.298803542798	38.7704323676486	-0.266679784908689	-26.5534510712015	
13976000	-0.194537796565989	13.9495142766501	-49.7858059757498	-0.152209725087229	-49.8010862235452	0.423511845870308	-0.705648953808457	-26.4185008765081	
14225500	-0.325534257041299	10.7156283677391	-49.4888188380181	-53.773580628873	-49.432723230406	-53.9239013486867	-0.528112125052583	-25.0905324531189	
14475000	-0.368949303927559	6.91416601161525	-51.8284967070836	-75.8075774182361	-51.5843408468181	-75.8173466383691	-0.308101415112917	-27.259863558977	
14724500	-0.309690962299599	2.98765718651225	-52.4222038946223	-80.3372486261539	-52.4381599610802	-80.8805990012766	-0.275748557072728	-29.3178726902404	
14974000	-0.247099152579708	-0.925350519752951	-48.8944595478214	-79.6758089215512	-48.8736816332001	-79.9530115660349	-0.688496945527648	-28.9750596899471	
15223500	-0.312342013044135	-5.29814830071587	-48.5497351297186	-121.967109541128	-48.4552484104712	-122.993022767762	-0.366556231656437	-25.2632927785576	
15473000	-0.685708443115324	-11.9096657815527	-47.7257273737652	-110.581743791497	-47.5769490878487	-112.856533435161	-0.222475024700008	-26.8290283348075	
15722500	-1.74082689042943	-23.833952729979	-37.4930229574945	-122.856734527673	-37.5314470195221	-124.479481621931	-0.449348778787621	-27.803191132413	
15972000	-6.69331669933909	-45.9273088573981	-33.5476708597654	174.911089331939	-33.5984906329668	173.986825202608	-0.343718616582408	-29.3721150814663	
16221500	-8.01997644783135	44.65898827057	-32.4582641128059	103.924724549989	-32.481104137564	103.580686050504	-0.345907907733759	-31.3837052910084	
16471000	-2.22940399931618	25.9635857098972	-35.5809506473463	43.6384380051024	-35.5164938115645	42.9275707360767	-0.512777759038616	-31.9438434958358	
16720500	-0.953901504874204	14.7735063965992	-41.8447978078395	-4.64047454838322	-41.6848320835713	-5.52963088700157	-0.511809190093408	-29.714320072426	
16970000	-0.520948181172429	8.51085110061737	-49.6826478531694	-18.3152435403194	-49.5223547949886	-19.747829111102	-0.344772748524565	-28.8504479219237	
17219500	-0.426374191620986	4.04785102168037	-52.3944482120329	0.134294019518348	-52.7125963288022	-2.33527885176137	-0.323639637416142	-29.4211387351094	
17469000	-0.467837958563566	-0.0177304597544534	-53.5755616156883	-18.6606516779012	-53.7715180074413	-19.9593627566003	-0.352834828293565	-30.5698700367136	
17718500	-0.476640244490209	-4.03424594154576	-55.0633721004013	-16.2612058573294	-54.8651858400113	-19.8401977766735	-0.320716135725538	-32.1189043903984	
17968000	-0.383000830037967	-7.68367548406234	-55.7808612526777	-17.3179359269731	-55.943679830907	-20.7143653206379	-0.21592603203524	-33.4689818002805	
18217500	-0.228052060449378	-10.547116944369	-56.3960670510882	-24.4980738110612	-56.2465324330177	-24.5706587587914	-0.106906194833367	-34.3056254143043	
18467000	-0.125861089311544	-12.6603104531244	-56.0528960747261	-27.4418489726152	-56.0670946084003	-28.8886083436634	-0.0945215458314661	-34.8238145370977	
18716500	-0.147486448844077	-14.5267424088616	-55.5709514272386	-38.6628472473854	-55.0400378462505	-38.4548177666265	-0.236015707857981	-35.4955728535597	
18966000	-0.255837066377406	-16.6974813581562	-54.0412925494748	-53.3037885273837	-54.1270637585923	-50.5992660668847	-0.523063672940529	-36.5160307846398	
19215500	-0.356059028395323	-19.3877726046779	-53.2718203661853	-68.2417029149661	-53.3782365892078	-67.437778719318	-0.870650816399424	-37.055997281375	
19465000	-0.352499128027682	-22.2986995930598	-53.6598029601896	-87.8228260083015	-53.6116256235179	-88.8404567937602	-0.966347111295424	-36.3157720154086	
19714500	-0.242876692926002	-24.8667783236242	-54.7336300601547	-107.434791250645	-54.7873676041383	-107.334615611341	-0.730555794443539	-35.6231928903956	
19964000	-0.115306782661708	-26.7936311383648	-56.3466617404292	-120.831146415519	-56.0902745125519	-118.917641297825	-0.429857062217037	-35.6519974646774	
20213500	-0.0816703556956556	-28.2753902318834	-55.6796706842904	-119.663857090354	-55.3245163546573	-119.513993045621	-0.364681998545927	-36.5431231637849	
20463000	-0.162178567873528	-29.8985229191442	-52.2942816105283	-147.830779696663	-52.2205816914131	-147.758315969949	-0.7729864758092	-36.4925502840966	
20712500	-0.289186660314862	-32.0505624550728	-56.8816525711079	175.42041376631	-56.5960255881034	173.56589857157	-0.635524521632143	-34.2341210790801	
20962000	-0.353049837163731	-34.7046037320425	-59.514105481205	175.145104083429	-59.6172753981833	171.762519468105	-0.463929881812316	-36.2164405031145	
21211500	-0.304138653034788	-37.3608241487682	-60.6705192286599	170.837850387932	-60.5674189698095	170.453483179637	-0.364776738557217	-38.0520161132903	
21461000	-0.172980499838647	-39.5426077939741	-61.0760937584832	162.85602824965	-61.6549979654221	160.797380013177	-0.236121060065662	-39.2876944000049	
21710500	-0.084947190982723	-41.1466204564086	-60.9150449233975	162.226702279239	-60.9339858653359	162.354752362844	-0.166109111172798	-39.8266338943617	
21960000	-0.120500083426301	-42.6189635186411	-59.3522691847345	153.492960838458	-59.5385899537858	153.834004674756	-0.215743272691073	-40.1116288061651	
22209500	-0.283879194852647	-44.5538388644739	-58.3467297704798	145.195938263675	-59.1535518659368	146.0320359778	-0.380170709672325	-40.7053190179243	
22459000	-0.559698686653943	-45.8239881770255	-53.9394998867719	92.7484876009035	-53.8843301076224	92.1178755356087	-0.58888779642499	-41.7476352154357	
22708500	-0.345923826003838	-48.244804521046	-64.6087073387356	30.27079934082	-63.6039991414847	29.8051021363845	-0.764260572150475	-42.8788526444933	
22958000	-0.228727487016845	-50.994383670009	-74.7910117983058	55.6241026956059	-74.6080245725514	59.4252106203373	-0.834743877615289	-43.0494508319321	
23207500	-0.0977683439579978	-52.9519203374035	-77.069170365485	114.341421886801	-77.5800352840787	128.018921393126	-0.691126636415914	-42.7515718970206	
23457000	-0.0513528430586076	-54.3844241362829	-67.0887384281914	161.169901488963	-67.2045563257194	150.578476323987	-0.657590594480413	-42.069761067003	
23706500	-0.126478223960106	-55.9145526205585	-62.7679539770805	131.240777915006	-62.6801305317375	131.480817760334	-0.658419833370916	-41.0486329122326	
23956000	-0.25415194761329	-57.9935979320562	-60.6356264105694	99.5250796524362	-61.054836194707	98.4238304052849	-0.651656494341524	-40.7929560292663	
24205500	-0.330313696639221	-60.6043113203723	-63.1288297361926	51.7694797785525	-63.6756643113065	51.0504355748443	-0.609957950459624	-41.9738638070167	
24455000	-0.294319257317623	-63.3010369040635	-73.8282867293758	43.3046365132295	-73.9711734966944	19.7428777267168	-0.601919239487283	-43.8629162935265	
24704500	-0.171737063333631	-65.5586654664243	-64.7804825350604	92.5564720973869	-65.2237038432412	90.8943892380204	-0.56731262894081	-44.908346703106	
24954000	-0.0856618976268093	-67.2233564151908	-61.8061118383899	44.6336454748732	-61.8059747547214	43.7519851702069	-0.478367382085002	-44.8128311021679	
25203500	-0.12381192235585	-68.6957092018557	-68.6727104503079	-3.43895568587707	-68.470881553529	-10.1480685025142	-0.366810721685789	-44.6228996190557	
25453000	-0.28283237898083	-70.4579138769274	-73.7743363328804	179.678543974505	-73.7289294396961	147.032252745231	-0.398001347410911	-44.9357376961569	
25702500	-0.440621415988205	-72.7045224455895	-64.6062245422865	118.607261983996	-65.6333465733918	117.002265782552	-0.522918256876476	-45.8079917422037	
25952000	-0.512134128851638	-75.2397454371805	-61.8774153606632	79.4307903987983	-63.5355711624249	84.6614078155995	-0.628249083927415	-47.2059013057008	
26201500	-0.455972293899423	-77.5655652083109	-62.0792583069791	54.6901874801125	-63.1764163266574	57.2807737009211	-0.656562529321124	-48.7427266302805	
26451000	-0.35710921948325	-79.1111167434478	-63.7925390125163	54.3086940042663	-62.8376865912729	65.0017600111087	-0.625810322869452	-49.7679627079663	
26700500	-0.311771568107897	-80.0427726033734	-59.0852570054762	73.7908919081578	-58.3689921161409	74.5028731685292	-0.641775563605543	-50.0419176655826	
26950000	-0.351862943544723	-81.0116889707991	-55.0819010961398	54.9924496993589	-54.5095591610425	52.3327198114267	-0.790052685971673	-49.4964323126629	
27199500	-0.440530761728946	-82.7695303578893	-52.9518935539132	26.613767432955	-52.8180488679988	23.7481944385168	-1.01789793563838	-48.3704955146434	
27449000	-0.496100378209186	-85.2786045727289	-52.5065729772608	-1.68102003302574	-52.2340762677908	-4.46232081987483	-1.12985023339069	-47.3633305101256	
27698500	-0.439942103966944	-88.0044108499097	-53.0054931405565	-25.569323753549	-52.9206673476374	-29.5084578569175	-1.02978765624987	-47.3037923906107	
27948000	-0.305470723178403	-90.3558839587032	-54.6578153878006	-39.1961863026484	-54.7912822793117	-39.3723239921656	-0.768913650820426	-48.1638153826376	
28197500	-0.196161835964367	-92.0054960213197	-53.7820685613537	-35.3770987351365	-53.5355598826764	-35.7548184470068	-0.467454753436297	-49.316745471838	
28447000	-0.179128238008067	-93.3723685372712	-53.7921889264248	-60.3434228307517	-53.9336513138555	-62.6951245822021	-0.279797227748302	-50.4317762449708	
28696500	-0.2835039881992	-95.1245735894417	-54.184465478649	-66.1423084042255	-54.2517322543449	-68.0853806607615	-0.318779149274776	-51.5094891577863	
28946000	-0.397765271577263	-97.46628653816	-53.7094827240768	-71.5156812887523	-53.8248218633073	-73.2206624018036	-0.566645730903634	-52.8089580892675	
29195500	-0.429893136008654	-100.241147598583	-52.2753895988148	-77.8775946282218	-52.1160561149449	-82.8335236485543	-0.944155847452743	-53.9229379557671	
29445000	-0.345688743334062	-102.8990700044	-51.1451317291725	-94.5028008858123	-51.3467240562632	-93.0958969573582	-1.22515003002326	-53.9962042277976	
29694500	-0.213335908552375	-105.016715670001	-50.8408089836688	-109.476040351161	-50.6706964078999	-110.763263778527	-1.1777396326586	-53.1313555324672	
29944000	-0.150604316814662	-106.566760743358	-50.8271077378214	-122.679105656358	-50.975534601938	-125.278142052581	-0.90131410330214	-52.387813489194	
30193500	-0.221305002663424	-108.132579635898	-51.0750227057747	-133.288469048028	-51.1472872511502	-134.719167045899	-0.666226930093711	-52.1199752543085	
30443000	-0.362203438111881	-110.30023002022	-50.285050179291	-139.020271904705	-50.2317917009251	-138.94188058447	-0.616804288111918	-52.3468110316992	
30692500	-0.465959967615072	-113.078669827343	-48.5582008686102	-145.16828252606	-48.6693845040905	-146.278980475422	-0.715492857178488	-53.2153217819742	
30942000	-0.451178041779812	-116.008688724055	-46.7418118453224	-158.378022450963	-46.7197049749128	-158.806943849805	-0.830623768157795	-54.826141678231	
31191500	-0.333380093823086	-118.560494735607	-44.8791297907964	179.586260996966	-44.9620538624057	179.077494683181	-1.07775813587895	-56.9827039547658	
31441000	-0.209665978771737	-120.552231050066	-46.1394123193749	148.854666462921	-45.948494425615	146.949452033173	-1.05500264014901	-54.4690892396689	
31690500	-0.219261484882702	-122.394503098735	-48.022103950337	150.162300204554	-48.0091921983483	148.693168429823	-0.601930297499478	-55.0322903746279	
31940000	-0.387193111521305	-124.447110552551	-45.6396448997091	148.042663217322	-45.7273003765539	147.115771063888	-0.482696511426441	-55.6910928994159	
32189500	-0.544455806302402	-127.181868863569	-44.4595444251668	133.613462345135	-44.4733016979485	132.698372852442	-0.560944853871941	-56.2395709741164	
32439000	-0.619585419803827	-130.726861860954	-43.3790621072747	122.14867555897	-43.3861394966847	121.440322765592	-0.720302189699713	-57.2660549319677	
32688500	-0.610033294710925	-134.384978988043	-42.060764242275	110.494377519032	-41.9085552229199	109.678361276396	-0.863805846159404	-58.6601436124333	
32938000	-0.60722117074714	-137.72772533114	-40.1088215296136	97.4999786735147	-40.0837947725166	96.9938869762163	-0.918877022664999	-60.121222333992	
33187500	-0.789788949361592	-140.883177451455	-37.8687646118826	81.2492877663301	-37.8196321307623	80.4525899422249	-0.894494166146699	-60.9041670782633	
33437000	-1.38695040535389	-144.144355158182	-35.3392983553193	59.5812207132336	-35.2950887766805	58.7872508425226	-0.884951352228452	-60.8180727860512	
