!Keysight Technologies N9923A: A.12.45
!Date: Friday, 08 August 2025 17:30:03
!Timezone: (UTC+08:00) Kuala Lumpur, Singapore
!Model: N9923A
!Serial: MY61181427
!GPS Latitude: 
!GPS Longitude: 
!GPS TimeStamp: 0001-01-01 00:00:00Z
!GPS Seconds Since Last Read: 0
!CHECKSUM:0283689465
!Correction: S11(ON U)S21(ON U)S12(ON U)S22(ON U)
!S2P File: Measurements:S11,S21,S12,S22:
# Hz S DB R 50
2000000	-0.0710246957372911	151.54283573749	-83.8994384655722	-128.704006996252	-76.2900411715723	-161.273189140007	-0.0354116626071403	-3.4268639642127	
2249500	-0.00855193792904412	148.336154385968	-78.6315246689241	96.4487601016535	-75.9166950519348	-178.692052114137	-0.10804215327444	-3.9851845706172	
2499000	-0.0194428796062511	145.217298914461	-71.9368066848904	127.155204469619	-77.2565999318244	133.327005064892	-0.137956038123474	-4.77185914121306	
2748500	-0.0953547548050976	141.900692526241	-65.3905685588931	140.503317801096	-64.7062986342942	131.182218503771	-0.0998486776077288	-5.52554712163906	
2998000	-0.231640620170796	138.249903134081	-48.8359140304889	88.6879228339173	-48.7903262515979	88.2128183389178	-0.0389380129859383	-6.05564259357336	
3247500	-0.184421531246518	134.852392710782	-57.7290504584861	-15.6284609779711	-57.8148378599591	-12.6289732649511	0.0228047382872423	-6.20351440815536	
3497000	-0.116105714146637	131.209884884294	-60.8734097996543	-31.7395892035498	-60.3325261143594	-27.7580231863222	0.00471841363241481	-6.42710832865984	
3746500	-0.0402791383061638	128.023276659185	-57.9535813897745	-39.1144902990255	-58.5039714347316	-36.3410567120325	-0.0663324949515621	-6.76662809993484	
3996000	-0.0401849979668669	125.164708561462	-47.4533544005162	-153.134778241771	-47.6088477822988	-152.166141540917	-0.171806922827295	-7.05812836066954	
4245500	-0.0777157336122718	122.052233984554	-72.1142019059519	-32.1107734799929	-73.2638945569371	-48.3716633593386	-0.135365412460744	-8.18500092944518	
4495000	-0.160040418719365	118.659571028141	-60.1662426490657	-43.7848221141488	-59.1761964806506	-40.7770794087877	-0.0793916537603811	-8.9534151295285	
4744500	-0.217461117505335	114.845957875043	-49.070478141613	-57.0398362344216	-48.8558535508668	-56.9894994101526	-0.00917272830021865	-9.44491965001538	
4994000	-0.17659786158507	112.217944574274	-48.2812410068481	157.636596057582	-48.2869185221624	157.7957835585	0.0258678530575128	-9.44481181894156	
5243500	-0.0750204673349906	108.764013326383	-55.9368102119693	140.781079446413	-56.1913674642019	142.615514159663	-0.00748414352475603	-9.75216024805764	
5493000	-0.0269431061458191	105.858879799193	-57.1548928893129	135.147525641935	-57.3359163766805	134.087212792555	-0.0872438969123366	-10.2625854581804	
5742500	-0.06649007629982	102.954194315702	-51.1012169391852	112.181964375766	-50.701669119773	111.963881619156	-0.174513015826521	-11.3930536139916	
5992000	-0.177090250317422	99.6702401701819	-55.8898467809603	-69.7982537990317	-55.4409786282312	-69.7547366225458	-0.134900502552586	-11.5976230059824	
6241500	-0.274315489680912	97.5443556934828	-54.0330840867738	153.192622750287	-54.1979400912518	153.962142775284	-0.0414441542422906	-12.4714590131759	
6491000	-0.202801345434637	93.768584478696	-58.374370985519	131.494542682088	-58.7806271953431	134.414236681992	0.00119251994940001	-12.9283494570975	
6740500	-0.121912045208419	90.5546387157057	-55.5477097999999	114.7082227628	-55.5511493653707	113.89290717672	-0.0452950577328704	-13.4806149207871	
6990000	-0.0462992966098402	87.7752555366518	-63.3673585275953	114.527020897123	-62.0032902860629	110.730692123901	-0.0416064757867905	-13.1861625700341	
7239500	-0.0469125290468491	85.2444817944746	-59.6783939383549	113.152623341778	-59.3960388277347	110.214895566583	-0.127998768963469	-14.0607232890497	
7489000	-0.11892371791691	82.5032500340657	-55.9839656837083	108.623328664299	-56.5327775436903	106.011223958884	-0.196957246885906	-15.2272549521835	
7738500	-0.203094663290645	79.4523826390364	-51.6416416123632	92.315401105852	-51.6022037010042	91.1558093552168	-0.244486849470079	-16.6815056340796	
7988000	-0.228361342234511	76.2626514962195	-45.1677698852599	59.3442354413736	-45.0748489723866	58.8077711808085	-0.547411277780695	-17.760760463102	
8237500	-0.18132831053489	73.1388161485801	-46.4348427055664	32.2507015336898	-46.435437391446	29.905130760397	-0.347605217946799	-15.4546014858512	
8487000	-0.0967162844409362	70.4582342489871	-42.7384297138239	-29.4135941047798	-42.7393840946135	-29.7730457617645	-0.266568606515728	-13.787813657515	
8736500	-0.0590246026879095	68.059439294317	-43.4295780629725	-67.6602700726789	-43.3678730773426	-68.5462168868594	-0.153410950224052	-14.6719783584663	
8986000	-0.112021150940073	65.6997902413464	-43.2290973161663	-104.281284979144	-43.2497118872641	-105.266973947212	-0.225539936818963	-15.8658286162823	
9235500	-0.202478897897295	63.0928503956625	-44.0143443761013	-149.010263254135	-44.1710140903953	-149.707357302162	-0.286836197034194	-16.6730153103771	
9485000	-0.248207573545828	60.1251368009157	-46.8444302463749	172.974160025585	-46.8828172086878	172.78901683814	-0.204374214929748	-17.3046051907518	
9734500	-0.218457276809113	57.0918574669953	-49.3654846558046	147.649879642489	-49.1718070307299	147.149871954625	-0.0863389128941626	-17.9861599186094	
9984000	-0.130414473102177	54.3352248718619	-50.4334386983539	126.701381046453	-50.7309799046033	126.158236012872	-0.0317103681905478	-18.5393191219922	
10233500	-0.0590735570381407	51.9767720064614	-49.8919928542712	97.6562830993687	-49.8583546017383	96.5126046112444	-0.132439437032252	-19.1785481416581	
10483000	-0.063625166021573	49.8112045198183	-50.1693603616073	36.1468375504425	-50.2825438913327	37.8719083943368	-0.401022437622002	-18.6057719791163	
10732500	-0.141227095458957	47.4269057097295	-57.4099693633365	-17.4369461032003	-56.8703451770927	-14.1134461848335	-0.309842249790086	-18.3685488461388	
10982000	-0.227151710716668	44.6518007839352	-62.8093175073846	-32.8026226076992	-63.5710856926291	-39.4798608363213	-0.230015935585177	-19.4348715012075	
11231500	-0.244566758660959	41.6618165001988	-68.7033520881756	-46.9329048972639	-66.6845257423381	-44.4898751444282	-0.134984511305101	-20.4118112658631	
11481000	-0.183613477737309	38.8314447610256	-69.0699448420318	-23.1680801976772	-73.1890096443429	-6.06329674018837	-0.0403222047594529	-21.0817006480243	
11730500	-0.0959212219529691	36.4153239233525	-64.2191271507783	-55.0497272817711	-65.1033532368024	-64.0006395710918	-0.0137336055851394	-21.5582282307898	
11980000	-0.0523327208840152	34.3039609579086	-63.0030057871843	-124.584556531068	-63.8878154087127	-120.496232351694	-0.196681019345738	-21.0286845979581	
12229500	-0.100814842741158	32.174728773012	-69.7192335859987	146.788424360623	-68.7235338952127	145.260966809304	-0.156762376788553	-21.3870869840606	
12479000	-0.197323592187898	29.6444873572288	-82.027420777264	-157.39930457887	-78.0069134219774	-155.184225594069	-0.173493659077788	-22.4675451109758	
12728500	-0.264702799975843	26.7277599765774	-79.4685468694493	-112.008743507302	-81.2817249761008	-141.5940658182	-0.148224864982971	-23.6181259946977	
12978000	-0.237796877444069	23.7140440218562	-83.3297554341202	166.220246458087	-82.9287566541067	-52.1625598934045	-0.0833408961878052	-24.4770894719542	
13227500	-0.153749169976631	20.9887956046819	-80.9683704178271	-83.1801986593118	-77.9800007131136	-45.1518951854951	-0.017440754205935	-24.8731018023992	
13477000	-0.0809718672008353	18.6308559106602	-69.6941124799608	-83.7278740068777	-69.9312660049202	-94.369491787195	-0.00124665545666338	-25.1036647251477	
13726500	-0.0896926253672166	16.3836684777477	-66.5296132342578	-100.365976940694	-66.6284322074074	-104.277319627	-0.0599893429702772	-25.5355249849256	
13976000	-0.181039477501107	13.7929018415256	-61.0149550578713	-111.147988790213	-62.5149175981372	-117.481908387223	-0.153340982980375	-26.3542154430918	
14225500	-0.285604232267466	10.6159436646589	-59.6169449061738	-117.672335079776	-59.5573167020969	-113.829569955196	-0.207435197694461	-27.604961444672	
14475000	-0.326118203197592	6.96148068118529	-54.2117322441205	-137.962317866117	-53.7964259797047	-138.044741695996	-0.246812641742889	-29.0056790972555	
14724500	-0.291931605893328	3.14275352492469	-47.3540422853083	-177.773653875418	-47.4672426227353	-176.506308894835	-0.394890538565782	-29.7316474370228	
14974000	-0.255733333340715	-0.802298221580276	-51.8201498412312	107.552018222975	-52.2809959140954	108.737160475923	-0.156862875673018	-28.2123228689974	
15223500	-0.330799179348846	-5.30137433811455	-53.0984816123743	149.964711557688	-53.0219035102248	153.02592141031	-0.145195917900825	-30.0470536064944	
15473000	-0.683080246839742	-12.0116463006297	-43.5111466051133	164.589982912092	-43.4052985708905	164.199129721021	-0.451005940735601	-31.7549795518907	
15722500	-1.71170460186492	-23.7026345631382	-33.4735366520063	120.345809908531	-33.3424743342797	119.329553320102	-1.19632102053182	-31.9772177035233	
15972000	-6.34478839168104	-45.4130847145218	-28.0047282297556	32.687722364463	-28.0458660054952	31.7988859245283	-1.06211120735632	-26.6043242432113	
16221500	-8.15499202312746	45.9162894638092	-31.6377853923909	-56.933318552688	-31.7916797989049	-57.3884171439381	-0.511082211458365	-29.4235389940919	
16471000	-2.18279158891169	26.4533444017874	-35.31772687253	-86.040226675561	-35.2226363215855	-85.8646436738383	-0.606591631494844	-27.1327170446759	
16720500	-0.949754196989415	14.9241485095695	-39.5903923392013	-128.065922177274	-39.4214551978811	-128.247671922594	-0.223661152741447	-28.4683298209714	
16970000	-0.535559656913976	8.46588304818749	-44.0696494127707	-160.24626491469	-43.9125330819841	-160.512615031434	-0.200052489163182	-29.671466358487	
17219500	-0.425302724487293	3.89616677555553	-53.2364329837231	174.560656406167	-53.2954238872949	172.64463971935	-0.460155608147122	-31.1841503693269	
17469000	-0.434343978016307	-0.148867150341537	-49.9242309368299	-155.473408514634	-50.0161631290183	-154.663260299506	-0.535376492207225	-29.4435207596202	
17718500	-0.429492162425336	-4.01998120654473	-52.2847487806921	177.51160309052	-52.1701388181917	176.249418668753	-0.354519799479928	-30.805863795014	
17968000	-0.352297401571302	-7.54112331100992	-55.2739680587006	161.853736209104	-55.3681349845175	161.708175299257	-0.234666047089342	-32.089911376765	
18217500	-0.228263620169322	-10.4129119114245	-57.3043356538095	153.359109859894	-56.8951099570828	147.873270125131	-0.130375762703318	-32.9009356723031	
18467000	-0.143404379309286	-12.6564544326799	-59.4864532814755	145.773398582503	-59.7805560541462	146.756183326815	-0.0962890028428173	-33.3968814695063	
18716500	-0.154727449147631	-14.6603130440699	-62.6409725955976	141.913930313107	-62.875854260426	138.885969067999	-0.157977089273995	-33.953774411103	
18966000	-0.234806718444723	-16.8664705754827	-64.1040472198516	140.579438539504	-65.1675891422116	139.436934136931	-0.284208860087521	-34.7489162368355	
19215500	-0.312626274060481	-19.4502980435458	-67.4917281984104	141.704656746949	-70.0073777209701	129.617386900071	-0.383929422196246	-35.8349124813159	
19465000	-0.309984891549099	-22.1988525930148	-72.8324748155307	140.236355450955	-68.9289568136157	147.378936696105	-0.444295241002697	-37.1324742790427	
19714500	-0.227057145864276	-24.68978713984	-64.1506710838165	170.098669680977	-67.8558283191198	179.560448659177	-0.514093894620451	-38.16202229682	
19964000	-0.12735344550478	-26.6972560860407	-60.0540602641529	142.12770747169	-60.5526984831159	145.722755087865	-0.716492948337451	-35.5961382532227	
20213500	-0.0989883193163763	-28.3410522042588	-63.9706188396225	117.241575786402	-63.5076446026593	118.167435090598	-0.187837623710959	-35.4838452282991	
20463000	-0.158097447205273	-30.0692024292267	-60.3806224488238	120.36200362507	-59.8119048867459	125.337768294126	-0.269474554828185	-36.5382391333237	
20712500	-0.254319663118345	-32.1850414190993	-64.7904484672024	83.0766030938749	-65.5397453426458	89.5855227165463	-0.310579055721918	-37.8756300232291	
20962000	-0.30388780651678	-34.6940691395395	-65.5718077245802	88.349947480152	-66.5085833958787	69.5680257882662	-0.412574932140071	-39.5632900222351	
21211500	-0.270367018189882	-37.1958075004418	-64.5544554735981	93.032485455092	-64.2664318223802	90.8416375305811	-0.484020888870582	-41.0519328946925	
21461000	-0.171512623410842	-39.3786117000705	-62.3795617288415	72.2500874454363	-63.3698766884685	76.5964373846315	-0.580807658426991	-42.2042043457956	
21710500	-0.103105546837125	-41.1182930215112	-63.875227226289	68.545219489176	-63.4619839601316	59.7146961265936	-0.872459732549796	-41.972842831434	
21960000	-0.130162407762003	-42.7541928333961	-59.1589584903248	64.4272533226265	-59.3217622576722	62.2211950247674	-1.10484465520069	-38.4079423271106	
22209500	-0.264715706641821	-44.7412171766625	-52.9499753982288	4.16594336636945	-53.1871044368786	4.35026939285901	-0.723911661299459	-36.6022111949378	
22459000	-0.512553721575294	-45.9546350097082	-49.7648560890773	-109.462933099077	-49.9545545773489	-108.282694839826	-0.534159936700431	-38.3698602049622	
22708500	-0.301950597206845	-48.1708222401585	-60.9142667471842	133.634884786244	-61.4958998784412	136.599462964516	-0.565961929469592	-40.5195328116699	
22958000	-0.210338817459216	-50.8313280757591	-71.1913644941167	50.9943565817147	-69.7482376504868	59.1559265257807	-0.648548673888937	-41.4526922171899	
23207500	-0.108174736727847	-52.8496121134329	-79.2326651192012	-143.959275770708	-79.3899820477511	-166.211784770219	-0.547685349542708	-40.866373114709	
23457000	-0.0703688371663829	-54.4438226839587	-69.3028331131405	125.002188142706	-68.2275797779863	125.05962488414	-0.289697388987086	-40.8901815631475	
23706500	-0.125352622318955	-56.0901238196439	-69.5895013869091	66.882444310637	-69.2162543348881	79.9852978616479	-0.212903692141122	-42.2437749444463	
23956000	-0.220802411640116	-58.1528858574682	-83.9673530892025	-43.6512492654251	-74.8562569020279	4.80412434165959	-0.379806830332477	-44.1092125672507	
24205500	-0.280867830420387	-60.6100176690624	-64.89769553949	162.694476387275	-65.6462633138586	-169.403832177238	-0.670186538262908	-45.9620244110727	
24455000	-0.260318851659465	-63.1599929031641	-59.8416156373191	117.802635983434	-61.3875352203339	127.486071042574	-1.08043930784864	-46.9795296885341	
24704500	-0.1685528546566	-65.3967632152369	-58.2402974768508	72.6374309690336	-58.4647563318484	74.0777943019776	-1.32001957689913	-44.7401284811549	
24954000	-0.105089720458125	-67.1907067504836	-61.4947573189912	40.4517224085428	-61.6961820652193	43.2162959392151	-1.04819381578627	-42.3010579016769	
25203500	-0.13726192240748	-68.833426036234	-65.3319001788111	43.2639737964523	-64.0550103687508	45.0069838238177	-0.746027339118895	-41.5177953408982	
25453000	-0.265066635196425	-70.6621462570578	-60.3701592397758	68.296867742261	-60.344939835485	69.853394577041	-0.607846627751256	-41.634880314918	
25702500	-0.394604061859522	-72.8309201041709	-55.6150155885447	39.5743517493977	-55.6910963421325	34.4098488881565	-0.576149638516587	-42.3510950346425	
25952000	-0.465158137364939	-75.1936880034529	-53.3897156676242	9.48609327486403	-54.0275375196963	8.41613352165408	-0.555180168456211	-43.5289027739703	
26201500	-0.43531560263214	-77.4046918835843	-51.7217182283736	-22.5032410785624	-51.9881482194132	-24.3615045419198	-0.482269722344658	-44.8183499061288	
26451000	-0.369786142505517	-79.008298182667	-51.4364682498503	-57.8966138933743	-51.5380155743589	-60.3520075779401	-0.360788304857209	-45.8147097573127	
26700500	-0.333611883102351	-80.1047852661994	-52.0644147858362	-98.0265622506657	-52.418389472399	-98.9840907465367	-0.248256980452593	-46.4377831119702	
26950000	-0.355860518006491	-81.2053576835229	-53.8137514846315	-132.77260395581	-53.6196395205875	-130.847401033847	-0.217327355449543	-46.846332549862	
27199500	-0.412757243666407	-82.9690915459267	-55.6999697913351	-159.162555489418	-56.297828501863	-160.156136611067	-0.279282720947571	-47.4070855042458	
27449000	-0.44809852187389	-85.3125413682775	-57.7356530033587	-175.321935828454	-57.9593250837757	175.077966327049	-0.370197081892585	-48.3828703108746	
27698500	-0.403556028431537	-87.8709887235493	-59.1599035202957	156.601198965458	-60.3702313652074	159.833113641549	-0.428661484570007	-49.6166778682904	
27948000	-0.300646690604373	-90.1902633152961	-60.3979293226985	137.450225887366	-61.8492556423653	137.280976663245	-0.413360906313235	-50.8312274164795	
28197500	-0.216097440440841	-91.9575525292127	-62.9890907027598	99.9897299095838	-61.8048711734938	108.793002127237	-0.354691902326471	-51.6864068260746	
28447000	-0.195111013825846	-93.5001728551859	-63.5740093288918	103.332719226204	-63.879645751734	111.697697623825	-0.313729840186948	-52.1609185987976	
28696500	-0.271802754452286	-95.3484447033283	-63.2229621679862	108.124135281223	-62.1814497412063	102.789929011371	-0.370556945012595	-52.538175527663	
28946000	-0.355096261448417	-97.601647351237	-63.1337756198216	95.6843063080862	-61.1663790626473	87.6218901193522	-0.503106128177873	-53.2653720906621	
29195500	-0.381326160237609	-100.19408534761	-60.7765077639263	82.1594306307779	-60.9080407082949	80.5346627190503	-0.667187102145689	-54.4274769765578	
29445000	-0.319831769021735	-102.705879378561	-58.5431502714806	66.7359381216085	-57.8400057586779	65.2883601856928	-0.804070276044716	-55.8536188789901	
29694500	-0.221697953270585	-104.857415303243	-55.4583864226715	53.2546945136871	-55.5097185870749	55.16967865546	-0.922435389743494	-56.9827360664406	
29944000	-0.172965583110707	-106.570225609111	-53.6455625806447	44.1080579104681	-53.3772245449951	40.2246441367083	-1.08154820133946	-57.0543697160757	
30193500	-0.227960037626157	-108.303063115436	-52.9103956296711	22.6440972338179	-53.0132075748132	24.524347190109	-0.986373867100478	-55.8462222530854	
30443000	-0.334393290340224	-110.496450712189	-48.4394129617686	10.0723223467072	-48.5405421049856	8.88377771148385	-1.40427643600417	-55.8053366698632	
30692500	-0.415743099095728	-113.142212316498	-46.25495523291	-18.4190481255035	-46.0404956293962	-20.6115470936926	-1.66401144183129	-53.8424076580903	
30942000	-0.412068643639085	-115.905107848375	-44.2988810776182	-51.2543553961604	-44.482349329819	-54.2396422553908	-1.69060474868685	-52.1756301840529	
31191500	-0.327972535701526	-118.38343221239	-44.6742397098964	-84.550853036276	-44.9321369957661	-84.6885190846591	-1.47486609077638	-51.3132799092785	
31441000	-0.228846711145783	-120.484552745961	-46.7474563212028	-110.897556181466	-47.2034646828535	-112.576281199181	-1.09875438173722	-51.3889253862275	
31690500	-0.237636645921714	-122.512387802264	-49.8130274993354	-110.359578429339	-50.2977076186401	-112.300940279745	-0.745939843738168	-51.9033117937558	
31940000	-0.378224997954202	-124.64007865622	-47.2269851393588	-115.068187037213	-47.6635454163631	-115.625925153889	-0.536224769247584	-52.5102545311197	
32189500	-0.500199059896017	-127.284238692191	-47.685319189187	-132.069098341776	-48.1850936321321	-132.931044595998	-0.468902459769207	-53.3971244132152	
32439000	-0.566481350689609	-130.626938768547	-48.1071001705226	-131.362160175476	-48.4947869831143	-134.147843683462	-0.484095106446207	-55.0942087212461	
32688500	-0.580764645876048	-134.130970456878	-44.0339181549214	-123.650271469761	-44.2862015281988	-125.70836291598	-0.793593090058568	-57.6551454175356	
32938000	-0.60709342249239	-137.517099168193	-44.7482310063984	-156.241388135122	-45.0079600945402	-157.678381104611	-0.613232722897757	-57.2311988564802	
33187500	-0.796636050646109	-140.838414640712	-40.8190070502091	-143.774188804149	-41.8482871973764	-144.260672765321	-0.68721386071105	-60.354037327438	
33437000	-1.34761715240091	-144.350579883747	-36.0698696159024	171.626493028355	-36.1096596381432	173.257981654316	-1.0304957187739	-56.9265896835212	
