!Keysight Technologies N9923A: A.12.45
!Date: Friday, 08 August 2025 17:23:04
!Timezone: (UTC+08:00) Kuala Lumpur, Singapore
!Model: N9923A
!Serial: MY61181427
!GPS Latitude: 
!GPS Longitude: 
!GPS TimeStamp: 0001-01-01 00:00:00Z
!GPS Seconds Since Last Read: 0
!CHECKSUM:0722735529
!Correction: S11(ON U)S21(ON U)S12(ON U)S22(ON U)
!S2P File: Measurements:S11,S21,S12,S22:
# Hz S DB R 50
2000000	-0.061655665565987	151.600331973859	-79.8391206110091	-174.50782983355	-83.0633427822477	-143.60514032704	-0.0259502276998041	-3.32703296115665	
2249500	-0.0153341865981361	148.349815537533	-77.0795139315822	-178.93233492832	-82.2985283565327	173.17260636375	-0.0809983405793453	-3.90113661776439	
2499000	-0.0246853593305664	145.173152739463	-80.1485206163251	148.502063784826	-77.4719728195804	134.095073568732	-0.10257770018455	-4.6056173095324	
2748500	-0.0827060056064935	141.832487071526	-68.5850030640681	147.791843213483	-67.5148409705952	151.417367663859	-0.073259606442874	-5.29058729631239	
2998000	-0.187872851532249	138.17572321853	-47.752876606588	96.2694841727874	-47.7956288502783	96.9900181667483	-0.0440014828389879	-5.9439340385352	
3247500	-0.156796201678062	134.949163527453	-66.7854668647366	-8.12755766494572	-65.7989336136783	-4.17148087506693	0.0160438443407942	-5.88564222706523	
3497000	-0.100936843998284	131.327510806944	-68.3630404968955	-13.5734489998368	-67.6843179541681	-11.0854249410823	0.00488711891482843	-6.18068187133242	
3746500	-0.0441175332008891	128.120675962735	-64.4879120037438	-9.040496546787	-64.2481576008534	-14.3224539055539	-0.0457598708870278	-6.57861707912774	
3996000	-0.0284553700795273	125.085618589857	-62.7939433445893	-25.8007498718864	-62.8081537650854	-30.1228281489012	-0.0953643045677588	-7.189487476858	
4245500	-0.0736600430777129	121.964398439542	-61.2130112144431	-35.2165277578572	-61.2850337980004	-34.6294347302574	-0.10087843492588	-7.93202630890517	
4495000	-0.136303981403974	118.589528006008	-57.3681993546658	-39.0845816902737	-57.3680122359759	-40.1821013930432	-0.0582859155586989	-8.59862642540289	
4744500	-0.176670154879047	114.894043400421	-49.0153793365439	-52.7147596157685	-49.1717540794921	-53.4073700955119	-0.00807588521593808	-9.06982082336989	
4994000	-0.164197194275606	112.374254433666	-45.9395225573706	163.654315946521	-45.9059337285346	163.130076965758	0.014445257539553	-9.08371676449759	
5243500	-0.0719139160430742	108.85922442046	-54.7164795452932	147.656193964958	-54.8852351464722	146.695509995908	-0.0174192032197063	-9.38128989358801	
5493000	-0.0354830872838857	105.879874002175	-58.1062954324547	139.163970689889	-58.3141730625805	136.147784585309	-0.0630640774673014	-9.88447072543536	
5742500	-0.0667111109334674	102.919998399549	-58.830121080201	134.154346742891	-58.6937464308271	130.353643648836	-0.103418296046389	-10.592477818493	
5992000	-0.165698847178916	99.5407568580473	-55.1737529883853	112.057360169221	-55.1506270537484	113.036679502201	-0.0978184400311135	-11.3497110222516	
6241500	-0.257568648770853	97.514266343541	-59.6897238206795	-8.66453454548715	-59.6637822910188	-12.9699856953086	-0.020935232672365	-12.0222839135561	
6491000	-0.172753409504181	93.8107885284793	-81.4955952207063	-18.5069543177229	-82.6167962493817	-83.8445278959608	0.00384500918351906	-12.4631597570435	
6740500	-0.110216052553152	90.6238882206457	-66.7353927705368	125.923649784354	-66.426104205099	128.006696259721	-0.0716006667348179	-11.9306330643562	
6990000	-0.0527842842331566	87.7906310162761	-70.5089581206418	132.914435247355	-70.6384675166619	128.042653532301	-0.024006167226596	-12.7050208624318	
7239500	-0.0553616179286982	85.174330484919	-69.3012064003946	133.450550196439	-69.9286254680922	135.296732646871	-0.0790170833242209	-13.3277636694725	
7489000	-0.111398215326919	82.3927965907279	-66.8553815736513	118.94703498099	-67.7368537973291	122.231603900381	-0.10968098277375	-14.1147657929462	
7738500	-0.174631183080151	79.3763000858866	-64.9447519501833	117.687589386574	-64.993366556528	119.865233124626	-0.0896650547789023	-14.9484091831273	
7988000	-0.190433835134975	76.2769666689269	-61.6211964334172	113.209933992266	-62.0564173481949	116.435315867491	-0.0346870744678862	-15.6728416385818	
8237500	-0.155222249668167	73.2208087564306	-55.7868416559864	118.15355458725	-55.8237363846899	117.988369290759	-0.0482588891110708	-15.9013008295028	
8487000	-0.0940527204717796	70.4630954749398	-50.2994632271795	96.6122363731008	-50.2904786607628	96.023408528365	-0.040459045938232	-16.4560066357032	
8736500	-0.0926336477558308	68.002526198459	-41.3149288964554	52.7456639374808	-41.2666129004649	52.4624858000517	-0.236448846810198	-17.3089860277402	
8986000	-0.105859802266012	65.8253103334951	-40.2510045523751	-46.5153760899329	-40.1701703649428	-46.9255798974574	-0.319164950181636	-16.1026052600194	
9235500	-0.167458510074304	63.0118533258153	-43.5593187800376	-96.6810323201679	-43.6096474065873	-97.0326188112538	-0.277016260417471	-16.9084881245122	
9485000	-0.2163291939901	60.098617105665	-46.4108767998308	-147.707452413344	-46.6392031048241	-148.9097621567	-0.205534049639303	-17.2291382636952	
9734500	-0.192804997884343	57.1877338381837	-52.8537817478405	168.645201664571	-52.9792438395634	167.501381032423	-0.0607416874472125	-17.8008754061967	
9984000	-0.1218047386591	54.439805463212	-61.1039755787557	148.423698659845	-61.4734894062559	147.552449858552	0.00829855499695015	-18.3936832422907	
10233500	-0.0672461372041666	51.9873734080775	-56.2322813115841	-106.484728030316	-56.121176019334	-105.290534287406	-0.0304585502088544	-19.1498592088824	
10483000	-0.0706323038589986	49.7629324183911	-56.9232886961293	140.69169296024	-57.0076083981494	139.28732183983	-0.0832307438262883	-19.2091371438645	
10732500	-0.131008564972705	47.3100148110326	-61.883696576647	124.76191634469	-62.4137060668172	122.761569453824	-0.125581291018186	-20.1132523206714	
10982000	-0.198062864042787	44.5913968650497	-64.1961450686112	106.403870586122	-63.9357014082629	109.177348819675	-0.133922905016452	-21.1358041605952	
11231500	-0.21141788593965	41.691976046809	-64.5602790279228	99.1240220471514	-64.715789619219	93.734520467683	-0.100787395457658	-22.1096928248565	
11481000	-0.165226014530751	38.9341287184881	-63.8726874035286	87.4134648555467	-63.3158876833864	87.2110033710348	-0.0830914967098802	-23.0925877444542	
11730500	-0.0987686689290802	36.4965466812672	-58.3630241332478	55.3999219468166	-58.400993095487	50.9144556894948	-0.271299501489394	-24.1080962798018	
11980000	-0.0632989957384883	34.2922655216699	-58.8469698108808	-54.873271283324	-59.1277993040541	-55.2022773035859	-0.419867619625836	-21.5123966098311	
12229500	-0.101626252398959	32.0693032154843	-64.2657641361582	-122.802265402297	-65.2036309028037	-128.45092967456	-0.383754025926514	-23.5012986946008	
12479000	-0.177663505130179	29.5240352857113	-74.1198603998351	81.4694102666198	-76.5885799471331	90.4373424644002	-0.316968037643366	-19.9116909121201	
12728500	-0.229849511782285	26.6933043251242	-76.7681538748829	9.6646992755775	-78.7610576948353	2.04123422944366	-0.129751042987493	-23.0213236134021	
12978000	-0.210211489143342	23.7770363080034	-76.4658939512385	-44.158166724	-75.6117737939603	-58.918482409029	-0.0945236229851097	-24.573680949322	
13227500	-0.145643348620003	21.0823421629215	-77.834637637513	138.209132750007	-75.6061442821901	136.867839093933	-0.102463865305777	-25.4194653668665	
13477000	-0.0893678303416212	18.6626298879172	-66.2690899529849	64.8001053161158	-65.992001795459	63.3280149849691	-0.201779946793114	-25.9824821142804	
13726500	-0.098362561898836	16.327993931892	-58.7742753122346	-19.1937749624624	-59.3537923809861	-19.8805163269981	-0.329392650669072	-25.1994773806307	
13976000	-0.170787574562895	13.694097421042	-58.7841250882317	-80.0412847243229	-58.3265441117687	-81.270982594732	-0.214675604077611	-26.1081785041036	
14225500	-0.255592169123073	10.573041324844	-56.8947755509006	-111.960381323812	-57.2749343028374	-114.069790821778	-0.249852424789664	-28.4192205791126	
14475000	-0.293087239393037	7.02450958707063	-50.4411361430931	-155.708706322053	-50.6871832600935	-155.692538556322	-0.636816397581639	-32.2392623349201	
14724500	-0.27329829222559	3.26034938372014	-51.543727285069	105.489676963284	-51.7388975907105	107.823503442759	-1.47810722513436	-33.0854683759006	
14974000	-0.261397107465892	-0.742772883287108	-55.44379725346	41.3279083388524	-55.6817922472998	38.9280993314195	-0.495798403859531	-19.3954010166271	
15223500	-0.344389416687753	-5.36593806908777	-54.3931623522156	-64.030493004824	-54.4899661106815	-64.8049766859227	-0.0933047627049816	-23.5767322029472	
15473000	-0.679961499018631	-12.1744822493507	-54.1172117947078	-114.495065999074	-54.5287742567311	-114.189123105834	-0.0822815776906489	-25.366797741838	
15722500	-1.68134034524952	-24.0226452039911	-49.4979883694101	-154.016170610591	-49.5668323327384	-153.982103053402	-0.124313880227001	-26.7796256393712	
15972000	-6.49834342093852	-44.7364649940873	-43.0812671412449	155.380979536899	-43.1171786606754	154.579017933989	-0.145544265540034	-28.160722279824	
16221500	-8.11415972689684	43.6293074638949	-38.6413986890592	76.9660911754486	-38.6547634334167	75.305461831357	-0.151125120068978	-29.5093281592084	
16471000	-2.1833742279614	26.4928835899012	-50.8751901562357	-56.6278171653786	-50.8954234649317	-56.6473348206118	-0.0853198129203976	-29.0704917947592	
16720500	-0.976861218637957	14.9987368461079	-50.8384032091987	11.9980550056195	-50.8804259482391	12.4917290060507	-0.00555551122002393	-30.1814948206786	
16970000	-0.555385383570043	8.46348772990426	-49.2796327379272	-23.5538394912095	-49.4673845821752	-23.6773059629474	-0.0572480984894199	-30.9173106745789	
17219500	-0.421685923181232	3.77081127988554	-49.9340382585552	-87.7272292880658	-50.051706640291	-87.4143706241435	-0.247848501611472	-31.4757669383777	
17469000	-0.408768621388833	-0.253377743037428	-63.8225195645848	-43.1699681557445	-64.3912862436436	-45.4212344314671	-0.182094392541676	-31.7262050598676	
17718500	-0.393349136196635	-4.01076201920145	-58.8329766522697	-49.0962986700488	-58.5475362362726	-45.4073530738898	-0.171212693045639	-33.1487610667598	
17968000	-0.326007335718693	-7.42223881024711	-58.7149736248405	-61.0291755349353	-58.1718884406865	-62.4242624048754	-0.138612283678393	-34.4402586465776	
18217500	-0.224825067535689	-10.274198392153	-57.5436566052196	-70.5938331114376	-57.8107664344574	-72.3760818180727	-0.120130683811002	-35.6341637717032	
18467000	-0.154983851710768	-12.602868572772	-56.2642638787837	-84.5484110663064	-56.3235175912887	-87.2723369130246	-0.198771826681785	-37.0476910287232	
18716500	-0.163099454870215	-14.7145680756505	-53.7809542680949	-101.008902929732	-54.1837736379512	-103.192241800467	-0.536610605201367	-39.4089478339122	
18966000	-0.220772336711905	-16.9683798662203	-49.9083320963583	-135.696757518289	-50.1553588915044	-138.220119118283	-1.94759951825608	-41.0832540944263	
19215500	-0.279778253658246	-19.49243018071	-51.901568754896	152.907314723945	-52.079704090141	150.92691371973	-1.58727505315847	-24.6377869605504	
19465000	-0.278840223338977	-22.1353780679618	-58.7791306374865	120.14927981717	-59.0348487692294	115.918834564136	-0.404303616804333	-28.8438770269058	
19714500	-0.214037072397872	-24.5839062440946	-64.6308589321657	105.635229631083	-63.7977146274205	99.6191366787738	-0.144901211008207	-31.9111725553921	
19964000	-0.13478571691174	-26.6359803677436	-66.8006791731706	100.603009875672	-67.8687478908729	92.9118073797137	-0.0350133597345023	-33.5348397766181	
20213500	-0.111561641418536	-28.3844315463246	-71.004561476188	94.3100072607018	-70.0112565173205	90.7380391185255	-0.014179789733704	-34.5725541524988	
20463000	-0.155615304776324	-30.1953605647695	-73.3243538807236	56.2224672663454	-76.2698021944297	48.7667199928919	-0.0753027649810605	-35.5947644865574	
20712500	-0.229794422217779	-32.3020370860613	-72.4399112555107	-86.339548762476	-70.217219726705	-87.6791463498775	-0.32223288032848	-37.2012861511142	
20962000	-0.269146918150157	-34.7108893854879	-79.8471242631529	174.587213693841	-82.2301217340413	-159.405630178344	-0.175040843594945	-36.0150886329901	
21211500	-0.245859659206538	-37.1340347490055	-88.6719851678412	-71.5592641152125	-93.1429795608878	-13.5195591232434	-0.109133295918023	-37.6456459005142	
21461000	-0.16888304280084	-39.3109318070652	-77.9984898241872	-129.465157816006	-80.4043109729773	-148.353014067583	-0.0454491040704153	-38.6784859243016	
21710500	-0.114803908542169	-41.1263044829532	-75.7706981923137	-148.583615871916	-75.984717122325	-135.772596671845	-0.00753164832456157	-39.2841057124421	
21960000	-0.138209237063071	-42.8592488813882	-70.2491487808698	-122.711609263572	-69.7327767117273	-117.574814398471	-0.0271828200664835	-39.7514808315808	
22209500	-0.250535543867836	-44.8808877800803	-62.7650610758212	-152.894200528547	-62.7276232313163	-150.654422980959	-0.0916895894766008	-40.4151510640039	
22459000	-0.480833549389643	-46.028570194163	-60.0568321088108	135.288877227417	-60.0221860112703	137.934157399746	-0.160899337342516	-41.3701181816695	
22708500	-0.269624388162721	-48.1379114444329	-68.7097303966805	90.2428383802239	-68.3993281194749	83.1627372995088	-0.198389067461852	-42.5668111058075	
22958000	-0.195958996855634	-50.7309994238244	-72.5737362036689	62.7028995189368	-72.4990308392294	62.1329993187336	-0.247860798478415	-43.5723021836506	
23207500	-0.115419048936219	-52.7927367173282	-75.1284905161837	108.785546085296	-74.8712864391621	108.692673648368	-0.158948276161209	-43.9527513595735	
23457000	-0.083793490373501	-54.4965724248923	-70.474008836058	98.8709436796079	-70.5417399712561	88.5026108583394	-0.129163075431886	-44.617770478204	
23706500	-0.125348392885986	-56.2305735956837	-67.6621056532313	61.3806661425099	-68.4366467405614	59.8228326190926	-0.184279464097874	-45.3350319290222	
23956000	-0.198787250050847	-58.2914593561051	-64.750000709807	13.2024415919734	-64.5934365497252	19.1041229475404	-0.305462471915475	-46.4792902776261	
24205500	-0.246757655953022	-60.6566958302022	-61.0890956408417	-64.1910335561261	-62.0424420526599	-64.4227042597429	-0.517733639828343	-47.5701698670362	
24455000	-0.233553796143176	-63.1015011870562	-71.1789316859141	-112.001766841612	-72.0786717612638	-106.269472138135	-0.524283655789504	-48.1901552396382	
24704500	-0.165091012126983	-65.327084027671	-61.82953618631	-73.9417443013033	-62.6591375930354	-75.4730569079037	-0.514619564432809	-49.8593716172865	
24954000	-0.1163835952834	-67.1899289864593	-57.4875904021736	-123.734128911168	-57.8111235284615	-120.555738138457	-0.647286952511353	-51.1388794185733	
25203500	-0.145350176430364	-68.9279524082643	-55.3759785942478	-170.303224056283	-55.3131330683836	-164.778533276667	-0.890562173540165	-51.8256043337444	
25453000	-0.253964769256091	-70.8033536017874	-54.6510830103573	146.835994753303	-54.1501190372596	154.186190618714	-1.27070500314217	-52.1500053803948	
25702500	-0.363381933815449	-72.9155371965526	-57.1055232535822	96.0101021365323	-55.7820951310201	112.608056735047	-1.75882132632347	-51.8832431939065	
25952000	-0.429654316297364	-75.1611494818873	-68.5788118525998	12.9724821983538	-64.0739708687797	58.8668974567456	-2.23636054169778	-50.0392686333534	
26201500	-0.418834460825549	-77.2913661637521	-56.2347248749751	-160.64745487613	-60.2370894624632	-163.248103158653	-2.2379029033159	-44.9187740368358	
26451000	-0.376325254323158	-78.9317732821707	-53.9694396067259	104.586762301185	-54.149684202921	108.170332695598	-0.865682233937638	-48.9717774579039	
26700500	-0.350641272898774	-80.1271179446646	-51.0580654857116	130.302871295509	-51.8701280886153	122.492184935217	-2.2778711044465	-50.4268695627941	
26950000	-0.360274639030054	-81.3215951277516	-47.9223061977879	84.4442838995692	-48.6976715236464	80.1737692988438	-2.39359777716455	-44.2532281900057	
27199500	-0.39186224019522	-83.0739405788579	-47.9137578751776	46.9958991282189	-48.4391001512881	43.5777483243942	-2.08781940651783	-40.7986996502012	
27449000	-0.412623639620517	-85.323318130011	-48.5499599691488	14.5003889942444	-49.2713701290023	13.0018601590611	-1.74174371479611	-39.7642499812983	
27698500	-0.373854622253368	-87.7704994650167	-49.2501443329446	-12.0858402387112	-49.6130470309197	-11.7044340696554	-1.42622485670578	-40.1130026265684	
27948000	-0.293270221340589	-90.0443698970423	-49.676457424324	-41.0518839739911	-49.8313696729411	-41.0682547945807	-1.12395965847617	-41.0383927121568	
28197500	-0.227012295542946	-91.8512560550491	-54.5568079453951	-106.437497184822	-55.0409831790182	-101.106928422828	-0.837008244428653	-42.1112021117187	
28447000	-0.205435278902905	-93.4979518235758	-62.3900315552485	-54.9365494112739	-62.2276392251362	-63.5655685554597	-0.639710559719565	-42.8247725711216	
28696500	-0.262776985376295	-95.3898682738577	-60.4191194108071	-61.1556001867715	-60.462823779247	-61.4931430627043	-0.531743062455634	-43.3654090274739	
28946000	-0.326889517903911	-97.6077167295462	-60.0534548219378	-75.0548410359716	-60.7108983128319	-76.7476880607305	-0.49398071050413	-44.1046317450323	
29195500	-0.347921664534633	-100.111833984871	-59.8964748296263	-85.4740815626138	-59.7635405601859	-87.6132058961153	-0.48510441946982	-45.1225034831894	
29445000	-0.305774665451065	-102.608162315742	-61.1138024509735	-95.3786244519732	-61.5589552823516	-92.2008282292192	-0.445079797260691	-46.3466391557567	
29694500	-0.22880608962082	-104.820822995075	-62.1750571539578	-106.15217403537	-62.3146112801294	-105.14436690402	-0.362896279040183	-47.4773533668987	
29944000	-0.189050157441328	-106.657380621783	-64.481503006715	-118.52412620996	-64.4027246392588	-114.505383710884	-0.260400247672797	-48.314158043444	
30193500	-0.231733892426932	-108.463848376395	-65.0520073883822	-119.77028751038	-65.0989693759276	-121.002770795044	-0.205910778785918	-48.8411738818597	
30443000	-0.314051451933741	-110.630666529993	-64.7634560640377	-116.737931013423	-64.5971140859938	-104.836636667212	-0.197099954177506	-49.1800835089312	
30692500	-0.379058734153139	-113.131549561703	-63.0426750560049	-124.809867600529	-63.3518905450234	-117.799460524563	-0.233545119474752	-49.8516902244095	
30942000	-0.382613314076832	-115.748423721582	-63.1948824074868	-144.420820563814	-61.9379100763616	-136.932960474247	-0.261506797588539	-50.8162459522419	
31191500	-0.31947936038627	-118.220077972973	-64.3896499961478	-166.543866963689	-63.3034028654855	-158.224076607825	-0.250839824534877	-51.9125726015468	
31441000	-0.241890749366293	-120.421428812284	-68.53086375622	177.795261708701	-68.6738251402377	178.496319888335	-0.182907089303863	-52.8966049053896	
31690500	-0.251877334743496	-122.586188387878	-70.8692419502517	-117.516153062491	-71.2234276388433	-133.634454059464	-0.125600822595137	-53.6478467898719	
31940000	-0.370157198164468	-124.784308477353	-59.7774555721426	-138.612560720699	-59.1186473207095	-137.484804786274	-0.086320383487196	-53.7236729042496	
32189500	-0.468651097343568	-127.399056692905	-58.4221407728498	178.72141974613	-57.6759254364669	-177.619710034358	-0.112817105569896	-54.2041631135205	
32439000	-0.529763847963083	-130.613279718257	-58.8226970006841	163.527536785414	-57.8826208855666	160.93033132384	-0.164962646262936	-55.0114097837922	
32688500	-0.560407388511437	-134.034844247774	-57.7240866136156	146.095737612041	-56.974752983764	140.871071094058	-0.201584356541573	-56.0383969166188	
32938000	-0.610509091872547	-137.43987740136	-55.5680654885571	121.50694660125	-54.7424284525004	119.65606794162	-0.202498954035123	-57.2718280501069	
33187500	-0.805500533729197	-140.890929639729	-58.2256968718257	84.7967140713185	-58.5124720455022	88.0621135544009	-0.176904159651216	-57.3653888339104	
33437000	-1.34565011562185	-144.471159702341	-53.9880276098177	88.1024975177343	-53.3827451785754	86.6874328463322	-0.0573542565946577	-58.2430596850565	
