!Keysight Technologies N9923A: A.12.45
!Date: Friday, 08 August 2025 17:40:41
!Timezone: (UTC+08:00) Kuala Lumpur, Singapore
!Model: N9923A
!Serial: MY61181427
!GPS Latitude: 
!GPS Longitude: 
!GPS TimeStamp: 0001-01-01 00:00:00Z
!GPS Seconds Since Last Read: 0
!CHECKSUM:0249238008
!Correction: S11(ON U)S21(ON U)S12(ON U)S22(ON U)
!S2P File: Measurements:S11,S21,S12,S22:
# Hz S DB R 50
2000000	-0.0816133908892599	151.442131494141	-82.6389668267651	-145.071553414146	-82.5345972517711	177.67167899872	-0.0437953189719889	-3.50816813744509	
2249500	0.000172769883129887	148.294197789622	-79.9530404139027	-179.718007604667	-77.3479758690856	130.941113974317	-0.143385445581821	-4.1317696917944	
2499000	-0.00924241743197127	145.27530301673	-77.0131012437767	126.866438920503	-76.5075378692783	136.734288590207	-0.180169218681413	-4.99284117394431	
2748500	-0.105786379186532	142.009546780767	-64.7013638696854	137.057171160127	-64.5916839484781	139.566900076681	-0.129599608051186	-5.85026356621948	
2998000	-0.267297478030281	138.594908622515	-47.7784017411979	48.6744584905144	-47.8556657597223	49.6382496717893	-0.0488076452295517	-6.29258112552461	
3247500	-0.220250328136456	134.792614133983	-57.5262334524975	-21.5223902783912	-57.0450820519764	-22.0889174310577	0.0361720620491903	-6.43603886716648	
3497000	-0.137060966060777	131.096921077053	-58.379195303597	-35.5934857977439	-58.4097717294059	-31.1091475947029	0.0162729094391412	-6.55829317155363	
3746500	-0.0368205260675743	127.940254713193	-56.6031627855865	-39.5195178671595	-56.6754961879355	-39.5920696070107	-0.0780688161478019	-6.88254029774861	
3996000	-0.0114295725412046	125.064812746196	-52.2893797615327	-49.780948055605	-52.1550543800707	-49.8570638405554	-0.178941313453379	-7.73847749888984	
4245500	-0.0963257295673373	122.02218765112	-43.2924893193789	-79.6158853842186	-43.3969405173113	-79.1477846536921	-0.284077549032199	-8.97259396116969	
4495000	-0.207238645916459	118.976724553691	-41.4446363166479	174.712386684017	-41.2882683635718	175.429739051464	-0.167009338979692	-8.26822948124273	
4744500	-0.241337729853006	115.261439903607	-45.1069086434238	142.257195846267	-45.0469027870384	141.79314952671	-0.00298166191426927	-9.22742563302961	
4994000	-0.21150306698098	111.620036083933	-42.1048672002563	108.918081968678	-42.0351767263114	108.724112739268	-0.00377076874430199	-9.78469440333578	
5243500	-0.100709521076518	108.741781904677	-43.3107256678282	-2.52337171823138	-43.31160996467	-2.69420696303365	-0.0618382023823135	-8.9094472743334	
5493000	-0.0151444367836507	105.889866066346	-65.2179050265745	18.3141376544281	-65.4206116969201	12.3018586920926	-0.220907384666176	-8.94299266107384	
5742500	-0.0584903757966556	103.083896333243	-64.9791333953541	-17.4664891255701	-64.4144999764774	-11.3699228907245	-0.196515597512813	-10.0187113283245	
5992000	-0.196891503559786	99.759006822047	-65.4894498107766	89.4442783041684	-65.79713645061	88.9863187792302	-0.173218887356656	-11.1219627424144	
6241500	-0.336377334420219	97.6227474956329	-54.6309432563294	-10.3088593157777	-54.3418321504621	-11.6492378276172	-0.0530398571799701	-11.9640217512633	
6491000	-0.239280572215041	93.7027936502591	-60.8573250821204	-33.4301520404145	-60.6515954318295	-33.7344846447244	0.0232858594094183	-12.3073848883767	
6740500	-0.136045162271932	90.4385336089992	-62.2568352682697	-40.1760101668293	-62.4627812625638	-40.5291760757799	0.0487520486262559	-12.4401332690105	
6990000	-0.0386055058894777	87.7166374088425	-62.8488322959031	-46.6808156998353	-61.6958713102536	-45.5406733786099	-0.0383494479800499	-12.7933291905545	
7239500	-0.0362199097358659	85.297425351453	-63.1140197418847	-58.27332351994	-62.3312445786308	-55.2516982311162	-0.130078519187309	-13.1383354438807	
7489000	-0.126537212355527	82.6388306816384	-61.761452379982	-55.2661407711859	-62.5063811006851	-55.9618175725072	-0.18591708685027	-14.2432644553178	
7738500	-0.233972189810188	79.5597348493263	-60.1558494696852	-59.9048640967304	-60.5127954875937	-62.1609998318094	-0.155171346661912	-15.4052534119337	
7988000	-0.264945962507827	76.2476856159673	-57.1667663258139	-67.5401990368623	-57.6516640977008	-66.7926837253595	-0.0701410163574317	-16.3699446587111	
8237500	-0.201851059202627	73.020641206761	-52.7747251900728	-79.9367287600799	-52.8406354313021	-80.2733925159645	-0.0702956619589641	-16.2977131146402	
8487000	-0.0981462792140082	70.2936651041417	-45.5799340107211	-114.631799865864	-45.7287751821067	-113.966577347072	-0.168626863860458	-16.8057116741887	
8736500	-0.059685637320432	68.1272565845151	-41.2072079202712	166.736970660991	-41.1002096393515	166.795928011868	-0.341241146756237	-15.2292631759744	
8986000	-0.104560109273972	65.8819619632683	-44.1423898114445	104.785203681292	-44.1150157431776	104.961776710695	-0.263229700648165	-16.0567163109976	
9235500	-0.218890679375687	63.208480471307	-46.2387375509819	61.4024488426432	-46.2592848211604	60.0537869999049	-0.296372159580577	-17.3524509949708	
9485000	-0.290613967189335	60.1433467634298	-48.6701609071857	17.6520648912737	-48.7588770778773	17.673772748867	-0.225100736582544	-18.2357852335573	
9734500	-0.256041516827265	56.9966934687291	-51.8553703040749	-16.6013808306026	-51.8765726656547	-18.1855262396978	-0.0918948634309045	-18.9010989474537	
9984000	-0.14329251430934	54.2136845651892	-54.3230925895445	-47.0357670958959	-54.6161391359165	-46.5111808944397	-0.0325686006172263	-19.3754653261543	
10233500	-0.0491701755040937	51.9318121517813	-55.2929584805528	-77.5635618214747	-55.165132050572	-76.488008432858	-0.147142578062196	-19.8980337752017	
10483000	-0.0517897023626449	49.8777059859525	-55.2026287049461	-123.342297269037	-55.1237852422982	-122.468556637329	-0.484340458257489	-19.9241368183156	
10732500	-0.151432862783755	47.5478852726843	-58.7082439426089	-177.951838171446	-58.6761186672548	179.159009861169	-0.564631183649212	-18.617734899273	
10982000	-0.261754760767165	44.7313940316	-64.2119347291525	144.814050643799	-64.6176197786898	142.839088506413	-0.386727209065808	-19.3001970730891	
11231500	-0.28604547265484	41.6153090234383	-66.3105655867857	130.312772108416	-67.0072933855861	122.731155544073	-0.211628912282881	-20.4040802246068	
11481000	-0.207413874043553	38.7067226203547	-67.2805964612537	141.240737816532	-67.3916929697669	133.941313382098	-0.0564822804883153	-21.1766226164596	
11730500	-0.0919040426907472	36.3267885436356	-62.1203031382053	105.027356510451	-62.5780592992761	105.875319124072	-0.00532673193586295	-21.5130192573431	
11980000	-0.0384704135016154	34.3309542292617	-62.5669312638041	51.3153581702891	-62.0276141344137	53.8316253411267	-0.105475834595147	-21.777677988767	
12229500	-0.100389838608927	32.3005330995908	-76.7090537301016	0.0277632365221234	-76.2278902950109	8.64489338400729	-0.176269620166053	-21.9485564197066	
12479000	-0.225267310663647	29.7600753322236	-69.4471333636438	76.6440629100542	-70.2751699442494	73.5978584132524	-0.257484325660041	-23.2731289130785	
12728500	-0.306802547547819	26.7380012724464	-67.1807609815541	72.7184507384208	-65.997951988676	63.0788017492338	-0.246126093547828	-24.8224853256562	
12978000	-0.272277806821759	23.5951943201022	-63.2779429627162	71.2958818702046	-63.5392347942016	72.1830861842409	-0.272848155465303	-26.1508035978704	
13227500	-0.161906139088997	20.8441930987389	-58.9454293368193	28.1166658667124	-59.2954657381042	28.9205151822805	-0.386385835693221	-24.5305374401617	
13477000	-0.0687257387791057	18.5883030521699	-63.7685233981012	49.8315800138125	-63.4816264425278	51.7098137471656	-0.0717052996295573	-24.9486486418894	
13726500	-0.0803183366807733	16.4747686505718	-55.6661040257619	50.8280926355879	-55.7837505601603	50.7817986783838	-0.227611137274866	-26.1966254271562	
13976000	-0.195298525283027	13.9434101429702	-49.1396756446729	9.69491814703774	-49.2181294120491	12.3098227723549	-0.674165869433285	-26.4374437560041	
14225500	-0.324950707125125	10.7128079206244	-49.0713879575023	-42.6972006593387	-48.8550148840733	-42.1542824176092	-0.579009726862024	-24.846605744428	
14475000	-0.36786333601072	6.91465661888951	-51.2091030037449	-67.3722201203564	-51.0718554041597	-68.1023620403661	-0.320508084840368	-26.4262251336686	
14724500	-0.309918816755685	2.99186647410604	-52.8149205028436	-76.8852260115551	-52.5613460564805	-77.7244465263978	-0.167667534772461	-28.0432149525826	
14974000	-0.2494808203389	-0.926735567325973	-52.7130678160996	-61.6995115756144	-52.8037851843511	-61.5442094457433	-0.288165702655582	-29.4795077241003	
15223500	-0.316400665237026	-5.29688261562082	-49.4669753134966	-97.0762444462364	-48.9005785562388	-96.8850130776035	-0.335531436295284	-26.1652537488788	
15473000	-0.684580047782823	-11.9097423653466	-46.2636332489258	-103.925956981832	-45.9594782853016	-105.481554688377	-0.205398714189947	-27.2140058136684	
15722500	-1.74799792965672	-23.8803034429999	-42.1554774978205	-116.567532888299	-42.2644958800787	-120.559494127966	-0.300343245038401	-28.7349546249673	
15972000	-6.62473625664065	-45.3628574359829	-35.6316215764001	-146.666843979317	-35.9663531299036	-146.348863489316	-0.409606169121903	-30.4415662876503	
16221500	-8.08302611324642	45.4990985301808	-33.6506717886921	120.454277056727	-33.8040390055316	121.365501329968	-0.335562737253672	-31.4768825379759	
16471000	-2.20447272712621	26.0421562397497	-38.27761663948	74.3870957634151	-38.314403018317	75.8637119060281	-0.375074807984382	-32.6844922232011	
16720500	-0.950857863447707	14.7478598056729	-42.4812366581148	39.5534123421748	-42.1579782642222	41.288699469492	-0.590772794875245	-32.0530209104989	
16970000	-0.522478260884151	8.50489706345162	-47.9798179373979	21.922154409218	-47.4715449811686	19.7207758666364	-0.636939396768723	-29.6707372946926	
17219500	-0.427617548100274	4.0359326659821	-49.7219742169079	29.1697195719854	-49.8995818799621	29.4749903987931	-0.539405797460257	-29.4036318617833	
17469000	-0.466579407923597	-0.0287762190150062	-51.2049620126024	-3.10375307844619	-50.7585680586401	-4.89008848368132	-0.544255505262227	-29.827487678104	
17718500	-0.474286281149996	-4.02785039744504	-54.2619866661485	-5.05080627188086	-53.9355640134162	-8.95642126503123	-0.418991536123724	-31.2803922831409	
17968000	-0.381904842418445	-7.66880679607001	-55.8476736790406	-6.57835132877768	-55.7146513287314	-10.5936194460588	-0.275408567340959	-32.6775301574631	
18217500	-0.229987763272998	-10.5281766263573	-56.4305176691081	-11.6562027765832	-56.6281822110209	-11.4755321281571	-0.147609814832942	-33.4877912508549	
18467000	-0.12852992271817	-12.654580159311	-56.671204576663	-14.9893447463116	-57.0526524136026	-15.1454856309355	-0.105639195602246	-33.8708004709468	
18716500	-0.148039996233002	-14.52348403408	-56.7737039143367	-19.2157742339046	-56.7950796000858	-21.6655836230056	-0.18248052984572	-34.4013792659843	
18966000	-0.2552004239471	-16.7111318162163	-55.7918600468562	-27.1856779175677	-56.2760440867102	-29.3819757739274	-0.355285614441237	-35.5051240684352	
19215500	-0.355324270608098	-19.3982221259754	-54.6096303320336	-37.7023930118274	-54.878391701907	-35.5682457825954	-0.578920521826566	-37.1314358622625	
19465000	-0.351189548621125	-22.3017435910419	-53.3024109994973	-54.7825909204764	-53.4583187349587	-51.7736465516681	-0.819773962080628	-38.1230426741864	
19714500	-0.242724534445349	-24.8642337927006	-53.2730026898463	-81.3212964855818	-52.9916899184438	-76.9274900464804	-0.908659957609457	-36.9604225920167	
19964000	-0.117346297457787	-26.7838798248321	-54.8842411283437	-105.200064691677	-54.4529888132055	-103.1023028322	-0.633107974860462	-35.2469707717091	
20213500	-0.0836433594999792	-28.2727092752245	-55.2782002716753	-114.790730928281	-54.9480475182926	-113.077524556166	-0.440876131307454	-35.4455349442321	
20463000	-0.163769461404677	-29.8979180350312	-56.1069938949951	-149.455682540995	-55.538938258298	-149.805046252175	-0.55041771451275	-34.7457109861235	
20712500	-0.289049926115979	-32.0518794162196	-60.4792002590796	-149.790761511448	-60.2960708898664	-159.688515517714	-0.478835513549936	-35.3629948951907	
20962000	-0.351085054858645	-34.7018243080534	-61.585722878567	-157.397137121071	-61.9828287231577	-156.382772309017	-0.456644913585629	-36.9639565018036	
21211500	-0.302323335804086	-37.3536271156821	-63.5419226472969	-159.042651708325	-62.5238658099604	-159.514955957354	-0.384107868662411	-38.4949932118056	
21461000	-0.174257503375308	-39.5376309968244	-64.4523897040996	-161.005884925059	-63.9592933221955	-167.906847608274	-0.260807170320733	-39.5813545548798	
21710500	-0.08717857339726	-41.1469747668328	-63.3618992229413	-164.749327044725	-62.7831444294798	-165.893790047663	-0.19117923072435	-40.0407507809712	
21960000	-0.122783733827498	-42.6243125030918	-62.0730181622135	-179.513679690764	-61.5768475273263	-179.595522800492	-0.234330054908124	-40.2862321211623	
22209500	-0.284346253696133	-44.5581336170793	-61.618615358719	-171.605145013352	-61.5134538337332	-175.493909120921	-0.385444931727995	-40.8671488380906	
22459000	-0.557991115868488	-45.8321885959627	-56.7911170449682	140.496505358605	-56.2120891651795	137.453390313573	-0.576860881781771	-41.9424287960048	
22708500	-0.345115849472361	-48.2335806836806	-68.6398165753434	97.2648603542694	-68.8777799413094	92.2528740362053	-0.739315859166634	-43.1614457518787	
22958000	-0.228942581517302	-50.9811819905182	-70.1310949388809	115.22219219989	-71.2157031785594	123.994370683307	-0.75511798569388	-43.5058244635196	
23207500	-0.100328791335617	-52.9412216758843	-73.4573774376584	171.814877136067	-74.3970025561674	168.625845777975	-0.685540750707223	-43.9099509455784	
23457000	-0.0543054933536955	-54.386118387998	-65.9484305291367	-176.527998711826	-65.9395100277527	-171.421633463837	-0.739680472498522	-43.3962123096817	
23706500	-0.128447630811991	-55.9216006704706	-61.5179520730489	161.270370435938	-61.8739587837423	163.476813196393	-0.868928935655406	-42.1896129749105	
23956000	-0.253762925941549	-57.9970668606475	-59.3723526858315	125.642380207891	-59.4476633337045	127.889966340548	-0.955529661973713	-40.9928527159916	
24205500	-0.328224910596916	-60.5996559243049	-63.1690157369219	68.6393890201448	-62.7636012649206	78.8729598395141	-0.835179849945527	-41.2464558517853	
24455000	-0.293953586478242	-63.2944593558468	-74.3691989803015	113.036434473833	-73.1196939609216	135.664104653691	-0.773933934705116	-43.0295930235715	
24704500	-0.173718334253939	-65.546356555048	-62.9974028242694	96.2283516723456	-63.0010197236957	105.305806480802	-0.707244302525627	-43.7334903171957	
24954000	-0.0881947556307929	-67.2182279101633	-65.5315902503276	55.760905366176	-65.9719039535096	56.525716095561	-0.54394204255685	-43.64619742591	
25203500	-0.126191590785738	-68.6981301859726	-78.2852071441652	104.994357542477	-76.5845550806998	122.344779146113	-0.418391937396845	-43.5317517903325	
25453000	-0.282197236183731	-70.4597838256293	-65.2768753504747	145.288750659104	-65.0544633517744	137.296473449794	-0.425033586945367	-43.715802610858	
25702500	-0.438826255507723	-72.7063198564671	-61.6967189744533	109.434064382642	-62.3821583362412	107.829833152258	-0.510239030594998	-44.4807028769715	
25952000	-0.511004333917569	-75.2404600478661	-61.597057613687	70.5308400231002	-61.7400614500222	70.2688302921165	-0.571524351584674	-45.7993319533659	
26201500	-0.456438778686283	-77.5405042272295	-63.1650446057179	36.3443468220318	-64.0954284688284	38.4239095829421	-0.544941874218952	-47.3157220013832	
26451000	-0.360425886276268	-79.1021096240071	-71.4765782692905	-6.9987289390081	-77.7166184419555	28.4660633998548	-0.448379877185645	-48.4478736775662	
26700500	-0.314477828906977	-80.0382847492016	-66.0615044273088	143.948250521051	-64.9395055226548	135.419501176574	-0.369294232350957	-49.046721626918	
26950000	-0.354068479710995	-81.0138070624217	-58.417750362286	119.938040571635	-57.7948936442399	112.487044776427	-0.420193466911247	-49.3964616518924	
27199500	-0.441055897946242	-82.7749466873841	-55.0415106339743	88.4413296751798	-55.9867941868421	84.5416855555244	-0.637820270947629	-49.6831704253034	
27449000	-0.494736720941228	-85.2623256541207	-53.4109963158142	63.778584655603	-54.0209067870243	59.8880645468486	-0.887660825508273	-50.3156312162487	
27698500	-0.439577680121491	-87.9805845584237	-52.564598487497	32.9911371501229	-52.6911059375273	34.5272373513613	-1.14870017963301	-50.7196649449435	
27948000	-0.305650171385581	-90.3322049342416	-53.7050510635847	9.62540270945139	-53.4418212331878	11.738096538759	-1.14887375089167	-49.6633613292575	
28197500	-0.199312289473035	-91.9847447570126	-53.0927593115688	9.43184797303803	-52.4108936730718	5.23024364323323	-0.73559618878066	-49.0307962111859	
28447000	-0.181867763880487	-93.3558471930418	-54.3422635451619	-13.08116023815	-53.7580037626466	-19.1203988565969	-0.409530725253094	-50.0115806332218	
28696500	-0.283916948274065	-95.1111621388584	-54.2909329921791	-16.9812425246483	-55.0028286741691	-21.1020719712896	-0.418112888642998	-51.2139460990818	
28946000	-0.396721605505836	-97.4538324215913	-53.4933168323223	-22.5027825016567	-53.9696371961813	-26.21408301134	-0.651917779425523	-52.3208048238114	
29195500	-0.428995000542637	-100.236224849196	-51.9992802845415	-35.5845054021392	-52.8544947768278	-36.0520155255205	-0.963743605192064	-53.2463833558339	
29445000	-0.345783045237891	-102.898603394608	-50.9035920875467	-48.8673585055538	-51.2142175764631	-47.1441623268305	-1.17931382478246	-53.633193245046	
29694500	-0.215998238092546	-105.024167426608	-50.6254874465407	-61.6683668730773	-50.5555509054689	-62.1297701633104	-1.15893132363094	-53.1397204911758	
29944000	-0.155218157247786	-106.587199569611	-50.520658314844	-75.1987499548784	-50.4439982323682	-76.396378408789	-0.905615656451967	-52.278423385372	
30193500	-0.2238151268731	-108.151382328872	-50.548364585683	-83.6578737573254	-50.3560693911521	-83.4538535917134	-0.603879587193339	-52.1519643484937	
30443000	-0.361697730106229	-110.30886878903	-49.1655691706548	-87.2356331021667	-49.3076190234571	-89.3582272313036	-0.590693416422854	-53.6342746931291	
30692500	-0.464888366368261	-113.068651382848	-46.8611322716317	-101.471895414619	-46.9365021313236	-100.887067753023	-1.09981202600188	-54.193535315901	
30942000	-0.452236870082039	-115.974616443199	-45.690997508406	-122.114536394124	-45.5808432664066	-122.986012489468	-1.20364813484641	-52.8354988239114	
31191500	-0.335795742568097	-118.525289081291	-45.6962864246303	-142.535110108442	-45.5528245142955	-143.043710351201	-1.03208459401372	-53.3114345076655	
31441000	-0.212374904682145	-120.5248044457	-46.5759033492988	-158.463156742058	-46.4780654130528	-158.652546589246	-0.794170100676817	-54.2960844729651	
31690500	-0.222487875458782	-122.386464320173	-47.0924464786731	-158.721253258638	-47.1291817773509	-160.575861200725	-0.582254725366467	-54.8626358154231	
31940000	-0.387257030027987	-124.444054020503	-44.2602108045309	-167.715737617193	-44.2678097479492	-168.058437901575	-0.483380889378694	-55.0449601703704	
32189500	-0.541006126022174	-127.175691233194	-43.445846944002	174.232175936499	-43.4080709563067	173.727473459312	-0.529735997134899	-55.3750126067719	
32439000	-0.615425704537005	-130.716063392834	-42.768722343401	162.562815785119	-42.9589216017656	160.814179536331	-0.64873710523648	-56.3108843485548	
32688500	-0.606945553832458	-134.382771174464	-41.7887781478902	150.460238082586	-41.7932350676354	150.264258727431	-0.742131677631187	-57.6078414023512	
32938000	-0.604330551699339	-137.740499311937	-40.2961765469557	138.044878317504	-40.4039685463287	137.867139250171	-0.73730720246409	-59.1974706724757	
33187500	-0.788205320039952	-140.936899433836	-38.3535899682535	123.112543299003	-38.3901284218559	123.146533302931	-0.658511926884605	-60.2773757855533	
33437000	-1.38991957152174	-144.258937531306	-35.9448256957299	103.768508476957	-35.9335533669193	103.786234516801	-0.605672738845888	-60.7210844906457	
