!Keysight Technologies N9923A: A.12.45
!Date: Friday, 08 August 2025 17:31:07
!Timezone: (UTC+08:00) Kuala Lumpur, Singapore
!Model: N9923A
!Serial: MY61181427
!GPS Latitude: 
!GPS Longitude: 
!GPS TimeStamp: 0001-01-01 00:00:00Z
!GPS Seconds Since Last Read: 0
!CHECKSUM:1361444040
!Correction: S11(ON U)S21(ON U)S12(ON U)S22(ON U)
!S2P File: Measurements:S11,S21,S12,S22:
# Hz S DB R 50
2000000	-0.0720994799938711	151.541196719193	-73.9561333600396	-142.078945288859	-79.5130409840252	145.75779443263	-0.0387353470492116	-3.4513399102389	
2249500	-0.00698126447015834	148.329342264652	-84.0850549290953	46.9661185291807	-80.5028229011172	113.961424561341	-0.111274443316373	-4.00847620097013	
2499000	-0.0185586285471217	145.225916569897	-75.742113390317	149.723328571654	-72.7471766846529	164.448658841883	-0.143248408939966	-4.79874869102427	
2748500	-0.0969913375904704	141.90528292167	-65.6260715952523	140.485864101639	-64.1505856747829	150.81028450577	-0.103603326547515	-5.57735459508851	
2998000	-0.236692696759545	138.268068106531	-48.9873196237304	86.753366932395	-48.911429467042	85.860060751818	-0.0427185591088139	-6.08408093719957	
3247500	-0.188583697093185	134.849083601155	-57.3397835462704	-18.1987372490706	-58.0611552480655	-15.027675229111	0.0219306191160828	-6.23858625809578	
3497000	-0.121682924699273	131.201589850419	-60.3198042936739	-30.2931971931187	-59.9981649052259	-27.743522398067	0.00358102151880282	-6.44886917042296	
3746500	-0.0397446810559875	128.009870193405	-57.4290011465222	-42.6728212163859	-57.3766289869155	-41.3834339086354	-0.0691016134689368	-6.79336573244138	
3996000	-0.0223843208406203	125.12935889524	-63.6267671081963	-159.96316180318	-63.8853955132836	-156.460898276659	-0.133453454046795	-7.3382266872762	
4245500	-0.0774844327513303	122.051711786796	-63.4032238501716	-46.26371032465	-63.1904330033938	-32.2299151577277	-0.140517949952808	-8.27381188233937	
4495000	-0.16394849173174	118.656175453649	-56.7252529452686	-40.6361837786075	-57.1017268557032	-43.4427654307043	-0.0838989116545819	-9.05276669626418	
4744500	-0.233940909376533	114.771921805437	-45.6979088364023	-61.8899027119355	-45.6045622979004	-63.6957873855753	-0.0161575137917628	-9.58489755646706	
4994000	-0.173966248438794	112.162423186458	-48.5545860728157	153.550442574846	-48.5115778560001	154.353448655855	0.0267737570303865	-9.50472488179413	
5243500	-0.0747533842161918	108.747291123611	-55.1717765451119	141.674748495352	-55.5707834177707	140.340906712434	-0.00834728986535333	-9.8043920906144	
5493000	-0.0248301884573952	105.858023206095	-57.7043083882075	135.243690518354	-57.3956606354207	135.686972395977	-0.0909015154972917	-10.3221467130416	
5742500	-0.0642325618812129	102.972679083667	-54.7140560087463	122.742063705296	-55.0209460066085	121.238346802495	-0.162897469902424	-11.3233427846306	
5992000	-0.181996667777812	99.6643079995596	-57.647992716428	-71.1571332349174	-58.2478062727892	-71.9690240246124	-0.143508868470366	-11.7027451678499	
6241500	-0.280378058109951	97.538798072088	-54.2979860950621	147.52659502057	-53.7071148444597	145.965932656626	-0.0399857613775602	-12.731922676575	
6491000	-0.206282646055403	93.7511508035649	-54.3824972989926	123.422985304343	-54.7875872803776	120.607480896309	-0.0329410930039965	-13.3960953010719	
6740500	-0.123780036471427	90.5452384899135	-58.6689683923577	33.9181856824972	-58.3429299424147	34.6186427846977	-0.09208332305095	-12.1801793922231	
6990000	-0.0449005806036283	87.7666536753453	-61.4859948535454	113.539891966444	-61.1663646195684	109.427797819036	-0.0490568606787148	-13.2766219777418	
7239500	-0.0450389653604219	85.2460980205501	-56.5406728444944	105.274606069964	-56.9923947237578	103.817982852272	-0.160726957215904	-14.3237931416898	
7489000	-0.118924362500666	82.5180831384279	-51.9049028741329	91.095782660625	-52.1702662521694	89.8431517623743	-0.308447385260139	-15.8146349860905	
7738500	-0.207761543106885	79.473029792615	-45.9842447525686	49.0732444077327	-45.9098703297235	50.7050732940061	-0.67788985070748	-16.3150811493792	
7988000	-0.230149513625604	76.2824823699921	-47.532787187822	-13.2747175790675	-47.3661431915243	-13.7822384908914	-0.39666674803375	-13.4045602051302	
8237500	-0.181748827476766	73.1338918571367	-49.0659934548906	-1.43343023897805	-49.0224239842207	-1.3247931552501	-0.18199339558136	-14.5998747035816	
8487000	-0.0925671052234591	70.4339223588834	-46.9561857131471	-47.8956977441898	-47.0704359154507	-49.4714623525402	-0.0788337454771807	-14.3385814839723	
8736500	-0.0580037063248539	68.0327561776432	-46.1085001902137	-77.2087545763056	-46.1151697240866	-76.625034696693	-0.0989349898439673	-15.0667467983396	
8986000	-0.115874931212556	65.7126939719431	-44.6705298024753	-112.237632023471	-44.6909092906714	-113.492626967752	-0.196329171719549	-16.026704151993	
9235500	-0.204253477041467	63.1332277739488	-45.2942746389103	-158.936827600841	-45.5022984852355	-160.088017119295	-0.251309180281492	-16.790670075318	
9485000	-0.249208797235753	60.1289874958925	-48.175162139725	164.373840433169	-48.0459514280417	164.209124264303	-0.17726751902768	-17.5108153893248	
9734500	-0.220122065498949	57.0705680869303	-50.2573952453115	141.434721678063	-50.0550478974318	140.907956928983	-0.0773046767353495	-18.1754968524573	
9984000	-0.130305338740057	54.3088619381572	-50.2620590802365	119.297970901536	-50.3604118456746	118.949086761467	-0.0388343595652842	-18.6706761153372	
10233500	-0.0585323411188805	51.9697298507768	-49.1062938527547	76.8936102089925	-49.1751074491523	77.1653451774688	-0.191567455069386	-18.9810030147493	
10483000	-0.0609893835152736	49.830783448271	-52.8636744296526	9.26580577360073	-52.9567130758581	9.44571190733924	-0.283172557451784	-17.9339014073574	
10732500	-0.141136411153606	47.4351608774484	-60.5665175949787	-23.8907031385171	-59.9112783382986	-23.3793255318684	-0.230298506593863	-18.6108956418928	
10982000	-0.230139400956845	44.6590486469833	-69.7257639906341	-34.7081737055483	-68.7226809499015	-40.4279787336387	-0.19502940789787	-19.7384475307466	
11231500	-0.249313772593603	41.6535933189562	-72.0955182138	-25.4100067571908	-73.6905326912312	-36.1732575367702	-0.117588418037524	-20.6701047311844	
11481000	-0.185249739285346	38.8122639399486	-67.0291590160332	18.8546684069407	-70.1170048598386	4.20609708351461	-0.0253581752816566	-21.2643873266562	
11730500	-0.0935640429400473	36.4058254318796	-63.936776409467	-47.9804222440636	-65.0448445355665	-45.9355383339019	0.00727319156870556	-21.5628164093823	
11980000	-0.0495838976898281	34.3071928877392	-62.2859372463357	-104.080511919936	-62.2392923134204	-105.50942433679	-0.123110254974062	-21.6735794632549	
12229500	-0.098816144323179	32.1936967532236	-72.694537394909	167.171531526803	-69.5290363154522	170.206649173418	-0.148916341242302	-21.7981137255949	
12479000	-0.202711352704734	29.6522273575018	-88.9596059864238	-103.571393925903	-74.9353490021751	-79.0744328344668	-0.175474225607468	-22.8714262629567	
12728500	-0.268479777546279	26.7247677756568	-75.835359123116	-162.144484314048	-82.7349580641926	-176.109921548477	-0.15611535178734	-24.0284329067699	
12978000	-0.241503564364174	23.6930812800843	-81.7432938977193	155.413520081305	-90.8193124897664	135.405716790336	-0.0945273699694251	-24.9007439308496	
13227500	-0.154117493832304	20.9699359174232	-78.6534329903995	-67.6619852020925	-73.6368756166088	-91.4599803213929	-0.030849132082924	-25.2743665422284	
13477000	-0.0781441637051844	18.6229942885386	-68.9961949234768	-91.6176704261227	-69.6685344950375	-88.6370841118778	-0.0167895194575097	-25.5205564913371	
13726500	-0.0878818608498983	16.3879567857963	-64.1673323411322	-106.883256467294	-63.3008417512804	-109.743249806725	-0.083374830136519	-25.990882623379	
13976000	-0.182440774002533	13.8024593111225	-60.0034098313451	-130.068069599423	-59.1063473767712	-130.073753119651	-0.195168678290723	-26.8734902382139	
14225500	-0.289569733042017	10.6217617532938	-61.4360768565652	-135.387877997547	-61.5106176419873	-130.750156651235	-0.239342786513644	-28.1480528576677	
14475000	-0.330088821781497	6.95258086682529	-52.6921933599723	-148.102605719209	-52.8870554465932	-144.677984098887	-0.322145754363352	-29.8500466844641	
14724500	-0.29415228622275	3.11995406067871	-45.9735367499549	167.435047472359	-45.9894678461767	165.777628275492	-0.573206256178341	-29.9140360037615	
14974000	-0.252810968609198	-0.815590862014191	-51.8897961258256	104.07038683769	-51.8261475549941	104.225688487222	-0.180239056364565	-28.8047946675436	
15223500	-0.326769240097945	-5.29724394873914	-50.4080019376138	144.720629509802	-50.6326217419233	144.629769102411	-0.256145363225682	-31.3157768587095	
15473000	-0.681647520433097	-11.9748430250739	-40.0027208669136	144.317165300886	-39.8246391706468	143.383938848161	-0.977563174868598	-33.1193903660703	
15722500	-1.68682954039581	-23.7365934607242	-32.2398718007807	80.2482118333951	-32.2156536365373	78.7729981518717	-1.53489180668884	-26.396144838117	
15972000	-6.44373317110249	-45.8215640541933	-29.6437331484336	9.51156391126974	-29.8027636465051	8.48149184383707	-0.725551320392297	-25.8873781653221	
16221500	-8.09783206022258	45.6048944742331	-32.17126706448	-69.3811694964624	-32.3234927335645	-69.7704647329644	-0.589204767789004	-29.9706255483468	
16471000	-2.18437457114523	26.3566106164951	-36.4145790995975	-100.625146219649	-36.5156413955874	-101.207861913099	-0.414984913851898	-27.1376601786969	
16720500	-0.952436939983256	14.8990203582903	-39.9588225039046	-135.81272550698	-39.9993110110842	-136.556046972067	-0.174294208266484	-28.7276664420231	
16970000	-0.534401388940852	8.47959542463978	-43.6304821034281	-168.324159773542	-43.7403961121906	-168.277027630836	-0.194663071875174	-29.9071199757545	
17219500	-0.424895397829293	3.9143740530668	-51.5327722079355	157.437230117823	-51.7112297427621	158.613878877434	-0.515410232207197	-31.1900218780385	
17469000	-0.43686883001611	-0.13712039784779	-50.859550148359	-161.97742375546	-51.4746406347408	-160.150682050175	-0.546449611317942	-29.2003599280844	
17718500	-0.433877513212437	-4.03055335866081	-52.124452949605	172.829854139782	-52.4431788658032	169.587668361053	-0.357586151699052	-30.6568340607237	
17968000	-0.354503339584944	-7.56731666304348	-54.7880078214348	156.855512995805	-54.5379167775727	155.061255955022	-0.23625482658379	-31.964121246695	
18217500	-0.227516039374801	-10.4351470068276	-56.4000873173522	142.947196847071	-56.6426547317749	145.015253271016	-0.129501887512367	-32.7620683345284	
18467000	-0.140201541660746	-12.6679955082307	-58.5568840542748	134.0422369897	-58.5634295736248	136.572675322031	-0.0947011306129051	-33.2027037045853	
18716500	-0.151916405783349	-14.6480282052037	-61.2247070502118	124.809048929734	-61.4744902265625	133.665356442913	-0.155333091344956	-33.673909284387	
18966000	-0.235399807126267	-16.8509615154685	-63.9079255861636	131.80831519792	-63.4140621425278	123.247819594294	-0.270284120255868	-34.4415190136086	
19215500	-0.31506781525475	-19.4333037041635	-66.2971371328567	130.193603987366	-66.5779445391216	125.861650952102	-0.374358102509146	-35.5448845751832	
19465000	-0.313246599413853	-22.2058396447775	-67.9163605836896	138.882771677589	-66.986153860023	120.562589670926	-0.418701283638234	-36.6928142595802	
19714500	-0.228375946601931	-24.7137001396473	-67.191329608651	137.435436586464	-66.8725942050358	134.040043376376	-0.438599959741775	-37.582950446525	
19964000	-0.125195937415512	-26.7174973723818	-63.2630297344687	139.155337501631	-63.4696979898466	136.187470667535	-0.594613323869505	-37.0680421565481	
20213500	-0.0956179195463116	-28.3499642496224	-62.6181620665948	112.583288648681	-63.4533174612421	109.478711593211	-0.228997378633827	-34.6858576094983	
20463000	-0.156572596404978	-30.0636164406517	-60.911944880796	113.766152689268	-61.672613879366	110.294700488558	-0.22191957741426	-36.3434849861795	
20712500	-0.255812948457283	-32.1842871909068	-64.6381378970473	80.4397335303048	-63.7160388690752	83.2643490305589	-0.292566213986514	-37.9370221059599	
20962000	-0.307752460522	-34.6973240422394	-65.1616372292564	91.2518832807653	-63.3190200751052	84.3543479469035	-0.433047813637937	-39.6467600977125	
21211500	-0.272007188817769	-37.2150587967625	-63.2728839310706	81.7013950042521	-62.8314772935487	87.5914578927846	-0.549228119616515	-40.9557417455907	
21461000	-0.171512729080246	-39.3980128020719	-60.8971691020585	57.6600472716832	-61.9987376379976	63.1178300290646	-0.664059801935032	-41.4468408881397	
21710500	-0.100051353001041	-41.1262739856216	-62.770363124437	50.6868786765315	-62.3505735171946	47.8018505153545	-0.813296298737186	-40.3092103581204	
21960000	-0.127808221433506	-42.7456154999233	-59.0457912987584	47.2199516874935	-60.0482998753298	45.3205138301979	-0.795197371989329	-37.9715864927907	
22209500	-0.264128054133455	-44.7226850568089	-54.061944882279	-2.60609588852197	-54.2338260199398	-0.753962642279846	-0.587918300962252	-37.3711094960931	
22459000	-0.516710526646266	-45.9505357017615	-50.1773002768548	-108.847804364627	-50.4012895491452	-108.086839395235	-0.47583086971861	-38.8071060850587	
22708500	-0.305645885881133	-48.1854790765647	-61.2589521855634	131.017058921652	-61.0348730864079	133.014680506268	-0.494106048788339	-40.915335367795	
22958000	-0.211384664723027	-50.855456672391	-70.1965277555432	53.6367021068816	-75.7873802106693	49.3077461304668	-0.578495298731725	-42.1638243838283	
23207500	-0.106555903183101	-52.8757985951449	-78.2567427241646	170.321365688238	-76.8000544211061	-145.954584223187	-0.534829050359326	-41.7660285980966	
23457000	-0.0667488886243604	-54.4553883354767	-66.5801368168577	136.486384891788	-65.8859722668213	132.413972508131	-0.317379125442975	-41.540542909024	
23706500	-0.123661796797796	-56.0964136613077	-64.6238452201049	94.1093343485686	-67.3146924277459	86.6565843020553	-0.21581126405653	-42.9746296928348	
23956000	-0.224001853839139	-58.153546274345	-72.5468869128476	34.3664224429056	-82.3112606318011	39.0650989270831	-0.471326693301952	-45.708357248624	
24205500	-0.285691862871183	-60.6276672914482	-64.7797161700676	137.917010034065	-64.9797701367528	130.962810582741	-1.17789351232329	-46.8721280340925	
24455000	-0.262418051534418	-63.1807995090971	-58.9560969792396	69.2416918199609	-59.9381312221541	67.7677207580847	-1.39537584710015	-43.0349695012723	
24704500	-0.16782384683289	-65.4283475844561	-60.5680903018499	36.2248479889771	-60.2787143910385	34.8186099880235	-0.963251936770541	-42.1696838864762	
24954000	-0.100740658393185	-67.2029786960846	-62.1332656303045	11.1133701975633	-61.3515243506092	10.0830679889976	-0.680622772420527	-42.4248828595562	
25203500	-0.133534798451004	-68.8350862421099	-66.6931216800107	20.56495931647	-66.1437726837495	-2.61827352578405	-0.522184939305051	-42.5949141955006	
25453000	-0.265570506727171	-70.6545727498928	-63.4687686853558	51.5694892604621	-64.6466909729124	41.3576606594092	-0.492670947115527	-42.9088972504665	
25702500	-0.39743011666754	-72.8226914211379	-58.8253987988133	26.4214405167518	-58.9947444878975	22.2300678278736	-0.533788870878225	-43.6281656490086	
25952000	-0.468249300492448	-75.2058668703808	-55.4372972726338	1.21368782744775	-56.5529725327857	-2.05329668127636	-0.558543990453876	-44.7534089129585	
26201500	-0.436507033794987	-77.4408738269225	-54.2629945417524	-30.7390818647171	-54.0095989365919	-33.2487281112857	-0.519014034642446	-45.9703761498496	
26451000	-0.367719238580995	-79.0372341844152	-53.2938769182699	-69.4633042739464	-53.2423741622543	-69.3289032823094	-0.421197578754192	-46.8849536880546	
26700500	-0.330690053734216	-80.1124324181514	-53.0221217801741	-104.59771458595	-53.070072939402	-108.208679051263	-0.328026788891445	-47.4033336005819	
26950000	-0.354260852849757	-81.2138715243678	-54.2607977785857	-143.660882940666	-54.7223403015919	-139.942929128492	-0.31633073743084	-47.6763117740442	
27199500	-0.412811508878028	-82.9701516968117	-55.6210178993623	-169.803503542342	-56.1415603387586	-163.006201988805	-0.39714139851291	-48.1073506565401	
27449000	-0.451471905818372	-85.3207954628555	-57.2822274818905	167.152481712006	-57.3395172122517	173.010772841676	-0.501934818046054	-48.9541724782099	
27698500	-0.406959600317986	-87.8856868815917	-58.007101433274	144.598693089368	-59.06819376287	156.572767338232	-0.56844494958243	-50.103000989094	
27948000	-0.300171402088974	-90.2236227995615	-57.869289842711	116.086399392159	-58.0386801017061	127.854623654493	-0.5595096991605	-51.2694891647716	
28197500	-0.213570481682813	-91.9854100811643	-59.5532231784301	68.5282884499954	-59.1024162440587	72.1034646817913	-0.507566601793258	-52.0471374409961	
28447000	-0.19229362105236	-93.5258592011812	-63.8816300674103	83.610729960478	-64.019781500241	65.6256475978102	-0.488192873939214	-52.3931298793358	
28696500	-0.272287246713705	-95.3530747819161	-64.1451283728415	66.7568664430413	-61.7400752736953	81.1716609363589	-0.573822657086187	-52.5450446827219	
28946000	-0.357343446648285	-97.6174160278139	-61.8557086210696	64.3504275123034	-61.1422514573631	53.3434192902408	-0.735753089527657	-52.9150749813717	
29195500	-0.384502044518706	-100.216311832823	-58.7311405211055	48.458630970171	-60.8032377339373	39.8097326618124	-0.915898671989203	-53.6112418135424	
29445000	-0.321513661940017	-102.73454868658	-57.2341375334853	29.300549077012	-57.4623050669787	32.4011115323876	-1.04225406813956	-54.4619946976272	
29694500	-0.217796996316181	-104.885755316882	-56.2284596411035	21.7648178527523	-55.5020544417259	15.9193630338045	-1.09688700734011	-54.9211064483958	
29944000	-0.16895525731134	-106.589653606034	-53.9278434303852	1.82493400339748	-54.0224324014994	2.67995278453921	-1.10678794446525	-54.474060966573	
30193500	-0.225892472125799	-108.306930217077	-53.7591713274157	-11.1301329365288	-53.2287834969892	-13.6591170921129	-0.910079685347421	-53.6885339410515	
30443000	-0.335805058301414	-110.511850320687	-50.2014457248536	-20.7268059056665	-50.2354190544842	-20.9973052531497	-1.14475725348192	-53.4938943223475	
30692500	-0.420169341390807	-113.156247129871	-47.5210843070223	-43.4741771236345	-47.3418321690346	-41.9973402999271	-1.26335158157459	-52.7300139108524	
30942000	-0.415898625920482	-115.934048557695	-45.622473446282	-70.2923566453344	-45.4985644579467	-72.365057304816	-1.30753776917959	-52.5345401834396	
31191500	-0.32678184476034	-118.420641915714	-45.4239223908101	-101.288722153213	-45.4089381479941	-100.3815129693	-1.22667211276048	-52.6867593114638	
31441000	-0.225532982234114	-120.516188348599	-47.0438120293111	-124.455062847198	-47.010650552527	-122.807559041924	-1.01777695774742	-52.9808768980775	
31690500	-0.235050542285415	-122.522419934213	-49.417047092434	-121.713893872934	-49.5329216240846	-122.324395431978	-0.790396874383766	-53.1559873878132	
31940000	-0.376811809331895	-124.642158722848	-45.004021543038	-129.087815489041	-45.0254427038366	-128.315558984432	-0.654152132620616	-53.1533401698083	
32189500	-0.502201670718667	-127.289046366301	-44.5054899481719	-153.87875048776	-44.5382983832695	-153.006445039065	-0.606459640011032	-53.3919314867238	
32439000	-0.566717800866499	-130.644190543441	-44.9403715368921	-166.089872696238	-45.0069355154781	-165.432785811136	-0.598632785238821	-54.4795540913993	
32688500	-0.579131884756466	-134.166696584346	-43.6553081896982	-162.313601078841	-43.3038999852061	-162.358540554195	-0.831492208317498	-56.6768700776111	
32938000	-0.601085607655914	-137.555306591457	-42.2053568715757	171.247252756503	-41.9979822140257	171.380323512772	-0.703193343286417	-56.5710210848555	
33187500	-0.78645345132833	-140.894724112321	-40.8172116377334	162.450490158993	-40.5834007365218	162.450110456052	-0.646129111247602	-57.7335163902586	
33437000	-1.35051574132707	-144.424194542902	-38.2468539045005	142.532791222215	-38.0266761851911	142.245587020769	-0.518821131960841	-57.4724718253432	
