!Keysight Technologies N9923A: A.12.45
!Date: Friday, 08 August 2025 17:28:46
!Timezone: (UTC+08:00) Kuala Lumpur, Singapore
!Model: N9923A
!Serial: MY61181427
!GPS Latitude: 
!GPS Longitude: 
!GPS TimeStamp: 0001-01-01 00:00:00Z
!GPS Seconds Since Last Read: 0
!CHECKSUM:0205364151
!Correction: S11(ON U)S21(ON U)S12(ON U)S22(ON U)
!S2P File: Measurements:S11,S21,S12,S22:
# Hz S DB R 50
2000000	-0.0685550980642463	151.547837022379	-76.5631361975529	-165.879149231406	-77.6092592818796	-173.41425467412	-0.0322414898299964	-3.38550462824725	
2249500	-0.0100034304176402	148.336492663909	-78.6130711069488	175.819675473881	-80.2147599936943	152.796768953096	-0.101812037192181	-3.97331362655998	
2499000	-0.0200745268647193	145.21104202602	-77.7649758515629	155.150997071201	-75.4704244065511	129.381818000212	-0.130779872532256	-4.73976706186712	
2748500	-0.0944483670271416	141.891053161621	-64.6710688070258	145.294409153548	-65.749875377223	147.175109088601	-0.0946236761960906	-5.48108741112288	
2998000	-0.224437297980009	138.241302694977	-48.640528538965	89.0452653997873	-48.474888603755	89.8454108214535	-0.0400787321926944	-6.00294483062887	
3247500	-0.181515491838788	134.845826543172	-55.7502257290475	-22.6497941456332	-55.1773926967371	-21.9944112218053	0.0168764516039358	-6.17638457553948	
3497000	-0.115756709184782	131.239472981463	-69.6465922751252	-68.8518024768097	-71.4004290067161	-87.9315359325738	0.00596850738749405	-6.25248082103596	
3746500	-0.0430580893834091	128.058008091956	-66.2019114439879	-22.4762477929251	-65.5585311241688	-27.0881346963695	-0.0548351079305542	-6.70360011133376	
3996000	-0.022445038824037	125.090402750625	-63.407534457543	-33.8049754815047	-63.0032482324053	-33.1809739552004	-0.119972634569157	-7.36352681818524	
4245500	-0.0775782390803429	122.022324167703	-61.1521610172423	-34.2985565254074	-60.1442027032938	-36.5781362775213	-0.130172583168973	-8.18608086663118	
4495000	-0.157454895203799	118.633841104611	-56.2585884729866	-39.3900335101792	-56.0896690099759	-38.1917946946201	-0.0772963733452197	-8.91438119553911	
4744500	-0.221523448519876	114.773987697995	-46.4029324549449	-59.9460303589752	-46.3277231238571	-59.8975109548202	-0.0126884877053885	-9.42449058760173	
4994000	-0.1711545263616	112.199867989312	-48.6177546439468	157.074885147062	-48.7474715150997	155.462209207271	0.0246894530607487	-9.37885163563592	
5243500	-0.075385803344636	108.776694136643	-56.0110549299152	146.012202201531	-56.3267197330882	142.753628982819	-0.00713021571924391	-9.68529676853272	
5493000	-0.0294115396837265	105.864987581981	-59.1924322442903	125.283376577403	-59.5478942260755	124.169203920869	-0.0970267279768747	-10.1370934841771	
5742500	-0.0644285372435146	102.97433151994	-63.0552661664897	136.4214695219	-62.9117743997494	137.079339874543	-0.133713571084043	-10.904438557106	
5992000	-0.179183737240703	99.6239542071732	-65.5130396942858	128.494811253832	-65.3462692911693	134.682065645324	-0.128248990198518	-11.7705128106148	
6241500	-0.264242016582283	97.5544848398058	-60.1931168193981	146.87662848012	-59.9828949050076	142.424541939585	-0.0301673201572298	-12.5419622954504	
6491000	-0.198142155486692	93.7778255057078	-59.7661302143239	131.151170896969	-60.2997468869336	132.180252825822	-0.00270998012487873	-12.9794288842965	
6740500	-0.121396341759786	90.5693524281131	-54.0827206447084	87.2009652257323	-53.7292396537708	82.3747068450369	-0.190852011996571	-13.2626426636982	
6990000	-0.0480408504722018	87.777797108451	-64.6780144655246	117.216885148693	-65.4132593233551	110.111601113313	-0.0358413810516181	-13.0300936236336	
7239500	-0.0491410917720021	85.2328647730343	-61.7594230215768	119.19059893803	-61.8310832914148	110.96652288142	-0.111055636504784	-13.8230705935021	
7489000	-0.118507057002428	82.4910074023572	-58.7663786285072	115.180267326682	-58.5980027287322	110.93022067296	-0.159342585006037	-14.8304443432985	
7738500	-0.199132251560806	79.446498369563	-55.4168409991826	105.894810036852	-55.4105372690371	104.612786615709	-0.151794709101877	-15.9739786064264	
7988000	-0.220310953553234	76.2667442981666	-50.1813812619208	93.3185022041128	-50.2341014998491	93.6382695251073	-0.151909559752686	-17.289769079162	
8237500	-0.17750111066658	73.1442891075862	-48.6186818501451	66.3657781217838	-48.7514362612814	64.9499586505588	-0.201186560588084	-16.3429806435832	
8487000	-0.108460834646492	70.4463893962013	-40.4896869949363	21.1866862445447	-40.4112602875654	20.8043881558821	-0.459312229678766	-15.9533919088968	
8736500	-0.0647909672058942	68.138706316238	-40.8319559980427	-44.81458776618	-40.6994819483753	-45.3482848658431	-0.255578512683936	-14.8054130469396	
8986000	-0.103950900549234	65.7319555188163	-42.4760887945619	-86.0092080460524	-42.4091398902564	-85.249477955278	-0.240653089922059	-16.1369647465571	
9235500	-0.192413761840558	63.045782750587	-43.4449474159882	-121.262271730367	-43.3652134145483	-121.664600274791	-0.301444810367876	-17.2176139971229	
9485000	-0.24665797532668	60.1038679082564	-45.1390596398991	-161.317306538607	-45.0404252287716	-162.208078392596	-0.255716117053467	-17.7170832072109	
9734500	-0.218724798478701	57.1172231909487	-48.0777276427352	163.401154892155	-48.1787241669412	162.020356081843	-0.120319014921593	-18.2436169076818	
9984000	-0.132341746750811	54.3675576558396	-51.263658530987	140.301897714345	-51.1623982677203	140.526885459836	-0.0471434538047141	-18.8532578065745	
10233500	-0.0617440676435478	52.0000255922643	-53.2772211040498	120.630522441671	-53.2923624003953	119.40408450145	-0.102004358473312	-19.5839597947853	
10483000	-0.0639625564613154	49.8095186354917	-54.6624437771968	94.9374590542697	-54.3559752024519	95.6628314101281	-0.300902058225805	-20.5505786907003	
10732500	-0.140066281315952	47.4035472204334	-56.6383534242012	60.1872533020758	-56.9956100577002	60.5602486165064	-0.647280608437642	-20.7792205177056	
10982000	-0.222688660225194	44.643404038937	-59.9491935921667	13.8867668853727	-61.4283754182542	8.23944995444172	-0.64491508234773	-19.232389125809	
11231500	-0.241280632588342	41.6678427596104	-65.5828373922802	-34.9407574649768	-65.4805209894843	-35.1907997650289	-0.376025745559408	-19.6031616863716	
11481000	-0.18112091248401	38.844482014456	-59.2963901841134	80.4787864660553	-58.7064359790519	82.3096466159839	-0.251784537808182	-19.9160855772376	
11730500	-0.0971122356109935	36.4291315454118	-58.8352657265901	-11.1248834151971	-58.8487538845566	-14.3519747527611	-0.144612598520895	-20.2191264808845	
11980000	-0.0551739540344375	34.3027263687487	-62.3111166205642	-93.0824671330133	-62.6980133896868	-96.6217913930862	-0.164149190079344	-20.6559233913609	
12229500	-0.101813819513371	32.1564284258585	-73.5826887266591	-163.393167077701	-73.9574308423088	-168.079973026302	-0.228280605142038	-20.6339938086355	
12479000	-0.196159929454139	29.6213936069951	-76.9748587659077	-95.6250318340353	-78.8131150555052	-115.748002211435	-0.200578060614334	-21.6977970718929	
12728500	-0.261103931280972	26.726530749992	-73.9057795194881	-161.875969184024	-77.0412320893026	-109.684566457339	-0.16362365718636	-22.9391905727098	
12978000	-0.234586841091375	23.7279432574638	-75.2288823258044	115.415840506075	-78.3967117811558	139.091988428858	-0.100941843481289	-23.8775604167867	
13227500	-0.153594746119039	21.0061076715128	-80.3365917368148	-15.2606887548714	-76.9850995773918	6.55452676860755	-0.0367082735500732	-24.2965538511124	
13477000	-0.0829976570592968	18.6402173364423	-72.2168193492687	-66.6435119242452	-74.6984945951867	-86.2117112246607	-0.0144756758450435	-24.6155026705176	
13726500	-0.0923496981643083	16.3777930671977	-67.6524748480966	-91.1319141351526	-68.8606877811587	-87.7247650487833	-0.0768834944144128	-25.1176202933393	
13976000	-0.180388443957255	13.7864720991562	-61.4340980082759	-88.4418945408734	-60.9944916893141	-92.2587209022689	-0.21620578408016	-25.8049643771392	
14225500	-0.281555743962422	10.6146011793915	-56.8086981813444	-120.257510799104	-56.4033455361333	-120.351969345746	-0.256849197624916	-27.123743179569	
14475000	-0.323438088195583	6.98095845767379	-51.2066620683116	-156.043178287045	-51.2601505159543	-153.649007227469	-0.384025402034572	-28.492045440411	
14724500	-0.290618704746785	3.17473776800117	-46.5909384621011	155.82542659389	-46.647009144171	155.250434844922	-0.568293991091762	-27.7662792110719	
14974000	-0.258393706276287	-0.785336175318589	-50.1505687396235	97.8102876859565	-50.4236045205296	97.2233226224747	-0.205264679216601	-26.9037634976639	
15223500	-0.33338896992169	-5.29715669137475	-47.926260593341	109.41713767927	-47.609936340348	107.664011551368	-0.503280234270743	-27.6285906886306	
15473000	-0.676647553911121	-12.0290477445906	-45.0456675944036	73.4529555889376	-45.3186034456338	71.1079679781537	-0.373216852490355	-25.9512967165005	
15722500	-1.69370809356408	-23.947602965403	-43.6515091597499	42.7228353629077	-43.7700258727924	41.4667529532963	-0.299896496763486	-26.8567994291595	
15972000	-6.53699827668871	-45.1702140727919	-41.4947546253447	3.48004817270604	-41.7410755842708	2.90527458930984	-0.267358140696012	-28.093738268683	
16221500	-8.17861886510169	45.4249134050324	-40.0561247355302	-52.8993352356298	-40.3227578353996	-54.4287369972498	-0.195022429925753	-29.1106658032327	
16471000	-2.19536518541948	26.3435895394117	-46.8913477520821	-100.17006969326	-47.0845181513649	-100.087662142582	-0.0868069950835988	-29.8680024604207	
16720500	-0.966813328587876	14.952634102764	-52.4672046914922	-112.08214485369	-52.9151261615577	-112.076854421187	-0.0285372452447588	-30.3064812111792	
16970000	-0.540665894902597	8.51882512712119	-53.9284268586798	-93.3680801564533	-53.7877255921729	-95.611609959288	-0.0630805294152419	-30.7832218504728	
17219500	-0.423555968724398	3.87161313040449	-49.6912491290428	-147.448537472075	-49.6375267625242	-148.221424656342	-0.205802968139412	-31.0606197678344	
17469000	-0.430809991977985	-0.154013495161506	-57.8544344018939	179.070700394544	-58.8668958349203	-177.429100348789	-0.213729964478049	-31.8756644137146	
17718500	-0.424021872288954	-4.00731799554128	-64.9507836106074	-179.713049576619	-64.0302745260418	-169.292008599618	-0.209577075016213	-33.0794942530768	
17968000	-0.349464539670487	-7.51297986544842	-67.3477734518535	-135.401920756897	-65.9645602259764	-143.676559971522	-0.150804451388039	-34.1939325894961	
18217500	-0.228870275241372	-10.3787717733897	-65.4536263267647	-133.256360779114	-64.9397847760642	-130.319636803005	-0.0926688988455965	-35.0567001144168	
18467000	-0.146439151930664	-12.6394121391941	-62.0026780573353	-128.205799870315	-62.1076271089195	-127.216651612613	-0.121926550905022	-35.8909784213369	
18716500	-0.157753000797479	-14.6619836018188	-57.4687544330927	-137.507292895139	-58.3372283735233	-138.05612649584	-0.370218041069861	-37.059251453325	
18966000	-0.233332429867688	-16.8813446495734	-54.797337015873	-176.714785165119	-55.2891966885531	-175.271330139485	-0.92161332623213	-36.2268857359793	
19215500	-0.307699021279299	-19.4585624847333	-57.9473708726135	142.116425768469	-58.2287587128741	142.93274852104	-0.80546827956548	-33.759412660576	
19465000	-0.306925624402719	-22.1862953475246	-60.6591334837947	124.99871834005	-61.8350637932547	124.398382944801	-0.537117882451451	-34.5563419048242	
19714500	-0.226261508158078	-24.6732057104321	-65.6478256835286	115.101622880945	-62.9018901830907	108.3949404818	-0.344407472181921	-35.5620820878637	
19964000	-0.130225719867975	-26.682350252008	-65.1392577279651	111.419693796738	-66.2769642504717	126.622237613718	-0.193193966098259	-36.3089365519268	
20213500	-0.102138988907524	-28.339793832686	-68.3379685296571	135.128483377214	-67.5883611960256	125.08631720302	-0.167300696908564	-37.1719453026535	
20463000	-0.159377867166936	-30.0796463629019	-60.7156048845827	120.450115490022	-60.6228834127696	122.698458043036	-0.350346570230847	-37.3737297364675	
20712500	-0.251408948124891	-32.1898307110507	-67.726450610924	47.4591985734749	-66.9117217862936	60.6030460799857	-0.372314252097104	-38.3187880508114	
20962000	-0.299533934627223	-34.6840025731767	-74.895444860705	-176.529943018257	-81.2435687572714	-121.953013906408	-0.514812304095841	-39.6784681906556	
21211500	-0.267666247491511	-37.1760136524921	-65.4822890834321	142.549290341108	-63.4866228342949	145.075046809299	-0.530082244036815	-39.6984529276103	
21461000	-0.172689296901908	-39.3611571022948	-63.4611853815251	98.6739686510221	-63.6342300131278	98.366364044513	-0.355060909179003	-40.5737324396809	
21710500	-0.105954340799558	-41.1100644768796	-67.1134167805173	95.2462948793541	-66.3605625873577	92.0279348005015	-0.327631249233101	-41.4707259038827	
21960000	-0.13352828691541	-42.759841261313	-57.0322330921006	97.703340257301	-57.4582488017186	98.861353038706	-0.459050282144187	-41.7863829497257	
22209500	-0.261750726278541	-44.754283352628	-52.0765678116645	22.7159610849024	-52.206576201906	23.8603132247634	-0.602007644488681	-42.2642412144908	
22459000	-0.510601532162641	-45.9470222631631	-49.017814753313	-95.1855432100941	-48.8811251591591	-96.5036245795025	-0.822101962395661	-43.2021033679388	
22708500	-0.298277709861551	-48.1572447239509	-59.7195556660596	132.306336278018	-59.2982035058723	130.449586834833	-1.12562166368853	-43.7356846228621	
22958000	-0.209368540006746	-50.801866773232	-67.217005884004	43.1613428937587	-67.0627581607029	33.1166243249803	-1.14547030887648	-40.7528982339008	
23207500	-0.111422545142342	-52.8242574488131	-74.793944230438	34.0632663483482	-80.9317376260829	44.9234657609675	-0.466360767989033	-42.0219866464984	
23457000	-0.0734307860202234	-54.4383241608613	-72.9778250757058	8.56406999688651	-78.0709212658222	37.992197852859	-0.511806996992148	-44.5330542146442	
23706500	-0.126223986031679	-56.0944862351554	-69.0658402874353	-57.7301914839844	-72.1680032272547	-66.1156632814552	-0.838764419007643	-45.3926172720227	
23956000	-0.218836912119397	-58.1576130677355	-64.1587106216327	-120.799480690223	-63.436246062199	-117.397420877626	-1.24007975981869	-45.2961391079754	
24205500	-0.277468121201121	-60.6010471627687	-59.826449235484	-178.067652344831	-59.5229729533975	179.715338144749	-1.59405031558802	-44.5135111237111	
24455000	-0.256671951800775	-63.1353939726084	-59.7233029673228	120.255868912685	-59.463153855262	121.150316309189	-1.73269926193151	-42.2836510118252	
24704500	-0.170645510848157	-65.3681535971851	-60.7037833610993	96.5823104123297	-61.1835290336544	90.5580830233228	-1.37758705101268	-40.4196873971718	
24954000	-0.108081224956936	-67.1791803335499	-61.2877968277005	80.7965398965959	-61.6714499590728	73.1562240825785	-1.00071227532316	-40.2276962892323	
25203500	-0.140021373840213	-68.8374664266543	-61.436279048383	48.8831716562665	-61.8799752327154	47.5417246407482	-0.796723094288597	-40.2164225891241	
25453000	-0.264510110326564	-70.6752212696752	-67.153300900393	34.4332025049246	-64.1731810808379	42.1002027631277	-0.694060719302333	-40.1097711512134	
25702500	-0.391388280650743	-72.8223939667125	-66.835535851462	60.6760830249984	-66.9178222746196	28.7289701448147	-0.614345890586909	-40.6627993424608	
25952000	-0.45910191470401	-75.1745617625125	-63.3049805902472	58.208220900497	-66.203622378596	53.0487020138207	-0.540124345296865	-41.8969545023543	
26201500	-0.434326064904692	-77.3720352702424	-58.9017484256531	41.4322708327269	-60.5827090986267	36.9530830759075	-0.431400839718939	-43.3758955723162	
26451000	-0.371592489103461	-78.9761813889965	-56.1441315550738	12.9556036800064	-58.3308660283693	5.27746058359938	-0.287755657472034	-44.6312387697332	
26700500	-0.337910957519972	-80.0856020405421	-55.9367802979381	-18.4694149591788	-57.7659143281248	-18.2123374540357	-0.160984147141666	-45.5523949630151	
26950000	-0.358860330007746	-81.2109277590851	-57.1337734889507	-45.215250793632	-57.8992538681921	-49.5816225269109	-0.12296010416541	-46.3067397794926	
27199500	-0.410571251506476	-82.9626272449189	-57.1455914430146	-60.5777446044216	-59.0819319343617	-62.4784595171834	-0.18744840358387	-47.2936550430266	
27449000	-0.442931954735816	-85.2996461342991	-57.2213253562416	-84.5364414953831	-57.6805607442576	-74.0693931152674	-0.306032437710653	-48.7905751631028	
27698500	-0.400012825149243	-87.8339930805108	-56.3289141507457	-93.5584290203853	-57.0542506538938	-95.546086124947	-0.457170436387224	-50.6081635740884	
27948000	-0.300432665945065	-90.1458324493394	-53.2303244438101	-128.530649030021	-54.508748807562	-118.114823064923	-0.645429007162465	-52.161651931343	
28197500	-0.219532602458244	-91.9203735731171	-54.4408680947272	153.303300673088	-54.8962214149197	159.223013784721	-0.876624575160495	-52.1585014086806	
28447000	-0.198025132226663	-93.4859451745975	-64.8454345191664	154.726057199355	-66.9768313349447	158.000737964616	-0.961690337107587	-50.2994874902095	
28696500	-0.269996410700242	-95.329178060153	-62.1374478614804	159.448772111758	-64.5417694727887	155.893699075338	-0.892670092741633	-48.4566975841334	
28946000	-0.351719099053901	-97.5961198051662	-63.4557550286585	143.370076145569	-63.4308174767457	138.037188973022	-0.78847707170656	-47.8805347344987	
29195500	-0.377723736161433	-100.154321740901	-63.1220722170322	122.144239395931	-63.5285172065806	126.870005417448	-0.719525814147278	-48.4171037794288	
29445000	-0.319221699469067	-102.682916468233	-63.7446060717126	93.8397775733825	-61.6783052373099	105.715015931264	-0.640660474746218	-49.4772387129248	
29694500	-0.224604810233924	-104.838692159519	-62.6958736076697	87.5559833646606	-61.3352189963536	82.6079278553742	-0.509345973880451	-50.5257011371649	
29944000	-0.176692675355914	-106.57479624084	-63.1541983443842	75.4200446497919	-64.3042491771353	76.3321655027025	-0.364750764305601	-51.274832797246	
30193500	-0.229820668966476	-108.315028714209	-61.664066543492	79.3427738181497	-61.6182276363698	68.6091989391963	-0.281862775689595	-51.6957034227452	
30443000	-0.333265532737524	-110.501321196854	-58.8735056003306	63.1041073542653	-60.1321007478257	72.9577726497514	-0.288416306792413	-52.0110412801786	
30692500	-0.411071607814887	-113.11279284601	-55.9228352171407	46.4694611894194	-56.9654014480573	46.3019111195871	-0.348223501741601	-52.6785326593486	
30942000	-0.408055684608388	-115.845406375939	-54.9507830597122	20.2478209920188	-55.8432652083811	25.6144175701974	-0.397091722259882	-53.7682333751356	
31191500	-0.325543747169412	-118.337321517172	-53.8347058193267	-0.423602490536638	-54.2252762397544	4.50759849104393	-0.392282973623288	-55.0303387025346	
31441000	-0.231376297737335	-120.454320401213	-54.8347478993394	-18.7427499710201	-54.8888000754835	-15.8437434388953	-0.316833281363917	-56.1376989686885	
31690500	-0.241845899361458	-122.498426311098	-55.7288458187302	-11.2034419343606	-55.6168875140697	-4.89534109150843	-0.229523455373039	-56.8175916517628	
31940000	-0.377549205916271	-124.644560881121	-51.2942045367353	-16.0359775782948	-50.5230856949471	-14.1174816603601	-0.212098807146183	-57.3138760700995	
32189500	-0.49574405599854	-127.302894232834	-49.0519429583905	-34.3760535055469	-48.9600883002217	-37.138230931387	-0.30673869497386	-58.0833024607737	
32439000	-0.563131305086653	-130.628681287021	-48.2226922079886	-53.7777113238859	-48.4336266008817	-54.3083205213319	-0.48763188055542	-58.2954260642982	
32688500	-0.579764316614577	-134.126869542497	-46.7562403258674	-61.4181834082918	-46.4559148478862	-60.9177355129239	-0.498853908982574	-60.0459028754405	
32938000	-0.61363140543421	-137.514000554664	-44.133973867764	-78.2186795445189	-44.0508436880462	-75.3073415041069	-0.90260459160669	-61.3070255005417	
33187500	-0.805503956145504	-140.865804370564	-43.1968396324451	-87.9991209598367	-43.0416709956214	-88.6281903322831	-0.477923456831322	-60.4419977712397	
33437000	-1.36867695145369	-144.347402146187	-40.217999504774	-102.383210757575	-40.1569225700447	-102.713799851254	-0.381083790381109	-61.7456754387606	
