!Keysight Technologies N9923A: A.12.45
!Date: Friday, 08 August 2025 17:52:44
!Timezone: (UTC+08:00) Kuala Lumpur, Singapore
!Model: N9923A
!Serial: MY61181427
!GPS Latitude: 
!GPS Longitude: 
!GPS TimeStamp: 0001-01-01 00:00:00Z
!GPS Seconds Since Last Read: 0
!CHECKSUM:0602638387
!Correction: S11(ON U)S21(ON U)S12(ON U)S22(ON U)
!S2P File: Measurements:S11,S21,S12,S22:
# Hz S DB R 50
2000000	-0.0931950473857815	151.321582647849	-80.1364763856127	132.429714087753	-76.9990739385249	166.181803768888	-0.0395395212844696	-3.364554669669	
2249500	0.0107126104359326	148.226213767007	-74.502454697121	156.066441077376	-76.2545879867831	154.289055177287	-0.158243465126168	-3.9485839534906	
2499000	0.000240993858585313	145.309069466071	-62.5132065313194	131.717367141448	-63.0411786621085	126.156055824057	-0.214814603156413	-4.9517375423184	
2748500	-0.121835458645857	142.195921956491	-49.1732094323736	21.6830628322991	-49.4572244240003	21.0362344576045	-0.19162422145695	-5.34908098651129	
2998000	-0.241778451150602	138.509085704769	-51.3859621707897	-33.1666559755848	-51.2132604897839	-33.054131270076	-0.0216333345661677	-6.04951127231029	
3247500	-0.296184247253695	134.792176846044	-45.5883422226389	-132.656253434659	-45.3425757521278	-132.91980070544	0.0181209785564884	-5.90552878918499	
3497000	-0.162484984368459	131.033496069261	-56.7192073159691	179.842326976444	-57.0136321835434	178.084635643994	0.0409486855860672	-5.96308051959061	
3746500	-0.0354578538535022	127.893304190097	-54.9174804212184	177.737562627827	-54.6518511133322	178.172077449713	-0.0828596114627698	-6.24952765580094	
3996000	0.00170068620892099	125.120557884079	-53.5931124375089	127.483904677518	-53.2862738854903	128.86636593605	-0.213173909353364	-7.25473050291274	
4245500	-0.0810942706718205	122.254503845212	-67.6477053835608	52.9551183522782	-65.8897397036268	31.315437868372	-0.229467924413744	-7.77072539850647	
4495000	-0.211640967488449	118.868815520983	-66.1365811701504	144.930063005459	-66.4073566663565	148.543519684695	-0.113172837406109	-8.88820136563812	
4744500	-0.284021775694496	114.974155894432	-55.6912018535936	133.03749121888	-55.3419248680969	132.632494562138	0.0147216294781799	-9.43037410198204	
4994000	-0.262941317040927	112.163524570732	-49.5163131983517	-4.38109986642827	-49.2860744036109	-4.40205719800554	0.0698175489528415	-9.45438888078166	
5243500	-0.0842842138012641	108.589378057887	-59.6117771480487	-34.733554981389	-59.5743070644006	-32.3641715942636	0.0165847706355931	-9.60996586684739	
5493000	-0.00299622356508886	105.839620076059	-63.7337664013207	-43.1105694489381	-63.8917874213462	-44.9953137374397	-0.114164861435199	-10.1215345704417	
5742500	-0.0528841634372248	103.150490960028	-66.8107964453321	-52.9404643314083	-66.7495833397529	-49.2740032755141	-0.220382607897361	-11.1987905375753	
5992000	-0.215294159501102	99.8634307652084	-65.1927418198754	60.527035325745	-65.157169038499	64.2295526944376	-0.245164792749149	-12.5203732237557	
6241500	-0.364844003953516	97.6132851009443	-47.0658826941587	-80.7429622421192	-46.9692691576972	-80.0606376191597	-0.265679224605976	-13.2427426369694	
6491000	-0.275478148454709	93.629600668126	-56.7709852646777	-176.494193485181	-56.7595959094564	-177.960003671608	-0.0321170456005958	-11.959050249028	
6740500	-0.150879264781935	90.306421852244	-68.0678180733413	-119.600004775678	-68.0258418879639	-116.442079358534	0.053461782314007	-12.7705374092448	
6990000	-0.0322294328953127	87.6345788015688	-54.868763381039	-142.194658617339	-54.8694628474664	-138.116494860416	-0.24747324857604	-12.7392824955589	
7239500	-0.0256180730159198	85.3282570319739	-57.695519282267	162.200238774984	-57.4637316846592	162.403438815415	-0.23784121414404	-12.2103676918676	
7489000	-0.13333386373594	82.7424356683868	-60.6214977065235	139.395509967517	-60.1644900108965	142.17535917592	-0.247497730586177	-13.437071821866	
7738500	-0.264463457442922	79.6347763413045	-61.4312402303604	129.40200112998	-61.0149851828875	131.210839657883	-0.183942215481722	-14.7003062732362	
7988000	-0.304013347351493	76.2216670402056	-61.2187948708889	118.902051793677	-60.8133228763779	117.91946950439	-0.0499738192180119	-15.5167749068644	
8237500	-0.226041362299435	72.9209438048776	-58.9757320111081	119.768189195769	-58.3262064510239	119.234760469805	0.0523561856949659	-15.7786682262673	
8487000	-0.0936917942430291	70.2116504935996	-55.5032812406132	99.0467203343107	-55.5034233251533	97.9054074209184	0.0471308787571339	-15.8832511503985	
8736500	-0.0421487360401727	68.0139538886728	-50.9695766028523	71.1455031799125	-50.8572383245965	69.2974566626493	-0.0801559938195997	-16.3047393001359	
8986000	-0.121353057412428	66.0214080266167	-47.1145970064498	12.8819325136717	-47.0266456210443	13.5237259119243	-0.252212648804435	-17.1675478593505	
9235500	-0.235443036057115	63.4312109180625	-48.1313981242207	-39.7962501238981	-48.1430468928037	-40.6663855289506	-0.324377693514152	-18.4058629192166	
9485000	-0.319868243538345	60.1955133535449	-48.682911560499	-76.9906481605574	-48.7581237655367	-75.9529044654577	-0.32341734322514	-19.6516562512601	
9734500	-0.285611309297038	56.905942361921	-48.2171603170787	-119.511127407526	-48.0525542387312	-119.347371748704	-0.354436834605487	-19.6592316228399	
9984000	-0.15389068632237	54.0863254593285	-49.078294885693	-171.75592711615	-49.0709346612517	-171.475317179853	-0.237694496908027	-18.0273015613683	
10233500	-0.0397622627123356	51.8725405871699	-51.29440362289	146.005536718596	-51.3635759961752	146.308367209717	-0.101564565798543	-17.7719336482278	
10483000	-0.0432407330637098	49.9289029617532	-51.759333981121	102.002902120764	-51.7684322307077	103.265587864869	-0.184674142897255	-18.6292302337828	
10732500	-0.16411119779493	47.6783709486608	-53.5797993240544	25.1160876930964	-53.4693040707752	23.4694230148642	-0.372850713501937	-19.243602610566	
10982000	-0.296636695828371	44.8181520079352	-62.3928392893287	-22.2225446710253	-62.1352059734766	-25.1193752672858	-0.29442970332882	-20.3534139212786	
11231500	-0.326235374215364	41.5780601627438	-65.6447282229178	-20.7103194694002	-66.4051512619579	-32.9956209466586	-0.192103800591483	-21.6125964944678	
11481000	-0.228860308292984	38.5772159274352	-64.246856535494	-31.7315137052124	-65.9019442571378	-35.798094321	-0.0629630436055507	-22.3180630636648	
11730500	-0.0899073000957383	36.2148193147744	-58.7659944721754	-102.314781906068	-59.3804472795802	-104.633012709199	-0.168838119909072	-22.5444086559214	
11980000	-0.0250945930101085	34.3271553527698	-66.5689528109486	-129.10636664372	-66.9241121098035	-128.721151402454	-0.118983616127061	-21.1883800162758	
12229500	-0.0989189316783463	32.4000238854708	-61.5488743360303	-141.648731950589	-61.2792306103125	-139.793149725786	-0.226790718940323	-22.2779262971468	
12479000	-0.246777771118726	29.8784545450051	-63.2991818534442	151.726850686885	-64.5113551549227	155.953041542808	-0.34355775991285	-23.1666294196636	
12728500	-0.347515989863592	26.7541445712466	-68.5213425163471	169.206663519579	-71.0194845920366	169.969319182468	-0.29407445927673	-24.7982046320601	
12978000	-0.305988650550243	23.4970849527616	-66.0508929912071	178.351443150883	-64.8845016456634	172.632505238272	-0.207752423068254	-26.0525791859114	
13227500	-0.171436174931277	20.7180576087173	-62.1434736439786	160.394919817365	-61.8962129620608	163.015892605163	-0.17522240243734	-26.6515957464351	
13477000	-0.0575987541091357	18.5429056602879	-59.3448866545837	145.245614679484	-59.7875350180883	144.703720439977	-0.329085642161463	-26.4303587279227	
13726500	-0.0697394654715457	16.5630776261038	-56.5000244147938	121.828515440939	-56.6096009843273	120.368201299018	-0.568867359907421	-25.1188861239956	
13976000	-0.204844715767927	14.0965805135126	-56.0349579468397	92.0297931988995	-55.8239403456811	93.419897970385	-0.621077754883898	-24.1884951648826	
14225500	-0.358154331991084	10.7901147007956	-55.4730894541635	71.4724063972998	-55.3877605214786	72.5593051193745	-0.53107928838915	-24.8742368498022	
14475000	-0.407034055300361	6.84856633073147	-54.7793364355767	56.9968805168335	-54.6303241140482	57.9756842143315	-0.374657824052907	-26.1648036553719	
14724500	-0.330807676231429	2.82461366883838	-53.1357746701565	45.9065458145966	-53.2964742170764	45.0178911366688	-0.176894379863072	-27.104209416554	
14974000	-0.24628485029321	-1.06100395587135	-51.3924102950139	31.4265299197058	-51.4270574449076	30.1545209988716	-0.0469024688622804	-27.4633807088345	
15223500	-0.304969640913561	-5.30078558769341	-50.320090383746	26.3896818917775	-50.2728395556741	26.0071206799971	-0.0400749505727987	-27.6479761539287	
15473000	-0.697305074511327	-11.8510475324946	-45.0582427495408	13.8327174630598	-45.1033828009882	13.3682144318609	-0.172700840170478	-28.2463843146002	
15722500	-1.83081143227287	-23.8823790215676	-38.5659488625925	-9.93571014836134	-38.6038655781239	-10.1542621414296	-0.358356520057622	-29.5765199712285	
15972000	-6.84932970286703	-43.9400440418816	-30.3561749474687	-65.6040135292925	-30.359843953225	-65.9051854004541	-0.579068995135664	-31.1302711715723	
16221500	-8.52343372177142	44.3578795198655	-29.5082167024036	-175.459280680811	-29.4553962891178	-175.789964171858	-0.54797300733063	-30.2728715078002	
16471000	-2.2317040513276	26.1158964764026	-38.815307435644	125.358975347271	-38.8317163044415	125.369102339534	-0.209721732697232	-31.2607509550911	
16720500	-0.936274978485678	14.6298823873536	-45.2163292610056	120.352879599456	-45.1599862363078	120.02222341795	-0.165227536993379	-32.0577547724148	
16970000	-0.505824645427596	8.51791873703015	-45.9917199753113	119.430815657161	-45.9242792890361	118.531295951958	-0.353816430528953	-32.3110770142993	
17219500	-0.426847798572492	4.19047443672069	-45.2319135307985	99.4525806404193	-45.3356687589947	98.4105513746674	-0.675150407897671	-32.1678495236778	
17469000	-0.493248199334291	0.0962964554164394	-46.3533861992886	68.7877926898482	-46.2895869329107	67.8411246830182	-0.878342195128746	-31.6472092498466	
17718500	-0.515038551436137	-4.03410501891368	-48.0286447572779	44.377213212285	-48.0099500824013	44.1582193329862	-0.783506355758337	-31.7309834706284	
17968000	-0.410313253415972	-7.79193564805249	-49.9661414296032	25.7000838944429	-49.9459489114308	25.5845779223915	-0.526933407950765	-32.3368425312492	
18217500	-0.231626448034687	-10.6505879168725	-51.782250178611	12.0225510081905	-51.83307765724	10.5870898235082	-0.278089735070073	-32.7540309172698	
18467000	-0.114717332048914	-12.6620534703734	-53.1833889125714	-0.698258829294884	-53.4720244040116	-1.80203921303294	-0.157120313260076	-32.8569997015674	
18716500	-0.143083628051046	-14.4129858144653	-54.4766540199304	-13.0827165180201	-54.179853581062	-12.7947114332331	-0.197441128028491	-33.0991020573198	
18966000	-0.274292163908605	-16.5611945255836	-55.0256802804375	-23.8564288080192	-54.9354014305609	-24.7052949142639	-0.334462309442706	-33.8922222878707	
19215500	-0.395818620945109	-19.3424451831053	-55.2799259415635	-34.5322365767896	-55.2117999842942	-34.665171300006	-0.445242898039236	-35.3276024621746	
19465000	-0.391122115869409	-22.3893524620259	-55.2662616875577	-42.5547990967159	-55.0985905462533	-43.5480719059658	-0.451206627320207	-36.9497415379679	
19714500	-0.258764863606387	-25.011518633614	-54.8053193571854	-54.6235303344595	-54.6509186640985	-55.383915928985	-0.380660591867507	-38.1655816481302	
19964000	-0.108007305480263	-26.8625675931044	-54.1808290659257	-69.1001691565252	-54.0292516960326	-72.0247032384723	-0.359144602117066	-38.5315343423572	
20213500	-0.0692844944067144	-28.2017782875376	-53.649840808666	-91.0945713534016	-53.3935684975905	-91.7054582020927	-0.488953161036477	-38.0971472453456	
20463000	-0.166467769875043	-29.7220151924867	-53.1884903969889	-111.463051351196	-53.2561634845974	-110.679024588883	-0.705046401954492	-37.1560730614293	
20712500	-0.319050400455621	-31.8998509193146	-52.8995238730126	-133.652270566543	-53.1053335327165	-135.197697138318	-0.833138154932589	-36.6940186769643	
20962000	-0.395422363446161	-34.6970576975134	-54.0609331605582	-158.799350881533	-53.6997234496233	-158.329398581157	-0.799290455297894	-37.5071797780581	
21211500	-0.333898775940526	-37.4827169589798	-55.9866819506643	-175.235536424387	-55.5013679910148	-175.955031166793	-0.751357805546365	-38.8919250221508	
21461000	-0.177585468084952	-39.6749077203204	-55.798849589354	175.219519699454	-55.7914549652925	173.598183351932	-0.594705463939318	-38.6068261909289	
21710500	-0.0727233103993177	-41.164354033259	-55.8571116676686	156.197643000641	-55.838789831592	156.325633642528	-0.347643972079032	-38.3497151496718	
21960000	-0.114529624533782	-42.5011230941207	-56.4959960901096	153.787522330778	-56.829644020144	152.528307252588	-0.275274571682981	-38.3171565081055	
22209500	-0.301897476071848	-44.377974805584	-51.8854549491147	146.270154706359	-52.082012660132	144.141875298608	-0.350788853390606	-38.8944040177289	
22459000	-0.599523677289281	-45.6843323529566	-46.8549373128812	67.8657624473721	-46.8544045965609	67.3912530788727	-0.481361609552137	-40.1949806911319	
22708500	-0.385945885836119	-48.2875736802214	-57.123460821105	-2.80613310491358	-57.3020828455631	-5.9589895710188	-0.568499960093866	-42.0248938805166	
22958000	-0.248457944391986	-51.1222179317224	-70.7009508079784	4.36690106395033	-70.3410490317165	-3.64525687267244	-0.596407998959718	-43.441387418105	
23207500	-0.0927551536440946	-53.026728388569	-68.6849121028528	43.7924566461917	-69.8106727045931	43.9364729927221	-0.546548829237503	-43.1678016642678	
23457000	-0.0392750581884891	-54.3241434652473	-77.0281458845929	43.9736702287278	-79.4143729820955	43.3177283641496	-0.36362484822019	-42.9162411991946	
23706500	-0.129250321118276	-55.7407338678299	-69.5414984070752	125.406117050771	-70.3178942354538	121.203408688739	-0.46769293458275	-43.3635050095179	
23956000	-0.282510266949357	-57.8257506279415	-62.5912905841949	94.720387664773	-62.5003509353543	94.9449184901078	-0.76234424010432	-43.5967361681159	
24205500	-0.37249087274656	-60.5687641787053	-59.7296377866179	54.0882230620105	-59.5478467845047	48.0381117879461	-0.962995415365275	-43.7114132057972	
24455000	-0.32641365943841	-63.4005046074774	-62.2071647356608	5.21823740018094	-62.1741540127556	5.86980248330666	-0.957056585046795	-44.3598610997497	
24704500	-0.178421882445584	-65.6855576718117	-73.6465538968759	-17.0625445578218	-75.621086705997	-17.6242244036825	-0.795336890340273	-44.6524200497614	
24954000	-0.0743670405056972	-67.2394514092808	-63.8049396007292	91.696327108194	-64.5817619573058	86.8098183362209	-0.579240935481163	-44.5990091983474	
25203500	-0.115344367066041	-68.5707035006134	-56.8351005220178	57.958241352545	-57.2710656795963	53.810118237465	-0.471495431477216	-44.3704485884685	
25453000	-0.298098918458465	-70.2695765929734	-53.7708341104841	2.04122377584068	-54.4728682918518	1.07770826293112	-0.544160774864731	-44.0804543036812	
25702500	-0.479555667425975	-72.5772366676296	-56.6492986818022	-49.330925223552	-56.6857109195955	-45.8851737627004	-0.619933396040549	-44.3435748506896	
25952000	-0.55404031051875	-75.263405441236	-62.4782422236798	-62.8171055227676	-63.0210698528784	-64.01664570799	-0.659289045080683	-45.7810307493354	
26201500	-0.476353436936557	-77.670723923292	-65.0110572823372	-17.4841666453215	-65.699077631698	-20.3200996031381	-0.617864964415124	-47.5217452887904	
26451000	-0.352060242289749	-79.176315696359	-58.3332154773997	-5.2091004753732	-58.8647078642566	-6.17371039501638	-0.502510327492432	-48.7687102973679	
26700500	-0.295619125571308	-79.9628522779643	-54.1417670265483	-31.1074454528724	-53.9312378385163	-30.3857410181539	-0.425783551186905	-49.2558228686148	
26950000	-0.348939953406099	-80.803490828216	-51.5699391065165	-63.466041473898	-51.9046799248263	-65.2495209111662	-0.499816383165114	-49.2153484233459	
27199500	-0.46545756702098	-82.5569084490961	-50.5308324151117	-93.8913995870952	-50.5663128729794	-95.0486606199087	-0.733219151154752	-49.1098264749109	
27449000	-0.538586502215879	-85.179904748437	-50.454033276483	-120.696204418463	-50.7609879788086	-122.752554276716	-0.991247976661551	-49.2731054464769	
27698500	-0.47475331871317	-88.0567703380248	-50.9368058582162	-144.210969958179	-51.0286793948049	-147.216456599434	-1.11662988333763	-49.6671151619373	
27948000	-0.312580544361485	-90.4476481430746	-52.5414335013002	-161.175978041299	-52.4742936187265	-163.287436642944	-1.02419879639082	-50.083393397667	
28197500	-0.183702184130797	-92.0050251285194	-50.3998050496477	-165.933815972405	-50.3939448533427	-167.380687458456	-0.785234330969204	-50.1226726019053	
28447000	-0.168500178975659	-93.214792814155	-50.6857877118902	160.815669690257	-50.5425214598006	159.523725295965	-0.566966172039644	-49.9582625680723	
28696500	-0.294710131549136	-94.890814135122	-51.6339142352426	143.202026694456	-51.5952457603967	141.485699574264	-0.515099418007242	-49.7696907120811	
28946000	-0.43484279417471	-97.2950714768756	-52.2926783407959	130.477327558206	-52.2665416274981	129.762885426699	-0.598183171898418	-50.149329875388	
29195500	-0.472547144427751	-100.240055645765	-52.7762003101076	118.033488490128	-52.8089487651474	117.228863597803	-0.720647819171715	-51.2950789098097	
29445000	-0.370302395405633	-103.032969166589	-52.6927359514298	105.843272267336	-52.5371000112966	106.297181559818	-0.762425178186351	-52.9615815221789	
29694500	-0.211201518416886	-105.134760991315	-52.2034483659601	94.7501040903523	-52.1808497252701	95.5373502998251	-0.69692073949835	-54.3765508369542	
29944000	-0.137204465832275	-106.550857329818	-51.3540628363077	83.6575791356773	-51.3732754667386	82.54285833037	-0.597469076273194	-54.9913744374394	
30193500	-0.220203742180363	-107.982385409643	-50.6832469411765	72.7389934226202	-50.6247702543534	70.5376296814488	-0.58984140746689	-54.8177007584426	
30443000	-0.386766333783383	-110.115391380689	-49.539744708039	58.8001725588757	-49.5964459027022	58.6565475157504	-0.74719445746499	-54.3242585543931	
30692500	-0.509144194581472	-112.998719071365	-48.4082228725236	41.4947429696596	-48.2162580231758	40.372679142071	-0.976125974622992	-54.1178637806756	
30942000	-0.488229686928657	-116.070077966413	-47.0856614710589	21.960859543257	-47.0239319346687	21.0131328722578	-1.13536952465845	-54.5180343119595	
31191500	-0.344311914047067	-118.666989019323	-46.5866532034576	-1.85016406706508	-46.6493583715081	-2.45062806078963	-1.12813876325871	-55.3137371683068	
31441000	-0.199073735973075	-120.565415875331	-47.087893205908	-21.3454759855996	-46.9666589231596	-21.6233869424981	-0.947247501648627	-55.932676230856	
31690500	-0.208942542818035	-122.264345626697	-47.8471757960475	-31.8451310807535	-47.5829630445803	-34.8226118747181	-0.722795523956633	-55.9661576878289	
31940000	-0.401368071413315	-124.252029640861	-46.3096385981255	-42.7617128760769	-46.1252611394509	-45.0899531885059	-0.609807982416939	-55.685252910527	
32189500	-0.584879735623991	-127.040209975589	-45.577391197087	-61.3159874918986	-45.5427906938678	-62.5894865078674	-0.661542364120292	-55.6292980042213	
32439000	-0.666883259550976	-130.760819946597	-44.9775350184464	-76.3467446990811	-44.8612650332781	-77.1506820718616	-0.794183955656468	-56.3713867187068	
32688500	-0.638080415340065	-134.545242230745	-43.8475971617733	-89.2053017580184	-43.7961788794869	-90.448197760696	-0.899917706989202	-57.7790883766492	
32938000	-0.606556727810999	-137.862528195431	-42.1864835721976	-104.073222472029	-42.1649841353351	-105.038317914307	-0.904391556178904	-59.3985048902787	
33187500	-0.780669693414318	-140.875312251724	-40.2653883517487	-122.763835438812	-40.2476622830797	-124.182685434043	-0.775332468059331	-60.2235996979235	
33437000	-1.40049854329926	-144.002667594437	-37.8647399025877	-145.820920202822	-37.9082091985699	-146.886144213933	-0.685084921962785	-60.3928939499038	
