!Keysight Technologies N9923A: A.12.45
!Date: Friday, 08 August 2025 17:43:43
!Timezone: (UTC+08:00) Kuala Lumpur, Singapore
!Model: N9923A
!Serial: MY61181427
!GPS Latitude: 
!GPS Longitude: 
!GPS TimeStamp: 0001-01-01 00:00:00Z
!GPS Seconds Since Last Read: 0
!CHECKSUM:0259454914
!Correction: S11(ON U)S21(ON U)S12(ON U)S22(ON U)
!S2P File: Measurements:S11,S21,S12,S22:
# Hz S DB R 50
2000000	-0.0840694567102741	151.414210838788	-80.7423615942875	-138.023525365151	-78.2281278646275	-160.832096886538	-0.0435346508350913	-3.48640247848694	
2249500	0.00381704692600369	148.280754386075	-80.4823718031134	153.963990302448	-76.9195214529656	129.804674615322	-0.146065148070033	-4.09179456061658	
2499000	-0.00711849646706834	145.285063699867	-69.5609354295861	137.190809744711	-68.5512289676635	141.137215018659	-0.189410950293861	-5.00869106509638	
2748500	-0.121983648125602	142.11502034843	-48.0753504371383	40.8883029743837	-47.8408124660086	41.0032007616595	-0.194583803708438	-5.61001938740613	
2998000	-0.237273453634816	138.315949733791	-69.0256959485222	49.4263178338202	-69.2933548142	58.0478043760927	-0.0266192943529421	-6.24737794830391	
3247500	-0.231882623685949	134.802840628978	-58.813308789649	-22.2876570774287	-58.9163929917963	-24.3011595350671	0.0453158247419304	-6.37936257303213	
3497000	-0.142159682847377	131.066201719086	-58.1851800065273	-35.9755398433507	-58.3505402046333	-35.9834149603458	0.0197788373188868	-6.48528510320441	
3746500	-0.0358768989083346	127.911218875175	-54.4662169752881	-49.628668462471	-54.1675965746424	-50.3371040062464	-0.0903262750609352	-6.84948322331972	
3996000	-0.0139353914799181	125.054817447208	-46.7728455465089	-83.1473709214695	-46.5920336820592	-82.2812127600584	-0.266957229252667	-7.75188623342077	
4245500	-0.0920922637734774	122.229679326118	-45.0597582110587	-167.613443542979	-45.0408055832551	-168.667241017589	-0.271162751424949	-7.48797758884382	
4495000	-0.197070352665768	118.868635820333	-48.1018103514465	157.175667283524	-47.9891934802773	156.309970845791	-0.111621078277239	-8.55196506521489	
4744500	-0.253795832521307	115.122884456377	-46.0514137410338	135.50401125029	-46.053559542923	135.415378167923	0.0049559715248544	-9.20902883149093	
4994000	-0.273731542219343	111.847894643842	-39.1974216370525	50.1590740329626	-39.158183144484	49.81327866475	-0.0551833756787912	-9.13676672405131	
5243500	-0.0843315988948625	108.66522165347	-50.0492049937897	-17.8208004945112	-50.1049502949687	-19.1650453371105	-0.002973421515501	-8.99326092927744	
5493000	-0.0123652728285908	105.846983747554	-55.1642472572838	-40.7459654973494	-55.3164160807465	-39.5110336432885	-0.104013837566631	-9.5545669440653	
5742500	-0.0584230444500816	103.073672667147	-56.1925282275174	-55.5223004135394	-55.7303303490996	-50.8890552294237	-0.181345792897431	-10.5435999838646	
5992000	-0.233082913793052	99.7522897181547	-46.7273042116564	-98.8505418459959	-46.3693527569089	-99.9924412633363	-0.199268626323237	-11.8131537452338	
6241500	-0.361798806726988	97.4400080893064	-40.596374524768	45.3546290701824	-40.5189917888264	44.5375682026426	-0.181192012968349	-11.9870344366852	
6491000	-0.247726302654012	93.6952313668581	-57.292155014569	-34.4346049317697	-57.344941189703	-32.225169593508	0.0206959197896292	-12.3412355935623	
6740500	-0.138228130285289	90.4166155755002	-61.8243717129981	-46.7173664268801	-61.4110492388866	-44.8050423694358	0.0515493761739333	-12.5558295707576	
6990000	-0.0353904458790683	87.7075556752494	-62.542367866212	-54.9624624347344	-62.894256555965	-52.890341246362	-0.0230135110612194	-12.8645831692208	
7239500	-0.0318614133385654	85.3130809951073	-61.4420011004669	-59.5532420611719	-61.2798092278543	-62.2070496692973	-0.142267978349902	-13.6256584458516	
7489000	-0.127619337159671	82.6666056758412	-58.5074011286346	-68.3530625449027	-58.4280629280551	-67.4994939895234	-0.227673455225073	-14.9238701590811	
7738500	-0.242238514166988	79.5738904463235	-52.5990996138726	-94.9335581471736	-52.674743496351	-95.2532495742586	-0.355410147645613	-16.6655334758126	
7988000	-0.275223797655324	76.2436537363674	-55.8945406833551	166.536021804691	-56.3256454453275	165.654147261706	-0.189104653658919	-14.4144752223549	
8237500	-0.208883575538071	72.9977525566123	-58.5595034293021	-160.385530286906	-58.9897989642933	-159.810526233683	-0.00725507887546134	-15.5431606860376	
8487000	-0.0935742538055613	70.2822995586215	-59.0656128916644	-159.67770502636	-59.8501660516686	-163.469853092676	0.000261905172233378	-15.8924832190012	
8736500	-0.0502603968379222	68.0153413069145	-53.8663954488844	-172.001965852228	-53.7416300369539	-170.228091592577	-0.125331526079757	-16.4548074141374	
8986000	-0.117209650888951	65.9219116504621	-46.0295763547406	143.437424834153	-45.958080581717	143.659256716902	-0.353057259845978	-17.3289339213337	
9235500	-0.222412500049956	63.2800736110722	-44.4853132499177	66.0955618776283	-44.3722315455768	65.7453617853579	-0.512115724485858	-17.3816419792762	
9485000	-0.294551374491583	60.1727757966382	-47.5700482945898	6.30270585075555	-47.5859224412161	5.19210599148628	-0.315757961635041	-17.3221556503181	
9734500	-0.259914159094332	56.9868045246002	-50.931605571506	-30.5518311896025	-50.8094082357344	-31.3694051869328	-0.0983019592907068	-18.0889719617602	
9984000	-0.143199499951482	54.1745148618446	-51.2084035303037	-65.682774846753	-51.0553634741458	-65.5355945043021	-0.0212290327977131	-18.654376019595	
10233500	-0.0478838882453489	51.9215080525593	-50.599578762147	-132.721294713417	-50.4632333271288	-132.714548711925	-0.17199114192103	-18.4383616597687	
10483000	-0.0485223708234365	49.9147020063763	-57.3483824599224	164.237740917126	-57.0940351916986	164.547742228707	-0.182300511585688	-18.1545855148841	
10732500	-0.15286468373085	47.5913672549436	-63.6455815801861	137.696360779281	-63.5165417947517	129.06353587597	-0.228669915664685	-19.2385002615642	
10982000	-0.269933760376719	44.7601042452985	-66.8583268844754	103.955871200043	-66.4681746412311	113.774605320755	-0.223578751319614	-20.5956115061735	
11231500	-0.296561937676484	41.6161969621891	-66.6251767851711	102.016239020109	-65.8824008564538	100.584022182725	-0.136023464891177	-21.7407006641451	
11481000	-0.212120248676408	38.6757618737342	-65.4189857974441	106.731044726876	-65.2651801443228	97.956773919202	-0.033200457966947	-22.4936382953222	
11730500	-0.0911102052105798	36.3009106249079	-60.3543970757069	78.4082367790156	-60.3963908563765	74.1200155866389	-0.0355949782671351	-22.9649992539706	
11980000	-0.0345119421289922	34.3244274446561	-57.7797612634782	24.9265655960664	-57.9329261754372	26.6031156987013	-0.247562904325997	-23.200593090237	
12229500	-0.0986601150000396	32.3193731416381	-65.5708998948018	-23.3233834124976	-65.2067328492285	-26.4809081780407	-0.436503881939292	-23.6346157971264	
12479000	-0.228722202575162	29.7853694057835	-61.0554650433413	-15.282596626191	-60.4005991658636	-13.0174485771516	-0.725799686186868	-21.7501289124725	
12728500	-0.316499694810157	26.736825735764	-63.5873202375113	-38.3053824545985	-63.4520466985685	-39.7613167239231	-0.374871095915816	-22.9322498450528	
12978000	-0.280430147352894	23.5693078829515	-65.417653814679	-23.5946371191051	-64.5259531782483	-27.7891917054618	-0.218340992327269	-24.2784591628912	
13227500	-0.16386544904258	20.8133941414976	-61.7485537760809	-29.4994657635516	-61.4589565007862	-32.619979497067	-0.088616477201531	-24.7825834326346	
13477000	-0.0647560112265644	18.573119182342	-59.9939639462583	-46.2634603208758	-60.1707882610489	-46.4171621794271	-0.0579237901456233	-25.0815994237742	
13726500	-0.076456432308072	16.4931120524502	-58.7528605934202	-55.9161856504789	-58.7233403876095	-57.557382628944	-0.168364923257863	-25.6413149718501	
13976000	-0.194807778086615	13.9809143425579	-56.593839740326	-63.7892688159031	-56.315268800864	-66.049206066249	-0.377563972398028	-26.549641725145	
14225500	-0.331269949417908	10.7264954026828	-53.6353189768446	-78.1795713243633	-53.7493410085672	-75.5863084701936	-0.59559058085452	-27.3980986553735	
14475000	-0.375872447216845	6.8950290366373	-49.7138534120275	-98.6409621362331	-49.6820141340251	-97.5565464580553	-0.5175454918818	-27.0311949499887	
14724500	-0.314742708761514	2.95687765277568	-48.5774764335865	-138.05956030485	-48.4291573294363	-138.808884858317	-0.521874691696324	-27.9449078279883	
14974000	-0.246994082197863	-0.950090142256012	-49.4620960422154	-158.544269361912	-49.6133514632578	-159.050702379429	-0.34775991790342	-26.3453836807113	
15223500	-0.313308901560334	-5.28615424927669	-48.8506005704969	164.473234200884	-49.040621222697	164.281401741028	-0.170084482784331	-26.249325303794	
15473000	-0.687261537019952	-11.871792188745	-52.2896763049188	168.334102800343	-52.3676398793135	168.232450391952	-0.174194561652826	-27.0650401010794	
15722500	-1.75879982486996	-23.8843125075117	-48.2784513447472	-158.693001869549	-47.9779234577126	-157.345197706565	-0.284835035075341	-28.7696651659836	
15972000	-6.76074479547037	-45.8276123321389	-35.8911191259393	165.148957981434	-35.8545666006291	164.144660023719	-0.548632745487515	-30.5692424576657	
16221500	-8.01878879635346	43.8920131254384	-34.1209849679434	69.6093912904559	-34.0872883088734	68.5839180522534	-0.536814098324049	-29.6459400120141	
16471000	-2.25426073400355	25.8831013040236	-39.2107296343058	18.4104886775976	-39.2796504333197	16.8673243264986	-0.26170875236373	-29.9822334022042	
16720500	-0.964698393804564	14.7949090298883	-42.9874857987448	-10.6783021886947	-43.173691779411	-11.4819042786554	-0.135922903239493	-30.2862140228882	
16970000	-0.513798505949358	8.56448125047667	-46.5875199761157	-37.8579568015467	-46.6701088026324	-37.5251434767726	-0.15304012503489	-30.5566234732968	
17219500	-0.429358305486245	4.07991169622558	-52.0848237520681	-37.5868473606545	-52.1129246873918	-38.2441881778522	-0.258282888131208	-31.2667353032552	
17469000	-0.472709216998202	0.00639645245406903	-51.7269906070509	-36.0793755709663	-51.9930729023456	-36.2129813576644	-0.386042538359647	-32.6422672092528	
17718500	-0.483652338947122	-4.0257243473276	-51.7163409477336	-45.0620446993003	-51.8666537909773	-43.1049951150262	-0.45693803461759	-34.2588587908765	
17968000	-0.388391638867479	-7.69111478987236	-50.7045242741931	-54.0430451290407	-50.6332393694285	-54.7361598779159	-0.505532853950356	-35.6752755211131	
18217500	-0.228533344589706	-10.5584443448009	-49.1789876243632	-81.9468966361313	-49.0094623204235	-81.1048460935637	-0.709065664822326	-35.0750655294275	
18467000	-0.122843551009883	-12.6594798753828	-51.954049969497	-123.062943604322	-51.808937913719	-123.500494521452	-0.416613539761725	-32.0628306506411	
18716500	-0.147373455323982	-14.510034667189	-57.2712710095182	-123.013635619814	-57.210368539816	-121.269055781284	-0.246915760009195	-33.4600433537187	
18966000	-0.259261936361177	-16.6814765268384	-56.8210944839531	-109.315000387665	-56.0501639700863	-106.240140131447	-0.455163199111797	-34.9974195301461	
19215500	-0.363682147773564	-19.3871777545758	-54.6422884796042	-115.204318714203	-54.1571729320106	-115.490094877807	-0.709725792759272	-36.1402794057476	
19465000	-0.359589117403535	-22.3228962254444	-53.5157409171491	-134.881684524316	-53.5734484794733	-134.802960048466	-0.82689882065105	-36.4817586219264	
19714500	-0.245719275525941	-24.8949309215192	-53.5742233406765	-156.073713516845	-53.2961420755798	-157.116971791548	-0.732238565028668	-36.0331302896771	
19964000	-0.11367994012441	-26.806600188007	-54.2811592706813	-178.180007715402	-54.1098930837507	-177.880576217672	-0.522829394721501	-35.2682945149727	
20213500	-0.0795480767633511	-28.2574377442729	-55.3079299197777	165.586987292214	-55.2350101786321	164.722649182131	-0.379063721294406	-34.8163372220175	
20463000	-0.163105881793665	-29.8583050728325	-56.8661488780237	151.098149125058	-56.4897782983794	153.241482022827	-0.373456538741659	-34.951714832194	
20712500	-0.295788041706745	-32.0139670536496	-57.9008009462167	142.102120466549	-57.8637841771225	140.759742840643	-0.440167089918339	-35.7856565201954	
20962000	-0.36104180751237	-34.6951038045553	-60.2368925127947	124.860029388566	-59.7680620809639	124.209330099274	-0.460947823361168	-37.0683286304953	
21211500	-0.30955071614375	-37.3725591778829	-61.4458151158137	131.654704533865	-61.4284860311748	131.975980051786	-0.379246655526262	-38.5106363035086	
21461000	-0.174810444465544	-39.5592859646638	-60.9845620345085	131.109037472576	-60.5970435194397	129.048045154089	-0.248204565055942	-39.607573852269	
21710500	-0.0828309310470602	-41.1434367875071	-59.1741055632175	121.155120678286	-59.690921318018	121.907198947082	-0.18608684667855	-40.0863191073185	
21960000	-0.119844811671227	-42.5962257432527	-60.970346109302	133.17452585995	-60.4248865366638	131.496198064603	-0.238185976251973	-40.1984276557029	
22209500	-0.287460100875422	-44.5218647805294	-52.3242068292303	130.956428856157	-52.4563205440617	129.971572776427	-0.393787479133624	-40.7824818559653	
22459000	-0.566382359679155	-45.8150723896549	-45.4399978720385	48.4122175452785	-45.6116129527163	48.1387062456205	-0.593236451055814	-41.9029263949509	
22708500	-0.354496232341843	-48.2548042421062	-54.9495861829946	-30.5781539533986	-54.9287312280045	-31.9326931034202	-0.773898000732759	-43.1814213465311	
22958000	-0.232054204168932	-51.0150620807904	-66.9073076485272	-42.5462667152332	-66.2384175429345	-44.0744399601568	-0.875843117035229	-43.5747293774601	
23207500	-0.0966961558366212	-52.9601601993771	-67.7906954692929	8.74706996221009	-67.7486270915236	18.1338582791421	-0.768776542111269	-42.1589830501939	
23457000	-0.0489252914031937	-54.3679956466732	-73.0285521039102	-39.9986075013815	-72.5168922480597	-38.7631293551814	-0.426520697833889	-41.9747409323946	
23706500	-0.126925386476463	-55.8733527692609	-69.9146782375729	118.488882148521	-70.5708454191999	117.069907685964	-0.534850767832456	-43.007822817636	
23956000	-0.259358236770354	-57.953810157136	-62.2751794693074	70.9990669959546	-62.0115049148509	69.9421654328592	-0.823023845455761	-42.8211737125461	
24205500	-0.339133448404237	-60.5906251202457	-59.5024798014487	22.6990467747308	-59.4687902657819	23.526322242592	-0.930387308392662	-42.7390940933317	
24455000	-0.30132956483954	-63.3133991241478	-62.4441919964314	-15.9540961549734	-62.9601945818815	-26.1197454181518	-0.900880359014804	-43.3620969027154	
24704500	-0.173835508481398	-65.5738149654528	-70.2281186632164	26.5097043232673	-70.7655361117461	23.1998743154886	-0.733010042818618	-43.6549720755769	
24954000	-0.0843015416253603	-67.222862966264	-61.3139942890296	31.336998967959	-61.08250654723	30.8995179799916	-0.522316987562024	-43.6729985915363	
25203500	-0.121910125383575	-68.6745307830106	-58.8081143971064	-8.23372808912374	-58.6494690694951	-5.14895688299255	-0.378856622668468	-43.5831068682653	
25453000	-0.28506731351082	-70.4351026577577	-58.6873567743077	-42.39220379528	-58.4023271413896	-44.4765737974612	-0.382312981137029	-43.8420003143911	
25702500	-0.44756482009732	-72.6865752644572	-59.4361409324712	-82.7854279754736	-59.3440966161941	-82.686321740789	-0.479346979078755	-44.712138077213	
25952000	-0.520188209476222	-75.2455315693602	-61.8594060614939	-140.773487576137	-62.2610554536369	-136.231247529429	-0.555940332992477	-46.1414289857946	
26201500	-0.458838768828849	-77.5692436281539	-61.4169491471376	140.096538235432	-61.3987294435943	132.702289567898	-0.539843225850069	-47.746043646559	
26451000	-0.356263975941948	-79.1137853701486	-56.0615505752252	65.6901220668251	-55.8928628328101	70.0863728636497	-0.446959949248393	-48.9346182044199	
26700500	-0.308419369329839	-80.0190839259528	-52.3094860276591	22.1044911216127	-52.190397440841	22.7819721637561	-0.381576708995054	-49.5576748874076	
26950000	-0.351560958150698	-80.9720007080976	-50.9306585720894	-16.559804371657	-50.6933661264113	-17.4849624478236	-0.460369173675656	-49.8455134840514	
27199500	-0.447063075534219	-82.7290624283211	-50.043449300652	-49.7645497066465	-49.882355888205	-49.4833663051958	-0.708275019442351	-50.1539257989198	
27449000	-0.505436112862111	-85.2571381095636	-49.4254606181232	-76.4522737634802	-49.554415700725	-78.0779619749443	-1.03387689308923	-50.5031598584548	
27698500	-0.447998021557635	-88.0101570204789	-49.9741318673999	-102.933414110062	-49.777650138268	-103.193690135486	-1.26757471556087	-50.3406794517947	
27948000	-0.307067467673429	-90.3744000717424	-51.784901821813	-124.332463997814	-51.4427672649839	-123.76044769035	-1.19552727567407	-49.6002776649657	
28197500	-0.194525596650029	-92.000810210496	-50.6427735298	-122.76732333589	-50.7476799318805	-124.27231882095	-0.878395557214598	-49.0444712325125	
28447000	-0.177660301197384	-93.3438542708627	-51.2785989858432	-153.737661189603	-51.1674390080375	-153.990399198968	-0.565914894969115	-49.003881969477	
28696500	-0.285139015997728	-95.0866356857668	-52.5585844266242	-165.166272428391	-52.4549319702753	-165.9276031858	-0.459407578043651	-49.3858656884631	
28946000	-0.403294576567238	-97.4442463455078	-53.2591689457948	-170.892795607663	-53.2349564746273	-170.61609558965	-0.525760468254912	-50.3385958367203	
29195500	-0.435823755538558	-100.242073571922	-53.005300035952	-173.96085632232	-53.2285690545198	-174.845269928058	-0.67658245638031	-51.8893193840999	
29445000	-0.349628918871033	-102.911824062268	-52.1140837069401	178.771081864876	-52.0218311847838	178.148282547867	-0.817838551737614	-53.6355028845319	
29694500	-0.212156308850853	-105.019352846772	-50.8061503224466	168.962537311207	-50.8029351454181	167.761843936631	-0.88781652345653	-54.5841830071324	
29944000	-0.14824082400583	-106.551471541264	-49.7619098725466	153.515639633178	-49.8599350484268	151.377091069571	-0.86444753798737	-54.0936213691225	
30193500	-0.221717541445497	-108.088839536047	-49.1289789643324	139.698723131429	-49.2693252843278	138.771648136161	-0.755323972169715	-52.8701044977126	
30443000	-0.367876900674857	-110.25830226779	-48.3856483631712	127.500261848888	-48.6350250452437	126.323037647749	-0.694310309871232	-52.1941162440384	
30692500	-0.476159653596343	-113.069282906165	-47.8165893880615	114.91315337205	-47.8698068609119	114.917017135232	-0.710455361676664	-52.6624686000666	
30942000	-0.460632292963754	-116.011512414689	-47.1592632614792	99.0564078339969	-47.1143792580186	99.9519992979627	-0.768620263689989	-54.1105022534773	
31191500	-0.337960777122148	-118.568948392316	-47.0543549605719	82.7603476286868	-47.0147422515035	82.3037289158051	-0.761798718041394	-55.9824551437199	
31441000	-0.20809103460784	-120.532282690788	-47.4146146184289	71.6670441740096	-47.3316669311164	73.5216128615498	-0.706352836779473	-57.7091770377548	
31690500	-0.21884205479528	-122.350995659952	-46.4909289137301	73.2696888482375	-46.4375638423748	74.5187985736004	-0.767407969526214	-58.5177415127143	
31940000	-0.391419837220993	-124.385196708912	-43.0287776887043	57.7357144487775	-42.872987844809	57.552879781643	-0.983100468699249	-56.9031341291244	
32189500	-0.550542920433233	-127.12089859129	-42.4343503788599	31.3150183220291	-42.4731018393397	31.5073743896586	-0.903366012918343	-54.8885745615675	
32439000	-0.624923427592161	-130.694100624227	-42.596311380044	15.5773171707229	-42.6772681528352	16.0174061300183	-0.844295316870087	-55.6513800567713	
32688500	-0.610955239980823	-134.378872530886	-42.1242981435648	5.29381610330442	-42.0099421791597	5.34391994804591	-0.889774506193157	-57.4031607838055	
32938000	-0.598359353176138	-137.721897896222	-40.6763081051424	-6.929491768632	-40.5295916901994	-7.05269489126325	-0.885167799418446	-59.0909098463299	
33187500	-0.77561562514787	-140.894184927354	-38.7506940283648	-21.4061727719277	-38.6031079440061	-21.0987163774851	-0.823438911464466	-60.1813709509271	
33437000	-1.37674110331449	-144.240073196894	-36.4713239966839	-41.1252048819781	-36.3564516836342	-41.4195009907505	-0.791988713007047	-60.3082091225811	
