!Keysight Technologies N9923A: A.12.45
!Date: Friday, 08 August 2025 17:57:11
!Timezone: (UTC+08:00) Kuala Lumpur, Singapore
!Model: N9923A
!Serial: MY61181427
!GPS Latitude: 
!GPS Longitude: 
!GPS TimeStamp: 0001-01-01 00:00:00Z
!GPS Seconds Since Last Read: 0
!CHECKSUM:0191837588
!Correction: S11(ON U)S21(ON U)S12(ON U)S22(ON U)
!S2P File: Measurements:S11,S21,S12,S22:
# Hz S DB R 50
2000000	-0.0977198373242363	151.265985926756	-80.6052330932188	134.514347269187	-81.994359711099	159.874758595078	-0.0362674470695053	-3.23552665542271	
2249500	0.0135373616857248	148.193447048749	-69.6572418021906	127.256007272608	-70.1121567572565	136.668479278926	-0.168928458211083	-3.84092769402181	
2499000	0.000813264246058756	145.33079191676	-55.5576298569485	73.089165010563	-55.7240008598367	75.3935017504915	-0.290826371067805	-4.71712381011918	
2748500	-0.118616929111496	142.200251744386	-55.9244979747276	-11.5311028574741	-55.8331195845906	-9.04140338792227	-0.158207133230654	-5.32959784544977	
2998000	-0.262327388556159	138.462151073304	-50.7067716319849	-45.5222445197479	-50.4792214496041	-45.552504806203	-0.0255556244441305	-6.01934575846115	
3247500	-0.284923669558704	134.829233320076	-50.8715131127527	-169.744565424793	-50.8073376085096	-170.542082999725	0.0571624283517413	-5.86234714701667	
3497000	-0.169688792491654	130.980127916462	-58.209946476131	169.82583220718	-58.2464953437869	171.106694911256	0.0476414528123962	-5.96198200689414	
3746500	-0.0334266960419764	127.848984678678	-57.9610855415918	168.663038422485	-58.0247153953071	167.874130269438	-0.0724466819112293	-6.29609397393341	
3996000	0.00730520054222196	125.11486106518	-57.8461921412067	149.966873455734	-57.8073102196334	151.331035612532	-0.191104391115663	-7.21905572521787	
4245500	-0.0829960859706874	122.240209330623	-54.7195799864701	140.520826355011	-54.7697144065971	138.284607876258	-0.213767457735476	-8.47703045982845	
4495000	-0.23564471123632	118.765910857669	-46.2809913273369	119.265671768456	-46.2193028918784	118.972875659953	-0.138056392362012	-9.68098594050919	
4744500	-0.319450463366307	115.547464768585	-41.4635272544657	-8.24561583922526	-41.4326479225948	-9.20331433274636	-0.0204987546381475	-9.32814557340433	
4994000	-0.234107593227255	111.652721802608	-47.3877931839803	-45.1017572694744	-47.3422645967846	-44.019930786773	0.0746789859686655	-9.71787981586585	
5243500	-0.0986045658212165	108.374641164749	-44.7503815317176	-79.7373206934445	-44.6408777078527	-79.3027872840009	-0.0522002718454826	-10.0279635901543	
5493000	-0.00968871859384079	105.864752738432	-45.9287729367623	179.330210900206	-45.8484264950068	179.345605178556	-0.192074738789947	-9.13945104446452	
5742500	-0.0531438453395836	103.193850754228	-52.9676694820903	140.992792434059	-52.7984604302476	140.584436645315	-0.219350305443256	-10.4235917432301	
5992000	-0.228706977086727	99.9081807144782	-51.449480753407	99.6975797381772	-50.9718588377606	101.200107052136	-0.220816094939295	-11.7521157011465	
6241500	-0.366591074765849	97.614170777471	-52.5810470598857	-47.3419859710834	-51.7992703111487	-47.5922277215737	-0.0754712918916426	-12.7145850415115	
6491000	-0.29147893626733	93.5937609985134	-53.6319322279192	-141.581303270382	-53.1823598280294	-145.65907854221	-0.123233473712639	-12.4594468586231	
6740500	-0.157652339819886	90.2552545333762	-61.0165792746747	151.402715961169	-61.0524573492165	150.491548609294	0.0671804833943138	-12.2533912350457	
6990000	-0.0300993637239948	87.591985119206	-62.4236670201359	133.407684675941	-62.1851984386421	131.646529269072	-0.0433724036767447	-12.9441530408095	
7239500	-0.0228501468329535	85.32457591793	-66.7019970258232	75.9655231132214	-65.5099798908456	64.619164428754	-0.305491375627243	-12.5540369653423	
7489000	-0.137059549309337	82.764395153124	-70.9396053357951	90.3630213637354	-71.5387324348549	86.9569626166016	-0.258222860469905	-13.7441055463752	
7738500	-0.277661374561511	79.6546421794723	-68.0518254732918	95.30052944521	-68.3273981565878	89.7197842057816	-0.194059690915995	-15.1533771129511	
7988000	-0.320905156119024	76.1984474864913	-65.34811883986	85.1607428750794	-65.8535444583369	95.3140630339843	-0.0577924127052914	-16.0494463739279	
8237500	-0.238156128686076	72.8648918913736	-59.5123296658468	68.6275353714813	-59.5710315262773	64.7370591202879	0.0321050752780627	-16.3724809474744	
8487000	-0.0958563760404935	70.1796834147756	-57.7696523004412	34.2965725295955	-57.7801289123733	35.4235450281988	-0.00815513909067142	-16.4201826529747	
8736500	-0.0359549384879683	68.0386958314748	-52.9409070956267	-8.33554734829915	-53.0988446708345	-10.0451040907029	-0.208413885408957	-16.6504483895248	
8986000	-0.114614410867206	66.0060814508249	-49.9913727163031	-77.3480008389931	-50.1120946831024	-78.1306834099812	-0.467269139301551	-16.828012942993	
9235500	-0.252721172859447	63.4640538213008	-53.6279524141895	-151.212610362032	-53.9171613012053	-151.88207294803	-0.484078254244309	-16.7425983500749	
9485000	-0.34023582681559	60.2442476865485	-59.9773917848817	164.931838339291	-60.9967565089901	163.438844200448	-0.275562243799349	-17.5597565863687	
9734500	-0.300566565995438	56.9122596553132	-65.8699887601931	143.627169467583	-65.4278471532135	147.123113306991	-0.0700470446828097	-18.2770264065038	
9984000	-0.158433335789344	54.0563978228391	-67.8080410477006	133.473794432097	-69.2785252145718	136.400997631211	0.0459424700958317	-18.4900932252965	
10233500	-0.0369516725729428	51.8583307772674	-71.7544375277839	141.673852276834	-72.358511037656	131.44099750137	0.0141838695166191	-18.6140211869942	
10483000	-0.0387939969462135	49.9526722929913	-73.8042198946817	136.272557972956	-75.447790932947	119.002725152653	-0.124859170627791	-19.1698503028373	
10732500	-0.16636529723648	47.7034148625812	-73.8105683035464	100.897378836969	-78.1635832010099	115.074929115059	-0.274660344260675	-20.3996340340644	
10982000	-0.311483865531835	44.8308215023028	-75.0903148243058	-145.628366082265	-71.8748185960535	-148.181566327334	-0.352518203425286	-21.9705111245967	
11231500	-0.34672996672009	41.5488382891282	-59.9200960986138	142.889964117321	-59.5956821631407	140.648863995958	-0.361675707049043	-22.8135031609759	
11481000	-0.240738584916075	38.5456177840289	-58.7072096932858	15.9005160296642	-58.2140271242996	14.88977211093	-0.251049209973431	-22.3800128094156	
11730500	-0.0898805096683117	36.1759618493842	-63.2491322091921	-87.4169331444216	-62.5041065671138	-83.5578049371027	-0.168327345595903	-22.2426773321638	
11980000	-0.0216661183728073	34.3255753658453	-62.8358306603726	-169.164251345992	-63.9564254689237	-168.210192130707	-0.32846767879963	-21.5308071369029	
12229500	-0.0996359145521715	32.4408669225328	-65.4078791729719	133.635128608494	-64.7723191459521	133.412820143941	-0.370669701719713	-21.0801386776487	
12479000	-0.26091453605299	29.9154847875197	-68.1654342141117	101.721112916876	-67.5199089765523	98.5826439766975	-0.370758573710808	-22.2364610796615	
12728500	-0.364327122028772	26.7624152212841	-66.2527015650129	107.870851578279	-65.8348210307652	104.461292715372	-0.310043391931923	-23.9439765985684	
12978000	-0.321479747991549	23.4506713652873	-66.1438907141618	73.9559542415541	-66.1288340855529	73.6400252166961	-0.181956976793574	-24.9360263944942	
13227500	-0.176988851215921	20.6522247410403	-64.2420465265508	86.1983502924357	-64.3473686707205	85.4153474090129	-0.0573081940683563	-25.2837293588418	
13477000	-0.0554469055397625	18.5092986498593	-60.8122866599227	71.2870562096222	-60.4712313041483	68.7167827297405	-0.034142131780862	-25.3695559657088	
13726500	-0.0677411897509705	16.5782310902425	-57.4275599295088	54.3161278914265	-57.3585910525149	52.6217859351243	-0.177277333021069	-25.8042844066547	
13976000	-0.211577092309007	14.1374090369518	-53.3017582444206	32.2975212769454	-53.3523726019505	31.3751985850234	-0.45465383331372	-26.7277799126395	
14225500	-0.37498675174954	10.8190373822389	-49.4961490626865	-3.9330716026396	-49.3690337852811	-3.39002208783028	-0.721414824044094	-26.9981750338195	
14475000	-0.426222385932655	6.83928451431649	-48.0297941043545	-42.4343037286568	-48.0453037965319	-45.0516331874499	-0.570028984879914	-26.5710316986917	
14724500	-0.341505166048199	2.78787343693634	-48.0342340921753	-72.2370196702865	-48.0706897881976	-73.6071425242123	-0.233156512694538	-27.3396830017146	
14974000	-0.245185169145491	-1.0862794990578	-47.8353047430184	-89.396850624058	-47.6285784492109	-89.6513356517299	-0.0769009003651536	-28.2140507151024	
15223500	-0.300409758154914	-5.30838786260215	-43.3102332021889	-121.534797415014	-43.1728457453806	-121.9709507252	-0.204616388417281	-28.6151944128044	
15473000	-0.699475647922448	-11.7881164942887	-42.5619944657947	-158.721481844998	-42.4543319962323	-160.209217487551	-0.497331333585898	-27.624814264879	
15722500	-1.81668213997295	-23.8477272021802	-43.0144289717865	176.143888382844	-42.9396129184775	175.137748595262	-0.471150725814977	-27.5185559531227	
15972000	-6.86742743724456	-46.1312729217301	-40.0470718198077	154.258097376709	-40.0095862820603	153.802118513566	-0.406279490636661	-29.2367023642862	
16221500	-8.0126404977872	44.694400532099	-37.8022958922597	106.318357322901	-37.7815697346815	105.72505512874	-0.298846581000136	-31.0326120571108	
16471000	-2.24081847178017	25.5007209956696	-37.9240294969241	65.6972492868283	-37.8845820975611	65.2521079957229	-0.226043536022217	-32.2614784649464	
16720500	-0.961681396960213	14.4539217182153	-37.5319503731774	20.1796850384923	-37.4948080771479	19.9711893829237	-0.364469088908806	-32.004611007633	
16970000	-0.510695477395533	8.55120410249013	-40.2705489768033	-31.5623163719358	-40.0720993690752	-31.6436022184888	-0.414670752999821	-30.126987322412	
17219500	-0.430991630447098	4.22291319669562	-44.8156467325604	-67.6175027460074	-44.6610871078933	-68.369622137617	-0.41387650058148	-30.2432596193156	
17469000	-0.506977178215865	0.133955243358913	-49.3631389805446	-76.6068956767612	-49.2495911806227	-78.1084965350921	-0.466906236133196	-31.7109825653699	
17718500	-0.533415761789131	-4.04104492509084	-50.9660542098798	-79.4292600703362	-51.1897478257441	-82.5197329368238	-0.495074083971076	-33.6299828364053	
17968000	-0.422822429227277	-7.83029630132307	-51.2352456485113	-90.363865089066	-51.202819720235	-92.0180819080823	-0.461754969850406	-35.0527628146808	
18217500	-0.234285803098518	-10.6909484805815	-50.9550313632113	-108.808664729491	-50.9396858729758	-108.746957983684	-0.450858202050022	-35.1579539413884	
18467000	-0.110448135496822	-12.6581783827195	-50.7762850733373	-133.374622836292	-50.9012619294681	-133.174868822812	-0.474510522974531	-33.888146004833	
18716500	-0.139297294264224	-14.3535349748964	-51.9244346190951	-155.76286248461	-51.7725486988045	-155.911548630157	-0.48085683305355	-32.7229471428599	
18966000	-0.282738894546979	-16.4878333002671	-53.3179932946839	-172.237459707079	-53.2566741134595	-173.666497605204	-0.515290777270728	-32.8785669585511	
19215500	-0.413183074420977	-19.3087115274108	-54.6332494975223	173.425519395081	-54.6229974709869	173.494272527305	-0.538149392915644	-34.1947573765265	
19465000	-0.407719158981772	-22.4083119913988	-55.5537022651201	157.702282069221	-55.3932103864783	159.011311402189	-0.469781071823337	-35.8717900978562	
19714500	-0.268031814268508	-25.0595662736385	-55.1246077088067	148.277351019332	-55.2712794981763	146.617099271181	-0.327576411304134	-37.2064218260901	
19964000	-0.107523776281855	-26.8852383453562	-54.6345896712393	134.787452616126	-54.7179145788183	132.581047355015	-0.234732981340781	-37.7917483677691	
20213500	-0.0668822591350799	-28.1690074536943	-53.839488763438	117.632738321497	-53.8509913815885	115.926259512408	-0.317036417375895	-37.8597956887065	
20463000	-0.170786559120134	-29.6506339543949	-53.3723757523571	94.2022254987088	-53.199107813008	95.1361741395111	-0.589611644859714	-37.6331885011297	
20712500	-0.33384092346872	-31.84163702861	-53.4776538302584	68.5157690526983	-53.303694172804	66.997703911589	-0.858926841279122	-37.0618803179147	
20962000	-0.415180200893232	-34.6982656767374	-54.2809801611217	43.0724567655151	-54.4373629237465	41.216896510653	-0.828653207483301	-37.0860798652649	
21211500	-0.348883632785472	-37.5379220207843	-55.9049064174214	26.0295724614641	-55.5259394713752	23.6476627471622	-0.607426417303132	-38.2744863437888	
21461000	-0.182619230035966	-39.7425295987118	-56.336925671698	15.2463912185645	-56.396061436595	13.3784711967774	-0.372457688245107	-39.4929993107609	
21710500	-0.0704924835905185	-41.189144437434	-56.1288591560667	6.2248043456127	-56.2439675833723	3.61695042129479	-0.258189005803439	-40.0093697115374	
21960000	-0.113348384522911	-42.4659343340111	-53.5022229293467	-10.3941326075705	-53.6282356509212	-10.3488669201208	-0.348590018345286	-40.124510077543	
22209500	-0.311622024747728	-44.3126249710261	-50.1843438334651	-51.0615007064296	-50.1215272977717	-52.7489625271263	-0.601540549881402	-40.0271301842428	
22459000	-0.617784016386965	-45.6395594429184	-49.8161158924326	-139.202218719514	-49.5486320445843	-139.235304343801	-0.791883708621511	-40.0740635004757	
22708500	-0.404280514589239	-48.3069080996364	-69.9921335921823	-174.168064715601	-69.330587904458	-179.127633323611	-0.766718651707503	-40.8528295181604	
22958000	-0.258478472548424	-51.1770024839019	-71.9326741016805	-120.81572993959	-72.8370164411006	-111.700775215667	-0.606352805972187	-42.2113316273639	
23207500	-0.0934170253415222	-53.0625540377667	-75.5086845798001	-80.5517165731059	-75.3067458559455	-83.7977897221586	-0.474641247914048	-43.0593948629215	
23457000	-0.035807528745871	-54.3067649392884	-67.9860160859937	-66.8429785388808	-67.6337220930883	-68.9347661214102	-0.455581979294109	-42.5513586239077	
23706500	-0.132110661630245	-55.6711009797993	-62.5804134840718	-95.1013789592974	-62.8849070742198	-97.0056659707532	-0.455417415836245	-41.783973749313	
23956000	-0.295853793705885	-57.7635185335115	-61.1876733359357	-132.161057836632	-61.139987537951	-132.646284234313	-0.541092772305725	-42.3610504487293	
24205500	-0.391930653763878	-60.5539501646895	-64.6458429653998	-163.953211271388	-63.8925070677722	-168.816826221884	-0.708515967325771	-43.8805307574252	
24455000	-0.34305756900142	-63.4484994101947	-73.2796501231451	149.240800456891	-74.6206399294535	161.298678487729	-0.806451853513383	-45.2566140272191	
24704500	-0.183470618071783	-65.7372351928613	-70.0671363304754	-86.5223278333036	-69.5729668180736	-85.9402862904143	-0.734668381022247	-45.7627898338504	
24954000	-0.0721831186452763	-67.2457700567567	-62.129064588196	-119.670488628731	-62.5466581041341	-117.338119980232	-0.598484286946011	-45.5286589734618	
25203500	-0.113513721632723	-68.5185616518285	-57.9356892898398	-158.81910829785	-58.3686134232861	-157.1127031158	-0.523959088472553	-44.7880375939006	
25453000	-0.304860661714698	-70.1809620008552	-57.1079653064579	159.71965589303	-57.3342905762535	164.787162068113	-0.562875492901758	-44.3457042665353	
25702500	-0.498132925781594	-72.5145696488678	-59.0790855251721	127.330434823751	-58.485612939433	122.914140267929	-0.67564102259069	-44.8206320768787	
25952000	-0.575235244538425	-75.2632182021786	-67.4424158977147	57.0592507131071	-65.9292506089671	74.8834476671294	-0.755426699055199	-46.204361200305	
26201500	-0.487746536521408	-77.7070578968475	-62.6760154125555	-118.909444436222	-63.5358399960432	-108.539637897069	-0.73318071369341	-47.9115649645864	
26451000	-0.351010587328025	-79.2152376546222	-53.1386984615002	-176.848997690545	-53.2629042589284	-175.187411185339	-0.652019084221145	-48.9944007914634	
26700500	-0.292065230827409	-79.9483782162588	-48.4908651131223	130.414343262616	-48.5316944426842	129.744442638212	-0.612153523609705	-48.7536375423059	
26950000	-0.349964085274686	-80.7176188951918	-48.0614775247429	76.947043186393	-48.0150765099079	78.7409573757797	-0.594510221260259	-47.5637674404376	
27199500	-0.475502970333963	-82.4704001992733	-49.8962225480753	41.8673143102861	-49.7445444906242	40.8029429545411	-0.627140526044025	-47.1626256169747	
27449000	-0.556727906574438	-85.1456515285279	-51.7891783157347	16.3580194958342	-51.9306395866899	16.4204199484982	-0.727163369129144	-48.049404117102	
27698500	-0.490513555362095	-88.0775247790894	-53.2486725837429	-4.69389415945944	-52.9674152736528	-4.10136947468379	-0.79891226475533	-49.6775798076687	
27948000	-0.319239175691551	-90.485290699747	-54.1725172891365	-12.5848088435569	-53.7549793267191	-15.5212132960518	-0.764003437249731	-51.2411758174786	
28197500	-0.180513917258216	-91.9870543866083	-52.4363095394092	-15.3540036895187	-52.5714865984825	-15.425609179065	-0.657741626190883	-51.9257023715666	
28447000	-0.164562590249746	-93.1274853509491	-52.1117765856682	-46.1368069465208	-51.8851008993738	-46.7275513942489	-0.5927517849482	-51.6705556868896	
28696500	-0.299415283874286	-94.7564358059297	-52.5602107381814	-68.006816196864	-52.2896483059591	-68.1748771220918	-0.659092432636355	-50.9178193749066	
28946000	-0.451613969115421	-97.1740902397903	-52.6199836783761	-87.0447389282279	-52.4657363626334	-85.6052328982971	-0.802107260027517	-50.5456404555	
29195500	-0.493791477170939	-100.209129684591	-52.8214355470529	-100.252720948205	-52.781914067108	-104.272830324675	-0.926904758343533	-51.0619574203444	
29445000	-0.384594660361038	-103.06484948288	-52.9817772468679	-113.867202682484	-52.9471848042766	-116.931545586882	-0.925085568755763	-52.3197015777509	
29694500	-0.21407219336316	-105.183381253303	-53.7682849194742	-127.712259431973	-53.5967079142364	-130.539161975629	-0.781544558030096	-53.5292156471423	
29944000	-0.133682259162403	-106.557903333224	-53.3667799082271	-142.769707198509	-53.3936709536344	-144.288189690002	-0.595918189717149	-54.0879252295581	
30193500	-0.220026004539414	-107.923970611868	-52.6944491832839	-153.262806573169	-52.7238408468892	-156.163869850038	-0.508555890250672	-54.0126748764912	
30443000	-0.396802928943835	-110.043771111454	-51.831160986926	-164.215716789336	-51.7365659197185	-164.168999101466	-0.607991904596613	-53.7926606975995	
30692500	-0.527875274518121	-112.950214758129	-50.0177750307558	-176.409039408172	-49.8451011479957	-178.343520123452	-0.812599491002774	-54.0598577400941	
30942000	-0.506529242666156	-116.096369829016	-48.2643676050557	162.01926781334	-48.2584994183758	160.66968654786	-0.996043558611193	-55.0304451379867	
31191500	-0.354871746024928	-118.722648441633	-47.4232474898441	136.106419022251	-47.411538049918	135.031828446074	-1.04815215149939	-56.234886495622	
31441000	-0.199324405595098	-120.594916885602	-47.5392333102308	111.957394446032	-47.3506748853176	110.427049857214	-0.931187658798365	-56.9166346538423	
31690500	-0.207926799252806	-122.231143645779	-47.9315363048612	100.489770171508	-47.8893430817265	98.8634018523408	-0.750144686932674	-56.7233842190695	
31940000	-0.408039348331839	-124.174955380812	-45.3829480990975	85.8267998605881	-45.3462045396557	84.4826964602821	-0.666147536695784	-56.1064461589905	
32189500	-0.602928334845853	-126.979809199868	-44.8183082589082	59.3295314617157	-44.8321012170181	57.8459956540932	-0.727958887937124	-55.6980923378711	
32439000	-0.688109356895735	-130.754634176115	-44.5627128366821	38.9025915847054	-44.5188594450935	37.7221031211424	-0.86203675067161	-56.2422179490611	
32688500	-0.649545104086982	-134.613047376772	-43.8796292726224	21.6995877004094	-43.7065917194197	20.483137989208	-0.961732905040546	-57.6028288685054	
32938000	-0.606765920401248	-137.937640661424	-42.6646326463509	4.41602716533728	-42.5154680503152	3.04603066241275	-0.945273321064251	-59.2629587702294	
33187500	-0.775948030666851	-140.921636351442	-40.9009593580534	-14.8508988965199	-40.775027954907	-15.5988972827435	-0.855303698732184	-60.054602818246	
33437000	-1.40991448477182	-144.016157021074	-38.6300612665397	-40.3976382188826	-38.5861501439942	-42.2694431073956	-0.671581872515506	-59.9812539908053	
