!Keysight Technologies N9923A: A.12.45
!Date: Friday, 08 August 2025 17:32:15
!Timezone: (UTC+08:00) Kuala Lumpur, Singapore
!Model: N9923A
!Serial: MY61181427
!GPS Latitude: 
!GPS Longitude: 
!GPS TimeStamp: 0001-01-01 00:00:00Z
!GPS Seconds Since Last Read: 0
!CHECKSUM:1403769527
!Correction: S11(ON U)S21(ON U)S12(ON U)S22(ON U)
!S2P File: Measurements:S11,S21,S12,S22:
# Hz S DB R 50
2000000	-0.0729950445630964	151.534490758871	-75.4918154879975	-165.592385734342	-85.2066304387936	175.952884685849	-0.0432038912601475	-3.46668158221974	
2249500	-0.00634197497677013	148.334182281173	-77.0597107329269	-140.806248003727	-83.6205527241417	174.592847022305	-0.11741540511088	-4.03192692080879	
2499000	-0.0176572699670924	145.232478450583	-75.8607832596472	151.585620239389	-71.1995354330289	171.979388585642	-0.149803679407298	-4.83624636142409	
2748500	-0.0973166929136157	141.920195875789	-66.5809062409998	138.91165428315	-64.9067605052342	132.51502464133	-0.107383455460442	-5.61747750274287	
2998000	-0.242779552664627	138.298511853504	-48.9371456717777	80.0953257818094	-48.4969499078584	81.9645041187908	-0.0435682118062769	-6.13454395275539	
3247500	-0.194507223486406	134.840282044649	-58.0939506284277	-18.3403630275957	-57.6244175408289	-17.3149982717984	0.0224711353280273	-6.28528207850672	
3497000	-0.118344161764175	131.191719138583	-59.848528067518	-25.4733032903111	-59.8547842810308	-31.1750881102759	0.00457349931844791	-6.49357191871553	
3746500	-0.0389829844117968	128.005963864348	-57.6479366389856	-49.3301285093218	-57.2074435137839	-42.6432183700976	-0.0705352899105196	-6.8327249604606	
3996000	-0.0184061330570537	125.128075172891	-70.0984904799449	-166.791704748129	-69.2213310696433	171.322041388243	-0.134312224032123	-7.39385764193342	
4245500	-0.0782964456390339	122.058840216819	-63.0680714007013	-36.5201811986161	-63.9342587726136	-35.809613544454	-0.145566075784681	-8.33247468492838	
4495000	-0.165662506227274	118.663591747742	-57.1782408895204	-45.3053311239023	-56.9922973757734	-43.618974816671	-0.0857901636141195	-9.11700775448471	
4744500	-0.242072901703307	114.737797934105	-45.0279593445449	-63.4845368069402	-45.1971985641556	-64.2866205473571	-0.0167005000454493	-9.65829024604055	
4994000	-0.176198282602586	112.133632821477	-48.9515295622697	151.218264057251	-48.8172308387461	153.729561646956	0.0284082031638349	-9.56490502857313	
5243500	-0.0746367972337975	108.742028373367	-54.8020907386024	139.953461246889	-55.0688287076023	141.338112253883	-0.00858513137825026	-9.861211489448	
5493000	-0.0229537522737914	105.858846977798	-57.1921115683089	133.834851583232	-57.1097251207613	135.567845977113	-0.0948286711895883	-10.3808130113198	
5742500	-0.0623198932873061	102.982755411629	-55.2230560294673	119.849463528986	-55.4107555546104	121.665127890408	-0.170510074781597	-11.3896932343838	
5992000	-0.183283161633284	99.679163020538	-53.4459406171634	-57.3934686648574	-53.7466006739343	-57.9325646919103	-0.154634254529338	-11.5167433017959	
6241500	-0.27991442933561	97.5378257100026	-53.6114234047051	146.658381055368	-53.2790414603987	146.168867682286	-0.0514066683499609	-12.7619922411697	
6491000	-0.21012607845033	93.7436303184308	-53.8663488595278	120.602993428362	-54.1264692774351	121.133471464894	-0.0441900033499151	-13.4988438424458	
6740500	-0.125214675669098	90.5393718974449	-58.1956755948895	16.7178733133623	-58.3125085624461	16.6648042144946	-0.0601968746360552	-12.084556006812	
6990000	-0.0433165041460905	87.7652989175418	-61.3290757987966	108.180877612177	-61.4543486218563	107.988089308559	-0.0543022280051913	-13.3690491390863	
7239500	-0.0434414238164369	85.2534233799845	-55.8987210078242	99.5491148191891	-55.9687386121838	99.2201310923687	-0.190776923307168	-14.5024186256951	
7489000	-0.120210848060702	82.5339337549612	-49.9057408829749	78.2945122641359	-50.1378937535193	76.9610296527349	-0.417419326914632	-15.9591030590312	
7738500	-0.210653379205266	79.4856202501301	-45.795106422096	24.2100423342745	-45.6391423301797	25.2414657035024	-0.740057041600148	-14.616721419602	
7988000	-0.231932608606658	76.2790412815825	-48.6329399323372	-27.6877890054958	-48.7227115244937	-27.8441255147599	-0.27168060087022	-13.3846661501356	
8237500	-0.18237625998048	73.1389828548016	-50.0632229456837	-12.450753083073	-49.9981547557364	-13.0616383617077	-0.136273044132675	-14.5504934095341	
8487000	-0.0920345915066738	70.4188044578639	-48.0346956393012	-53.3687604116875	-47.9952419710854	-53.11527255422	-0.052360264596407	-14.52037888591	
8736500	-0.0563879991987744	68.0340265353888	-46.5933944892576	-79.2491530706483	-46.6925702865842	-80.3783834781458	-0.0939537150969817	-15.1596614470208	
8986000	-0.117029720676964	65.7320133275435	-44.8240307041942	-117.098285930895	-44.7532584998696	-116.805004370954	-0.199115729258084	-16.06264978866	
9235500	-0.20548556837975	63.1563059889402	-45.6583595890196	-165.03819285333	-45.4786403435623	-165.469195917703	-0.252813231200349	-16.8023619069483	
9485000	-0.252150192022949	60.1382605033026	-48.6234197894585	161.976099354415	-48.4252857113419	160.023341888465	-0.177384291608561	-17.5398954477033	
9734500	-0.222536133286978	57.0629376229071	-50.1591517324759	137.204090790191	-50.2797151878239	137.194826717133	-0.0749706760860793	-18.1891273761815	
9984000	-0.130232049523263	54.298985509136	-50.1361418739568	115.292923093701	-49.9474674406994	115.908602923562	-0.03466839466275	-18.6537010346353	
10233500	-0.0570947595301976	51.9593886810998	-48.683637721514	72.2559345170399	-48.5857993035367	71.6125619646144	-0.185325969375316	-18.8874336111796	
10483000	-0.0594923279107729	49.8378009961294	-53.3706487508725	0.352980592977207	-53.065901639446	3.81489422595589	-0.246229642064066	-17.9561060867365	
10732500	-0.141277249998381	47.4501982333297	-61.0872842941864	-34.2029284723855	-61.4486432396202	-33.9521299737196	-0.219817087287593	-18.778167897482	
10982000	-0.233723195367426	44.6642827039908	-70.5213116774522	-52.4940174316163	-68.3745628049525	-20.8922408848195	-0.194979705338723	-19.9124219791464	
11231500	-0.251405017405828	41.6432483129891	-73.4401995160059	-2.36440775994823	-74.9271015781515	2.85774348749824	-0.119457833569265	-20.8314228363141	
11481000	-0.186086841570928	38.796755031209	-71.4231560895676	28.2641155496773	-70.0670365444877	31.0660806174983	-0.0266365081805396	-21.4088846055176	
11730500	-0.0924437044068007	36.3990518972812	-64.8808005626274	-31.4242233205001	-63.7947244104904	-45.8860395406765	0.00475546644633734	-21.6631000721036	
11980000	-0.0470060517534979	34.3103880550501	-61.5779827979386	-87.6587843658657	-62.6016297469168	-89.1723569915741	-0.0914079409214112	-22.1760023119988	
12229500	-0.0983026885850399	32.2046492422003	-66.0578440333019	166.898396182557	-67.3253295349328	163.241953044827	-0.168947232378522	-21.8741327794205	
12479000	-0.202628600074857	29.6655398445744	-80.0244748646135	178.552913628209	-76.7065323010981	-126.201911520258	-0.18775349017969	-23.0003980263388	
12728500	-0.272001218239524	26.724747092721	-76.8501997871243	-125.572959987223	-83.8583466293474	-170.322936165833	-0.165547362337598	-24.194126580903	
12978000	-0.243828111973357	23.6894411486768	-79.2775740040654	-177.294964306914	-85.0713563773407	130.029195772692	-0.100606409637061	-25.0773368628669	
13227500	-0.153982614169093	20.9580020782891	-78.8123269511206	-137.032029447425	-85.5268713666423	-75.6190406467903	-0.0355676413767566	-25.4725043284732	
13477000	-0.0760615010536477	18.6200588759251	-68.4988121755913	-104.5005331024	-71.6638881162984	-116.428572212304	-0.0243714999687292	-25.7185231606772	
13726500	-0.085938050909803	16.3987200847091	-64.7222364519013	-123.084533254004	-65.5047163589093	-120.503922416385	-0.0953200051387301	-26.1774957059051	
13976000	-0.18182571240829	13.8146689107781	-60.9362357247955	-137.45296832147	-61.2391144856605	-143.153290561331	-0.209129543658696	-27.0734725039025	
14225500	-0.292012824083534	10.6263700555809	-61.8346692139339	-152.419826737086	-62.9340604697329	-156.296342192527	-0.263795630704033	-28.3717692269346	
14475000	-0.333521030545447	6.93937731731812	-54.7404128628436	-155.539237812646	-54.755640838499	-152.095818369513	-0.339131049760778	-30.0410086225739	
14724500	-0.293672752245743	3.10655387539502	-46.8868055378191	166.200453279118	-46.8443567636825	165.734664531626	-0.574855840715105	-30.5164470903485	
14974000	-0.251319128205236	-0.823306082360684	-49.6214585817212	95.1720214559213	-49.385124678944	96.16614033158	-0.223964242686814	-28.7467290389302	
15223500	-0.323086774096158	-5.293279998918	-50.168866083803	109.651253034511	-50.2663449555093	111.348036084368	-0.269659918384727	-31.3068012540891	
15473000	-0.677168194802968	-11.9768815069278	-42.9258054519701	128.143643210854	-42.9286995259554	129.283792950414	-0.897372890227102	-33.3583823556177	
15722500	-1.69665012189436	-23.814745793775	-33.4624336561921	78.1949546466273	-33.4649648325353	77.4715104572398	-1.74204369997072	-27.8941234776103	
15972000	-6.50649697232693	-45.8029012041215	-29.7425094265482	3.83085694003751	-29.7772766092217	3.2823834530457	-0.831464986153077	-25.5640291214389	
16221500	-8.06423769464772	45.3266958251688	-32.004590558072	-77.6884180357694	-32.1005280163809	-78.0519050945948	-0.892950848765587	-30.2473278118204	
16471000	-2.18908294815876	26.2538250109917	-36.4583204761531	-110.684953239685	-36.4742668590317	-111.175416345097	-0.426934300413176	-26.6694898499139	
16720500	-0.954759808942388	14.8670586365853	-39.6204143454155	-144.420840659477	-39.5228865998885	-144.711706588046	-0.170874022854804	-28.488143190317	
16970000	-0.534534282527699	8.48632265911594	-42.6803864656164	-176.664948122788	-42.7475304283618	-176.9678578942	-0.198521352336683	-29.9232785634283	
17219500	-0.42347668323638	3.94283531485413	-48.566744410503	148.858599155085	-48.5563023806338	147.984739836254	-0.566345064652917	-31.3227639785745	
17469000	-0.43894170273218	-0.117880890798094	-53.3884919674418	177.625631995885	-53.491733258102	176.167299406029	-0.70279278516783	-28.9126794214061	
17718500	-0.438110453998294	-4.02506238575815	-53.0883195109941	158.778618700048	-53.0513441195024	157.724534826605	-0.4295091877147	-29.9016102638238	
17968000	-0.356610875612088	-7.577520489965	-55.5113241870187	146.290243547762	-55.1678566992	143.538630622444	-0.260559210960844	-31.2530770448742	
18217500	-0.226118397794488	-10.4531658350689	-57.3392129277393	131.961831606743	-57.1154198212402	133.767360736024	-0.128113953071095	-32.0949502312399	
18467000	-0.137527932935389	-12.6646365919768	-58.4223942567384	121.188919178657	-58.3438863140034	125.290175859821	-0.07474715236795	-32.5564768912273	
18716500	-0.149567605518016	-14.6368883065499	-60.6303885631689	118.702110923012	-60.2863641738612	117.984650765861	-0.118907880398634	-33.033303709088	
18966000	-0.236184237820499	-16.8382626816979	-62.5628052387767	115.909587279296	-61.7583904937492	119.382356090205	-0.221379413181186	-33.8217666994757	
19215500	-0.318821281913851	-19.4341780005172	-63.6063712870437	105.730308704207	-64.7954360319204	92.4489464260102	-0.310066595330292	-34.9790204689592	
19465000	-0.317033014418277	-22.2151689316706	-66.3013695842773	90.6019541286577	-66.9143847371724	108.954425318702	-0.332359162030371	-36.2028027943231	
19714500	-0.228624479076508	-24.7263064101045	-65.5869489068603	112.103960827692	-65.5423089676652	113.879894893312	-0.321525847234503	-37.2769435820991	
19964000	-0.123632919142207	-26.729609664416	-62.8953038015122	111.970715754535	-63.4307036430795	110.111860654795	-0.501327665311911	-37.2833473825301	
20213500	-0.0937984389717231	-28.3471315816894	-65.4592983670736	86.4834498059902	-65.2653186073614	87.6830386291601	-0.193655110823913	-34.8747927039286	
20463000	-0.157273997292005	-30.0572959812117	-62.5577996615309	110.524371463041	-62.0993036387703	109.84867948361	-0.174389917345349	-36.0825918341137	
20712500	-0.258659576063045	-32.1791388925017	-65.8293997649474	85.2437730746648	-67.1113858398463	90.3704271196601	-0.214741682323233	-37.5613563190653	
20962000	-0.310340760991033	-34.7036855666065	-65.3808145188976	78.9736797738536	-65.0808410681598	83.1532566695924	-0.298464217742308	-39.3372843878053	
21211500	-0.274899262173461	-37.2332494221175	-62.4685718091364	88.1114376281189	-62.3165325142144	83.1160026161594	-0.355440260023539	-41.0173065563792	
21461000	-0.168650978677934	-39.4140154342373	-61.4257541365742	64.3990298371666	-60.2508340824495	67.216691983134	-0.442558113988608	-42.3198478023399	
21710500	-0.0969039663727234	-41.1276950670031	-60.5246532431952	55.1987994085504	-61.1629169775474	52.075735919972	-0.730099228162255	-42.1853029637197	
21960000	-0.125640954825515	-42.7300506328883	-57.3135357560116	51.5154439055249	-57.673312443478	53.3564381605271	-0.909730501676638	-38.7659447204203	
22209500	-0.266430750328893	-44.7079726455541	-52.0405419994464	1.30978656769087	-52.0719638118112	-3.40088736770616	-0.597445877352421	-37.5822826369675	
22459000	-0.521453734822282	-45.9345319052051	-49.6534571010537	-107.122889507253	-49.5479600540926	-106.083713561316	-0.452898774913611	-39.1230227760576	
22708500	-0.308468011334508	-48.1978719789934	-62.5972511611262	142.658836106922	-63.7372413738255	135.636290762461	-0.433083676912451	-41.3415561889651	
22958000	-0.212406003904278	-50.8764319899703	-71.2727005084736	75.3134418619634	-71.1016546039938	63.7504147846345	-0.484606749411709	-43.1491080673925	
23207500	-0.104765642571636	-52.8928261093106	-76.3731387259915	174.81171658359	-76.1655587086607	-175.760733388747	-0.549267045374289	-43.1321781542176	
23457000	-0.0641359909785032	-54.4579116949131	-65.4201922936902	120.533283844751	-65.5019679809413	134.791681196304	-0.339965826973588	-42.4691322204379	
23706500	-0.122447424590122	-56.0885702510143	-64.0584712233757	85.8049440178523	-65.7450202455942	87.4750153620763	-0.237952318210363	-44.0780981339453	
23956000	-0.225251830363624	-58.1537852138153	-67.6815979704982	60.8548777632967	-67.8406144054079	65.7020491339123	-0.4826172928297	-46.867301557824	
24205500	-0.28901477204444	-60.6347196691431	-65.5304122883456	98.4445595587218	-63.482867621927	84.456672220813	-1.13908681382694	-49.3760141150731	
24455000	-0.26342168692816	-63.2101249132341	-57.7546673212869	62.541564477637	-57.6447300317729	65.5656504608356	-1.93537208636788	-46.6439339470066	
24704500	-0.166432363572934	-65.4484712076378	-56.5484071658676	24.8700702049166	-56.2902303803563	26.3755997114463	-1.60594334914347	-41.6881078121504	
24954000	-0.0988818871085853	-67.2144370628482	-56.2309771204304	-5.55182721590763	-56.162794415664	-3.06340704030869	-1.02263092876594	-40.6429656328886	
25203500	-0.131160707491708	-68.8164371792027	-58.2988583470314	-35.0394382144792	-58.4803035817798	-36.1638807835632	-0.682709797827255	-40.8987481829341	
25453000	-0.266893847110356	-70.6332613366153	-61.4416888335595	-49.0423540156491	-60.5866238076212	-49.3026507909813	-0.567277228887084	-41.499095302882	
25702500	-0.400964426514008	-72.8084996249705	-60.5699604813549	-50.179432063311	-62.0832519045936	-41.5800512572298	-0.568903050318467	-42.4745179612697	
25952000	-0.470382999641584	-75.2092343489823	-59.3089570495858	-48.0360516624756	-59.5695661128021	-57.372254636205	-0.572843332880085	-43.7857001816733	
26201500	-0.437942752152878	-77.4544091739403	-58.1536456335869	-67.7856657034929	-57.6324401500117	-77.8621084347423	-0.518193531496271	-45.1801293562823	
26451000	-0.365517786253779	-79.047836072607	-57.3144084467867	-88.143636720076	-56.6344683453397	-96.3060641474739	-0.405078549043123	-46.2167991033987	
26700500	-0.327164113044608	-80.1159631807823	-56.643037973625	-130.409500828962	-56.5735851378932	-128.202065947743	-0.300652020248644	-46.8086532492029	
26950000	-0.351970083335981	-81.2055243317638	-57.4484128151183	-162.031222155501	-57.6498936328507	-155.693901280152	-0.283100174199216	-47.1277876920542	
27199500	-0.414189800957577	-82.9610215905221	-59.4798221821309	-179.946749587388	-58.2986519108409	170.722560162912	-0.360334852704769	-47.5764285768677	
27449000	-0.455553062723069	-85.3372329533177	-60.1390563192232	154.329854820817	-59.9008532503209	159.691801616119	-0.459099475112567	-48.4425905235147	
27698500	-0.409524409801414	-87.9155828997121	-60.2475091912199	132.141468168975	-61.604059716376	127.111555611928	-0.519959862360545	-49.6407535442749	
27948000	-0.297917105377948	-90.2499144659067	-59.0709591804857	99.0331504213737	-61.1423510629146	98.3347164711363	-0.499906777275371	-50.8508293897289	
28197500	-0.210427376323173	-91.9966659127267	-57.6270236370882	35.0546904869628	-57.6965446610719	34.3201621763071	-0.435193289252659	-51.6819521065917	
28447000	-0.190084480910171	-93.514660667319	-66.1452472070932	16.0487050359619	-65.1156601564754	-3.45207962128645	-0.406188066728707	-52.0644219606001	
28696500	-0.27154463431938	-95.3441337553813	-66.6822245728382	19.5842138964849	-66.5680531601831	20.4708108613834	-0.480919862539363	-52.2499622466514	
28946000	-0.360728847876021	-97.6127787100324	-65.4464320061113	6.21276041838427	-62.5852448231686	3.74463727064915	-0.634611593494064	-52.6920149014076	
29195500	-0.387222108654287	-100.222628450731	-61.4460606552244	3.50387212239029	-61.6953885321791	-2.70931759251438	-0.806413254112002	-53.4899450670216	
29445000	-0.32282812514967	-102.769115220471	-59.765084623044	-1.17123430773712	-59.2905407534722	-7.34824697837873	-0.928489904867337	-54.4718102712452	
29694500	-0.21708210784268	-104.913100221164	-57.2449375954022	-19.529518834847	-56.5280936601654	-21.8670825636339	-0.986867705294707	-55.0881236708941	
29944000	-0.165492381164788	-106.606346191411	-56.1443466410707	-38.1588462831437	-55.3061658430616	-37.3005242346695	-1.0055796760072	-54.62425575341	
30193500	-0.224462130580145	-108.304532810229	-55.5518825832079	-53.3061330015543	-55.4914285595057	-52.6739567465548	-0.739354291574847	-54.1339005033065	
30443000	-0.337604954316839	-110.502830645436	-52.3116554848356	-58.6735803961609	-52.0939122390141	-59.6995940226258	-1.04516887942671	-54.4006613914543	
30692500	-0.423309297302005	-113.167930197449	-49.3670016481149	-76.9475318682646	-48.9687319359708	-77.5176835272673	-1.22983147503736	-53.6218478306597	
30942000	-0.417544866095169	-115.941771694559	-46.8847397480458	-100.422755576471	-46.9754222287381	-99.4319360941366	-1.30965408151858	-53.3236020739591	
31191500	-0.325621174556384	-118.43973262737	-46.3767882344118	-129.120624697057	-46.4737524554215	-126.932933740469	-1.24729731098513	-53.3799800290257	
31441000	-0.22069358396091	-120.521553720554	-47.6465213223847	-151.129650395511	-47.489074831791	-152.431971596858	-1.05115338406449	-53.5859934329242	
31690500	-0.23044629064674	-122.52013719638	-49.6878220085842	-152.100486601847	-49.8868261889969	-152.351900751069	-0.829744914268277	-53.6134631065363	
31940000	-0.374705045731724	-124.623728719372	-45.4468289589977	-156.956655263503	-45.4005837185276	-155.850696528332	-0.67188839549464	-53.512508740683	
32189500	-0.501480293890292	-127.294868224267	-44.6632216507532	-178.485294594983	-44.6194073953208	-179.276472851023	-0.601517248769153	-54.076080070595	
32439000	-0.571576560715382	-130.670682393912	-43.870480845131	170.18803352357	-43.7551617191846	172.893868421569	-0.826898466739551	-55.0551616439096	
32688500	-0.58094319779044	-134.222028135092	-42.5601467214732	158.497244633273	-42.6400922795553	158.191336329374	-0.889893986676754	-55.6567267024908	
32938000	-0.599248967990062	-137.603344617823	-41.8038736883022	143.721331704426	-41.8339205711039	143.593110835603	-0.710781157670537	-56.8773700413681	
33187500	-0.787642037855077	-140.939825336483	-39.6306199828292	129.638521265885	-39.5658083648872	129.699124078793	-0.80953159538888	-57.2733308000123	
33437000	-1.36044435327837	-144.43330887969	-37.9441924175941	110.929787280065	-37.9508096345613	110.957609123981	-0.527179004802275	-57.4391579666156	
