!Keysight Technologies N9923A: A.12.45
!Date: Friday, 08 August 2025 17:44:41
!Timezone: (UTC+08:00) Kuala Lumpur, Singapore
!Model: N9923A
!Serial: MY61181427
!GPS Latitude: 
!GPS Longitude: 
!GPS TimeStamp: 0001-01-01 00:00:00Z
!GPS Seconds Since Last Read: 0
!CHECKSUM:0727220978
!Correction: S11(ON U)S21(ON U)S12(ON U)S22(ON U)
!S2P File: Measurements:S11,S21,S12,S22:
# Hz S DB R 50
2000000	-0.0852479070652511	151.404489221552	-81.4160190318273	-175.810147627685	-78.2395589926942	174.976049085906	-0.044026458373673	-3.48775316003564	
2249500	0.00459516412829675	148.272174009213	-77.2525789311919	-163.974151558766	-78.0639617719537	169.736636363988	-0.148232299786123	-4.09640492277789	
2499000	-0.0061551720883777	145.290898972028	-69.4434274339233	138.766130963493	-66.8336267378497	138.345514475205	-0.192388740789089	-5.02270860332199	
2748500	-0.111658262151095	142.109471593917	-55.2664124122014	7.77019190560735	-55.6859313356495	11.6655640161518	-0.148381977288464	-5.62939443850179	
2998000	-0.248905682066754	138.309446984203	-60.239098716939	91.0734882203807	-60.9386067840458	95.2263337948453	-0.0281188509612463	-6.26494467032478	
3247500	-0.236664348440767	134.804614827599	-58.7184964229797	-23.4688085181972	-58.574283548776	-23.0858873765884	0.046362919811797	-6.37405891178949	
3497000	-0.146210517964783	131.063379490745	-58.1939741919617	-37.8738106521088	-57.9661841071502	-36.527735360265	0.0209036653031939	-6.47554566002058	
3746500	-0.0368307498065337	127.90296500722	-53.6662782283293	-52.1576729741872	-53.775356818378	-52.0782752043547	-0.0941158103445282	-6.83402108960387	
3996000	-0.0153440352324847	125.06829556911	-46.2419290373569	-90.2930804521289	-46.2080731875995	-89.6367017738364	-0.290343290503691	-7.66980673158357	
4245500	-0.0899086011347271	122.23426253189	-46.0624177614177	-173.627223065143	-45.918239631849	-173.828257011664	-0.258605854773765	-7.44884566731391	
4495000	-0.199118348881596	118.860074335202	-48.6589637242912	155.975140531544	-48.6847024977972	156.969488960628	-0.111561195037789	-8.5479646054868	
4744500	-0.258727491591903	115.095321892967	-45.799094981557	135.809722760508	-45.8746100847224	135.240761380933	0.00576256236692562	-9.19731861224829	
4994000	-0.269983899970427	111.956582969915	-39.8620613796619	36.9357472974334	-39.8770998700601	36.4459088297133	-0.0371586784113705	-8.96514630618895	
5243500	-0.0842903298351734	108.646957228517	-51.3737574434761	-20.0165635476122	-51.1995176222921	-20.3720946901579	0.00130701358904514	-9.01984863508592	
5493000	-0.0115085184058395	105.840657463495	-56.2078236526021	-37.1299891439481	-56.0996026689052	-35.1212090481227	-0.101156664714821	-9.56829584244391	
5742500	-0.058745026483276	103.078130868621	-56.1613545506867	-51.8051364412854	-56.0799785257337	-53.2027404504385	-0.184241132151809	-10.5898340292953	
5992000	-0.242244343674098	99.7789957020753	-45.0982204728682	-106.434979894364	-44.9216980023951	-107.1973367737	-0.215245393878992	-11.9168612160514	
6241500	-0.353373452095528	97.5614074911777	-42.8882348291545	23.5086370115973	-42.9357488254487	23.5110957948856	-0.12419024347873	-11.9323074895861	
6491000	-0.250763124441228	93.6884731770408	-58.0191105867221	-35.3806309242367	-57.9667259633983	-35.3628681555424	0.0245501363628881	-12.4712404483362	
6740500	-0.139786094756428	90.4060506139597	-61.6239426726777	-47.1520877637506	-61.5460099622899	-47.7304347625682	0.0523695757899722	-12.6584205679067	
6990000	-0.0352698670269742	87.6978220447866	-62.3813971270287	-54.8765053290298	-62.4366485731746	-56.1535683408382	-0.0254296455362889	-12.9598529948833	
7239500	-0.0317363547438736	85.3181415100866	-61.1150361071336	-61.6871073540578	-60.5905140707559	-61.9755634247695	-0.147712090721798	-13.7305718824456	
7489000	-0.129231532127677	82.677628843032	-58.2870400939554	-70.3639859020689	-57.8276539067815	-71.2128562682135	-0.238113050278461	-15.0272096863698	
7738500	-0.245940596422852	79.5820340227784	-51.9390471624371	-100.82438782431	-52.0365517431779	-101.48869341747	-0.39816434695327	-16.643131793117	
7988000	-0.278930703178799	76.2392773288527	-60.6050008638013	162.881594408554	-61.5705465834342	163.562345396967	-0.116749918330723	-14.989590826327	
8237500	-0.211672230540225	72.9855576292988	-57.7814051071584	-110.876685197199	-57.0276415442209	-110.994693598837	-0.0251654559068698	-16.2225361368539	
8487000	-0.0980964679864447	70.2752430873494	-47.5902897528847	-152.122832113648	-47.4796307270248	-153.80604111948	-0.192679463687633	-16.1613481077143	
8736500	-0.0480032238784857	68.0595659195765	-45.8300339479042	141.981292298039	-45.7892426601448	141.149898860025	-0.212554503302302	-15.4107428057012	
8986000	-0.112656097512292	65.894631547325	-45.1050151723039	93.9338629655837	-44.9244121338832	92.8893872629893	-0.310814514699754	-16.2899351078276	
9235500	-0.227830388442466	63.3018077432419	-45.580485323143	35.6530064413347	-45.5271887403905	34.5953109211378	-0.369823363745405	-16.9614761532191	
9485000	-0.298264260768911	60.1826273107314	-48.6808411512133	-9.25934785429684	-48.8335826568745	-8.80259569985479	-0.235354604296406	-17.6765090523424	
9734500	-0.263052486188432	56.9798068280593	-51.1113101003648	-39.785937247594	-50.893688665739	-40.7065541031012	-0.0788448417078017	-18.4078236447733	
9984000	-0.144573955082965	54.1631249632767	-50.9211715664051	-75.062115918234	-50.9320483821824	-74.5543796898818	-0.0287795494663846	-18.8167569216594	
10233500	-0.0485002750726221	51.9165409368539	-51.0228813109902	-140.853903975554	-50.9095154413778	-141.861841908983	-0.156413849973173	-18.3351920297696	
10483000	-0.0487672234430677	49.9169560851982	-58.0174010240653	161.523987627601	-57.9965782064107	161.172999898731	-0.163827535178171	-18.3101520303962	
10732500	-0.154715819186269	47.6023971465706	-64.7206785161385	134.762002860429	-64.6185297331428	136.218025163129	-0.225968361984105	-19.421937954409	
10982000	-0.273880735905542	44.7735815083284	-69.687184520121	113.760754718297	-70.1644283122186	121.472039419263	-0.228972761388924	-20.79034396878	
11231500	-0.299933906159831	41.6099914301494	-69.1746810077824	116.38090386688	-70.801105150403	112.980098283764	-0.143870805569222	-21.948148685863	
11481000	-0.215099282674988	38.6682847374429	-65.4509341073173	129.823174606978	-65.6267592083455	132.820543507917	-0.0480965670928379	-22.6828829594038	
11730500	-0.091755177806871	36.2934407190015	-59.2164949953655	84.878753845097	-59.5528926157992	83.9341126704713	-0.0492620556187186	-23.0586083034046	
11980000	-0.0343765030942807	34.3265530642641	-57.8711046760515	26.6497006904977	-57.9462979216255	26.7485294959386	-0.231768939933053	-23.2401581768856	
12229500	-0.0997536769310407	32.3297224735747	-65.7492407521433	12.2410017643535	-65.4054606845841	7.29288488259309	-0.428653901764968	-24.1683116286185	
12479000	-0.234132117080618	29.7993592118996	-57.5127590102519	-9.09006269101623	-57.8162557021701	-9.23648262128106	-0.893899934149761	-22.8335411243048	
12728500	-0.320815587246852	26.7432362286127	-60.5560169582987	-48.4720505241458	-60.8396920926684	-48.218802449757	-0.500269166454476	-22.4019976549381	
12978000	-0.284273982380094	23.5675383909135	-64.3577282745242	-40.0279352974007	-63.4424340530686	-41.6637990008651	-0.255672420205666	-23.7974289602175	
13227500	-0.165086089994867	20.8103956230961	-60.5121231288134	-38.2759141871659	-60.8294301561712	-38.9180816300677	-0.109475856310284	-24.3110806679577	
13477000	-0.0650517142046471	18.5778344963747	-58.9438432934974	-57.6555555423028	-58.9970778691178	-59.5762693263057	-0.0465355153321002	-24.5510301426557	
13726500	-0.0763810871688839	16.5082838420462	-57.6524268670262	-70.9650174192219	-57.5389010532692	-73.3360338131314	-0.123265948808579	-25.1222581313447	
13976000	-0.197186795361078	13.9973431554765	-55.870726697562	-80.7275235211255	-56.0607822532572	-79.8022338806259	-0.297813970198724	-26.2341744057649	
14225500	-0.334369543669582	10.7404966142532	-53.7273381984674	-90.395146021058	-53.6125901164685	-90.2968875470547	-0.527743133037637	-27.4246739149911	
14475000	-0.380293682435047	6.88922058531734	-49.6854045905884	-109.038251998083	-49.5599508526848	-109.265516471591	-0.437807116777599	-27.3365122483083	
14724500	-0.317688831209675	2.93951066610024	-47.2818149190195	-147.535660939099	-47.1594081408458	-146.958432543576	-0.48694912528888	-28.2428053118937	
14974000	-0.249745292447747	-0.962667309254675	-48.2004843927794	-177.190489955083	-48.164248065145	-178.439200981366	-0.327078636046306	-26.4710013430179	
15223500	-0.314457082079036	-5.27637688468845	-47.840036527509	148.440031869527	-47.8969550856313	148.109635875123	-0.148734128100184	-26.439112092945	
15473000	-0.689155340884031	-11.8610941062907	-50.8117923962287	148.873404728586	-50.9780300374072	148.2485004196	-0.166753725461771	-27.2486712323703	
15722500	-1.76655474299372	-23.8805371511282	-48.3067910384626	172.372419470418	-48.1322428870589	171.896652571539	-0.269805714153092	-28.8341185174541	
15972000	-6.77446230867956	-45.6537450982208	-37.2093168458829	155.673141477734	-37.3028540547745	155.21380308488	-0.431556876558309	-31.0763499932977	
16221500	-8.04215069722441	43.4262476509237	-31.7193837104911	62.7222444313442	-31.5445188411492	63.4634628033244	-0.705739938367635	-31.0005745656775	
16471000	-2.27299065842187	25.9483823660899	-37.0820213331572	-7.3226029153436	-36.8979900693478	-8.43504071035668	-0.365455349770225	-29.6698136881041	
16720500	-0.963740769125986	14.8301379291269	-42.3434717510385	-35.8161416040493	-42.2347347066095	-37.1442293582916	-0.146936892481249	-30.1454544246598	
16970000	-0.509437220991426	8.57185476818952	-45.3502780929927	-60.6142578386556	-45.3007037684438	-61.3311678840076	-0.161278661885381	-30.6493953208658	
17219500	-0.429293898520224	4.10144198470771	-51.5895138280322	-66.4195495455364	-51.6364883059654	-68.0685871499554	-0.275574561980434	-31.4869090706023	
17469000	-0.475174810707145	0.0294664798392409	-51.5517484865506	-58.3512879135583	-51.5322288158652	-59.5086852782291	-0.431234863420647	-33.0393507911359	
17718500	-0.487240903076213	-4.01409515134868	-50.1244091120302	-65.5600132662187	-50.2529034066534	-64.732843533384	-0.594809311536866	-34.7584245819864	
17968000	-0.390974885755242	-7.692831844349	-48.9419432154556	-89.9945486619813	-48.796303054548	-91.4243765521902	-0.778470076522688	-34.7236330683196	
18217500	-0.229459669454139	-10.5565273592673	-50.5464893442	-123.694600289269	-50.5444584216457	-124.931343136285	-0.528614169177733	-32.6953607748087	
18467000	-0.123410184910984	-12.6517871427125	-54.2346635133653	-141.605581498467	-54.2527564528975	-142.816708993998	-0.225543007908847	-32.7495401416465	
18716500	-0.147613464794292	-14.4926587318766	-56.7512357660643	-141.483236814243	-56.8666965078658	-140.345601578748	-0.235558796148816	-33.8575469384755	
18966000	-0.262442455704611	-16.668170039205	-56.5122270046412	-135.020450053381	-56.5399628535704	-135.502583186404	-0.46161089360854	-35.0625992888528	
19215500	-0.369152075855847	-19.3891106284104	-55.1321633401088	-143.070854379632	-55.1057090842529	-142.864626674821	-0.713079117036164	-36.0539738261819	
19465000	-0.364211547496435	-22.3358126692911	-54.3740163875389	-161.409138327961	-54.1686415863429	-161.86153949921	-0.81377639945545	-36.327022490245	
19714500	-0.248202875652385	-24.9103357458968	-54.1955827513218	176.980371405332	-54.2817037305873	176.173796366476	-0.698343622631579	-35.9138630021597	
19964000	-0.113751221165638	-26.8095076233916	-55.2735695217111	157.926493104473	-55.4510498689877	157.186712418899	-0.47459976368854	-35.2351338817338	
20213500	-0.0790691736842944	-28.243362460077	-56.6364368568458	145.688414130733	-56.8421662112147	143.515648807415	-0.326712447697113	-34.920111503995	
20463000	-0.164431352305201	-29.8324501896538	-57.880558756395	138.044900495092	-57.9985763201408	137.446141908644	-0.331544451878186	-35.2555876165163	
20712500	-0.299303470716407	-31.9914744972204	-56.7628383506323	124.394811592699	-57.4436612571714	123.789887967992	-0.444047002121307	-36.1987056260099	
20962000	-0.366667108466289	-34.6919537827681	-60.6730874872663	102.398509047965	-60.2945345628372	103.536667823844	-0.4716082756099	-37.3458766800805	
21211500	-0.312895616472347	-37.3860186083991	-61.3508785184753	106.428869813094	-62.1962723980804	101.677099140219	-0.389729805263903	-38.835535597514	
21461000	-0.175766636354949	-39.5710376107289	-61.0016005842669	107.647050810317	-60.7199014909311	104.27727921569	-0.265066770816586	-39.9897456045476	
21710500	-0.0827908420577118	-41.1414110116027	-59.4006439278926	97.4450094841585	-59.5752122180213	97.9572972696403	-0.216749082980423	-40.4979316888352	
21960000	-0.120090327222799	-42.5832008924153	-62.2087989825065	97.6554250087234	-61.4413788961875	96.836773453222	-0.290211492198606	-40.5982716155993	
22209500	-0.29034577279609	-44.4960129906809	-52.8385030780829	114.235879055977	-52.8443680913029	112.687283101308	-0.481081535123304	-41.1548677264211	
22459000	-0.572187884691528	-45.8063852827791	-44.6572112557318	29.0243242106003	-44.6570720734413	27.6012180915975	-0.732388610950117	-42.0855274615303	
22708500	-0.359171336497228	-48.2557963982377	-53.583436127083	-54.5377594900098	-53.5309951283714	-60.0010660927226	-0.948898683134916	-42.6435585421439	
22958000	-0.23497009716593	-51.0252301287224	-66.8701352210592	-70.2328122781015	-66.5550719464988	-72.6736312979891	-0.921843063895718	-42.0391248056659	
23207500	-0.097146179096486	-52.9626289532897	-68.6299908044556	-22.4674837766628	-69.0367500471991	-19.2701656641852	-0.567823267574351	-41.5541859088128	
23457000	-0.048484426531167	-54.3528228720278	-76.696235574122	-30.5550300614552	-75.9271774031197	-42.6884589106882	-0.361252735198179	-42.4977251656473	
23706500	-0.128022262834455	-55.8470682475561	-75.3682135630037	95.7218712328677	-73.7191874246674	78.4592533241757	-0.537201204716475	-43.1290518998105	
23956000	-0.26298613179787	-57.9263181176583	-63.7910460813435	52.8332784750958	-63.7277271978178	50.6275898858094	-0.820395038308229	-42.796846046409	
24205500	-0.34316265409123	-60.574483085506	-59.5361420424298	2.13630675033663	-59.7224972517771	-0.402289881882147	-0.933248865447177	-42.6764418375466	
24455000	-0.305216532978767	-63.3101123892696	-62.5460922877716	-41.9358697410259	-61.6528338160747	-53.553824045859	-0.891919578630775	-43.1290912460369	
24704500	-0.174582859928753	-65.5835257202505	-79.824370011977	6.6757913511406	-78.5896806884914	-46.1430751618889	-0.685034031456764	-43.5195268176468	
24954000	-0.0836191963389323	-67.219519202317	-63.0365628251404	30.7358773907677	-63.6416213175653	24.7113459713733	-0.473669070757524	-43.7499289235099	
25203500	-0.123110742269219	-68.6580641015918	-58.730520300623	-11.7884307953508	-59.4707556299866	-9.00218572377005	-0.345335302719655	-43.7289991106785	
25453000	-0.287609662142917	-70.4055449192539	-57.8877449597426	-44.1224064070227	-58.1061218748969	-44.7871238157278	-0.359151740023139	-44.003064048838	
25702500	-0.453230252892506	-72.6693767444332	-58.2435652458335	-80.8367740267925	-57.5950131208312	-76.8363348018283	-0.461187711198745	-44.9230687542954	
25952000	-0.524035657261063	-75.2397562545358	-60.0516201255158	-117.932598733586	-60.1549190198742	-120.774969543033	-0.541543926795427	-46.4605097659927	
26201500	-0.462776801524064	-77.573292556285	-65.33728426825	163.339975887118	-65.9892697155867	153.350181734473	-0.534489174306266	-48.2350981711302	
26451000	-0.356569249226074	-79.1082526719349	-59.7029677618793	52.6044184371629	-59.8078831115066	49.8872575766554	-0.470918331674411	-49.6241872456059	
26700500	-0.308188250730388	-79.990354664224	-53.4709013668177	-2.35281546320974	-53.5467354683121	-3.52882342196826	-0.473017696182452	-50.3573947337583	
26950000	-0.353356829280641	-80.9295893617469	-50.7700722076482	-46.9714883455217	-50.3966845986754	-49.7262380663347	-0.651287548536725	-50.3119930280042	
27199500	-0.450332244377218	-82.6907963773675	-49.4273766390284	-86.0375298124636	-49.4537910173495	-88.9955744787558	-0.973393695619525	-49.5853829821677	
27449000	-0.509565763348674	-85.2330437776732	-49.5546288424381	-118.602883222956	-49.8045795511257	-122.670374871925	-1.18220834440297	-48.3541602756167	
27698500	-0.450356690103314	-88.0066586998927	-51.8055744165341	-142.542934670004	-51.750700965058	-144.489159481046	-1.09237387345294	-48.1443044381205	
27948000	-0.307734181921774	-90.3740027241292	-53.5439079666927	-155.147509881065	-53.754991245347	-155.07215484491	-0.859449481946105	-49.0533643481654	
28197500	-0.193950395224362	-91.99154156097	-51.8480703036279	-154.344779139246	-51.8667372113396	-155.641364302629	-0.603056305120682	-49.9734358665718	
28447000	-0.176750782195894	-93.3077755864731	-51.8864539480233	-179.647657324536	-51.8597238085188	179.072394368837	-0.44183586476123	-50.6003511869089	
28696500	-0.287070814088675	-95.0501855515024	-52.5302147557828	170.450778937891	-52.3786933620157	171.259122235844	-0.482392197463671	-50.9878098002205	
28946000	-0.409528506739801	-97.4057864606167	-52.4244347638459	160.642256506861	-52.3517186736604	159.517064897413	-0.675149220610695	-51.5372687121252	
29195500	-0.44280611263905	-100.233394589004	-51.4134667096035	152.990594073939	-51.536334934331	150.690316225437	-0.908939266026196	-52.2820954596471	
29445000	-0.354007563408309	-102.922668308906	-51.0667820216635	139.307419825433	-50.907793382246	138.687224741879	-1.03372302644294	-53.0041070180615	
29694500	-0.213410728941447	-105.032265110962	-50.6450745096283	127.167672011415	-50.3723969926568	125.102648043001	-0.97914390414845	-53.2708088773171	
29944000	-0.147952506240501	-106.538835331146	-50.1215018397722	113.434267481379	-50.3133525080852	111.6918548489	-0.799500112350695	-52.9471686562795	
30193500	-0.222786901739274	-108.066586975464	-49.9110163467669	103.511504125008	-49.9111980663703	102.14351627234	-0.63293368077533	-52.4428243775654	
30443000	-0.371191660501451	-110.220614240905	-49.2430124880201	97.6048461005076	-49.1337310373845	95.2119279802157	-0.604027795184293	-52.2587421595313	
30692500	-0.480657104456303	-113.03594052336	-48.00980399552	83.5305192520387	-48.033929599646	82.7664285087235	-0.666368554072016	-52.8946712082361	
30942000	-0.464743368018619	-115.995687645368	-47.0215735302929	69.1096557612342	-46.8364542858521	67.9400600924263	-0.768739894389841	-54.7273834352895	
31191500	-0.339344821614963	-118.553843196226	-46.0926733719609	46.5062873571871	-46.114058094643	46.971374391049	-0.865810239989685	-55.7270968938732	
31441000	-0.208104286570096	-120.517855219085	-46.4523422269736	32.9836868745132	-46.4595828044313	32.0984682161323	-0.744755580284405	-56.8750835403774	
31690500	-0.217350842197417	-122.32366760803	-46.6245115064586	30.7900320003097	-46.6369668952499	29.1639165848353	-0.652425087408743	-57.2347561434871	
31940000	-0.391441931563755	-124.358756374191	-43.6895519852238	20.8898454536648	-43.8770904549985	19.2451271833318	-0.634652000489726	-56.9637980875491	
32189500	-0.553828598493804	-127.110532052464	-42.7564397391135	-0.299285541072684	-42.9577944588616	-0.663786308680607	-0.721947071620393	-56.8265790376315	
32439000	-0.630152428271617	-130.706011359706	-42.1336354061478	-15.801669617346	-42.1470811332531	-15.76239478201	-0.876724337108741	-57.601623553854	
32688500	-0.614765929719934	-134.41036983201	-41.0432203601245	-28.9701273813826	-40.9154332180259	-29.8991500419685	-1.03489795420642	-58.8657971392781	
32938000	-0.603738741940163	-137.758698155425	-39.4716302481905	-43.9251760716655	-39.3390521770427	-45.1313934875328	-1.10135106429858	-59.9438171428738	
33187500	-0.78657367457617	-140.905587524705	-37.576387338804	-61.9836677927929	-37.4820620489956	-63.0631146921488	-1.03090439081409	-60.4844727060352	
33437000	-1.39692558916114	-144.176233248824	-35.4634014599519	-85.646804967026	-35.3333124172518	-86.7850902395626	-0.98303023219229	-59.9330722769233	
