!Keysight Technologies N9923A: A.12.45
!Date: Friday, 08 August 2025 17:55:27
!Timezone: (UTC+08:00) Kuala Lumpur, Singapore
!Model: N9923A
!Serial: MY61181427
!GPS Latitude: 
!GPS Longitude: 
!GPS TimeStamp: 0001-01-01 00:00:00Z
!GPS Seconds Since Last Read: 0
!CHECKSUM:2060178968
!Correction: S11(ON U)S21(ON U)S12(ON U)S22(ON U)
!S2P File: Measurements:S11,S21,S12,S22:
# Hz S DB R 50
2000000	-0.0966575110320281	151.288835420873	-78.3315320202232	154.257336420916	-80.3768507014959	161.339596945813	-0.0367561974141588	-3.2910256966103	
2249500	0.0111688841564021	148.208691323098	-74.8283609819412	147.589769082099	-73.4652972839204	149.942185217144	-0.161479240200834	-3.87897858136783	
2499000	0.000788404051723815	145.318512940827	-58.5317178738144	112.539683324581	-58.7709812950113	109.681740539922	-0.244113830446579	-4.92803631750216	
2748500	-0.119814774967583	142.199961454594	-53.3610819200084	-1.70276767615065	-53.3003946110127	-0.995952453458384	-0.161436091735196	-5.30790324560025	
2998000	-0.254605940556256	138.491163138489	-50.7307532646612	-39.3882489887736	-50.789851842696	-40.4487069940569	-0.0207985834269415	-6.01354050930771	
3247500	-0.288515984395292	134.840391731413	-48.4454958655355	-158.14061832499	-48.4405362966507	-157.508582526837	0.0455314326803362	-5.81345499405129	
3497000	-0.166816244409999	131.000773101781	-56.8118905547872	172.81923942155	-57.0713575359318	173.73252884117	0.0464495339966965	-5.9148844772231	
3746500	-0.0353808680382031	127.865590215395	-56.869888257256	170.974834121402	-56.9306429314085	169.892751204855	-0.0715179893432018	-6.22892759858596	
3996000	0.00416173036533375	125.121615904214	-57.4237007389899	152.335126301913	-56.8891339078181	150.765618568918	-0.183380113344767	-7.12687391495241	
4245500	-0.0832489559248471	122.228736954429	-53.8470340907669	140.134232329676	-53.7895687673493	137.657158256847	-0.208282910472026	-8.39024819297888	
4495000	-0.244376729561936	118.750613233238	-43.2760082089714	105.393616207204	-43.1438698061283	104.64375883698	-0.168951251472144	-9.70632891672478	
4744500	-0.289751094034058	115.335525347675	-46.5731803213328	-22.9934703049483	-46.5974778473936	-22.9970775681888	0.00031075980959107	-9.33914406446747	
4994000	-0.239938805863185	111.450862251917	-47.8109306254479	-52.4507000938884	-47.7133560954045	-52.8798569875356	0.0727294275966338	-9.61887627515789	
5243500	-0.0994165797899068	108.684997810041	-52.4920297530543	160.392483032906	-52.5774492612837	164.651713626349	0.0164173844108643	-9.52568985205352	
5493000	-0.00206831741124606	105.848185085343	-69.2029435869041	131.894139837206	-69.3678008982132	133.748395968282	-0.117384210236162	-10.1274755759116	
5742500	-0.0522500175367574	103.177351604902	-73.9642347452603	88.0165432719105	-72.038811619196	81.2115396630512	-0.250757263497853	-11.3013703913053	
5992000	-0.2207391172491	99.9054654080824	-54.0808396558554	30.2351053509321	-54.0299803569925	31.827706895024	-0.397340014323268	-12.2044727560682	
6241500	-0.368578738078495	97.6534680642317	-49.5891682196016	-154.037243331537	-49.472513611344	-153.293549746649	-0.150916818130799	-11.7520323827573	
6491000	-0.28494890166844	93.6123200256632	-60.7538770989101	161.401455325688	-60.4544364751081	160.771930719102	0.0339119923981498	-12.2748326727772	
6740500	-0.156363222849434	90.2763913161006	-67.4529220491347	170.738071342458	-67.9515385858133	162.539854100493	0.0699069065385044	-12.6471603952603	
6990000	-0.0320025994684155	87.6150931692045	-61.0739815939101	-174.009005496361	-61.2823240498886	-174.027455134582	-0.194387112970985	-12.4779162559232	
7239500	-0.0248078588119133	85.3226277882648	-63.5920338973213	143.546106016892	-63.4320854460353	142.5060043809	-0.189124703588162	-12.4985249208073	
7489000	-0.136748882925324	82.7570261332911	-64.8615280165492	131.039420784454	-65.0756046671679	126.14915008413	-0.234201519993498	-13.7966334186117	
7738500	-0.274209589134392	79.6472077296624	-64.2772333078903	118.360772971987	-64.0444028227275	118.950084316006	-0.182248754944172	-15.1039182996797	
7988000	-0.315616043179729	76.2067234257914	-61.6041153000231	109.405940446437	-61.4974667314492	109.117731000634	-0.0512628699601433	-15.9686936248097	
8237500	-0.235515205345179	72.8806475777056	-58.7789905369145	103.541219750066	-58.6282059297067	101.580446833816	0.0454150632197346	-16.287077877931	
8487000	-0.0968906651322104	70.1789461776531	-54.0159961618959	78.0586202369323	-54.264403366842	77.5754465078741	0.0113420987452168	-16.4706564815865	
8736500	-0.0441129081468975	68.0274629244014	-47.9362722506421	37.0116958309549	-48.0422497637426	37.3070660878584	-0.190260040710759	-16.8719020850791	
8986000	-0.114424926288423	66.0499250986088	-44.3297223491163	-35.3234145949093	-44.3218259190087	-34.7618604908497	-0.427120485620154	-17.0967507408764	
9235500	-0.24483391555346	63.4279588997144	-45.7307366249147	-103.336391888669	-45.7461564705696	-103.281205398523	-0.52113428453199	-17.5404708695969	
9485000	-0.335234544069895	60.224958657969	-49.4573256167341	-157.030675432002	-49.6670599963739	-157.093160577552	-0.372651481430915	-17.6345019736545	
9734500	-0.296235805150328	56.9164812406465	-53.4176910605301	166.999960425244	-53.4553720000359	167.035353366972	-0.122786344531847	-18.0310901177272	
9984000	-0.157263901112339	54.0613491492498	-56.1157727466371	144.93935652194	-55.9859880747442	144.541955324318	0.0208360046713663	-18.2127796112352	
10233500	-0.0396339106591312	51.851563949468	-56.630376349812	125.237470658193	-56.6594936262554	123.989328709587	0.0056396322715267	-18.3574735494817	
10483000	-0.0435380082756105	49.920799240526	-54.3055824797792	87.3605668003892	-54.248287878003	89.4771215410075	-0.137374905374597	-18.9511514939292	
10732500	-0.169583066222867	47.7124045975993	-56.5995575014929	-1.16540531493875	-56.5288216917073	-2.18124657019279	-0.282038675708271	-19.6745819698238	
10982000	-0.307164619676268	44.8418777066015	-65.9652615093477	-26.3269872117514	-66.2222646192927	-39.5216809458456	-0.271900720490352	-21.1380478672502	
11231500	-0.337596245992019	41.5730489195574	-68.5908162551485	-16.1264492465706	-69.8856888087329	-17.792578665822	-0.185093106998899	-22.42542335304	
11481000	-0.237484845044116	38.5522567089188	-61.6478229446712	-26.6576417490723	-61.4845030315802	-20.4955107566953	-0.111540180918125	-23.0967845520384	
11730500	-0.0917622627090101	36.1911318204373	-58.0919490794521	-93.2729632814924	-57.7330034659004	-91.1675894052198	-0.123653174519844	-23.0834563797367	
11980000	-0.0250508423917716	34.3285691682816	-56.1418406058085	-146.99368681652	-56.4972020664429	-147.92611002514	-0.34889458036558	-22.8795476854267	
12229500	-0.101433366228361	32.4292071957361	-56.5802141461505	155.093345402635	-56.5423278454963	155.181500472464	-0.559517282700995	-21.8979802163057	
12479000	-0.256255656951917	29.9065835625775	-64.2977456029673	120.43383488764	-63.6864422820196	118.548684933644	-0.577469059275104	-21.9602911012037	
12728500	-0.359916694578773	26.7610211371295	-63.4468079563177	101.543927384572	-63.164812499921	108.46507818715	-0.381015793361176	-23.1487067260346	
12978000	-0.317228500032017	23.4678856761216	-64.5789990602626	104.091326818347	-65.7702776746392	105.715800070061	-0.197894027487423	-24.4020375534505	
13227500	-0.176698710232774	20.6858290289075	-62.5229480489814	112.195821616864	-62.4087727074048	110.840322469374	-0.0628035269599868	-24.7982362699741	
13477000	-0.0581740493083651	18.5267720772827	-59.4954057043093	95.8022929134696	-59.501442529595	96.9129667657672	-0.0196201489798899	-24.8053310724217	
13726500	-0.0698612303847787	16.5715896456072	-57.4956753609894	81.6901226194595	-57.7306296511683	82.0285120083789	-0.113854422876546	-25.149083315014	
13976000	-0.210307847718335	14.1248238194412	-54.767735222516	68.0519062035761	-54.6580969389903	65.8564645567941	-0.293123795107548	-26.175461900875	
14225500	-0.37037376650546	10.8028665541744	-51.0398457539688	43.6401925991271	-50.3874294521393	43.9248288730068	-0.47370449254279	-27.7039521480379	
14475000	-0.422901680675061	6.83324429473457	-46.5813159963916	7.6310209614493	-46.609484501175	6.72729562536325	-0.625400697905713	-28.166243941624	
14724500	-0.341600948826151	2.8119132990913	-47.148587410236	-40.2706693866302	-47.0766098931307	-41.4316356292065	-0.329009610294397	-27.316662332564	
14974000	-0.248584177876674	-1.06781814311595	-49.7112165025921	-51.6330485681906	-49.7437770895815	-52.2387830153178	-0.0968800791966812	-28.3022239172976	
15223500	-0.303233811863166	-5.28063354976334	-47.0829546695374	-65.2482872435952	-47.0334806685185	-65.5469495552874	-0.262972340887226	-29.0266308099278	
15473000	-0.695768615395775	-11.7748319843908	-42.0251100315133	-78.6932873149647	-42.0698705101317	-78.6529855319131	-0.622302116971404	-27.6507640017797	
15722500	-1.8029144027542	-23.851057434463	-38.1288945775198	-116.181958004927	-38.1461086062393	-116.643572897661	-0.54905743617332	-27.0446003771467	
15972000	-6.83292276691952	-46.1050517319266	-34.5152626827675	-163.065004410585	-34.4782618777374	-163.639665892839	-0.435606003776978	-28.7184459008479	
16221500	-8.08119487631931	44.537499354518	-33.9059455301231	130.683116109032	-33.9601761174168	130.460815314649	-0.305462679985039	-30.3604706774585	
16471000	-2.22659525153274	25.9934336519782	-38.0139425199212	84.2900073922391	-37.9300162230114	84.0813129035324	-0.153001774058523	-31.3291027776267	
16720500	-0.938357555403431	14.4625926538533	-39.3268270473006	53.5974210785659	-39.3374550407417	53.3319627737607	-0.127838748544176	-31.8382737970254	
16970000	-0.511069477314271	8.47218462899571	-41.5807940309116	14.8845529050165	-41.5316501916761	14.585935488134	-0.339990622962878	-31.6866381753889	
17219500	-0.434453392305676	4.19137379583929	-47.0926153852467	-14.0494865360946	-46.9048416045792	-13.8983611177267	-0.514735779512685	-30.6648205006735	
17469000	-0.506166250393722	0.115226562940566	-49.0144796948986	-7.35332209012373	-48.8846008927415	-8.81563316463289	-0.495153697787864	-31.8917594294135	
17718500	-0.52944427057787	-4.02603174548527	-47.8537547313395	-24.4374077028152	-47.8354792743229	-24.0519756756101	-0.589035239770255	-33.952925670142	
17968000	-0.420673583436133	-7.79826392622019	-48.1621117333016	-51.6601574015914	-48.0444865971928	-51.5849678462518	-0.63783621974627	-34.4533397775925	
18217500	-0.235534000438249	-10.6555953501241	-50.0743199005255	-77.5627360020716	-49.9275327636983	-78.3415329457409	-0.476427255816518	-33.5654021785506	
18467000	-0.114110781560676	-12.6414995833299	-52.412485912031	-97.3402293542639	-52.1527206738158	-96.7325088963436	-0.300779812454092	-32.965075395937	
18716500	-0.143452141074465	-14.3683446610875	-54.0808952167591	-109.507116487911	-53.8332239834925	-109.171680279715	-0.294621639346854	-33.0356724732222	
18966000	-0.281308193272493	-16.5130039876339	-55.1491492881855	-115.374800350016	-54.7356273436084	-115.263077605567	-0.41604968113808	-33.8045101326709	
19215500	-0.407901211085296	-19.3173260073211	-55.5818177345249	-126.439745889453	-55.1982825752115	-124.7511111273	-0.524878164517658	-35.2151265051002	
19465000	-0.402477705937306	-22.4065133915701	-54.9516835737072	-136.570416111253	-55.0579838863392	-139.519513676279	-0.524266238080817	-36.7080692979496	
19714500	-0.26539308551607	-25.0358876774326	-54.7568951668412	-153.199555861791	-54.8054856855232	-152.053009156784	-0.4330479835295	-37.7224023531315	
19964000	-0.109738140930245	-26.8672353590287	-54.0211953070059	-170.976360122732	-53.9183732048138	-172.46551994444	-0.376526759640807	-37.8223917488116	
20213500	-0.0705366654767009	-28.1658613453226	-53.5337643361115	168.108191784997	-53.5620902285923	169.101047817537	-0.444785922674891	-37.1847592978795	
20463000	-0.171891570074123	-29.6611491723145	-53.554240388355	144.290658604892	-53.8783681322239	145.074515812509	-0.598190170425489	-36.4239389367646	
20712500	-0.331398834652445	-31.8523230993342	-54.857937816333	120.693839271359	-54.8658462620904	120.839593459158	-0.719261713158332	-36.3410217613478	
20962000	-0.409102413826279	-34.6846289298886	-56.2855964203278	102.721282680948	-56.3743214799542	101.04967761399	-0.713264078094943	-37.2527543478596	
21211500	-0.344686370716392	-37.5093577730313	-57.4118567385197	91.4794772145957	-57.4897006050958	91.4077609342188	-0.585282068322998	-38.5459545704	
21461000	-0.182964139580517	-39.7084729157402	-57.1474889958794	80.5845500704907	-56.9796092876641	81.2876688198169	-0.388429169701741	-39.4846418900174	
21710500	-0.0733041207496598	-41.1719630517703	-56.5871311618038	69.2145615295248	-56.6155836808026	68.2991709518333	-0.261073946426917	-39.8210971642957	
21960000	-0.115915230992173	-42.4747068973623	-55.2071954843029	51.0415466497886	-55.1159959760695	47.8424755317191	-0.308479151511138	-39.9576923872252	
22209500	-0.310166445080012	-44.3306419307504	-55.4169019094371	18.0794453365871	-55.2590722723803	19.1313145977706	-0.521168301441455	-40.2616803523047	
22459000	-0.615978484993527	-45.6581772596086	-52.7971926881312	-9.50203834063672	-52.5983245575041	-11.5531751993349	-0.739452714241471	-40.7582762493485	
22708500	-0.399173095835442	-48.2953873818279	-58.0623527200923	-68.6842809682775	-58.2431036290738	-67.0866049068946	-0.787181151796281	-41.702896323645	
22958000	-0.25604829563816	-51.1455336754755	-67.8215520291671	-77.8909139714189	-66.5046371402818	-72.4260307948004	-0.709134642900377	-42.7050216765988	
23207500	-0.0949995716540002	-53.0359186018334	-69.1264959075115	-22.6398333388411	-68.3371706875343	-28.6594401867879	-0.580952062855366	-42.8915847936372	
23457000	-0.0394125057085147	-54.298246674251	-64.8015247194526	-22.1959697907305	-65.6710946320784	-28.3947755266233	-0.50121481020124	-42.2413746933793	
23706500	-0.133212981985962	-55.6792184998664	-62.6506721153282	-50.9033056818445	-62.7721738040485	-50.0315363806314	-0.512961363233496	-41.4968458121055	
23956000	-0.292975833029411	-57.7669661232315	-61.8446569987569	-86.8223582105209	-60.9069005065829	-86.6542712044569	-0.57156713459924	-41.6376442039297	
24205500	-0.38702732760059	-60.5384700908312	-67.5336966288965	-133.038940728937	-66.4412129023917	-135.40282977694	-0.654673964687676	-43.1960717441466	
24455000	-0.339592392052728	-63.4179005268413	-72.1046160133176	-38.0979180508934	-72.9925015693513	-32.9355531494469	-0.729247725542307	-44.9089504384684	
24704500	-0.184003242140805	-65.7036237835277	-65.1519555260301	-66.7758614084107	-65.7282582018819	-64.597668868063	-0.672426321392152	-45.6182108358623	
24954000	-0.0748151839258337	-67.2343475506348	-66.8724442783061	-113.077032630109	-65.7942834525035	-110.746182793985	-0.540536129035261	-45.4430230933752	
25203500	-0.117382081376618	-68.5319179796764	-86.4287694923353	164.29267091533	-79.1032604602614	-126.068071384635	-0.446898933498394	-44.987366068499	
25453000	-0.306254973395514	-70.2046122635463	-63.3362349346746	-31.5795663859841	-64.3235834175172	-26.1150974358072	-0.507600446720111	-44.9772426949643	
25702500	-0.493162375815727	-72.5229236659318	-56.7380774511648	-69.9749104469698	-57.1409072134175	-67.5068496407094	-0.681985592355362	-45.6731232542598	
25952000	-0.567128199352609	-75.2514295738507	-54.1807090319619	-104.139261748389	-54.5422132896905	-103.762604759945	-0.834415722824292	-46.897135010935	
26201500	-0.484961909085352	-77.6889362473137	-53.3370461488347	-135.504800382957	-53.7932851269417	-132.255911699454	-0.857820368648136	-48.0960776252505	
26451000	-0.354048560378551	-79.1788500466212	-53.085372477928	-163.322470010532	-52.825428866336	-158.864052006119	-0.756871665026991	-48.4913914698453	
26700500	-0.294388996446913	-79.9250685084648	-52.3682673719431	172.861317801485	-51.7136398140056	174.161605117341	-0.614733725245219	-47.9813663553606	
26950000	-0.351445727166751	-80.7402807681928	-51.8862240848792	149.306158519352	-51.5190258244691	149.160911336585	-0.534917190238422	-47.235739889183	
27199500	-0.475428635088982	-82.4863154588647	-52.1742758603516	129.468433573243	-51.6890347129669	124.905178929164	-0.573128821393872	-47.177293713763	
27449000	-0.553714024749825	-85.1438514672753	-52.807642019882	109.169921801587	-52.4206586780657	106.429370109502	-0.68262588805912	-48.3267678227875	
27698500	-0.486882946995002	-88.0637634890152	-53.1407021839249	88.6905616459236	-52.8179467261544	89.6856816899006	-0.820910579074199	-50.2539346479887	
27948000	-0.318830457354205	-90.4542234968928	-53.354856806419	76.6497451914498	-53.1534520985236	73.097762353262	-0.907375274176605	-51.3781292717344	
28197500	-0.183621542813444	-91.9707931301668	-50.5383907659728	65.0705081918162	-50.6862697079145	63.0112957074296	-0.779059289707204	-51.0717862167331	
28447000	-0.167688358441759	-93.131438219601	-51.151294691206	32.7898627076633	-51.1828586751413	31.5250758306334	-0.580796546072336	-50.5848797340263	
28696500	-0.299079649808005	-94.7790324859897	-52.3399573124337	15.6295345072578	-52.4034343357248	14.7468745429916	-0.547200461991557	-50.3157251779879	
28946000	-0.447667645294021	-97.1967932648124	-52.7501581899724	-0.790175983011018	-52.7646285464801	-0.516124321023061	-0.661370829163571	-50.637722884076	
29195500	-0.487849858859052	-100.200290301196	-53.078473739533	-13.0052958544927	-52.81830860113	-12.4380736831092	-0.819492635092761	-51.69928863205	
29445000	-0.381626693198848	-103.044403552161	-52.2815632883915	-25.6737929497666	-52.3153228748269	-25.5022202486495	-0.887602802497552	-53.207690603451	
29694500	-0.215810003917505	-105.156135718705	-52.1701982933395	-38.232382479817	-52.0057228620022	-40.8211465999836	-0.829306559205766	-54.342562334276	
29944000	-0.137564918186549	-106.544626472818	-51.6641626829886	-51.6005519279315	-51.7856543008102	-53.5231160645121	-0.710668185773717	-54.5265578688436	
30193500	-0.222876650864692	-107.93058986407	-51.695167741855	-66.3208073707359	-51.4001557170109	-66.881683946887	-0.648778297693373	-53.9448922425847	
30443000	-0.395723974111701	-110.045585086395	-50.6320263170071	-77.4217934701615	-50.6374763549088	-78.7203641690471	-0.728025676556399	-53.2321458067344	
30692500	-0.523719440129237	-112.949665424707	-49.0146364217019	-93.6299637272804	-48.986341184786	-94.5440602086085	-0.878958755299901	-53.120261315635	
30942000	-0.503093228434714	-116.05754249961	-47.5591178396779	-112.528022398586	-47.5369659656589	-114.41556922499	-0.988644639432892	-53.8947783762544	
31191500	-0.353098476484581	-118.674742050288	-47.156310882646	-135.638229273209	-46.9734668080202	-135.773819710774	-0.963145213095174	-55.193749187204	
31441000	-0.201931884613213	-120.557278686575	-47.4914733108452	-157.149544479823	-47.4078276123039	-157.830561794086	-0.795357244237044	-56.276373109793	
31690500	-0.210337277758847	-122.224771380933	-48.1055621080914	-165.825295429515	-48.1136134707928	-167.140438604077	-0.611528190168481	-56.6255269199261	
31940000	-0.405726807566544	-124.189923292753	-45.346499714054	-177.886384048865	-45.3338433493243	-177.904115575006	-0.552291828535637	-56.459953880516	
32189500	-0.596272670391444	-127.002504635697	-44.1776999962738	159.502835084846	-44.1372355114919	159.484515485569	-0.662900609480631	-56.4112183031955	
32439000	-0.681989486123941	-130.767477841511	-43.3938337066185	140.857749509908	-43.5506387445908	140.831669919136	-0.856469439322198	-57.0592560025219	
32688500	-0.6489035328769	-134.594229141157	-42.4035293589247	122.848719457513	-42.4273231192276	122.341547613522	-1.01336848475771	-58.2485546390024	
32938000	-0.613459257791832	-137.917024749094	-41.0037446366829	102.12366023542	-41.0209167770446	102.287254515044	-1.03276221722693	-59.3822797644853	
33187500	-0.788162828175913	-140.892764050404	-39.2322318518367	82.8230724669952	-39.1894281812569	81.9989241394317	-0.8795329580789	-60.1333038692897	
33437000	-1.41954368885282	-143.945695471244	-37.0551557290061	56.3060960164383	-37.0104749810156	55.9299018117916	-0.767811067136951	-59.8310082869015	
