!Keysight Technologies N9923A: A.12.45
!Date: Friday, 08 August 2025 18:00:34
!Timezone: (UTC+08:00) Kuala Lumpur, Singapore
!Model: N9923A
!Serial: MY61181427
!GPS Latitude: 
!GPS Longitude: 
!GPS TimeStamp: 0001-01-01 00:00:00Z
!GPS Seconds Since Last Read: 0
!CHECKSUM:0293324528
!Correction: S11(ON U)S21(ON U)S12(ON U)S22(ON U)
!S2P File: Measurements:S11,S21,S12,S22:
# Hz S DB R 50
2000000	-0.0991816902929802	151.248105021562	-75.5022636657812	170.851447957164	-85.7973020918093	144.149972569217	-0.0313034136837682	-3.12883842761201	
2249500	0.0172813018327729	148.182414041674	-66.8176868292507	120.571187367854	-66.860919737252	117.100000535565	-0.186118877405421	-3.78090503295854	
2499000	0.00638583253992741	145.344947365169	-59.4669726213963	9.64498129788226	-59.1960192912617	9.00752025567758	-0.244215604448755	-4.27929616827673	
2748500	-0.120927141985161	142.193134998592	-59.7744496158781	-18.7926392641583	-59.3944906692917	-18.8761363086732	-0.151784787911559	-5.39156254628047	
2998000	-0.280014757579758	138.419873961232	-50.4286948017614	-57.0858266903678	-50.1853487058328	-57.6428102667771	-0.0234330679586905	-6.0766164167508	
3247500	-0.286890019014995	134.780650612086	-54.145150066837	179.183655413261	-54.0231970890074	179.371349049644	0.0728500450464732	-6.02686593788629	
3497000	-0.172955067350326	130.936306694294	-59.6442823981594	164.47527146806	-59.9073101804645	163.851106716353	0.0522128747628493	-6.10958039607712	
3746500	-0.0303699011870992	127.804066058558	-59.3909969660367	158.270349125449	-59.4784437180841	157.998748300943	-0.0734487320381205	-6.45308061020209	
3996000	0.0110728150788713	125.090369186906	-57.6886274227179	142.565726887989	-57.9278165895728	144.232197294911	-0.196625266821891	-7.37806785975922	
4245500	-0.082940009083886	122.230041598743	-53.1419169282593	132.166246355127	-53.2126941829017	132.41046444605	-0.225956086516191	-8.66040914163732	
4495000	-0.258504430129265	118.746905480876	-42.2888841658271	95.1128873061899	-42.3048306257763	95.2064777396872	-0.198414906529282	-9.86890692312926	
4744500	-0.313979984080167	115.411304722694	-43.3605828854406	-23.5257931958532	-43.2799678945323	-23.7909881418793	0.00739615528238433	-9.39982706237631	
4994000	-0.246156540594717	111.578971905591	-44.8724753704197	-60.1327568044692	-44.8386974129136	-60.1086362153079	0.0665604351228855	-9.76253559084158	
5243500	-0.106620253161944	108.47547669167	-43.5916201937739	-141.281558035467	-43.5187259919723	-141.0662813459	-0.110361388092446	-9.04250992830194	
5493000	0.00220498091355496	105.818266959089	-51.997393131166	165.254727931024	-51.8759592462926	164.373357147345	-0.133255717971715	-9.16656218755945	
5742500	-0.0486435730272903	103.180556089821	-57.1832374485354	146.072321558312	-56.9405189995186	143.377339400277	-0.217948092724767	-10.2907277205823	
5992000	-0.228497484314951	99.9076269125185	-58.2408410710917	114.99403969013	-58.5490988256832	114.781246941664	-0.203804509648558	-11.583594510711	
6241500	-0.382242473989618	97.6617944692074	-75.5527178588675	176.001507419714	-75.5015316971196	174.566318529085	-0.0558905301234003	-12.6361529090978	
6491000	-0.296624872015545	93.5796148800385	-63.4440791933547	133.271214363838	-63.1836819593377	135.545385472418	0.0355883120235278	-13.1292189357662	
6740500	-0.158556369078985	90.2292073456042	-59.1199425474748	109.67459548226	-59.0073851595299	109.153191154576	-0.0242788293605482	-13.4206255027453	
6990000	-0.0257478991955738	87.5876642794986	-58.7586410178034	29.7766234605601	-58.2800695737956	31.470065974534	-0.207509352326629	-11.9569449968772	
7239500	-0.0174498901611581	85.340314964711	-66.6979046326843	-4.86804936175752	-66.8379238992457	-4.3493578784864	-0.187590441155793	-12.6263003482517	
7489000	-0.136727995845663	82.7965602027528	-72.2520963835053	3.62091774476102	-72.1133680744414	-3.0650366040741	-0.243215710659685	-14.0589852856638	
7738500	-0.28395140241928	79.6709733360437	-67.9381801810208	58.2777244810766	-66.590767812073	60.8708113144439	-0.21493145948465	-15.5419855573244	
7988000	-0.3283669628813	76.1985528354621	-61.8962962595479	-6.5938262799975	-62.5487758803047	-17.5779035630859	-0.0678005981945112	-15.9274274339741	
8237500	-0.243876514938461	72.8424174928331	-55.5773933475386	0.407073972051497	-55.6258767115237	1.43426894305811	-0.0236641027093516	-16.2088241444176	
8487000	-0.0930094520883932	70.1470418287171	-53.6596191319729	-61.1344872526429	-53.5136330718051	-62.0323265225286	-0.0405196093197445	-16.026487799781	
8736500	-0.0306584084509641	68.0144610258417	-49.8806704356644	-120.210773342596	-49.7860962015292	-120.059431207564	-0.245300286823091	-15.7771968108125	
8986000	-0.109136600643272	66.0067132511903	-50.6681971400449	160.522296682164	-50.5281513412635	159.347270511641	-0.334903103547699	-15.7066800060785	
9235500	-0.254488240857238	63.4251077376551	-55.4100763298918	93.1321875779812	-55.0464659735546	93.0162685704315	-0.309625632260044	-17.0056362384687	
9485000	-0.350077594942442	60.2037628712757	-61.2492246140367	45.7992850268575	-60.7428497263593	42.4726137038116	-0.196296627002092	-18.3100293344168	
9734500	-0.308850681807875	56.865680978408	-66.3458317111153	4.05434903420906	-65.7469351648352	5.62254541379844	-0.0402213791861514	-19.0821653175055	
9984000	-0.159114284287535	54.0078978252319	-70.901940060029	-27.4064732554816	-69.3823626226201	-25.0705946402154	0.0421758440822771	-19.3271435087835	
10233500	-0.0323455992478825	51.8373801331003	-70.2737765205252	-73.973046034502	-70.4583574987553	-71.6664390698126	-0.0409895085722594	-19.5040771923621	
10483000	-0.0336213742275431	49.9648075523454	-68.6303624847846	-115.158501760694	-68.5838038400294	-111.122604273407	-0.284925271190001	-19.9719283927971	
10732500	-0.165911671833807	47.731677390893	-67.0081121799485	-162.352330058308	-67.6854307890456	-160.069617249301	-0.564050242753711	-20.1629407006315	
10982000	-0.316907795372001	44.8440413967992	-68.4678289840364	155.967574987393	-68.2969128450704	149.682937022735	-0.512643643635308	-20.1406935820494	
11231500	-0.351968826222699	41.526253046418	-67.7769112917932	125.229522840547	-66.9191578338803	121.499280571754	-0.276574488846894	-21.0283971592928	
11481000	-0.245467243152509	38.4779680883174	-64.9759811937327	125.543178011918	-64.7910836333487	116.332988143375	-0.0630655127560585	-21.7212702700036	
11730500	-0.0882315811780264	36.1431766402718	-60.4437187848006	75.4719531338316	-60.7905098916503	73.7710069040847	-0.00965102874245236	-21.9750987206561	
11980000	-0.0155890151653965	34.3215338081001	-60.9937897006591	19.2298535417252	-60.8434986198992	17.896877248189	-0.156646718874407	-21.7179637984374	
12229500	-0.0962412432547956	32.4615606686321	-65.7979874664868	-21.6515692964008	-65.8617263015285	-24.1336812804322	-0.252912682928888	-21.8696306214617	
12479000	-0.263500814679729	29.9469137327868	-70.4495491358246	-14.8512181974831	-70.5104180719512	-19.0274327992998	-0.33922815990073	-23.2674170174083	
12728500	-0.372926942096693	26.764831183107	-67.9456870129665	16.1941361373138	-68.242035197775	11.0715498138102	-0.337914367995026	-24.9757461903332	
12978000	-0.328039780737132	23.4226593851198	-63.1369638311248	8.45281442894153	-64.4393849894891	5.92576247028599	-0.299681174069803	-26.1584662953226	
13227500	-0.177141115792203	20.6158965252764	-59.7176498793371	-29.4787504759285	-59.7669291378115	-31.0416918385371	-0.327475298134114	-25.6590264177121	
13477000	-0.0505745248744208	18.4882944769854	-61.5143517155521	-60.9829742748301	-61.2888185690943	-63.81677911607	-0.166936327705041	-24.0891403081004	
13726500	-0.0624832915263944	16.5799595603666	-60.0330398706407	-62.382035772845	-60.1798795559538	-57.812199847497	-0.182038980474034	-25.0986713061881	
13976000	-0.210755742192037	14.154976451572	-56.1838632097434	-83.4958409411678	-56.044735885288	-84.1177536561952	-0.50862263233569	-25.6768785382618	
14225500	-0.379917983370841	10.818890757779	-54.711045039942	-115.572061426448	-55.0198584400313	-115.840943751158	-0.572955246554281	-25.7435863084247	
14475000	-0.432655457191326	6.79363826386585	-54.3625692645094	-137.401163625574	-54.5573265165531	-134.778898262447	-0.408040192252473	-26.7223750486444	
14724500	-0.343718328995513	2.71910961727796	-53.7023552462327	-151.430187096743	-53.6096577834634	-150.452319714605	-0.187229738671107	-27.6241806112074	
14974000	-0.242251422677625	-1.14356835101469	-51.1886031796224	-167.580525578598	-51.1478732693066	-164.647442952332	-0.0475890953541416	-27.9913076734657	
15223500	-0.298019884858294	-5.33287982732831	-48.114625584845	-178.169395410042	-47.6241985869653	-175.577422084519	-0.0757394175153567	-28.1757535297691	
15473000	-0.714587101528549	-11.7079663893083	-41.8995037026632	152.228305748086	-41.1413423819357	151.251681193508	-0.289280773804943	-28.4905746780581	
15722500	-1.7964567168534	-23.5563582604413	-40.5152887060743	95.7539539271354	-40.2641061066135	92.6084675706972	-0.414237509796023	-29.205550523604	
15972000	-6.778602749764	-46.15199988062	-36.9413964626024	68.7124985349789	-36.9648592895952	66.7101217226206	-0.552414529866534	-31.0043597234427	
16221500	-8.15000609330766	45.0187318222326	-34.6315888470207	1.67955523376438	-34.6240087508167	0.508678816009484	-0.611125951416143	-31.8612499123882	
16471000	-2.24506872469143	25.7417351934921	-36.9707739002395	-54.394401948632	-36.9788565073166	-55.4518699878045	-0.520503631305308	-31.1823628566438	
16720500	-0.935257111084899	14.5059658354583	-39.9467382877269	-95.7778305357326	-39.9190108371962	-96.7433577101502	-0.344443772733147	-30.0722754515288	
16970000	-0.494986047843245	8.49855464886235	-42.9546044848887	-129.871107928903	-42.9220700940336	-130.182320144286	-0.273220652411603	-29.6252131959918	
17219500	-0.428081762863918	4.22918170589946	-46.3050160325946	-158.984486365227	-46.2641864453317	-160.445335824408	-0.349555429904668	-30.2521015660424	
17469000	-0.51368682746988	0.147387273683911	-49.3233414707416	-168.394323697205	-49.5313095544303	-168.297122082915	-0.472020965649895	-31.3220392980016	
17718500	-0.543293826164539	-4.05441193077559	-50.4643462797552	176.827994128537	-50.6020697562247	176.857557709622	-0.455933384560958	-33.0221592401708	
17968000	-0.43013147434678	-7.89458675459877	-51.1932660768093	162.302843228626	-51.1660658569852	161.697166753562	-0.348393393408737	-34.4879365471977	
18217500	-0.233835959868805	-10.7571327675724	-51.2408657268876	146.973684423153	-50.997916126397	144.880976277838	-0.255917761650556	-35.1623615124629	
18467000	-0.104487355214543	-12.6983990046367	-50.6771133046273	127.572470433967	-50.6595228565815	125.837170815559	-0.315639976737434	-35.0284099034421	
18716500	-0.13445831360987	-14.3586478982295	-50.6581929661625	101.352396206259	-50.4114274035509	101.14355351425	-0.533753718584996	-34.2624308012905	
18966000	-0.283106872240867	-16.4720140752157	-51.4146429688745	73.7872427325777	-51.2330044078392	73.3680631700592	-0.712220996048684	-33.5342827374592	
19215500	-0.418962943755699	-19.2984836557332	-52.6284648409451	49.9794529630937	-52.7389152989961	49.7294299949964	-0.721379976433886	-33.9798678588414	
19465000	-0.414401907739083	-22.4363579295737	-54.0809578305421	30.0798155525542	-53.9822058112555	30.5602298723917	-0.5866272584345	-35.2935474132999	
19714500	-0.269028644214269	-25.1099730189481	-54.9997664344952	15.6666059258997	-54.8815215256735	15.32425979031	-0.376459617038795	-36.481519551387	
19964000	-0.103178535794522	-26.9370675943665	-55.5512267688602	4.21148380973967	-55.446357884533	-0.100861433555751	-0.217734554465822	-36.9682946955692	
20213500	-0.0605397307617622	-28.1997152045817	-55.7512082597553	-14.9888256612419	-55.5675358167471	-14.3827962652421	-0.227068498503486	-37.0208859400443	
20463000	-0.168124911691102	-29.6579092324365	-55.4077358156552	-34.1299866393514	-55.3705290763421	-31.4752472878328	-0.41863658077364	-37.0919570903999	
20712500	-0.337879643100499	-31.8406984923398	-54.9090350497312	-55.7976140078448	-54.6433213839476	-56.2561209818334	-0.670871670159669	-37.4193078524448	
20962000	-0.422667008623446	-34.705837796312	-55.3931090118286	-79.8246658601483	-55.1590821943463	-82.1774480673979	-0.769762597108546	-38.0341405281888	
21211500	-0.353005141815193	-37.5681155308198	-56.9155775458111	-101.533810520232	-56.6081662676282	-102.008744420217	-0.648946346904054	-38.9317735285779	
21461000	-0.180302648670299	-39.770626772682	-57.4275594358052	-113.081145361102	-57.2935202539857	-114.507448476619	-0.436752278155268	-39.7654860808021	
21710500	-0.0637274552934091	-41.1973604334597	-56.7373655385429	-129.172203005445	-56.5636282678425	-131.206253167451	-0.329131941777549	-39.8940350750511	
21960000	-0.107437484517638	-42.4565822543508	-57.3960224619389	-155.800288044199	-57.1447123628564	-154.960940079851	-0.363781906081981	-39.5729960997893	
22209500	-0.311461566696968	-44.2951216896279	-54.7012415051887	-147.034892053744	-54.7337150513889	-149.543286369548	-0.535559570270101	-39.6725880764503	
22459000	-0.625938823835381	-45.6419346315131	-47.6911814534128	140.140701656575	-47.6229726008814	139.108752684556	-0.726100618354321	-40.2886091199107	
22708500	-0.411226744859244	-48.3329952985038	-57.0748835044818	59.7935050002311	-57.0497479784356	56.2742297060165	-0.764965318206196	-41.2950215736897	
22958000	-0.260014556966487	-51.2201776116132	-68.6327412723926	45.9162399556183	-69.3682099491371	48.3548072384	-0.623869479276297	-42.3345884710945	
23207500	-0.0883920644466667	-53.0993277076626	-68.7343340210567	102.926258292984	-69.4490882776453	107.008673283294	-0.431414517105963	-43.0644075046447	
23457000	-0.0287199774648587	-54.3278869212176	-67.4951245394184	85.9443233393471	-68.1547195536435	93.8378835965908	-0.399210648775402	-43.0657590056362	
23706500	-0.12871339937451	-55.6778084308022	-71.4457301946998	63.4278361071427	-72.1729043936364	51.616100589076	-0.52308383904719	-42.3016865817921	
23956000	-0.299354317068053	-57.7620366019312	-75.8593322856013	112.56301840136	-75.072638725958	111.658464016064	-0.658157274742627	-42.0427865923481	
24205500	-0.399699058280705	-60.5714028164116	-67.3847481715308	92.5471811869607	-68.0099558436572	96.8856082691776	-0.754333901937272	-42.942814534743	
24455000	-0.347744355512072	-63.4894946011536	-66.5988569503687	56.8940853227258	-67.2750299228077	61.724302467792	-0.733428502629369	-44.4380491530808	
24704500	-0.181216138673502	-65.7769963724583	-68.2592335080227	17.6595041037397	-69.554865530732	20.031726122242	-0.60430300792284	-45.5678764392478	
24954000	-0.0649419417463772	-67.272475804026	-79.1970939451768	115.062101709796	-83.2917107583848	132.022328386106	-0.483677947150385	-45.9407863425881	
25203500	-0.108190454052743	-68.5140549883089	-63.377443475464	118.666808635005	-65.1181346196147	120.067053071702	-0.475537447263979	-45.5810188632276	
25453000	-0.304595643055588	-70.1710848985452	-58.9290951288918	81.2768258851696	-59.124055225652	86.1256357908234	-0.608847695175268	-45.1073894150528	
25702500	-0.503693977244997	-72.5145523228472	-56.400343085807	49.4990820822351	-56.2992828525403	48.3753403128422	-0.791226421220551	-45.1944412682139	
25952000	-0.580773270711045	-75.3007157723072	-54.2140411789699	12.6007053714154	-54.2535829561249	13.4726839289712	-0.882945907792866	-46.0414286233832	
26201500	-0.48974224205616	-77.7841264207644	-52.6432853162519	-16.9651635478073	-52.9168155171271	-16.9857206240555	-0.810585470427966	-47.2388803951819	
26451000	-0.347335707795968	-79.2744659022022	-52.5107520751151	-50.057366094889	-52.4743178154012	-50.1637940952703	-0.614755777707994	-48.0572494049634	
26700500	-0.283718019545913	-79.9789302673558	-52.8956504934633	-79.6583925208827	-52.5165002291871	-81.2936423098918	-0.438708108326529	-48.2604588199592	
26950000	-0.345182030159157	-80.7460127399941	-53.3894315513148	-108.386421090395	-53.4414317618929	-110.491664455925	-0.424979966207241	-48.1329257280614	
27199500	-0.479024043943025	-82.4872388365761	-54.8485224805906	-129.860921458911	-54.2165111981061	-132.025025877008	-0.606697444691048	-48.151578696298	
27449000	-0.56428592770084	-85.168140502882	-55.5016060434413	-148.33566787453	-55.9336155687415	-151.313841184347	-0.837044397967167	-48.514458090257	
27698500	-0.496567593518038	-88.1359574116741	-55.8075089087751	-162.194060466199	-56.4546288027343	-162.735178055537	-0.909158132651776	-49.3567428686793	
27948000	-0.318093883159182	-90.565972837412	-57.3858263897409	-170.258694884032	-56.9912084588014	-170.274189385985	-0.784833140837592	-50.6395790735585	
28197500	-0.175398543400526	-92.0743746346329	-52.7912918195226	175.276831342566	-52.8308791466975	175.327510537243	-0.602346079927567	-51.5602823323407	
28447000	-0.1589064528783	-93.200386117228	-53.2245228113533	140.357981553563	-52.8449795536562	139.580879230847	-0.509383054990708	-51.651145505306	
28696500	-0.29893666500426	-94.8217592019562	-53.7163778540132	119.451024006397	-53.7536674290944	120.528973106721	-0.584999755803783	-51.2085977933877	
28946000	-0.455737089334212	-97.2543564879709	-54.1494079476849	105.030311866006	-54.2015824043166	100.638934932889	-0.766627800703883	-51.017276246061	
29195500	-0.499274819600335	-100.287526994696	-54.4319521939646	86.1993403840918	-54.2873671043013	83.4383656993666	-0.933224404666071	-51.544280203518	
29445000	-0.384124450335653	-103.129128752477	-54.9565977204729	65.2957574078599	-54.4862427028224	65.1452570884139	-0.957985495375557	-52.7004291438084	
29694500	-0.208283468329937	-105.213543695972	-54.3328107289978	51.3177361002671	-54.5157381929041	49.5585542308522	-0.821622463017787	-53.7592567036003	
29944000	-0.12547688450074	-106.549019363712	-54.1806910137296	35.386493665139	-54.4176596685492	34.3316559455202	-0.628146295967859	-54.1401943403768	
30193500	-0.216388163515983	-107.90242332866	-54.1641806736839	25.8024668996748	-54.3030524574129	24.4685669712546	-0.528542006245174	-53.904918834407	
30443000	-0.401073699427802	-110.031846840715	-53.6528888652198	11.9171802747208	-53.6962937149883	9.01014922990668	-0.616587476475256	-53.5857052654177	
30692500	-0.537822857563159	-112.99985049832	-51.7360578279489	-5.00867727675066	-51.7530436011766	-5.5270398292605	-0.81433711740534	-53.8548388640291	
30942000	-0.51367141321208	-116.185214810137	-50.0222784593713	-26.2303819566563	-50.263050451709	-26.8614493483339	-0.994317401017565	-54.921001548919	
31191500	-0.352600347386671	-118.813163248717	-49.1923222430422	-51.861234168647	-49.0190218681636	-53.0922271324067	-1.04157985140179	-56.2899872830793	
31441000	-0.191610334136361	-120.652861874966	-49.2615216845736	-75.2180973310808	-49.1623885476846	-76.0768111980448	-0.921331736957673	-57.1055255751769	
31690500	-0.200091991213681	-122.248499229417	-49.9787179811851	-89.3795009204888	-49.6767451516648	-90.7717198575824	-0.747494206313377	-56.9529207184701	
31940000	-0.406108056845542	-124.172758672083	-47.5634265688846	-105.202357606849	-47.5848536910548	-106.51334355571	-0.670122974715812	-56.2614175255127	
32189500	-0.60718836314259	-126.987413776532	-46.6796660400845	-132.409453728527	-46.8739433671236	-132.944642961406	-0.740779439192274	-55.7410121494009	
32439000	-0.694476288991366	-130.807015925108	-46.3405096227152	-152.875791993573	-46.3839625337063	-152.761087006466	-0.880837009585842	-56.1757178000445	
32688500	-0.651335923337162	-134.68313738405	-45.790736237832	-171.312906869437	-45.8235627436689	-171.119670595134	-0.983562780346279	-57.4992618722668	
32938000	-0.602289742030938	-138.002318454917	-44.5725369454436	172.112717157841	-44.4020177862667	171.475989482001	-0.98533652238351	-59.094705628714	
33187500	-0.769708290727825	-140.952024666284	-42.4611300961137	149.048425042787	-42.3310775503274	147.533080587763	-0.821884485708011	-59.65551653973	
33437000	-1.410474765498	-144.010120439259	-40.381976533403	121.593618581416	-40.2926371498753	119.946714517082	-0.657905914162543	-59.8149453103173	
