!Keysight Technologies N9923A: A.12.45
!Date: Friday, 08 August 2025 17:49:13
!Timezone: (UTC+08:00) Kuala Lumpur, Singapore
!Model: N9923A
!Serial: MY61181427
!GPS Latitude: 
!GPS Longitude: 
!GPS TimeStamp: 0001-01-01 00:00:00Z
!GPS Seconds Since Last Read: 0
!CHECKSUM:1976676344
!Correction: S11(ON U)S21(ON U)S12(ON U)S22(ON U)
!S2P File: Measurements:S11,S21,S12,S22:
# Hz S DB R 50
2000000	-0.0909325622931374	151.356155939421	-76.9848720130899	-171.628530919755	-84.6787845592645	-149.427377072651	-0.0411896797345618	-3.42961229720182	
2249500	0.00744119127619537	148.243917163815	-76.6690607179599	154.799581621636	-79.8795417744261	171.500947866406	-0.154133959937184	-4.02006590620967	
2499000	-0.00280155217179377	145.3056324116	-67.0480406356233	139.96580138463	-65.5211111009881	134.447486353186	-0.202166442641092	-4.97331933104385	
2748500	-0.12919518915202	142.091838429586	-48.0530985989485	78.2498849103266	-47.8583193117036	78.6866369046683	-0.207684774294302	-5.86856886964412	
2998000	-0.231958498741246	138.50364900807	-52.2142492757538	-31.2282265078602	-52.1837853178597	-29.7592076630498	-0.0226857373040377	-6.12644704555077	
3247500	-0.279733787929282	134.86818867657	-51.5302178012474	-147.922900967145	-51.0482685100946	-150.315719143204	0.0493840510292047	-6.12847862153071	
3497000	-0.15282973610043	131.033449927708	-61.5121311175038	-57.0849124220077	-61.4644088695792	-58.7523055829267	0.0227619283819917	-6.39909175231997	
3746500	-0.042605555139668	127.891729297394	-49.6892915200409	-113.633312580157	-49.6311909886513	-115.06974616327	-0.192538155476807	-6.27507569710668	
3996000	-0.00380058565230452	125.13728314829	-52.9427746523283	178.160849121522	-53.2194627787775	178.248799711832	-0.200280089108856	-6.62090222491113	
4245500	-0.0820202987000477	122.21633202122	-54.9623839388498	159.103983750166	-55.093074148527	157.595951694164	-0.196241085080386	-7.80817085466737	
4495000	-0.207330141142259	118.834365191652	-53.8320298161535	148.107757763747	-53.6315267634738	146.957147815409	-0.104677518937949	-8.79158593072349	
4744500	-0.283269528536107	114.938988687787	-46.8365064946183	128.801438255193	-46.8518955337378	128.079040568178	0.0104826379485681	-9.3508201879169	
4994000	-0.23783467658773	112.05269867904	-46.2178284350821	-6.17424763530727	-46.1506711421944	-6.27567265935541	0.0545262622286552	-9.13214295119655	
5243500	-0.0847514384892878	108.598779425156	-55.4542303506806	-30.8347378998861	-55.5064799474429	-31.2332335125939	0.0155590973734385	-9.3552847128562	
5493000	-0.00755510750195655	105.837769754441	-59.7006656237196	-44.0398233314428	-59.5377396715765	-43.398888995108	-0.105156360303689	-9.87159766020572	
5742500	-0.0554908147454129	103.122874017829	-60.9873808040726	-50.7513535217743	-60.6023497939729	-50.1042418525519	-0.199231736370147	-10.9076458512167	
5992000	-0.215770328093055	99.8208558422724	-60.205723957749	-78.0420071448395	-60.2322276900367	-74.3651750611115	-0.198032169139958	-12.1374961529442	
6241500	-0.343318832517539	97.6338023398589	-67.0440006706882	14.1132965293171	-67.3272371014687	19.0310589429123	-0.117790223386645	-13.349417923099	
6491000	-0.265776343850558	93.6558361468894	-63.6341334007204	-59.2971190342103	-63.9080000343	-57.8195497584405	-0.0156669222934204	-12.2326505784344	
6740500	-0.14780749796778	90.3531658349149	-61.3773330824073	-63.9817451083901	-61.1629705795975	-64.776469902809	0.0499048054555923	-12.9830611108234	
6990000	-0.0354576939745917	87.6625172568169	-57.1592885482646	-77.5125783703276	-57.0533306377416	-78.5157937323118	-0.0864719969079795	-13.5775220814945	
7239500	-0.0313251567231852	85.3215987625713	-51.9006658980605	-118.981928830045	-51.9215882979881	-119.089323405618	-0.430771583720367	-13.9945502015559	
7489000	-0.134163568475439	82.7225927842615	-52.7836840783214	-178.601686715029	-52.8007175276449	-179.520103377796	-0.430179330053355	-13.0453100139555	
7738500	-0.25847917976059	79.6209996517458	-55.9692352691011	149.733292763343	-55.7620086328633	148.839799216526	-0.236071525232718	-14.1585708261531	
7988000	-0.294476864359066	76.2285104410519	-57.9220833868304	131.466650363327	-57.9434996398222	131.596143988839	-0.0645887534905757	-15.1060215403263	
8237500	-0.222066699389629	72.9509907257889	-55.9009952048846	143.831092491353	-56.1791350377979	142.820006540343	0.0276057293937179	-15.4419193004192	
8487000	-0.095062765155388	70.2378407121006	-53.8364539176886	115.78798625272	-53.8688896457916	114.335055227053	0.0447260766736234	-15.4989846295914	
8736500	-0.0452641315296142	68.0106870845896	-49.8774166111435	87.688225181667	-49.8617080129437	87.3636659461516	-0.0656698780750369	-15.9349045001094	
8986000	-0.124465161519619	65.9635872833328	-45.6684268090515	31.6616449730285	-45.6917249367054	31.8839392053846	-0.238838162282385	-16.8182952724137	
9235500	-0.231109264591877	63.3876309748447	-46.7128303133449	-29.620738883677	-46.7248828092492	-29.4131450353512	-0.311079845909498	-17.7575010182217	
9485000	-0.310916260023229	60.1699725704125	-48.1606670904414	-75.3378033056804	-48.1873834452435	-73.979191413925	-0.272424451869559	-18.7256546367349	
9734500	-0.28143587285195	56.9273535996982	-48.9505288436212	-129.135854585029	-48.9966292453011	-128.71249613534	-0.191672751629011	-18.8121019833417	
9984000	-0.154497530141852	54.1352547247906	-53.0920704086212	173.33259922175	-53.0163671410555	172.939162803319	-0.0315708073105081	-18.4653428150232	
10233500	-0.0452142502145481	51.9031177367489	-57.776637307383	139.224183801579	-57.880223348528	138.936041536667	-0.0227117707170682	-18.7747187439093	
10483000	-0.0465880052585845	49.9276286440504	-60.4715086099435	110.242385907374	-60.2613407241223	111.944051923311	-0.150856880257006	-19.516683277894	
10732500	-0.160756768811445	47.6370661293522	-60.9843803846513	82.3003014411012	-61.0713638202936	84.3090920596383	-0.324761546659583	-20.8557251137842	
10982000	-0.289358467086951	44.7883707192051	-57.7426876186382	35.0910926879337	-58.1016689576674	35.3298299137868	-0.521285116001397	-21.9567435992413	
11231500	-0.317466667580141	41.5858381358329	-56.9209599645009	-28.0852120812012	-56.4205511352683	-28.8886735194471	-0.383051164693615	-21.2950118243798	
11481000	-0.226568311285231	38.6146622668688	-59.881628222749	-104.984340226654	-59.1894492869206	-110.592238467524	-0.147629199696996	-22.4230011717898	
11730500	-0.0929138733557216	36.249409927699	-67.3933504068204	92.440746435424	-65.7320602605058	80.8036201571648	-0.274138308127894	-22.3861660138957	
11980000	-0.0315870007270217	34.3282094044803	-60.8583222895633	-52.849425361908	-60.5413861871837	-53.9004069225372	-0.306760319615411	-20.8713647831107	
12229500	-0.101651942261937	32.37516564194	-63.0547345062706	-132.038048788053	-63.4684903806809	-129.097528480483	-0.361868092660864	-21.1645860140213	
12479000	-0.243833137238172	29.8401402558431	-69.2006797305125	-118.178733357192	-67.4831978470763	-117.09253212994	-0.356541778715233	-22.0162012164333	
12728500	-0.337970128499471	26.7479144285875	-70.7498058888924	-118.974885755218	-69.5453505126926	-119.699919375832	-0.272276076498842	-23.5037152044347	
12978000	-0.298616401634828	23.5222361427506	-69.801143602683	-123.577741081834	-70.4402651414127	-119.531170629328	-0.137239859736804	-24.6303482596247	
13227500	-0.171677905690113	20.7503568783323	-68.1789624210942	-108.842134977522	-67.1119384394463	-114.611423023296	-0.0227200800431103	-25.1460028559267	
13477000	-0.0634225120466427	18.5509221350914	-63.1621427090713	-112.347067618041	-63.0367163678766	-111.574073623429	-0.0101985213676869	-25.3465304259722	
13726500	-0.0752022339821893	16.5289904259261	-59.0167893251699	-120.742949529535	-59.3685998144303	-120.903349590631	-0.130611879664475	-25.8346470714275	
13976000	-0.204737815998935	14.0441861414084	-54.6500170550347	-134.479654408261	-54.7493847532102	-135.346713227399	-0.352232337545916	-26.9807468861222	
14225500	-0.351768675189669	10.7578882302609	-49.8139883264706	-159.334677459881	-49.8600938563068	-159.245950303639	-0.655208276727884	-28.2165129431173	
14475000	-0.400104257883597	6.87279721820797	-46.6194518247536	153.255837004202	-46.5342488809241	154.185426484878	-0.781751740354933	-27.0073419022154	
14724500	-0.329190700628487	2.89282392175119	-47.0222902779327	116.874931188382	-46.7369366820932	117.069867499269	-0.379121501979191	-26.4221989097383	
14974000	-0.249039537251503	-0.994494504131453	-47.3323656636832	102.89920866175	-47.3232748724953	102.235421285517	-0.0993705657124904	-26.9506050215082	
15223500	-0.308575141557075	-5.27740518578059	-44.397829828819	82.2958697232381	-44.3336245653104	82.2942675282615	-0.0677611902245365	-27.5993211520955	
15473000	-0.689473706000206	-11.8414050393504	-42.4173979924462	63.3719656030305	-42.3687937899029	62.7738420082211	-0.208644727636627	-28.539524504598	
15722500	-1.78016217845061	-23.9288852388359	-38.3489210554267	35.5985244134312	-38.2496365218315	35.4813392229856	-0.46069670797551	-29.9663436718864	
15972000	-6.8026011263482	-45.9458240359471	-33.8170877542665	-18.2835287401108	-33.7308328819417	-19.2234497372398	-0.752291739927389	-30.7298402260049	
16221500	-8.05473676262243	44.6541744753541	-35.8267417325826	-96.778122393282	-35.7905999917601	-97.7640691260165	-0.688233367455464	-29.6247226184653	
16471000	-2.2289780699406	25.8670734769322	-43.429822461901	-131.160668022199	-43.3812285223451	-131.882485034742	-0.313831076626944	-29.4943877771131	
16720500	-0.947462681374124	14.6338734138355	-46.8175765499187	-129.001012778938	-46.600261880713	-130.006797054121	-0.0931749822281037	-30.0312724250504	
16970000	-0.515125399979914	8.48950629548205	-46.1074194638708	-138.609694188719	-46.0708375580279	-139.603456526006	-0.0977141427881364	-30.788330928749	
17219500	-0.433432060532652	4.12386623670019	-45.9142667116161	-161.595546648454	-45.9880587748021	-162.188628481347	-0.311982128817426	-32.1672625895368	
17469000	-0.491874759234399	0.0614181609493681	-45.0640767265275	174.1413354963	-45.0551319265156	173.374213103038	-0.673900755987809	-33.2573641725935	
17718500	-0.505735604863056	-4.01590068598416	-47.0189381972595	133.71817837042	-47.0479504631692	133.311721672702	-0.814135375645975	-32.4704495773792	
17968000	-0.404856042351624	-7.74202523535561	-51.1167752044362	111.037695089482	-51.1073897901493	111.089350170129	-0.514408924404097	-32.48367744879	
18217500	-0.234297513851738	-10.6074618281495	-54.056809322378	103.867912698649	-54.1074668508632	103.498248032236	-0.251530611613472	-33.0581750506672	
18467000	-0.1217237588202	-12.6572322037924	-55.9517951850777	103.666014480826	-55.664244069158	101.814152207955	-0.147238571960222	-33.3822670556288	
18716500	-0.147682853314493	-14.4502489995942	-56.4796395785172	99.6856951705194	-56.2373474283976	99.7559735888038	-0.20932839652337	-33.7867916392039	
18966000	-0.272443932502763	-16.6128711668029	-56.2729465900877	95.3664317263782	-56.5341617577052	94.0525214750827	-0.372101570488917	-34.6688196365867	
19215500	-0.386948574454944	-19.3652782997795	-56.1755071472852	85.771339084628	-55.8364381503201	85.5051590880418	-0.518182545695692	-36.0832756911726	
19465000	-0.382181051441284	-22.373145639896	-54.9943907578504	72.3311432980993	-54.8632149098712	71.9487361389325	-0.576573803323835	-37.5142004548734	
19714500	-0.256112073602647	-24.9659260461414	-54.1102819366206	58.8009285280358	-54.1225423200679	55.4680878491572	-0.563038762821975	-38.3174394540018	
19964000	-0.11374720873266	-26.8347265199704	-53.5959763766919	38.8695763914703	-53.5975905118475	36.9122796605727	-0.568247342571058	-37.9542853570533	
20213500	-0.077000568496854	-28.2125403351178	-53.3794094516741	16.5103957616876	-53.5332878216543	14.4311481366824	-0.625134391790466	-36.6516460768851	
20463000	-0.169961106975802	-29.7616958647506	-53.9417159405587	-9.28046372049354	-53.9361472431169	-11.3939737147736	-0.675423979714019	-35.3904538771595	
20712500	-0.314350035957931	-31.9333288717786	-56.6455233910056	-35.616912495278	-56.1952860330137	-37.7217048077129	-0.634480457769792	-35.4231201291269	
20962000	-0.385843860427059	-34.6794083409462	-59.6228585400813	-23.9386489076961	-59.5532265663625	-22.7742333266236	-0.612290836810274	-37.399616761475	
21211500	-0.32780072071667	-37.4284068898375	-56.3146471975491	-33.2937400821489	-55.8996144428442	-34.4425772719062	-0.624558893218017	-38.4070121571055	
21461000	-0.180626809921582	-39.6184313933908	-56.378649372403	-53.9368235501712	-56.1892486359522	-55.1143217927233	-0.440339017805386	-38.8493673617664	
21710500	-0.0807288311935134	-41.1490908886383	-56.9326048865146	-68.8038664617495	-56.6880525915539	-69.0756328465037	-0.298170534076653	-38.8467666108976	
21960000	-0.119936980820244	-42.5274880231828	-55.6460679784332	-87.7609327760718	-55.1282879566458	-88.6618399703957	-0.262019602768691	-38.7095984675453	
22209500	-0.299794467104513	-44.433399793038	-55.0679369855617	-111.545004568034	-55.0424753702557	-112.396022835228	-0.34886766624388	-39.2152818056364	
22459000	-0.592019688606915	-45.7014098979752	-53.6048988721829	-157.737257515355	-53.6413092041628	-159.527755709979	-0.479730035295319	-40.4336451291971	
22708500	-0.37709961209919	-48.261770079463	-63.6724712443005	162.224851135528	-63.8518431387817	165.454285237379	-0.546278376762888	-42.0936566654719	
22958000	-0.245625211713197	-51.0588809268236	-72.4967520524925	-177.034027480121	-70.4472437823436	-175.750317252721	-0.52320241775208	-43.5766471802606	
23207500	-0.0981384967449387	-52.9750680263001	-71.9652677319436	-137.543440200484	-72.9737026624482	-133.612247779403	-0.479884732003216	-44.2797185792294	
23457000	-0.0465435194224003	-54.3158443534566	-68.5281352289365	-110.597179780229	-68.0631224759046	-108.168736213179	-0.529010031572711	-43.9531104852	
23706500	-0.131971352667926	-55.7639989258889	-60.2198250799743	-124.361864521109	-60.3383232054281	-123.462948478212	-0.582668601594977	-42.9981684926087	
23956000	-0.27796381013993	-57.8551658351758	-59.0479333482948	-172.74611962018	-59.1843399586006	-173.290105061497	-0.828812044206308	-43.6135241785411	
24205500	-0.363780651377555	-60.5530386596812	-62.7325171805887	154.337520138118	-62.3764567385156	158.187603787174	-1.05593035013319	-43.4126752075213	
24455000	-0.320636337895238	-63.3494794889705	-70.6622232621568	133.966288532788	-68.2859757847456	143.219457749895	-0.999900263138643	-43.483386994782	
24704500	-0.180397005349623	-65.6253181852582	-70.6339781627347	-155.913236144198	-68.5375331636152	-174.453528422549	-0.76556351334093	-43.8434037361118	
24954000	-0.0818981197462843	-67.2211150995863	-63.5609888664365	179.310988252741	-63.0007031612258	174.547621755876	-0.536777911537031	-44.0923139320981	
25203500	-0.122279122765852	-68.6033639459283	-65.0723187899981	155.030349411889	-65.9233800178353	150.882116141187	-0.446681893488782	-44.0071374517654	
25453000	-0.297419885743224	-70.3215161884751	-60.6405551954941	-170.150559846876	-60.9951946685729	-172.590800844029	-0.478625131758185	-43.7509777931217	
25702500	-0.471170753853609	-72.6043965781616	-58.1992608553048	154.779126206625	-58.2208924707955	150.858487966319	-0.562253753915965	-44.3852192721004	
25952000	-0.54299525284872	-75.2461687978822	-58.909495812741	124.453494203116	-58.3812739754311	125.587550837521	-0.626121938893419	-45.7764823616848	
26201500	-0.473819706108349	-77.6100416006859	-62.7501587789624	108.429742485558	-62.7943827727111	116.330281708705	-0.590656794701164	-47.4137333353356	
26451000	-0.357832075190789	-79.1208570425155	-62.6112413851212	134.834200212325	-61.0960709228621	138.169067384302	-0.473703986055964	-48.5956574475905	
26700500	-0.304945531288403	-79.951471183479	-55.3304615108355	130.991641057394	-55.3422309341726	130.372002981585	-0.38324050699577	-49.1384955834712	
26950000	-0.354727211227613	-80.8429975231756	-52.326664281095	106.028506739655	-52.2255781489235	104.745708654369	-0.432998746385414	-49.2594340168884	
27199500	-0.462122527912229	-82.6021410442444	-51.0287389561061	79.8025032434737	-50.9064757113012	79.5988731619654	-0.639431689870463	-49.4655061507303	
27449000	-0.528360219096413	-85.1874315259215	-50.170626316546	54.3387335823551	-49.9990631266308	53.520053181953	-0.898691341014695	-50.0520779717397	
27698500	-0.466609285600769	-88.0172744643645	-50.2723049975086	31.2262671893229	-50.0969434830532	28.9939073134939	-1.08677200690354	-50.758471915387	
27948000	-0.314463412232391	-90.401717129166	-50.3989150370309	10.0790293793113	-50.0827107650138	9.62570750918006	-1.09327156591832	-51.0649134119028	
28197500	-0.192036385019001	-91.9768150092551	-49.6238917265923	2.03758146066269	-49.5771627854414	0.551411502451298	-0.929766129199482	-50.6309637857702	
28447000	-0.176180400459172	-93.2381438249532	-49.6506870346519	-27.341479545683	-49.5895657796533	-28.6486723801293	-0.728802612111254	-49.8900052215447	
28696500	-0.295271310385634	-94.9363306076485	-50.4241534853904	-47.4955979068419	-50.6848685953943	-48.9677651407057	-0.648886725487021	-49.2928638209329	
28946000	-0.428388545862472	-97.3309760336701	-51.0338321451778	-61.1518476234223	-51.0972817875104	-62.9935739803074	-0.683852422941292	-49.4229263420121	
29195500	-0.464342480437273	-100.219800059331	-51.9083382022391	-74.3771707762084	-51.6199273060204	-74.508482762306	-0.755041239129741	-50.4218452825024	
29445000	-0.367099607576322	-102.968992123755	-51.7002895186726	-81.1494126330373	-51.8648894418171	-84.0753239486772	-0.755736638333658	-51.9978343211141	
29694500	-0.216097168196555	-105.068988407959	-51.9018722482897	-88.7167924604877	-52.014936716028	-90.6320319162445	-0.651291178444646	-53.4371756325654	
29944000	-0.145994833638116	-106.526875739599	-51.474538730246	-98.5332417792607	-51.6824944681508	-99.3798183959499	-0.521289791409473	-54.1503235363847	
30193500	-0.225989644601056	-107.999402147769	-50.9879447884693	-107.337887506386	-50.8016291440283	-108.96054003835	-0.469175554075195	-54.2278190060201	
30443000	-0.383681709949089	-110.15042885112	-49.440925081099	-117.185760749504	-49.1551359082595	-118.018539380782	-0.575581644975598	-54.1594065456902	
30692500	-0.500940013836366	-112.996736923124	-47.4345290999748	-131.019531096928	-47.3846012023605	-131.79038276589	-0.771708910918915	-54.5850703457972	
30942000	-0.481262807730049	-116.023744385239	-45.8446969991778	-151.14192155941	-45.933159894095	-150.933634431349	-0.959404690327241	-55.6802584463801	
31191500	-0.344705132467037	-118.593407874494	-45.1646041930777	-172.457091673829	-45.1538216071533	-171.940314212127	-1.05229598593706	-56.957577260353	
31441000	-0.206621218692346	-120.525097038611	-45.3798797380698	168.535608625	-45.2645755676734	167.456648194454	-1.02083578507136	-57.5738527951434	
31690500	-0.216921095151626	-122.26401623656	-45.2203850430934	157.400574386004	-45.0781271135869	156.60017769608	-0.925861558172425	-57.0654937686582	
31940000	-0.401703931939412	-124.2796185623	-43.2945558950022	138.335706472787	-43.1769520447095	137.728938871084	-0.869745986427888	-55.9721407219646	
32189500	-0.576995982057544	-127.061425568009	-43.3716748495767	117.001957880431	-43.3026959241871	115.353613579067	-0.889711985529596	-55.0626527997307	
32439000	-0.656252323632139	-130.713964062119	-43.6971614570085	101.549549564495	-43.5918178221103	101.076338299808	-0.918859702121325	-55.3070885347857	
32688500	-0.634563998295143	-134.459893839488	-43.2379477989076	92.1068147369768	-43.1765727614968	91.7824577677232	-0.942528300528653	-56.8903906491107	
32938000	-0.612380178066927	-137.782505537826	-42.0089886087244	76.4214469307802	-41.8062910442232	75.6023426928842	-0.884148471473226	-58.0801808429684	
33187500	-0.789735294216245	-140.846491643074	-40.4548401484416	64.866728326201	-40.353699752453	63.6558528817331	-0.700626776906122	-59.4968505108434	
33437000	-1.40608579371166	-144.027146277667	-37.5816016346507	46.8104440660616	-37.4604094289535	46.207722627885	-0.658157434288475	-60.1330488120052	
