!Keysight Technologies N9923A: A.12.45
!Date: Friday, 08 August 2025 17:50:59
!Timezone: (UTC+08:00) Kuala Lumpur, Singapore
!Model: N9923A
!Serial: MY61181427
!GPS Latitude: 
!GPS Longitude: 
!GPS TimeStamp: 0001-01-01 00:00:00Z
!GPS Seconds Since Last Read: 0
!CHECKSUM:0625930024
!Correction: S11(ON U)S21(ON U)S12(ON U)S22(ON U)
!S2P File: Measurements:S11,S21,S12,S22:
# Hz S DB R 50
2000000	-0.0909849931292906	151.342465127969	-82.0145647729241	-104.769883183247	-81.7221762477122	-166.340904578571	-0.0409288774171737	-3.40284516263633	
2249500	0.00988539444086504	148.231134347086	-76.0968032157736	148.380648490034	-74.5053801210322	144.889577672054	-0.156243220067895	-3.98642885666741	
2499000	-0.000855187267192946	145.301063432383	-65.3359524748846	140.448642235248	-65.8557716652935	139.494729317237	-0.208160241625054	-4.95825514482843	
2748500	-0.128404741475003	142.138839913598	-47.7815637901671	58.9114763654881	-47.7182224916628	60.5309348237373	-0.220254666192208	-5.67418744726182	
2998000	-0.236671240232828	138.521535276483	-51.2414337000871	-29.7601355700614	-50.9905757332823	-29.2352332856612	-0.0245158367457268	-6.07304249072755	
3247500	-0.293951488668694	134.701557607704	-44.9224253603519	-111.101567365224	-44.9170528102307	-110.715634869635	0.00718765671930316	-6.07640289478941	
3497000	-0.157786500723584	131.04483490766	-58.0998212221137	-176.883941631497	-58.089357839877	-178.601883524751	0.0371826916192131	-6.03622168571421	
3746500	-0.0372138887854974	127.904630847648	-55.417654511243	-170.258282427222	-55.3672055023673	-173.636446677875	-0.096457775976762	-6.40220790781871	
3996000	0.00282693736779191	125.135150332357	-61.2385466791467	167.12271537422	-60.84209842541	166.413736804755	-0.24012438327048	-6.66030294208791	
4245500	-0.0803013871140387	122.224852762609	-59.992485148111	155.411579535946	-60.0630165476732	157.127474702053	-0.206765540647581	-7.81228631244041	
4495000	-0.207770821805373	118.842035909893	-56.9636507299423	146.16702401418	-56.8802047986595	147.003258707306	-0.108770178458727	-8.85182530111191	
4744500	-0.285971806503411	114.925802281879	-49.1051308655338	128.765732914168	-49.1376326938743	129.419049913807	0.0125146336688721	-9.40210652562551	
4994000	-0.238890810033338	112.072751789885	-47.8003919715083	-9.06732821605401	-47.8369774063236	-10.1094726205167	0.0638844831685807	-9.31115398025853	
5243500	-0.083104657535578	108.592064979884	-56.9017050962082	-32.9353160526039	-57.0191339779625	-33.1112924165254	0.015757344179907	-9.50371315913425	
5493000	-0.00395579564575622	105.835766869494	-60.6853143390701	-45.009193493043	-60.6578689096859	-44.6931080557424	-0.110322908912223	-10.0223762867959	
5742500	-0.0529060218200266	103.12957532622	-61.9887396971419	-56.326238079026	-62.3174311596229	-52.4596429282885	-0.209056371407574	-11.0886684361735	
5992000	-0.214447501455856	99.8289683122263	-65.3772179477788	-71.9643042152196	-65.3443832826999	-75.3707591302906	-0.2183277427597	-12.3861833979187	
6241500	-0.357100519187952	97.6133794537395	-54.3491533351595	-50.1746695692375	-54.2754261718529	-50.6462409476163	-0.20325114176464	-13.4889261350279	
6491000	-0.269623240454066	93.6284799330528	-62.5440565023098	-153.676476601498	-62.7606416359053	-152.478485936965	-0.031902574926063	-12.0443697147821	
6740500	-0.147447902038745	90.3225693929609	-64.5072020502091	-82.8348076079138	-63.403414658591	-74.5107307060924	0.0494713470443707	-12.8894767693438	
6990000	-0.0326512987684425	87.6396423101038	-55.0064944056035	-106.712712993327	-54.9542839440268	-104.771833152463	-0.182527502494464	-13.4978493237915	
7239500	-0.0269732400430236	85.3196362792791	-54.0372127068691	-175.517825639444	-53.6940051028475	-175.211737004858	-0.353764564051114	-12.2210593425307	
7489000	-0.13204902162348	82.7216079155755	-57.7755636157435	152.384921491712	-57.6366959647895	151.3367515434	-0.276507295413372	-13.2082552576278	
7738500	-0.26023430807286	79.6198802815881	-60.0331069709713	134.786078426201	-59.0644561761576	136.577647818802	-0.191206596287853	-14.5115251195335	
7988000	-0.297319196085098	76.2242647837949	-60.0166392036696	125.13700378367	-60.4023984276679	124.077974019308	-0.0509163057233605	-15.3534679448143	
8237500	-0.222113400048562	72.9393740959771	-58.1134106924412	131.92145654444	-57.7754663867388	131.3957298471	0.0454042947479455	-15.6200988655428	
8487000	-0.0922558553256667	70.2296418897002	-54.9255082061637	108.09704201318	-54.6763798026822	106.759005404129	0.0492415153237291	-15.7125952747332	
8736500	-0.0422889752867688	68.0108008417181	-50.1808050490501	79.1001732142468	-50.1891967942528	78.6865478907448	-0.0714713028345907	-16.1492906303798	
8986000	-0.121952019095033	66.0016250225767	-45.8294799589013	19.5298307472501	-45.9066774014724	19.3179324260618	-0.251247169849932	-16.9954246375973	
9235500	-0.230851889352952	63.395073678274	-47.2809975865862	-39.1086195883716	-47.268774415753	-38.9359900367519	-0.313604316841528	-18.0556911791175	
9485000	-0.313381693143768	60.1663752770853	-48.6114036798577	-76.1586717567444	-48.626431615174	-76.257030295875	-0.276530544093411	-19.198806919957	
9734500	-0.280827334010026	56.8951635795576	-47.8024376713174	-118.012510605075	-47.7967033694745	-117.963921959134	-0.248297402380443	-19.513157490431	
9984000	-0.153555306406335	54.0964761657325	-48.6686760562094	-178.220656960955	-48.6142341795091	-178.950510289645	-0.137253437590596	-18.4784410986854	
10233500	-0.0408305193667275	51.8859317929776	-51.977404022113	135.672326745335	-51.9929840152864	135.965949399384	-0.0693362837317665	-18.6999928897049	
10483000	-0.0425468352936691	49.9293362786893	-53.8707494160018	96.5730447506853	-53.5894067337505	95.0095183104113	-0.242826699303994	-19.6563467183146	
10732500	-0.160000183299896	47.6504918303111	-54.4825614205407	39.5344513706664	-54.2400590144753	39.6587244749381	-0.557050090830847	-20.0243143707805	
10982000	-0.290597277664926	44.7918152996685	-59.0371324222895	-16.7627993388409	-58.4971926680254	-15.0115698161436	-0.465046446879761	-19.7219821405887	
11231500	-0.319889027854122	41.5671339243417	-62.9847483784002	-45.4876365837837	-62.8990742592103	-42.6737831141278	-0.233778290240271	-20.7630144214254	
11481000	-0.225757700995884	38.5833372134197	-65.2913518782345	-51.69890309067	-65.0384508539515	-44.160671467499	-0.0456613137766307	-21.5398949353296	
11730500	-0.0888417778927145	36.2232844604951	-63.4827787620083	-76.1607334070601	-63.3484775173302	-74.7036572599345	0.0167866536903932	-21.8583571194997	
11980000	-0.0258125170473834	34.322533548179	-63.0608445293793	-102.851786274565	-63.4500324824729	-101.272188610328	-0.0923619310487788	-22.3167970850784	
12229500	-0.0981626760252701	32.3824335277935	-60.5201718146223	-121.072214027502	-59.8933905677215	-115.449754784496	-0.326911402062515	-22.595679342434	
12479000	-0.244844430196177	29.8576101723005	-62.4228999960105	-165.136706955156	-61.9604744890602	-167.171153302663	-0.474420235736561	-22.7831377077485	
12728500	-0.341368953884587	26.7456300591762	-67.192244296637	-175.194212974027	-66.483686000345	-173.684092499893	-0.322086827219759	-23.8021344706159	
12978000	-0.300361081381706	23.5003345379355	-67.8563197139749	-157.107127379177	-67.2492007109237	-168.714153112729	-0.162957503072807	-25.0584982281007	
13227500	-0.169456994755171	20.7307604565499	-65.52895562904	-165.727770173142	-64.678937678123	-167.869308954606	-0.0490390647596734	-25.746809143345	
13477000	-0.0582504169440621	18.5469703361358	-62.2109272508768	-165.286280510654	-62.7581210689211	-168.768992042357	-0.0800736998595568	-26.13561476315	
13726500	-0.0710848396199966	16.5430443502045	-58.2664569518143	-170.457222710098	-58.31877736421	-171.576674740682	-0.303771070523994	-26.6009297535114	
13976000	-0.203104960600091	14.0645526512669	-54.0911078172962	166.332921000409	-54.0785593961717	167.040417381307	-0.673127478928461	-26.7157014139314	
14225500	-0.353720645983881	10.769285359082	-51.5789657740193	132.430441007228	-51.8263461175732	129.94998150817	-0.797221535538866	-25.7869255289355	
14475000	-0.400542064347426	6.85032433488054	-50.9196376931077	102.830297899067	-51.0026259836557	101.944501671279	-0.558571355232031	-25.9506516270324	
14724500	-0.326282734650713	2.84799745274915	-50.2459072903879	81.7444461186191	-50.2751857048084	82.2725622611191	-0.284050567265302	-26.640901977116	
14974000	-0.243924857790692	-1.03809578614463	-49.9635217203618	67.8282764929502	-49.9365782818706	67.770723331778	-0.106306283388573	-26.9370349502598	
15223500	-0.302558348897902	-5.31085330011285	-46.8563460157816	60.192881620702	-46.8167648575244	59.5855187299911	-0.0633331341722856	-27.1804643762456	
15473000	-0.69158387102992	-11.8828039417986	-42.8861877454105	42.2391093802114	-42.9574074935667	42.2324165102728	-0.166894142541082	-27.8524284143626	
15722500	-1.81574282312875	-23.9671615130129	-37.1522266209166	14.1614430527725	-37.1190315107637	13.9774771366259	-0.34522998726032	-29.2868639514792	
15972000	-6.86018572265602	-44.414380948103	-30.5267122907433	-49.9894696021013	-30.3554689820528	-50.4118747457905	-0.598239289371842	-30.6053791614645	
16221500	-8.30455454196524	44.2237898907038	-33.133427199709	-150.311917785754	-33.0655317962287	-151.429721463118	-0.489501435566397	-29.922862114872	
16471000	-2.235715649998	25.962786061941	-43.3314319069823	170.401931295566	-43.3487454434579	169.952444244454	-0.189854836060965	-30.6766061745974	
16720500	-0.94177480814634	14.6198703930484	-48.1300003721995	-174.934578809845	-48.136398962652	-175.912834540357	-0.0792032404472652	-31.3074687963245	
16970000	-0.511182908765621	8.50341829544895	-46.8334849785522	-175.864819462534	-46.7776547057449	-176.132082948801	-0.164175147116757	-31.8739323351063	
17219500	-0.430987331661397	4.17053307974508	-45.2474034708757	164.031687683755	-45.3457383596243	164.310580964442	-0.413937860801707	-32.8311875625341	
17469000	-0.491212221035615	0.0939041542039914	-45.2708313618655	138.879244615547	-45.2256399221091	138.231603511234	-0.741958072988224	-33.7981642945869	
17718500	-0.508200351866141	-4.02939168907455	-45.4467164667935	108.094238215023	-45.3591888900745	108.459836701251	-0.949013818919967	-33.7993750935207	
17968000	-0.405100658517423	-7.78669294320365	-46.9515650065515	78.953354322196	-46.7101352619526	78.6681278331197	-0.800792428278428	-32.8861180507899	
18217500	-0.229260600530978	-10.6510562005073	-48.9231977249658	56.3189188767052	-48.9226840756329	55.9503333851673	-0.474268940473839	-32.3544689374868	
18467000	-0.114336379517689	-12.6768349003086	-51.4188289010989	40.5605966456208	-51.1794070877504	39.5173715530463	-0.265089349978433	-32.2288945073426	
18716500	-0.140054272751442	-14.43912739361	-53.2294301827919	29.6330556744051	-53.3686880273623	25.6912819689932	-0.2487105420288	-32.4978041397435	
18966000	-0.270021864950665	-16.5878757062338	-54.7982162945534	19.8446546750524	-54.5129996995888	16.1908001723321	-0.34588891986193	-33.3410625486756	
19215500	-0.388761793383444	-19.3540871962401	-55.5211756580082	11.1025646754111	-55.4006453045038	10.4486568805469	-0.432994167516497	-34.7979239561412	
19465000	-0.383818410443418	-22.3824141360798	-55.4964545313885	4.75576914540081	-55.3106431157635	3.09728127525278	-0.418908771422273	-36.3906455050619	
19714500	-0.255276153061186	-24.9972195783947	-55.4445457461977	-7.58939537763755	-54.8157549155193	-7.27649582264229	-0.324247405248619	-37.6129552131124	
19964000	-0.108739796822785	-26.8640934559287	-54.6604837651754	-19.1876473529835	-54.5760303033532	-20.1253365916195	-0.272610199163747	-38.0956028940264	
20213500	-0.0713584867099809	-28.2278005616331	-54.1032619021268	-34.6788500453513	-53.9730457527075	-35.4786858185981	-0.375173854528128	-37.9661465771444	
20463000	-0.166178158046467	-29.7623880363301	-52.909247029241	-55.8071756854456	-52.8163693667635	-56.5712776838678	-0.599318032166048	-37.4609586938642	
20712500	-0.314729657149345	-31.9404861373688	-53.1761753965064	-84.6143648012181	-52.8916366781639	-84.4728912527004	-0.769505197222133	-37.1990879382997	
20962000	-0.387180309675255	-34.7067929440314	-55.6411332497197	-106.63370999299	-55.4618561540608	-104.773549350111	-0.752628876810625	-38.2124672496246	
21211500	-0.327169538836266	-37.4681231309323	-56.2001026757309	-100.620595598522	-56.6111028641086	-102.4038725039	-0.818917488607816	-39.7850799182524	
21461000	-0.175726319976738	-39.6560372874482	-54.810193048973	-123.732332420827	-54.5996769930856	-124.144831145615	-0.724977406123385	-38.8459803919662	
21710500	-0.0736332868256545	-41.1596392034622	-55.6475666604572	-145.311052570492	-55.3371302949734	-146.432592303127	-0.44429617378445	-38.163868553529	
21960000	-0.114121027060899	-42.5169387984396	-54.6376785387334	-151.070861757237	-54.6908101020971	-156.025399730109	-0.327489224498404	-38.1030298506411	
22209500	-0.29708182152581	-44.4098913613302	-51.9823063385809	179.950980684272	-51.770918104803	-178.824928756207	-0.38519887783684	-38.7123914700922	
22459000	-0.595789840474376	-45.6968896554941	-49.8692697116289	108.806524321097	-49.7562276961951	108.371998828347	-0.504130143860801	-39.9703649835296	
22708500	-0.379482477026414	-48.2852023598228	-62.7689757694602	52.477697624637	-62.4879632741778	50.5764190019858	-0.560769104081412	-41.6855803998723	
22958000	-0.244169695769338	-51.1032559678445	-76.7660816193522	82.2903680306369	-73.7376276612907	79.9719375700343	-0.535471081020402	-43.177145381865	
23207500	-0.0929109140394988	-53.0176836576393	-71.3187506670205	117.829422551454	-72.4877914237565	129.468323468162	-0.494412629352617	-43.7994808038492	
23457000	-0.0398923018627553	-54.3426189609008	-74.0793639880333	135.810347464816	-74.0309061009032	139.4313809868	-0.529454548712431	-43.0919230489117	
23706500	-0.128570521851931	-55.7844123600598	-68.9346421589464	-159.41010028769	-68.6220475806633	-159.192015271446	-0.518654493034177	-41.9984194174875	
23956000	-0.277977425068684	-57.877327695188	-59.5826111574735	160.378595941971	-59.1631637279033	161.292321307051	-0.629103716861932	-43.0148745514239	
24205500	-0.365910287824107	-60.6007138893229	-59.3928868533428	94.4258184631413	-58.5494133982814	95.0373482557206	-0.896256610449326	-43.3903871206103	
24455000	-0.320556017876075	-63.4151161309268	-64.3918003811144	46.8548941390812	-64.2022558319765	44.0273963857781	-0.837238601800789	-44.0830660630263	
24704500	-0.176870679739481	-65.6828571543627	-89.664769131049	179.577581434745	-100.680353795297	79.205031641454	-0.682118917312614	-44.9508148396616	
24954000	-0.0739524711256104	-67.2469405995626	-62.5827586626258	143.5509316803	-62.0510342600224	146.909109727615	-0.530402415695782	-45.2745202298355	
25203500	-0.11565349262472	-68.5967865323659	-57.8841163209566	105.491650612321	-57.7508186303636	105.818645410977	-0.497626673439235	-45.217711304933	
25453000	-0.294502531214941	-70.302585038395	-58.0536061611585	52.4346054333532	-57.972374084355	50.5230869155111	-0.673200419778176	-44.8130685776084	
25702500	-0.47395207504413	-72.6013327295254	-69.2396524187543	11.4324910169892	-71.6688838330856	34.4683607101161	-0.770596004331987	-44.1686321056649	
25952000	-0.54674228481175	-75.2802304419166	-62.3286614459391	91.7218782544383	-62.3196895355161	88.3954479619382	-0.729577709157011	-45.3710545541749	
26201500	-0.472283508835064	-77.6719772984019	-58.9855134144759	66.2359392302047	-58.3398744731837	69.7427256777163	-0.65536481184828	-47.1242181242236	
26451000	-0.351279403895455	-79.185294010217	-56.6821373226995	50.8602237133673	-56.6729762046849	50.1815846162317	-0.521390639833795	-48.3393330089328	
26700500	-0.296469582938588	-79.9926018928497	-54.982324863068	36.123794530169	-54.3649799595837	35.2619201142941	-0.42452475385997	-48.778750204104	
26950000	-0.347681535603656	-80.8570008066152	-53.7042630452431	13.3767818330675	-52.9062692733606	11.2053251653553	-0.465124436864793	-48.7053439110183	
27199500	-0.460334794897585	-82.6051394282597	-52.500584587695	-10.4505312933184	-52.1368489765262	-11.3440776492662	-0.648532122836393	-48.687392568681	
27449000	-0.532022259733161	-85.2146603868816	-51.8432218535809	-31.3649608639172	-52.0313297051063	-33.8544960199211	-0.868599844074754	-49.1373184531734	
27698500	-0.468542889423021	-88.0674408265631	-51.9136090234865	-54.0812017999564	-51.989392158618	-51.7139871696595	-0.996544660885411	-49.9148783608439	
27948000	-0.311098069534177	-90.4493481044894	-51.8673208546241	-65.1538457549324	-52.065397764696	-66.8256147330722	-0.955510860574309	-50.6196160893792	
28197500	-0.185060789193642	-92.0134187847846	-49.7822402466966	-85.7500672072407	-49.4127646328971	-83.8433373604604	-0.795161810300654	-50.7231534247123	
28447000	-0.169346631542889	-93.2469003158386	-50.9788371450785	-113.214175582523	-50.6351835902709	-114.860084771764	-0.630447477347056	-50.3137281809717	
28696500	-0.29152338648439	-94.9381415011605	-51.531717014116	-128.988429114636	-51.3957486199034	-131.51649762245	-0.599021681602347	-49.8874413021153	
28946000	-0.428294651298751	-97.3376749607582	-52.1405479359501	-141.858792059647	-51.7664179419965	-143.623500799518	-0.680550216172365	-50.0455922046269	
29195500	-0.465148346554032	-100.264416121914	-52.2368515399778	-153.216927791949	-52.0785577741241	-153.488898707501	-0.789170883247086	-51.0189762797234	
29445000	-0.364613242210419	-103.035863845339	-52.1886480182568	-162.078825075716	-52.2684816004889	-164.058632657172	-0.809778102581383	-52.530486935404	
29694500	-0.210060595111469	-105.132913323649	-51.9198742159201	-174.414448621985	-52.1387258982072	-176.332796103623	-0.716643548768251	-53.8835512473479	
29944000	-0.137836443850009	-106.569929928348	-51.7265685044736	173.647256795397	-51.6153009697297	174.797744244451	-0.587195838216053	-54.4987112225431	
30193500	-0.219340952845626	-108.03054193682	-50.8331130589479	164.093397829306	-50.998052358924	161.728043591062	-0.540572248343313	-54.4121200937104	
30443000	-0.382500948658184	-110.174134155935	-49.5316734591121	155.273626264508	-49.6725584843621	155.551824299791	-0.654577551180248	-54.1444710804697	
30692500	-0.502004320193935	-113.052136585919	-47.931128255709	142.305113485389	-48.0236682878703	142.285306694932	-0.859249496446661	-54.3141015912911	
30942000	-0.483417373775412	-116.105518537264	-46.2589188772281	122.205326397106	-46.2894696538606	121.979042254427	-1.04184184138159	-55.0826794644919	
31191500	-0.343727787410488	-118.687510944032	-45.3302088937916	98.6959093855624	-45.2008034401032	97.6945146721432	-1.09728693782116	-56.0153909310727	
31441000	-0.201503923577685	-120.584695959163	-45.6142095810549	75.3944261747114	-45.4565323547845	75.2288161000955	-0.982381165370162	-56.4860053933959	
31690500	-0.210193708262457	-122.294602398007	-46.2306522809781	66.8771490471598	-46.2323129303529	65.9588980901001	-0.803416858923429	-56.244181958378	
31940000	-0.398713232080322	-124.277122765819	-43.8103643430722	56.0987856889231	-43.7398085118842	56.1341831116278	-0.713337026894441	-55.6249424789786	
32189500	-0.576150320963627	-127.063615912577	-43.0552089776074	32.72559885433	-42.9677405464425	32.0289198853567	-0.750752696209602	-55.2496506523814	
32439000	-0.656261359970229	-130.753028221656	-42.6422355013215	14.3253571392616	-42.4322328824893	13.8408436294317	-0.854236817128848	-55.7816769505544	
32688500	-0.628059001342522	-134.53830170102	-41.8532834913363	-0.291466628128725	-41.7304268204457	-1.48062709771472	-0.923148203052469	-57.0893762359393	
32938000	-0.599884831771219	-137.877581980287	-40.6256891442017	-15.951693639685	-40.4613468495331	-16.6832239435684	-0.881356986347734	-58.7116344683851	
33187500	-0.774283848100246	-140.94909510763	-38.9023324623115	-33.8698425344091	-38.7625178146591	-34.4706196070505	-0.742445571372382	-59.7594515688337	
33437000	-1.39808261564273	-144.162537600003	-36.778324495258	-56.1072604913235	-36.7227219608164	-57.2975804933752	-0.633158487785675	-60.1171709157605	
