!Keysight Technologies N9923A: A.12.45
!Date: Friday, 08 August 2025 17:34:29
!Timezone: (UTC+08:00) Kuala Lumpur, Singapore
!Model: N9923A
!Serial: MY61181427
!GPS Latitude: 
!GPS Longitude: 
!GPS TimeStamp: 0001-01-01 00:00:00Z
!GPS Seconds Since Last Read: 0
!CHECKSUM:1634886228
!Correction: S11(ON U)S21(ON U)S12(ON U)S22(ON U)
!S2P File: Measurements:S11,S21,S12,S22:
# Hz S DB R 50
2000000	-0.0749755729719413	151.51190608751	-83.9965641509982	-133.980373071847	-89.7343231123069	-161.797236402004	-0.0392719628534628	-3.4736789832945	
2249500	-0.0036003073897429	148.324030840239	-92.1051846491812	155.955553677461	-91.6678711765777	171.057120001501	-0.122385522593374	-4.0624913144678	
2499000	-0.0145662840399173	145.247108327235	-72.6918649053648	133.646808519405	-71.509347019775	140.724582279583	-0.156820995755304	-4.89483943301963	
2748500	-0.100186764781391	141.944045749188	-64.8565683695091	141.042284419768	-64.6241126986066	145.190352829131	-0.115207072225901	-5.70990416535511	
2998000	-0.254566114014658	138.400758545073	-47.8079263214443	69.4315729594169	-47.875059427889	69.3345627919233	-0.0481922739125609	-6.19516372716785	
3247500	-0.200583897888119	134.825419981432	-57.6637466800793	-19.2725437192758	-57.9924111917786	-15.8655342581913	0.0255164742059832	-6.34761906177972	
3497000	-0.12551199185537	131.161691471304	-59.412335642364	-32.8844852536995	-59.7706522145175	-26.9727415535218	0.0078916765140818	-6.52809280889243	
3746500	-0.0365116054257283	127.998484709524	-59.6176371786189	-31.1912031394316	-58.6419006679714	-34.1367137504414	-0.0700311030212398	-6.87080823429406	
3996000	-0.0157491529957771	125.072173972689	-55.320313760404	-38.3608187821493	-55.4051723812215	-40.8182759960182	-0.14735546013369	-7.62915561362571	
4245500	-0.0886072619888034	121.954962979607	-46.4442617392734	-62.3953335190877	-46.2989203200938	-63.7156831291993	-0.191680359104128	-8.72109984204787	
4495000	-0.171040563935417	118.824925333568	-54.1992584284896	146.709590898795	-54.4796003594989	151.141178994434	-0.0900964366679986	-8.93592043196494	
4744500	-0.217024393630303	115.057477831507	-69.4298917213896	-67.2625492699786	-69.2708617470969	-68.9551202205985	-0.00388729139982919	-9.50832112430613	
4994000	-0.203329254765191	112.275496002215	-47.9414627570787	162.793250891243	-47.8092010890289	159.948971806053	0.0309074924905591	-9.64019735895558	
5243500	-0.0764972834741668	108.736459421418	-54.8307998908029	140.456319028054	-54.5813281880933	138.957843714811	-0.0102656984514846	-9.93381921819486	
5493000	-0.0200653760457281	105.857781399664	-55.4338742101875	127.228675404463	-55.4783329338792	128.433877629925	-0.109498137732853	-10.5270872086254	
5742500	-0.0620885399394675	102.995477185053	-51.5920632997826	109.579817686291	-51.53091792192	109.019255321815	-0.225037987009428	-11.744104364281	
5992000	-0.196664228342395	99.6754035748165	-45.0772498780303	33.972569344391	-45.0306074244183	32.0449225186893	-0.525566612410921	-11.7800242411875	
6241500	-0.296619048560504	97.5389261729808	-64.0755575428004	171.08698438852	-64.5289343121653	172.592321398359	-0.0739286954908792	-11.6038650929321	
6491000	-0.216579311746533	93.7269224931123	-68.2385907103921	112.376187919664	-68.6265619137599	106.31660994262	0.0104908266138883	-12.443409137547	
6740500	-0.126034264312597	90.5027128416583	-65.2174129628339	110.601252547064	-65.0561372914865	106.190727311368	0.0223446959114304	-12.8653177193098	
6990000	-0.0413905338047951	87.7495461405417	-57.1850487878052	77.1883717210421	-57.406094860735	75.1085918054143	-0.143061105155257	-13.4648787799868	
7239500	-0.0402106909307548	85.2736128472455	-62.5029004032465	90.5434967588784	-61.9852251516813	96.4848037361873	-0.163268656963893	-13.9651708881532	
7489000	-0.121381717769637	82.5634242961003	-54.5998332565637	73.3062798961604	-54.4264749772368	71.9090436395252	-0.355356192427546	-15.3811060737745	
7738500	-0.21597180352306	79.5073447779134	-49.6562908262447	24.3530712881463	-49.7261090856659	23.6060880553519	-0.58162216428692	-14.8886293245088	
7988000	-0.240829403297125	76.272715138392	-50.7701448269673	-22.138358004611	-50.8595810545141	-23.7206810061367	-0.292740929323068	-13.8806420891718	
8237500	-0.186267358158614	73.1126370643936	-51.5557448111259	-35.2760512699533	-51.5415138986931	-35.3021002136634	-0.100634862022624	-14.2883359285023	
8487000	-0.0906734705979882	70.3887842075207	-50.6717569612599	-61.8405706979486	-50.5497203368705	-62.6588003710577	-0.0346947768683338	-14.5586069330172	
8736500	-0.0557111955018948	68.0211682060091	-48.6847194117869	-87.005356517884	-48.6684268658381	-87.5639558790142	-0.0896202285677915	-15.0781618234713	
8986000	-0.122542802663743	65.7823248337258	-46.6134201299577	-129.895485717376	-46.5917129615678	-129.680748662665	-0.18997120944092	-15.8622415047073	
9235500	-0.206802906795216	63.220750429138	-48.6469360860457	-179.42500872792	-48.6273604584095	-179.647555348847	-0.217878372034705	-16.7005451792127	
9485000	-0.258406002982684	60.1456450446752	-51.863222016348	153.123087438656	-51.8441812944322	153.230189487573	-0.146203790356054	-17.583406886047	
9734500	-0.22843047832433	57.0377151966382	-53.8924737922497	135.200829856358	-53.6756201382955	134.521118777306	-0.0449040350960538	-18.1955024780831	
9984000	-0.131044402339463	54.2635029511468	-53.3148336529988	117.481571518565	-53.2064081266111	117.410530083719	0.0113812527621682	-18.5066201480993	
10233500	-0.0549205857595477	51.9357157415734	-50.5677360489981	75.5379216381727	-50.5423744768915	74.9165752821294	-0.0678220250543728	-18.749714748385	
10483000	-0.0576281729138061	49.860997919143	-56.3889479316772	-2.4816172237883	-56.1603600722578	-6.70591625188425	-0.137696903045358	-18.6022981431282	
10732500	-0.143119615651988	47.4832268718515	-66.4109622651325	-30.8156406352843	-66.4852629711739	-24.5553640678529	-0.183183732034602	-19.5034319048028	
10982000	-0.240132048494092	44.6862823324448	-75.4840154659125	-34.167983869102	-77.3872377981127	-30.2791492698754	-0.184494095990821	-20.6205537048603	
11231500	-0.259545455133784	41.6406948759454	-71.5311096944917	9.08808502585833	-73.6586550823874	26.7814894898331	-0.115989303023906	-21.5449877803103	
11481000	-0.190954394879407	38.7799463903349	-65.6276127099105	21.8161802670207	-65.2637998333928	17.8441990963032	-0.0324736134074356	-22.130925694109	
11730500	-0.0910705468641534	36.3803698700937	-62.34741226766	-48.8880154917664	-62.3797805729188	-54.5236534201013	-0.00776754648540774	-22.3380643967194	
11980000	-0.0440934920321611	34.3209949025487	-64.1029942310357	-108.251396497708	-63.0139412580111	-107.573649471496	-0.0704806108897348	-22.6348489209675	
12229500	-0.0976963677299569	32.2308935510356	-63.8682032441505	-116.095302232635	-63.6166788384843	-112.514427562704	-0.189763287896477	-23.5404810686823	
12479000	-0.208354213375184	29.6951207459323	-57.7902548814436	-157.507543336076	-57.8190487480949	-155.750739366115	-0.501811820482755	-24.9667556333631	
12728500	-0.280139272971408	26.7331986618766	-61.693981308645	122.111302572781	-61.8203163167758	119.904046530599	-0.407144553988856	-23.2761522260061	
12978000	-0.249857627799763	23.6626431747769	-68.1209381381573	132.338660108583	-68.9985334890735	127.16074990783	-0.17953636140973	-24.6399399984794	
13227500	-0.154649513311075	20.9334457133756	-65.2495476715475	139.896009462329	-65.2764496622521	139.984001287443	-0.0718175067264402	-25.3617770093004	
13477000	-0.0725206542771883	18.6251827252597	-63.9139922247393	126.920532818637	-64.5213393341854	127.529902523125	-0.0522926476834659	-25.9411831016499	
13726500	-0.083094351737902	16.438360461707	-64.6855210065299	129.379948147738	-64.6093133149486	131.617536142176	-0.163578728807063	-26.8253408799509	
13976000	-0.183827767761288	13.8646756571511	-61.83639158909	131.158770721515	-61.6877053444252	125.314415756884	-0.427060761872807	-28.3618439169031	
14225500	-0.300072966195445	10.6565733908758	-64.8892567042793	82.0083302994425	-64.80704600004	80.9337245105141	-0.650496308574909	-25.6385937568533	
14475000	-0.341198810533914	6.93539490920697	-59.1319266032465	140.717830989675	-57.9523006714655	140.434995756253	-0.456132747408179	-29.2891360151609	
14724500	-0.295546999718097	3.06423422356997	-50.5556062986037	118.585980838551	-50.3858221286794	119.116338485023	-0.718444113755127	-29.5080926151779	
14974000	-0.249109688273205	-0.869091891356032	-47.0173560281577	71.7061806658851	-47.0667615077025	71.406606938714	-0.407337086130333	-27.995329479533	
15223500	-0.321363266820701	-5.31280479638111	-42.9998747198232	35.1938851278262	-42.8927348107198	33.7354080639089	-0.812482266824731	-29.6951433969568	
15473000	-0.678081958581035	-11.9892661132533	-44.985093743265	1.78358016871531	-44.9014639588737	-0.152602043811009	-1.00257352077151	-25.6297565035945	
15722500	-1.72081204213138	-23.9340960491673	-43.5067816339336	-8.55373402715413	-43.5343788524888	-10.3929227769095	-0.725065127189266	-24.9266261735418	
15972000	-6.62150215844967	-45.3213197427664	-39.3050352382357	-40.3882848119754	-39.4554076224576	-42.0306179606922	-0.495150444201351	-26.2534678440372	
16221500	-8.11652889282496	44.0512033480034	-38.648607165317	-103.017072441064	-38.764467482692	-104.542697049091	-0.346220715172934	-27.997640176078	
16471000	-2.20739243265948	26.1262522892335	-41.7884252974373	-131.001967775283	-41.8391268086091	-131.357453906093	-0.173232820556812	-28.6747622921525	
16720500	-0.964182421069574	14.8495319822083	-43.0404008937532	-160.159133211468	-43.0858824524578	-160.028348400384	-0.069149931072413	-29.4255471157811	
16970000	-0.531876286224374	8.53531696251028	-43.8196532704665	163.926243464627	-43.8076695154642	163.745761782438	-0.139681735487532	-30.2608245173191	
17219500	-0.422609151394	3.97969721066595	-50.2064330236205	104.209699297976	-50.2198167073496	102.121246784369	-0.407271011433386	-29.8974099250342	
17469000	-0.444980894232838	-0.0842660053298906	-58.4431360642483	137.945498971121	-58.4966192398105	134.240680638174	-0.333620546346882	-30.2138558997028	
17718500	-0.446489634927632	-4.01905181399759	-58.5400643016119	141.483707410557	-58.7224590980811	137.977461186873	-0.279925769660375	-31.547936717838	
17968000	-0.36262622433509	-7.59732451952772	-59.0496825430545	129.463832486917	-59.3333080315955	131.113416759342	-0.179948740481486	-32.6913781085591	
18217500	-0.225645661359175	-10.467380280346	-59.8613642884399	127.806165390509	-59.9365444443244	126.696772799931	-0.0742855843500091	-33.3672681449326	
18467000	-0.133431074860547	-12.6548859739126	-60.5015664370072	123.104913486706	-60.7481763716408	126.320806623789	-0.037164017423056	-33.7442115848235	
18716500	-0.148335100941718	-14.5993759304527	-61.1143118328587	121.003565925684	-61.2918606769719	121.624658308118	-0.0999009206538825	-34.2260247267128	
18966000	-0.240205051987427	-16.7952474912831	-62.3817531876488	117.404181035319	-62.2387402946259	112.7562494385	-0.229545381178473	-35.1208897641539	
19215500	-0.327233251561546	-19.4239313124009	-63.3591638312532	108.373184907656	-62.0617534709012	113.633192307176	-0.356665181252724	-36.4872393322441	
19465000	-0.325367279847743	-22.2442285685036	-61.8322254020775	105.762678122741	-62.4355094334545	108.702384689913	-0.463461363032326	-37.9048391113438	
19714500	-0.230751936402016	-24.7747236429684	-59.692002608069	100.046378239454	-59.7345954633498	94.5281509275727	-0.599212588205937	-38.3872377762421	
19964000	-0.119719481439218	-26.7506027477941	-60.5222304217739	67.4936486821306	-60.7497423628853	67.5132240892434	-0.553178720870286	-36.1667846800106	
20213500	-0.0892297497920409	-28.3311157584241	-63.901817257687	70.4859175153843	-63.1939334263651	71.6169997431716	-0.22550986828613	-36.0664370413675	
20463000	-0.156534644432557	-30.0139282008816	-63.1542210073293	67.06510789668	-63.2773793193094	62.8893509487813	-0.207128103032602	-37.5047865852882	
20712500	-0.265362713399484	-32.1462075035771	-66.4448093311751	77.6422789299021	-66.1078322219773	77.6521495060894	-0.355194755677017	-39.5548809742689	
20962000	-0.319666401919855	-34.7051064475464	-59.4155756645368	80.6418077363595	-59.703284788697	79.3446822461729	-0.631442550315604	-42.1331638592197	
21211500	-0.279949126515809	-37.2772270480844	-55.3178636774594	49.5934350930523	-55.3463644808865	52.6489383391476	-1.20207259012353	-43.1094165579757	
21461000	-0.169111157916353	-39.4517463612626	-55.3016962629226	9.08247679230371	-55.184483846439	8.44586081386966	-1.35160286978175	-38.4643029648583	
21710500	-0.0922999223942228	-41.1282358179554	-58.7037954523838	-13.9530343997279	-58.5042725623747	-15.1229642630856	-0.780664785034064	-36.2531501716819	
21960000	-0.122853197860026	-42.6937556564468	-59.3519153436232	-15.0823643376817	-59.0083645511251	-15.2500575369509	-0.481043986967275	-36.7251440010293	
22209500	-0.268972751598571	-44.6587144083308	-55.8981943529451	-37.6822333531169	-55.6104268843749	-39.0909539438487	-0.459547412938719	-37.7797689693208	
22459000	-0.529150068518172	-45.9105239066391	-52.9483406302511	-110.728292751512	-52.3276211543925	-112.73373358644	-0.523726342834684	-39.0538616232324	
22708500	-0.31747605660076	-48.2140835912349	-62.3711582460554	159.233428782008	-63.7974452440493	162.34173580619	-0.549061330563312	-40.5253630606136	
22958000	-0.215627326269288	-50.9194064553259	-78.3204340511985	73.9659369953045	-81.0500947057238	89.6441852687961	-0.593363438058663	-41.9670189469008	
23207500	-0.101896433845716	-52.9217881913901	-76.6264837433015	151.558236223821	-81.3532271934717	176.461052015573	-0.520918445785997	-41.1159315722838	
23457000	-0.0596992478232149	-54.4512182902312	-69.5551532575318	101.246319047934	-68.5969126660723	94.3486941771338	-0.291068485241083	-41.2542578486561	
23706500	-0.122787370679629	-56.0514230163907	-66.356932464734	65.9951796569074	-65.3277915859823	62.1675346104159	-0.260167375918434	-41.9170182555996	
23956000	-0.231357480566318	-58.1195011264151	-62.7939521471739	31.9275708408451	-62.4710211951061	32.6762955234551	-0.357085895209155	-43.0975619060723	
24205500	-0.298424704585886	-60.6390504097023	-60.1029512432451	-18.9756303804314	-60.5641097445716	-21.5286736187578	-0.564039643369493	-44.6913092496552	
24455000	-0.269575645385669	-63.2434735733984	-71.1194144982512	-42.1669092727015	-71.330608122428	-37.7607580468963	-0.659147559238181	-45.1107418516759	
24704500	-0.167154551139676	-65.4899651119129	-62.9921861247353	-6.17096334780289	-63.7407752683382	-1.34299256404497	-0.540622511679587	-46.0540458687551	
24954000	-0.0928502149996729	-67.2230361644904	-64.0804650366887	-40.0076138789277	-62.2430983656823	-39.0995766425947	-0.513278168272864	-46.9973034199877	
25203500	-0.127370876204144	-68.789155717781	-67.6534464982743	-39.3763502909111	-69.0619168115282	-48.1960286837801	-0.676786908429275	-47.2297216368981	
25453000	-0.268490935043588	-70.5946528511611	-62.1483773867013	-12.3210532457509	-61.5684751169814	-13.9955911967209	-0.882195993300386	-46.3370888156616	
25702500	-0.409095265137871	-72.7903510577141	-55.9611719200743	-44.1949925616728	-55.9759313242813	-47.5958449113574	-1.0795723626411	-45.7891370845487	
25952000	-0.48065184934643	-75.2386867577631	-53.1941745040464	-82.6518880077055	-53.2515822021382	-86.4852135090016	-1.16006513252527	-45.4877546985762	
26201500	-0.440193402552618	-77.4849170141169	-52.7873271921772	-124.800768681427	-52.6440613105386	-126.006206973907	-1.06894515186393	-45.446313116043	
26451000	-0.360844309709603	-79.081486070626	-53.6922736774291	-171.149771088918	-53.6161788293074	-168.620064627361	-0.851261559011415	-45.4607371411088	
26700500	-0.321083911687659	-80.1048375151273	-55.3410331415658	141.676719167782	-55.6186233718029	143.113730726004	-0.619111620583942	-45.4180558456218	
26950000	-0.350352030309902	-81.151337472269	-59.0610307228442	99.0223968401842	-59.0656187602508	97.2840054112602	-0.48551761801824	-45.4552860702067	
27199500	-0.420289669162911	-82.9064929771477	-61.7159658662224	54.5220828822579	-64.2622218728813	56.1418859156144	-0.477950732059238	-45.8426535056509	
27449000	-0.463865896608543	-85.313918319244	-65.496031651493	13.4732408493258	-65.196323890915	19.1218553261764	-0.517000868549985	-46.7955678086236	
27698500	-0.416765749258768	-87.9315973654671	-65.7672535687119	-6.46022309818835	-65.2514906253991	-13.3207500744247	-0.528464024000743	-48.1701395435965	
27948000	-0.299856162001042	-90.2675232351064	-64.0428457306876	-26.6603012621	-65.2551961203376	-20.499669852128	-0.464778036072325	-49.5981530940585	
28197500	-0.20500330882299	-91.9950671042046	-59.4804014296833	-46.0027135550107	-60.3140381927646	-46.2066389359698	-0.357939787491004	-50.6552772895419	
28447000	-0.186357433704863	-93.4650351261601	-60.7288750540463	-80.0577601347395	-60.6618927129145	-81.6966575806	-0.284089697236121	-51.3020715944825	
28696500	-0.272210014598428	-95.2720028082784	-61.4539420411943	-86.8887945095959	-61.2014905440892	-91.5519980246906	-0.329623318388821	-51.8793097759987	
28946000	-0.368004084316074	-97.5692590920116	-59.8333221424672	-89.302497468212	-59.1682916318509	-95.8465960692142	-0.481064591958675	-52.9707049738667	
29195500	-0.396544314342751	-100.23703358055	-57.6888643065494	-101.274447899996	-57.1488188465321	-104.452658609732	-0.746918734370465	-54.8750214992979	
29445000	-0.327996191624329	-102.822162833678	-56.1544468121482	-108.875294543996	-55.128131873397	-114.197930116567	-1.31348820083001	-56.1174895823162	
29694500	-0.215644312640229	-104.969182706277	-56.0867548829699	-129.792784807178	-55.9309354287706	-133.018401724697	-1.14742976012955	-51.8579390748051	
29944000	-0.160253069059683	-106.615373119888	-53.9847851972482	-125.690916209367	-53.6887737729365	-125.668416800106	-0.762894411369234	-55.2773092855471	
30193500	-0.220244050682277	-108.276575761242	-50.4745255965871	-155.519206937636	-50.2573555107426	-157.830330326944	-1.43395828094213	-53.2377531521459	
30443000	-0.341457774603758	-110.451317512362	-51.4983601696151	-176.459237458959	-51.7735143422059	-176.30951410256	-0.98852247131024	-49.6418955944272	
30692500	-0.433367470586897	-113.136394876539	-51.5290121545575	177.418905027365	-51.5914586719718	179.586533467283	-0.776265789615068	-50.4718469810425	
30942000	-0.425534558039976	-115.95952043513	-50.81852328956	170.017831974676	-50.4278522822104	167.366950581312	-0.71581654798911	-52.0098324027023	
31191500	-0.326854759458643	-118.483599941195	-50.0966490890642	155.380219580762	-50.232230869169	151.9658180169	-0.642389350838129	-53.832232432365	
31441000	-0.217648782310066	-120.544513211044	-50.4638789214645	143.097585252013	-50.30450482983	139.908979161229	-0.52440225606895	-55.4133284812248	
31690500	-0.226300038237608	-122.499380784546	-51.3786348747341	150.038544142621	-51.1607257832914	147.447688106656	-0.416716046857498	-56.4025474604221	
31940000	-0.376612855883756	-124.603126410622	-46.2133470130801	150.14767446819	-46.2992564837897	147.819142309371	-0.417278475214199	-57.0831079547951	
32189500	-0.515428858274826	-127.284519488329	-43.8034029956573	130.006708914707	-43.7573469581185	129.12566313494	-0.598089775124286	-57.8849541581341	
32439000	-0.585312099187068	-130.704624597743	-41.6258378655482	107.462845455989	-41.5222328528441	103.979786272939	-1.04821776121454	-58.0138203231843	
32688500	-0.590712577192552	-134.269707912689	-43.6233316401094	90.1848434797661	-43.7274784686639	91.0702056142942	-0.719682660212657	-57.4113464843214	
32938000	-0.606916217360397	-137.636391112785	-40.94148793226	90.5498628657458	-40.7990712588776	89.3528571046553	-0.757199292460722	-60.3334390077266	
33187500	-0.793142071745306	-140.879849909741	-37.5805582157285	76.3315780691731	-37.5632159039823	75.2659508877673	-0.835712021597093	-61.701073621892	
33437000	-1.36510944995596	-144.212849276819	-34.3390886266519	53.9293767876419	-34.3059337574917	52.7660799414643	-0.963466614962509	-61.8369762984794	
