!Keysight Technologies N9923A: A.12.45
!Date: Friday, 08 August 2025 17:39:48
!Timezone: (UTC+08:00) Kuala Lumpur, Singapore
!Model: N9923A
!Serial: MY61181427
!GPS Latitude: 
!GPS Longitude: 
!GPS TimeStamp: 0001-01-01 00:00:00Z
!GPS Seconds Since Last Read: 0
!CHECKSUM:1737307075
!Correction: S11(ON U)S21(ON U)S12(ON U)S22(ON U)
!S2P File: Measurements:S11,S21,S12,S22:
# Hz S DB R 50
2000000	-0.0821585431630679	151.445164467238	-86.8903750954721	-139.550897184243	-80.6767278417674	-149.896174796227	-0.0422327780704499	-3.50847423501619	
2249500	-0.0011104757388783	148.299294584559	-74.5153957809468	67.1940519197199	-72.8132600158197	79.955367746254	-0.149163885145597	-4.07285915695535	
2499000	-0.0109200104351287	145.279416755083	-76.4477832957928	144.206909213464	-74.7767328556457	150.767476730412	-0.17514797221851	-4.98980628287747	
2748500	-0.105431295291496	142.011570533136	-63.7635468441578	133.756326298696	-63.9330623378104	139.462411419486	-0.12579222001206	-5.84119574294517	
2998000	-0.267087791259879	138.600592873455	-47.8226465903593	50.106854648952	-47.7775198258129	48.7609355432818	-0.0469204974535965	-6.28591888601167	
3247500	-0.219644204969619	134.805171301006	-57.5643371273413	-21.229155646519	-57.1598497373213	-21.9881636997521	0.0355123651628716	-6.43411195685241	
3497000	-0.135068025189911	131.110363307413	-58.6942334320504	-32.3645039559592	-58.959290278904	-30.9067928513976	0.0145702576569549	-6.55994686030663	
3746500	-0.0379352000466618	127.953847226584	-57.6598229017911	-38.1118645119862	-57.7779876907256	-37.9097680325649	-0.0757383281869446	-6.87966987950505	
3996000	-0.0113456278773066	125.072085240431	-53.5087466155478	-46.0736822323516	-53.4276456365449	-46.4775719905368	-0.169060900447527	-7.70018355752287	
4245500	-0.0910830948710773	122.016966873204	-45.3220297157539	-65.234849595945	-45.1981478373218	-66.4603787968044	-0.231546857633835	-8.92799423577239	
4495000	-0.21918043674274	119.039031645679	-39.4762369842938	-178.157870789589	-39.4932991238283	-178.914137749874	-0.18743039448845	-8.24494867975857	
4744500	-0.23712507264163	115.296140064363	-45.5898729242613	142.240457420233	-45.5204236926499	141.627047457239	-0.0022688312480732	-9.27022653380984	
4994000	-0.20180574302027	111.630735003384	-44.2458825652283	117.706198165752	-44.1775596759717	117.377083928817	0.018161049551838	-9.75707086585883	
5243500	-0.107473205064313	108.809990244231	-44.6990033736258	-5.77444778521659	-44.366860101813	-7.18884060396278	-0.0483337684505369	-9.40340925981033	
5493000	-0.0185294523768987	105.882913726376	-52.9827650023623	27.1461674689814	-52.8743128955866	25.1790322786876	-0.289212722569676	-9.01471748953799	
5742500	-0.0609283148533656	103.083950551587	-59.5569023787387	-13.0377904814075	-59.3322497153919	-11.8194620419622	-0.212016906825831	-9.87425081703787	
5992000	-0.19805266052942	99.75239483288	-69.1133721834575	54.9071303556795	-67.6940592682255	45.4565558008512	-0.175980006119483	-11.0153810908909	
6241500	-0.314155301723928	97.6090402324214	-55.3700969328953	-11.2649214208254	-55.1416499368094	-12.6532335765311	-0.052990605121331	-11.8876675226915	
6491000	-0.237809169595912	93.7093305922727	-60.9243615522194	-33.2865633367863	-61.0625286196594	-33.0074848895866	0.0231662476769342	-12.2436659408059	
6740500	-0.136400092863025	90.4453116932794	-64.1149520061904	-43.3118912534218	-63.3903853166592	-37.0226973470727	0.0469166218849306	-12.4254883565924	
6990000	-0.0413505592602348	87.7200395992941	-61.7958305786236	-31.6622458166095	-61.8647765602475	-29.0510953207804	-0.108330286346644	-12.6329266384929	
7239500	-0.0384988342679655	85.2986974762212	-62.5743278820193	-51.950567136519	-62.6229111221643	-52.1982358826541	-0.125082221566229	-13.0418984246969	
7489000	-0.128054649025969	82.6371672767742	-62.5745829499252	-53.8465206331622	-61.8660865527885	-54.1727895023471	-0.180434295594384	-14.1220108063233	
7738500	-0.233936825032647	79.5555854689721	-60.968513310271	-55.3203997310612	-60.8917165143436	-56.8806341707298	-0.148706989397408	-15.2609900944297	
7988000	-0.263274515203659	76.2514747009823	-58.3145493330974	-66.501178126714	-58.2187672014006	-65.0066063340162	-0.0640725495664861	-16.2195396945723	
8237500	-0.201856753189025	73.0378783403092	-53.5168568775461	-74.0161754076218	-53.3162913160622	-74.9124421510023	-0.0679854716748928	-16.1442039824615	
8487000	-0.0989216560470736	70.308923647513	-46.8342803375528	-111.054182134886	-46.6845255971785	-110.860437426249	-0.153656350350688	-16.5989768466745	
8736500	-0.0621434796507025	68.1124424715327	-42.6762161559847	175.904083378455	-42.5691512330056	173.893337023321	-0.317929853110145	-15.3432653859243	
8986000	-0.107879139309003	65.8980459963652	-45.2512742031676	109.817437093813	-45.0758392924136	108.622909404653	-0.256816631377664	-15.9593465532921	
9235500	-0.219283988445532	63.2274570904647	-47.91525771937	62.5027424777927	-47.895384783945	63.3159534128646	-0.272817107735076	-17.2322796169799	
9485000	-0.288546968948105	60.1622530848601	-51.1618031528463	20.4615918888206	-51.062304794616	19.6825224986147	-0.198596613664164	-18.1825906159493	
9734500	-0.254654082771421	57.0264188592162	-54.5646462679847	-12.4231033742013	-54.7670955338028	-12.6449165907185	-0.0749107566515468	-18.8438748949095	
9984000	-0.144325228547378	54.2310505110152	-57.9521366614681	-38.2985003380014	-58.0578593745087	-38.9035267300494	-0.0106015373956763	-19.2063030475276	
10233500	-0.0516867006649617	51.9378981012047	-59.6786338908641	-64.7457239884719	-59.4229609689607	-64.3067434391868	-0.0698817096142311	-19.5700024482441	
10483000	-0.054533733783166	49.8784322728498	-58.7379860111793	-91.8702011795389	-59.4072483306176	-89.6838356980683	-0.243900412002886	-20.2783924024311	
10732500	-0.152553661257182	47.5398419750586	-58.1991138588557	-128.039427775408	-58.1380145062092	-128.565078587094	-0.522968209686914	-21.0545588120051	
10982000	-0.261797110358917	44.7304322638105	-57.8366244716385	176.117753683399	-57.6284507769487	177.171216258123	-0.622202158249889	-20.1701070154322	
11231500	-0.28536866514365	41.6284404203075	-58.4029122341061	132.801058733835	-58.4864521494092	132.862481477087	-0.336363850726545	-20.3214694434185	
11481000	-0.208580577542536	38.7239375047124	-59.8670651266539	93.4090802280698	-59.7981733260485	90.8134317583289	-0.113130847170207	-21.1966909032467	
11730500	-0.0953555498772596	36.3492575619467	-63.0764563244496	57.6952793897635	-61.9314603943746	50.5124968578249	-0.0747130524099749	-21.8236142671807	
11980000	-0.0418448403192126	34.3375126275361	-66.2107737266094	4.53339255928622	-66.4933380547487	5.02310266973617	-0.250826796636586	-21.8198594916524	
12229500	-0.103038943600129	32.2918532970118	-75.3565669233975	-130.079043587465	-75.0077052088343	-127.223231363248	-0.270855318883694	-21.8346573898326	
12479000	-0.225280349183032	29.7474458741108	-64.859136020206	102.621118095488	-64.6108847917458	102.917357081676	-0.508695865492303	-22.555205969407	
12728500	-0.305852636119397	26.7352382694697	-65.1569281540683	52.2289462170703	-64.2831507458596	52.5672589361906	-0.31852669208187	-23.0278188187663	
12978000	-0.272071086991322	23.6031179964589	-68.7121083828823	47.3008025840315	-68.9174286092623	47.0667543607418	-0.166755791428918	-24.2311205953554	
13227500	-0.163617928938205	20.8617433419921	-67.3274519774961	78.3486453719597	-67.5361454233297	85.6699454394157	-0.0662343071238282	-24.7519007686972	
13477000	-0.0723702840551005	18.6033445679719	-61.9249164501643	79.0307412078773	-62.3186699176476	77.2726465229303	-0.0443573803141717	-25.0888362484406	
13726500	-0.0835190951904654	16.4862380510162	-57.0363971919279	65.3841802681997	-56.6393706074935	65.086846677861	-0.166640540848293	-25.7891096963917	
13976000	-0.195906548252722	13.9517587656442	-51.1776794488109	34.3635458336177	-50.7945036870083	32.4165334316119	-0.486805928346104	-26.6100572646243	
14225500	-0.324314964612488	10.7214591982639	-49.7205664878433	-26.7103702871293	-49.6279501892734	-29.8102162959098	-0.535440618439804	-25.2003845915307	
14475000	-0.36714223433022	6.9303339335324	-54.6555861859186	-55.4141162671554	-54.4696167458715	-56.8066997643794	-0.264775435137327	-26.830687053027	
14724500	-0.311932748858296	3.00475716624222	-58.745526736692	-34.7225223543729	-58.9547349028304	-32.9023158710284	-0.140278684734589	-28.6583552914609	
14974000	-0.25509521724344	-0.926507135198372	-50.0047570116423	1.97521310109001	-49.5080978388729	-0.220434458539996	-0.388593244481724	-30.0955614815589	
15223500	-0.329948586332466	-5.30502749278561	-43.3599116097244	-36.6510400492257	-43.3061428000054	-34.1209942078919	-0.467977320686218	-27.3149646477874	
15473000	-0.689498484070561	-11.8829028754828	-41.930764720969	-88.5538238313143	-41.4122182607104	-92.1842474843075	-0.324599650936385	-26.5988921693284	
15722500	-1.73232086384848	-23.8123636487788	-37.9308453485612	-117.291457456388	-38.1473793839769	-120.057636135689	-0.361517676225302	-27.6693725125336	
15972000	-6.61440271563931	-45.9072772107641	-35.7552209624937	-163.931032752758	-35.6940968421301	-165.176953779001	-0.332257980896487	-29.3827898616545	
16221500	-8.07946020624639	45.2287901904917	-36.5312128027012	132.190072154503	-36.4325149207051	131.361655509508	-0.273267584219493	-31.016139351361	
16471000	-2.20679668547334	26.0908611610825	-41.2662116702767	91.7249446453484	-41.0870252430379	89.5056193991604	-0.257184471482705	-32.3361179564006	
16720500	-0.950514131530972	14.7681698134184	-47.413689077612	76.5399232590592	-47.2516934369052	73.7665126081724	-0.562363274476021	-31.9299444232752	
16970000	-0.524103209385467	8.49942978436714	-45.103598622515	67.5523569991424	-45.3353843150711	64.2208124098482	-0.298871007692764	-29.5441082852455	
17219500	-0.428453779192487	4.02749998361603	-50.4506474056953	39.8337979422788	-50.418468023182	38.3529192911109	-0.340229355380454	-31.1377577295581	
17469000	-0.465702458031093	-0.0230787245698043	-50.0273668063577	37.5915898837539	-50.0066419898627	37.6318698930997	-0.439893998311624	-32.0860548919277	
17718500	-0.472073398945905	-4.01181879011387	-51.6488103212637	22.3502545559179	-51.2274038487353	20.5601381856983	-0.47924096358764	-33.7366040112494	
17968000	-0.382120721821859	-7.63776443251875	-53.0660388950551	13.7788917787287	-52.5449991910642	10.5713116870959	-0.502594001467037	-34.9491278170922	
18217500	-0.232354779864288	-10.4915537994091	-53.6488482093962	2.64671177578882	-53.4926740794029	-1.54874576069516	-0.547637463630239	-35.0092392548732	
18467000	-0.133536398021223	-12.6283749337847	-54.6617566433454	-11.7295657964506	-54.4305406253136	-16.0490122005927	-0.610418776292859	-33.9569242686208	
18716500	-0.153686918142031	-14.5180425607618	-55.6788179122965	-24.6381589563085	-55.4768098847429	-30.3900674746551	-0.658378978964578	-32.8300678185969	
18966000	-0.258269811703187	-16.7180331920294	-56.5249582321541	-34.8931668795431	-56.9155654710823	-41.4791755050374	-0.693827844166357	-32.5561639499181	
19215500	-0.355036947790125	-19.4084603841671	-57.0819439442291	-46.1735474338613	-57.9041207996308	-48.6411907312589	-0.687352770504492	-33.1668913966998	
19465000	-0.350896642969863	-22.2994160429282	-57.8687167169777	-52.5112309456432	-58.8814323313903	-54.7953990317936	-0.589634612536322	-34.1212993160127	
19714500	-0.244207984480359	-24.8504034281344	-58.9245465467669	-65.7730288294235	-59.8123365348781	-66.6671235409254	-0.417982200316609	-34.9131779913507	
19964000	-0.120341598625683	-26.7657476930709	-59.9573403240049	-75.448157580451	-60.3373077854619	-77.7603269989139	-0.25625431891229	-35.230611856413	
20213500	-0.0876294057665198	-28.253950909044	-61.3386168607035	-87.3012240594772	-61.5088575418255	-87.8017982663735	-0.197533671315654	-35.3594806095098	
20463000	-0.165785395933126	-29.8807207055879	-61.1536101753038	-96.7040249436414	-61.2506077992749	-97.3929515762682	-0.24863437233068	-35.6690031214368	
20712500	-0.289278822545544	-32.0333447781921	-63.2761444101461	-107.99255407451	-62.601579038853	-107.687122817871	-0.348435163181265	-36.5340114788419	
20962000	-0.350692752171797	-34.686567040569	-63.8046372681592	-107.158128564222	-64.4101067167215	-104.994510374339	-0.389410468413311	-37.8306107141144	
21211500	-0.303538898533385	-37.3311701700927	-65.5093606501099	-111.717824900203	-64.6968025515281	-110.389464090475	-0.344597709470292	-39.1538586333572	
21461000	-0.177419802176204	-39.5245550360515	-65.2886049888368	-109.285309483944	-66.1506498823891	-107.917961766546	-0.240125050770068	-40.1263727732334	
21710500	-0.0917673180145408	-41.1366821370734	-64.1883013155541	-119.071164939028	-63.7679416257646	-122.368520848813	-0.187234579127347	-40.5248436173949	
21960000	-0.126552585833616	-42.6213546228573	-66.0266807546089	-129.810527921694	-66.2892085677537	-128.922480398645	-0.239643805163761	-40.7075334200904	
22209500	-0.286707182688862	-44.5503561041434	-59.7532410665301	-91.7442836848539	-58.3621338722481	-89.166264830581	-0.396726118418515	-41.2269084380153	
22459000	-0.557671978262318	-45.8231791430143	-50.5587172780693	-168.864533600162	-49.9907750433511	-169.397295312357	-0.580855143701714	-42.156663192335	
22708500	-0.344591513756415	-48.212901105772	-61.3463951816385	106.192195727965	-60.8415417786999	100.404683326743	-0.67751316958152	-43.1868257132451	
22958000	-0.23070654290971	-50.9553552014596	-76.0311676049355	149.201512464849	-76.4014405348856	136.670859198031	-0.663419694014234	-44.5273068952723	
23207500	-0.103818101967796	-52.9151977818801	-77.7190976131959	178.623023387012	-79.933568423687	-163.079873573708	-0.713825681889893	-45.0177469372597	
23457000	-0.0585683254372919	-54.3641535225479	-67.9530635543919	-139.642522230561	-67.6490803420521	-141.817850313083	-0.81888928339168	-44.3478948913424	
23706500	-0.130778811697717	-55.9017847662646	-63.3540635245482	-155.337892757821	-63.3264429645156	-158.146259845066	-0.981375584509722	-43.0277024996438	
23956000	-0.253862774822697	-57.9735302878297	-60.5029943876733	175.628917418356	-59.7937635714141	170.941278982447	-1.13454335590795	-41.8921708482392	
24205500	-0.328215626664554	-60.5692047422825	-63.1101441155998	122.661153247323	-63.3226720313573	124.652875311431	-1.1256342299593	-41.0947312364739	
24455000	-0.294903052203606	-63.2601333795046	-68.1510232339788	158.520995394816	-67.781545226754	158.100809749207	-0.947936274878006	-41.9335156896993	
24704500	-0.176273206063865	-65.5223178467971	-64.7764463846617	126.113844168793	-66.1237061821292	124.195509134417	-0.75380778784984	-42.5476280698979	
24954000	-0.0936422166764109	-67.2069362250258	-71.3226836251488	123.215572361655	-72.1807938652207	122.047973219277	-0.535818701568848	-42.8317707681855	
25203500	-0.130034091767072	-68.6929331922946	-65.2285880375738	175.461909109063	-66.0433767172488	176.744799850463	-0.40561508067935	-42.876441084455	
25453000	-0.285880135555728	-70.4626160137962	-60.483181941002	155.330828387961	-60.639538721726	155.242411310585	-0.401452619744433	-43.0954248177083	
25702500	-0.439046968236405	-72.6957978080375	-59.2275769210147	124.557634533381	-59.2783908202927	124.136493044485	-0.471881147212524	-43.8657443931445	
25952000	-0.509743268007172	-75.2129557644603	-58.5742256822564	89.573579570072	-58.6316616792443	95.2094214823192	-0.515279090977219	-45.1905356758315	
26201500	-0.457840353944259	-77.4991812932058	-61.1569800260951	53.9101493333357	-61.0226866815869	51.7957712874892	-0.480653276155173	-46.7916814487941	
26451000	-0.364323808852963	-79.0564670702254	-66.5238538670843	27.3913607632287	-67.0429576910004	12.3808760659302	-0.401505733754665	-47.8544479788309	
26700500	-0.318745254605294	-79.9965637613101	-71.4611210794656	-151.181871284286	-71.3152740501377	-167.885912290996	-0.283525236733615	-48.3681440646694	
26950000	-0.356784659759974	-80.9842358644635	-61.8021998933774	159.123593836779	-60.8437055968814	155.333606562929	-0.310535659630648	-49.110658845581	
27199500	-0.442465007605741	-82.7481342645482	-58.1561665967655	125.855865232349	-58.5433059949786	121.801558976107	-0.70141337924381	-48.8170550844597	
27449000	-0.493607122472974	-85.2199823692197	-57.4500375693099	99.4850440285373	-57.7007598244893	99.0185454145611	-0.593428284917976	-48.1841224523751	
27698500	-0.439109226120042	-87.9274819713853	-56.8134447736306	82.8230655246235	-57.2505332073293	81.2061509903621	-0.593009182591891	-50.1550677746771	
27948000	-0.308270164938454	-90.2752733633398	-56.3832109492725	70.0911844748628	-56.4533893728804	72.7762207835462	-0.570867496908143	-51.8753272666395	
28197500	-0.203432943088357	-91.923025124736	-54.0770737713186	64.8897807464583	-53.7723930790874	65.7999543132872	-0.51800795149192	-52.9885847691686	
28447000	-0.18502701447572	-93.2945670716093	-53.5544564098909	44.8782615440507	-53.1544715053396	44.6396907923878	-0.521327526976262	-53.4794608258879	
28696500	-0.286587281057919	-95.0597911126517	-53.4088812317251	32.6350967091646	-52.8324091061427	31.3911470095407	-0.679156818836404	-53.6230797682911	
28946000	-0.397352673313987	-97.3971935772555	-52.4702163183873	19.7809533709047	-52.194575364756	17.6941251401067	-0.955782989965087	-53.8348352027064	
29195500	-0.430244320991995	-100.181751571373	-51.5994832349834	6.99333356322604	-51.3644498101398	4.27556457853601	-1.26059290386547	-54.121244054284	
29445000	-0.349319852277067	-102.861023113661	-50.8153618692432	-4.5844804085684	-50.22531367995	-9.45229269760812	-1.45583275491466	-54.1493757227573	
29694500	-0.22121526206293	-105.007839001152	-49.9239268375993	-18.1291921751877	-49.6592148785078	-22.4228715242379	-1.44636266007687	-53.4123631781389	
29944000	-0.159601394595214	-106.582090636071	-49.61650241616	-33.2294576802083	-49.5309201085648	-37.4677564689532	-1.21124933371278	-51.9298414454725	
30193500	-0.227226887476434	-108.14889005855	-50.4766504783986	-44.0813512669507	-50.1574532384972	-48.6749413731395	-0.770401819441833	-51.6750233257045	
30443000	-0.361763964801543	-110.291814639555	-48.1330141069348	-46.2253044994274	-47.9406479819475	-50.3366125253593	-1.08585555072561	-51.8913266204498	
30692500	-0.463819970772157	-113.023139407837	-46.3896318931448	-63.9196440158483	-46.2009543154714	-67.5152879038788	-1.06639042757893	-50.8254287212293	
30942000	-0.453456369044692	-115.911977150974	-45.3095060072197	-85.5423994574839	-45.3861888583117	-88.1079571731971	-1.01456296841489	-51.3954249328758	
31191500	-0.340736056341174	-118.44814038063	-45.3396835381225	-105.67781949749	-45.5127735929333	-109.1825186858	-0.89602964374394	-52.614336068035	
31441000	-0.219694220585537	-120.462770753148	-46.4560445143384	-122.49081166477	-46.5189344382486	-124.806032922795	-0.693857024699406	-53.7858726619807	
31690500	-0.230031755682391	-122.342326195349	-47.1041023256282	-122.150584585218	-47.1602008231341	-124.815549151172	-0.495217042688838	-54.4480732072925	
31940000	-0.393525969934157	-124.406556149351	-44.6607034413615	-133.530992625161	-44.5896856793319	-135.392072202496	-0.40372284993962	-54.7203108948705	
32189500	-0.542986366810709	-127.130220723142	-44.3367445537706	-150.215436202283	-44.2827566379614	-152.535710204022	-0.444871592464636	-55.1389329599002	
32439000	-0.616355288052064	-130.656080696371	-43.8629474947557	-159.472615552025	-43.8404190196875	-161.662603754032	-0.587241793894343	-56.2708989648856	
32688500	-0.608362220704857	-134.311821808603	-43.0575144158073	-172.867593124996	-42.921152838754	-174.250040088222	-0.646201716195574	-57.293632148858	
32938000	-0.60661820512451	-137.674823631085	-41.7863870142564	177.49397908485	-41.8322800028388	176.256577736735	-0.628685446476075	-59.0084037784842	
33187500	-0.786772781669959	-140.878277452742	-40.0600652973518	165.497686604738	-39.9513040048693	163.549687724478	-0.542555985763744	-60.255647915279	
33437000	-1.3787722800046	-144.241032070849	-37.6879377306052	148.774524092807	-37.5228249564831	146.540473262522	-0.488242490177836	-60.9483233069673	
