!Keysight Technologies N9923A: A.12.45
!Date: Friday, 08 August 2025 17:26:36
!Timezone: (UTC+08:00) Kuala Lumpur, Singapore
!Model: N9923A
!Serial: MY61181427
!GPS Latitude: 
!GPS Longitude: 
!GPS TimeStamp: 0001-01-01 00:00:00Z
!GPS Seconds Since Last Read: 0
!CHECKSUM:0273301789
!Correction: S11(ON U)S21(ON U)S12(ON U)S22(ON U)
!S2P File: Measurements:S11,S21,S12,S22:
# Hz S DB R 50
2000000	-0.066539745568793	151.560677642656	-83.3201633696121	163.386030551817	-89.0555448549716	-159.661860040042	-0.0308730237399957	-3.34845179447489	
2249500	-0.0113167559935281	148.33646631431	-85.01108855749	-168.937948440742	-83.0511168544713	147.852413889329	-0.0949152879080799	-3.91825271705246	
2499000	-0.0219466031870711	145.192522369576	-75.6974440119481	151.249890916097	-74.606890152209	152.187975677463	-0.119917069994674	-4.66267280937843	
2748500	-0.0882208678418282	141.869693709604	-66.5710451122616	141.194438628688	-66.5128672195809	143.76695375766	-0.0871628156031813	-5.384693075489	
2998000	-0.212128649125725	138.287579944767	-46.9414919482272	73.9458062636921	-46.6481676290135	71.7290944557777	-0.055105630272342	-5.89379173612278	
3247500	-0.172448805319836	134.911591761854	-63.8710393637979	-9.42157908122802	-63.4067383388048	-12.7854867154361	0.0194452391575419	-6.00396613541217	
3497000	-0.108067209075299	131.266287379264	-64.8687731840913	-14.4853488989016	-65.4586428144327	-14.2344402626002	0.00603547888872012	-6.24382344273374	
3746500	-0.0420927513081747	128.074042983253	-63.3212809125575	-18.8803156209462	-62.2869121204352	-15.6902073799231	-0.0531076914058008	-6.62910131693948	
3996000	-0.0256288904917315	125.081462958982	-61.9379504162961	-31.8946729481166	-61.4014854552381	-30.553430334845	-0.111437535138006	-7.27258002201425	
4245500	-0.0757574289618485	121.992832034159	-60.398389316696	-37.6952388209476	-60.1528855002537	-34.1975574393816	-0.119913994312568	-8.06375799066314	
4495000	-0.149424470364914	118.608931046972	-56.1921153117925	-39.215661592353	-56.5168590228035	-38.7276457636114	-0.0698915317892951	-8.76960555484592	
4744500	-0.202706216952075	114.818564535315	-47.1111940745345	-56.3463373581843	-46.9995519771425	-56.9384690410027	-0.0111590663629567	-9.25758376239123	
4994000	-0.166438861069908	112.254725552061	-47.539308997013	158.813930343732	-47.6749450672898	159.154877869364	0.0207241144362951	-9.21880811417846	
5243500	-0.0744770935693838	108.801664389421	-56.178899387666	148.326084535945	-55.9533489772462	149.653936806433	-0.0100836005113507	-9.54020730058603	
5493000	-0.0308637470602742	105.868506552284	-59.4971619452155	142.125941578871	-59.1907673889884	139.68265674091	-0.0743625379274165	-9.9979663532483	
5742500	-0.0653224913560244	102.948596029469	-61.5649484889418	134.228961204769	-61.2925814488974	136.362319782025	-0.122391484765193	-10.746542649769	
5992000	-0.173641851688237	99.5862921128613	-61.4576455660195	120.265018789326	-61.2973127417586	120.82436062184	-0.116746276096068	-11.5506528989214	
6241500	-0.264523407778105	97.5462867154578	-68.792660253859	134.522425619512	-69.3851881072015	138.052462673346	-0.026559658872902	-12.2704417945426	
6491000	-0.18888330616122	93.783428749615	-64.3833448408074	133.389459738192	-64.5591796359721	134.263437618121	0.00523358100326847	-12.6591390729862	
6740500	-0.117442473710172	90.5794689899987	-60.4840560562734	125.691485821118	-59.7303466930021	126.793729457969	-0.0282641296530889	-13.1903398436337	
6990000	-0.0502336352132411	87.7700070616105	-67.3565242323463	110.157795686272	-67.7499181819724	109.779981506996	-0.033296726206118	-12.7756347148849	
7239500	-0.051388035760661	85.2017210352965	-65.2230009425	125.445159936496	-64.6710188880317	122.608396915094	-0.0956128161919852	-13.5294651571905	
7489000	-0.115090527223711	82.4505427745884	-62.9517427745332	115.994431480375	-63.2753544824418	122.67241225094	-0.133562119901742	-14.411714213152	
7738500	-0.188913599342299	79.4187576172026	-59.9691777919738	118.010377200694	-59.8687357525065	112.155054401919	-0.112256399241346	-15.3508179952945	
7988000	-0.207990047561474	76.2677384295601	-56.2609791833948	108.656615083272	-56.3940568764681	108.53163842198	-0.0538928125580131	-16.2005691858684	
8237500	-0.168100680984784	73.1726900301364	-52.4141203464642	97.80324853596	-52.3058206289232	95.8112534347239	-0.077215825343293	-16.2294503712302	
8487000	-0.0995295774518183	70.4129956934923	-45.6123406278648	78.5186696906881	-45.6323565856053	78.1058120771958	-0.113171223292876	-17.0076327880791	
8736500	-0.0929127626656243	68.1500922180598	-38.0282805824022	8.91255986585781	-38.0140225966329	7.97518050204396	-0.423528762614842	-16.3314502718181	
8986000	-0.0992016518177335	65.8043142360563	-41.4718087209876	-63.0254426240544	-41.4257613493018	-62.9674086205262	-0.264646181667544	-16.1925936827482	
9235500	-0.177634738830707	63.034052353146	-43.8448383411329	-97.4669461250762	-43.9913006627649	-97.508526175223	-0.27267833405337	-17.3341932953289	
9485000	-0.233868842862626	60.0694762295387	-45.2420327921105	-136.348926114239	-45.1539908234352	-136.916861770248	-0.247338920901796	-17.8798742008302	
9734500	-0.210846954771242	57.130879808762	-48.5344703462636	-179.58832780832	-48.6798245627249	-179.448434150513	-0.114441610233532	-18.1614084300719	
9984000	-0.12982073734036	54.3967657677929	-53.7987371643291	152.727655728722	-53.9060824649495	152.426984956672	-0.0199723885406402	-18.6814445510984	
10233500	-0.0643538692486216	52.0110074811797	-56.9371706244239	139.338571408275	-57.0063724276303	140.299960502474	-0.0376225152450753	-19.1621033503245	
10483000	-0.0664529606537262	49.7913910060114	-57.0193515342827	135.143440323024	-57.6078245082771	137.109016535893	-0.123198399739253	-19.8359837628877	
10732500	-0.135997066650326	47.3688600692571	-61.3145399873795	114.627379892056	-61.8431531746722	114.592148944511	-0.197188249396258	-20.9717168915407	
10982000	-0.213545404783293	44.6196776783951	-64.860726791066	96.2281830774141	-65.7800652259267	110.531369890521	-0.264754554809911	-22.3513996814432	
11231500	-0.229710841475423	41.6718230377233	-66.0050465550463	107.512570209016	-65.8873488680075	111.291723730869	-0.345097726141695	-23.5350029423291	
11481000	-0.175592100415643	38.876256150359	-56.5513485789895	115.375411687638	-56.3292661299567	115.344266286589	-0.588954050731865	-22.9425108470882	
11730500	-0.0978163320000501	36.4448614888773	-52.8956439485084	31.6243567752034	-52.8569932116082	30.8467918085464	-0.535279044469838	-21.3377895156582	
11980000	-0.0583350775967876	34.2922396599871	-56.0233731069498	-53.713268207185	-55.9133678031512	-54.8279485911109	-0.352319915530263	-20.81614765213	
12229500	-0.101974787983811	32.1164672081342	-59.6841362054583	-124.414766119547	-60.1404831723955	-121.904989520481	-0.551697270739062	-22.6805356565342	
12479000	-0.191384859983289	29.5796163739364	-72.7863376355286	162.197612738553	-72.2575871695716	158.690568678334	-0.54321699858425	-19.5541295369785	
12728500	-0.248308587900197	26.7058658180473	-77.4069945661216	161.684084136273	-78.5211482674841	-179.962595458755	-0.207358612586675	-21.765201982915	
12978000	-0.225560059446972	23.7363557166192	-81.6598647951385	102.43138890224	-86.3018555266649	121.132826979085	-0.107850429432423	-23.3830750339411	
13227500	-0.150138421837213	21.0291816065009	-82.1598306512484	10.385705149503	-79.4452961942699	19.3403238742921	-0.0454465618223679	-24.3239692088731	
13477000	-0.0852077235713575	18.6411313663633	-78.2406689274997	34.263348800948	-74.9575472546947	43.1535028472386	-0.135142013340325	-25.3271297850001	
13726500	-0.0946436798660595	16.3562896802446	-62.7822062777733	-47.2300626295116	-62.5216077192468	-48.1450949309273	-0.248567676906487	-24.3006103183631	
13976000	-0.176046919970839	13.748802424717	-59.8953135839811	-89.164557918666	-59.5856083752207	-86.4443717733735	-0.202027313827786	-25.3603711330748	
14225500	-0.271688225782603	10.5980332227793	-56.3210067389543	-112.750668794663	-55.6846385488745	-113.603019977679	-0.252581195094481	-27.21099283793	
14475000	-0.311664042587738	6.99279936306683	-50.350845406304	-147.466856419612	-50.1991533445037	-149.023960717051	-0.493362438281509	-29.5292270797054	
14724500	-0.283973315100859	3.20372078379451	-46.9431846610573	142.902735282343	-46.9111326891683	139.555948385604	-0.909208014907821	-26.763423281112	
14974000	-0.259472815097178	-0.776997956667848	-50.5970041037564	87.2962319252257	-50.6230015032196	87.4077977685314	-0.473030120584596	-24.8206437685259	
15223500	-0.336553033602759	-5.34212329044809	-55.2409939965922	32.0166903971715	-55.5994588907826	29.8631186131235	-0.15287833772061	-25.0191217298968	
15473000	-0.681554356919777	-12.1081107705592	-66.246111377347	-33.3821321814298	-65.5880205283185	-27.6826793912603	-0.115374006776981	-26.2555751483856	
15722500	-1.70412166010984	-23.978330961293	-53.6282216053993	-159.817726459451	-53.9127090286514	-158.548887440717	-0.155023754465747	-27.6116521166559	
15972000	-6.52899076997224	-44.3666242314852	-39.8891715266056	134.012349513022	-40.1581621274407	134.952971061271	-0.208244479821138	-29.2836391549152	
16221500	-8.18355880380373	44.983325221172	-40.2264738895678	-14.6940652551479	-40.0027583654844	-15.7184076172726	-0.236041085010102	-29.1910361466492	
16471000	-2.21310408739789	26.3165796250756	-48.326556865246	37.7436164682984	-48.451473781114	37.4894990298936	-0.052833974720054	-30.66471245645	
16720500	-0.97960371456818	15.020601698467	-43.7274804589647	1.9787484987874	-43.6684137254502	1.33266912520639	-0.0713210718781536	-31.7750576501985	
16970000	-0.543328316922737	8.54292340065483	-41.6856039227458	-46.3932429991508	-41.6460877126351	-46.6255366358483	-0.307632445490353	-32.6676657071001	
17219500	-0.42065909265823	3.83523305943366	-44.786167536307	-118.918837932103	-44.7010268846171	-119.741045708085	-0.577329756146493	-31.0458281143534	
17469000	-0.422716550225643	-0.191598939264133	-57.1714700724197	-115.103631917953	-57.0252468125388	-115.832780266341	-0.42515489715488	-31.8052333174689	
17718500	-0.412007001642379	-4.01111937919085	-54.7037058394393	-86.8961189781188	-54.2882691351661	-83.7187265806215	-0.44569816824669	-33.6289881158025	
17968000	-0.339521263532198	-7.48329597341713	-51.4960394361452	-99.9379178379821	-50.7366639010468	-97.668047857551	-0.614703528412131	-35.3135998981473	
18217500	-0.227209159870906	-10.3490983512313	-49.3537683445242	-130.540717049394	-48.9032115824862	-134.283366348147	-0.986612083685688	-34.1197803262312	
18467000	-0.150022807089671	-12.6321262236525	-50.2687418655558	-168.439037516052	-50.3438010453672	-173.762668263691	-0.836053328666451	-30.5319650086137	
18716500	-0.15863672625353	-14.6809380010349	-53.1329705613904	164.237363667531	-53.2359932355861	161.158260676471	-0.533386738102659	-29.963384515584	
18966000	-0.229647466489201	-16.9098378361136	-56.3148351188547	145.36609865015	-56.5318751494631	146.009609820255	-0.421938876368409	-30.7452498912139	
19215500	-0.297622802503952	-19.4682682150809	-58.5659394915333	135.426154810051	-59.1372638906564	134.037744088676	-0.372740714476404	-31.9374556706229	
19465000	-0.296733987716994	-22.1716628486997	-60.8880082944721	124.288718491428	-61.8166361257193	121.858333670142	-0.299915985803842	-33.1723185389189	
19714500	-0.221914108005041	-24.6462919841226	-62.6082478301638	118.381999726167	-62.6315739486601	116.437075652998	-0.190759416809756	-34.200145601472	
19964000	-0.132283953737354	-26.6722188433887	-64.134599853734	109.71647566612	-63.5588928487582	114.11143256817	-0.0931341486490708	-34.8465439102007	
20213500	-0.106041806981311	-28.360564187188	-64.8257414988655	102.659105787783	-65.4845822734112	107.19312515612	-0.063684660090124	-35.3859895172295	
20463000	-0.15748339984147	-30.1261895319813	-69.0795959981548	87.3870326640796	-68.6133102479966	83.6094606003396	-0.131520675863427	-36.4953655876429	
20712500	-0.243603671379058	-32.2391765244607	-66.1985204861071	86.8666897543166	-66.0032575104399	76.3671343431267	-0.416998859509736	-35.9321372297572	
20962000	-0.288218510662355	-34.7002378735988	-73.8183175883846	127.731029024766	-73.2126295781329	142.313402440747	-0.354774451540811	-36.4364260018685	
21211500	-0.260153070323994	-37.1661389779308	-68.2151697411265	93.8479365249502	-68.1690330810882	86.1002941657335	-0.227060362466885	-37.4729903052075	
21461000	-0.171705631899126	-39.348310335614	-67.4879156379782	70.7141354323408	-68.7399357325063	73.0885016356658	-0.117227513664856	-38.4450263255418	
21710500	-0.109487266406651	-41.1172722279903	-71.2774248511892	69.3388890493942	-71.5452360661767	63.04813135023	-0.050007609304876	-39.0016014330357	
21960000	-0.135041249166789	-42.7967591395399	-67.8754475532811	82.2725088446702	-68.1553151861066	79.5269687893642	-0.0563743671924254	-39.4454806232148	
22209500	-0.257923474822833	-44.8005170914037	-62.2730992428314	32.9561949732712	-62.9273055311374	28.850508673421	-0.120329873133677	-40.2047502881406	
22459000	-0.500136231565154	-45.9852439031647	-57.5001716202213	-80.5238343132968	-57.7388050580868	-83.0810901258155	-0.207018494126664	-41.4687294720264	
22708500	-0.287588300955956	-48.1583886852631	-64.6478812291382	149.380615265058	-64.7537873752519	147.82442114005	-0.316622735019829	-43.3319777472334	
22958000	-0.20435586914478	-50.7825404305976	-67.7846988106325	65.7830576212634	-68.141683479052	58.6114840648338	-0.70863422978501	-43.4660120849869	
23207500	-0.112829690392711	-52.8225831809901	-72.1417822490698	80.745961789673	-76.1738090300472	73.4655521672148	-0.305175554379318	-41.9428064462326	
23457000	-0.0776469249521222	-54.4661718560249	-69.9864015518891	66.6837528822357	-70.3255737490949	58.5924575731574	-0.140444690667475	-43.314896076427	
23706500	-0.126146563616534	-56.1507120248547	-65.2113904075975	30.287244724833	-65.3550463902608	28.803560867307	-0.201523726941986	-44.8305968183198	
23956000	-0.212074178795719	-58.2146535888062	-58.7859936261547	-24.8331216280887	-59.1684440631113	-26.5504198757083	-0.554703541480721	-47.0406383529939	
24205500	-0.266696272444853	-60.6304411883756	-55.2543659673923	-110.847720894709	-55.1898189433832	-114.343362059985	-1.07031357118401	-45.3756645337438	
24455000	-0.248890972146538	-63.1370655498275	-59.8510341432167	-179.761632919758	-59.9107592177279	178.756466355381	-0.948003830618619	-45.65810465789	
24704500	-0.168401109491491	-65.3711449563689	-66.3944563895668	-162.005915340106	-65.9767266041205	-162.574457209992	-1.23050862110038	-45.8532207873651	
24954000	-0.111155348556396	-67.1898815802289	-55.5376176628274	156.840105646556	-55.7536695019387	152.06648926804	-0.906926216908063	-40.8628534978919	
25203500	-0.141482758911205	-68.8740804686985	-57.0619374214909	102.370632335981	-57.1182656398427	108.37260227341	-0.422705904090635	-42.4067342132125	
25453000	-0.260995241326899	-70.7182178866869	-59.1988004602386	85.6662999971602	-58.6132783167793	80.8418455885276	-0.428084563038902	-43.592516729385	
25702500	-0.381185306646052	-72.8599434293805	-60.8857358379576	59.1291742202636	-60.3847272511899	57.5368446394641	-0.515628837963727	-44.2085122412799	
25952000	-0.450056176731375	-75.1736091671642	-64.4731930606521	43.3105962207521	-63.5297681289685	35.708609132067	-0.489647332952161	-44.893096373781	
26201500	-0.428416379545647	-77.3512305358734	-64.9775889506356	43.5853557470431	-64.7775015739624	38.7813721483648	-0.375892876887197	-46.2147312605997	
26451000	-0.373668683476388	-78.9676396096528	-62.7928181673085	57.5935149962153	-64.0598229448471	54.6894618922944	-0.25672295193734	-47.6500648626313	
26700500	-0.342301854534771	-80.0993735233991	-60.6716352364585	49.5180945820117	-60.4512816020517	46.1571188059777	-0.207820615364943	-48.8441983703597	
26950000	-0.358524425939244	-81.24711240705	-57.7563972972878	32.9658607324148	-59.1860994488692	32.7621802677881	-0.323328449200681	-49.7280552867714	
27199500	-0.402920805079855	-82.9968668462306	-57.2574681413379	5.44125936924658	-57.556787827492	3.25597729386045	-0.529451611104178	-49.5800365455659	
27449000	-0.432153600513265	-85.3021554865678	-56.6732420130552	-15.3964878306238	-57.0523435688764	-18.0407442448779	-0.56735286407318	-49.970308216841	
27698500	-0.391020610305185	-87.8011956727553	-56.7983023807257	-31.6446763607725	-57.516334340136	-36.2812120323058	-0.589215554747119	-51.5079446564384	
27948000	-0.298091847220948	-90.1010854378576	-55.9843024682756	-47.74308201994	-56.274936264906	-52.2999813044724	-0.67038491590777	-53.6907327564566	
28197500	-0.222189487853432	-91.891613960424	-54.7637773675588	-92.7825143477979	-54.7739427813021	-89.9464214462575	-1.20418499217242	-55.9168863135496	
28447000	-0.201618145295762	-93.4917717487487	-60.0443543133804	-134.796082351768	-58.4781887218345	-136.718072535781	-1.3435312647113	-44.6097910545783	
28696500	-0.268818090629664	-95.356148590121	-66.1287820945472	-123.857688721475	-66.2102400917536	-131.734335518232	-0.322041886612428	-47.7036296164874	
28946000	-0.34288403301019	-97.5996185715217	-64.6984424821043	-110.490818895157	-64.5597440146129	-114.86325601664	-0.309221303957962	-50.3462972111891	
29195500	-0.366569341212495	-100.157023560448	-63.066796425929	-118.031818232464	-64.4461648467229	-114.901886334128	-0.401513809590703	-52.2940370220275	
29445000	-0.315177954703669	-102.674167999631	-62.5428480834694	-124.615720066986	-62.7814784723517	-127.738870254599	-0.462946805436061	-54.1420798975498	
29694500	-0.22580603251999	-104.852847604082	-63.1833127752865	-140.730839619047	-62.8570286245312	-138.239509789924	-0.481904490769741	-55.7541960632173	
29944000	-0.181282025547906	-106.624849091686	-62.8463666601907	-155.352171754765	-62.7076988379645	-157.040323327415	-0.510854339414439	-56.908341037939	
30193500	-0.230199268154993	-108.382618220693	-62.1887858914122	-167.57614843611	-62.3598196702663	-161.878455895526	-0.613266109895687	-57.0861451238858	
30443000	-0.325468503895297	-110.561413190474	-59.6271259766667	-160.387311110947	-58.8755594331118	-165.341220106543	-0.72413122419197	-58.0149760991381	
30692500	-0.40030895300826	-113.138094190825	-55.6503504462026	-178.882666136439	-55.0726925035003	178.353101122434	-0.990645069352795	-58.989823608648	
30942000	-0.39908229619633	-115.823722315455	-52.8155702658497	150.537209656655	-52.4670239440716	151.529860795962	-1.29466609608798	-60.1169617191555	
31191500	-0.324001495146086	-118.306367579411	-51.5511251786739	117.39671301626	-51.2861753387306	113.721467358388	-1.61147977240968	-60.7754818871819	
31441000	-0.235354949131525	-120.45346759804	-51.810332998738	84.5720896540521	-51.2637910591355	83.9619899659003	-1.86212815106552	-59.6538374139367	
31690500	-0.245534894519438	-122.541075719319	-54.3280332220229	82.187852515364	-53.621520974606	83.2151860141052	-1.7842592700108	-59.5251925319799	
31940000	-0.374103185605422	-124.700544861867	-48.3617948053472	77.7082051585536	-48.0925479893365	74.3811476570651	-2.03232844899481	-57.0059923187399	
32189500	-0.486844092752677	-127.331684436332	-45.9360942257016	43.2282823997131	-45.8659367443091	40.4691496249814	-2.14309023479001	-54.2836332042663	
32439000	-0.550175670338652	-130.621937808283	-45.3021259810204	16.4975308219598	-45.3229037349426	13.9116298641623	-2.0680042917652	-52.3931702760043	
32688500	-0.572039654426462	-134.109137091993	-44.3020247402907	-4.24489241529225	-44.3760540379088	-6.5851349250631	-1.91669253914051	-51.7599781886692	
32938000	-0.608892016822984	-137.503034130434	-42.6803062304255	-23.2613887407676	-42.7759376718158	-26.0005943187198	-1.69203425539165	-51.2056684878163	
33187500	-0.80104302492748	-140.9097616206	-41.6929787477791	-49.8631179353804	-41.759464057046	-51.1374029584	-1.07964288163785	-51.7743940606815	
33437000	-1.35646866453567	-144.456541554238	-41.2188748698418	-57.9615916838841	-41.5516066447683	-59.8112722274048	-1.29050441836666	-56.6877502262308	
33686500	-2.52365169636166	-146.78326982585	-37.4209730801643	-87.4890196856424	-37.6277113843655	-89.2869610292707	-1.27052184725122	-51.9125338693281	
