!Keysight Technologies N9923A: A.12.45
!Date: Friday, 08 August 2025 17:24:46
!Timezone: (UTC+08:00) Kuala Lumpur, Singapore
!Model: N9923A
!Serial: MY61181427
!GPS Latitude: 
!GPS Longitude: 
!GPS TimeStamp: 0001-01-01 00:00:00Z
!GPS Seconds Since Last Read: 0
!CHECKSUM:1048710412
!Correction: S11(ON U)S21(ON U)S12(ON U)S22(ON U)
!S2P File: Measurements:S11,S21,S12,S22:
# Hz S DB R 50
2000000	-0.0646797132351663	151.570811725339	-86.1187204588159	177.386604097627	-78.8849122099544	-144.594633626416	-0.0280953339319613	-3.33422316458215	
2249500	-0.0141273288733961	148.337386755864	-80.48161701324	137.801730369715	-79.4495912565461	-168.847993005447	-0.0879771509820057	-3.89820317463351	
2499000	-0.024176484846398	145.187452503165	-77.2909371500487	158.262436296838	-73.4694114030791	149.861112722514	-0.111638793399228	-4.61393103195061	
2748500	-0.0860761783863104	141.857332367482	-66.2334932654727	142.466629037743	-64.9279308165103	143.251178807304	-0.079776581412868	-5.32445285707661	
2998000	-0.190527538770824	138.200057966155	-51.644539258691	91.7284812938344	-52.6789773140078	96.7688657949133	-0.0333790417299657	-5.78486366513134	
3247500	-0.166831450808853	134.933885007342	-61.6807711836951	-7.55348020402703	-61.3899647778197	-11.5459391369341	0.0171321170669995	-5.95573437091274	
3497000	-0.10599695479033	131.299989448357	-65.7973288824402	-16.3575798095121	-65.5042241267204	-22.5116071018164	0.00603601671804917	-6.21019651053473	
3746500	-0.0439896390798244	128.101208686189	-62.331949770218	-14.7367281799683	-62.613803758305	-12.4677256589742	-0.0497730878590504	-6.58684857773638	
3996000	-0.0279939861274509	125.092966111016	-62.7082573847522	-29.6640173217635	-62.1448826553674	-27.1057621195014	-0.102093056637159	-7.21339157872682	
4245500	-0.0756122538020332	121.986906359035	-60.3496729140404	-35.6749405177558	-60.3308145964087	-36.1331713589093	-0.110005823084102	-7.97496868796067	
4495000	-0.144079720058421	118.605592603019	-56.6610268030826	-41.5410429713467	-56.8508937354822	-39.2918920366429	-0.0638928686201295	-8.6606256625553	
4744500	-0.190792920139087	114.863943741945	-47.8054391088909	-54.7598269637891	-47.826161332215	-54.4177113622245	-0.00870946853574873	-9.15071921524244	
4994000	-0.166186633692698	112.311899898041	-46.408294881981	161.616318165412	-46.3857453857375	160.82563173858	0.0168229452954711	-9.11552870513821	
5243500	-0.075276967454435	108.828815542167	-54.3457167994598	147.325084666849	-54.7170793832207	146.893226829105	-0.00838877178460744	-9.44783372135716	
5493000	-0.0348082559770227	105.875570987964	-58.4122728903596	141.679344034643	-58.6208984805537	139.880557808977	-0.0686073495133972	-9.91431582533474	
5742500	-0.0673827740352704	102.937811977731	-59.657358113277	134.032197386095	-59.508129626697	133.465325473839	-0.112282350210068	-10.6383242030955	
5992000	-0.17094717384146	99.5689843056294	-56.7768065541205	114.478026972716	-57.0224031534909	113.650535893068	-0.10724873897869	-11.4147453220545	
6241500	-0.259793236009205	97.5384268546871	-64.8240013304963	-1.01788628084987	-65.1627452355357	-3.33496625206311	-0.021838253852184	-12.1084477286325	
6491000	-0.182923755543548	93.8017099995163	-73.0923666042959	146.432524822152	-72.9668162203622	132.455104589218	0.00521399373098479	-12.5185933590528	
6740500	-0.115675683043167	90.604009642954	-63.5861146710888	130.043131158722	-64.0582459351939	124.856820804903	-0.129290258895385	-12.969915081991	
6990000	-0.0532159430622462	87.7773087766356	-68.8875138289191	132.787419900194	-69.0838279692062	123.703558921133	-0.0265227752127284	-12.7181807334588	
7239500	-0.0551132132812278	85.1837801954448	-68.2272645819338	127.916469438437	-67.1798023863016	126.706254875218	-0.0857229825426723	-13.3727090554137	
7489000	-0.114787515183386	82.420257740554	-65.6574604003686	113.65528870581	-65.268208016067	122.706079343843	-0.120259479798736	-14.1892648810762	
7738500	-0.183948988453619	79.3989501970482	-63.6840966477465	116.22103679846	-63.568422655117	117.831791902918	-0.0988149387104722	-15.0474807991165	
7988000	-0.20137788906162	76.2697556840235	-60.5745061239066	115.294987934976	-60.0199534696946	115.107995551832	-0.0390371790810413	-15.785121095594	
8237500	-0.163542696154284	73.1937498704717	-54.8779037394857	110.91066718287	-55.0552448387524	110.878526890698	-0.0448938968076839	-15.9613597049763	
8487000	-0.0971854308726485	70.4378663975482	-49.6912003103252	92.8479530202492	-49.6421209482121	93.0704065801225	-0.0394121384178222	-16.5012092512418	
8736500	-0.0939301332525393	68.0180164192848	-41.0944267841702	49.5124978600793	-41.1230209017062	49.1134304839105	-0.231271424002835	-17.2299918037228	
8986000	-0.106621100777777	65.8640244767754	-40.5384051528592	-43.6272313163099	-40.564330670132	-43.110226675259	-0.300389962175852	-16.3173866622963	
9235500	-0.17154270325369	63.0586012755823	-43.9176634915432	-86.8926896336108	-43.9375874617172	-86.8197633650262	-0.267957530842908	-17.2274079313363	
9485000	-0.224926223137955	60.0976396538707	-45.7321584978497	-132.189223995985	-45.756763148809	-132.218667109287	-0.233750539256794	-17.6529563448188	
9734500	-0.203643009298361	57.175339255076	-50.8638681077017	178.654483865906	-50.9815412303535	177.453960657568	-0.0823809786399681	-17.9713073357587	
9984000	-0.12755684885543	54.4262734167187	-62.6452959264529	179.389561573838	-64.7386803771617	-168.023388382309	0.00173772039705105	-18.719914282398	
10233500	-0.0704412452843677	52.0135842860172	-54.6430878350441	174.214394052209	-54.3494759375909	169.388154668579	-0.0581157403271434	-18.8037027991811	
10483000	-0.0700357923639259	49.7785810368914	-59.0630814621541	133.235242136924	-59.1370379137695	135.230370832477	-0.0859293748563109	-19.385896763796	
10732500	-0.135206034262988	47.3444226256759	-63.3160295448244	122.288138531543	-62.6454615449609	125.879938138144	-0.141702749669171	-20.3166304284958	
10982000	-0.208225661574415	44.6144089324019	-66.7098265006318	113.943675378677	-67.7949734340253	111.254476718186	-0.155978819438343	-21.3920360480037	
11231500	-0.222550762524892	41.6995420720751	-67.2817138650508	106.485698990419	-66.2820394796065	112.965360319565	-0.130251051702737	-22.3973021066041	
11481000	-0.172649706626169	38.9143217679302	-62.7546697688034	127.677319452858	-61.9783423202515	133.519943608499	-0.153478994913237	-23.3569711509705	
11730500	-0.100185799317862	36.4814335596029	-55.4114570085222	57.443916714695	-55.1138732850372	51.7292072285439	-0.362609058985203	-23.2476480277381	
11980000	-0.0636791581800031	34.2961061617718	-59.5829465212187	-45.6723804698264	-59.8793777686648	-54.1725272851047	-0.280680715397616	-21.9216898495861	
12229500	-0.103641067520211	32.0984349806343	-64.1948870310771	-126.091817298438	-64.2436855274253	-128.070372039543	-0.393450670073834	-23.8113665659026	
12479000	-0.186208979824768	29.559846778818	-76.2724289192376	50.2233168134348	-74.0473576536701	62.8903711512376	-0.346589031806034	-21.2817448905147	
12728500	-0.242141266352533	26.7033033314809	-76.9146852479367	19.3645159709367	-73.6396131556967	-8.96240098811389	-0.209055759210259	-23.9981425831301	
12978000	-0.219926517441521	23.7632364279815	-78.5820023527033	-85.532285208827	-77.2696316033201	-108.222937886941	-0.282383622412773	-24.9563594767312	
13227500	-0.15010031692773	21.0576051750814	-73.3957937778047	117.542298928308	-72.6091854315882	104.703660564609	-0.214587207327058	-25.2742050071223	
13477000	-0.0905164238043111	18.6592969475145	-65.460251390256	41.8334593209018	-64.7362134387452	41.0284774632193	-0.315140069877614	-25.5107033685227	
13726500	-0.0988921638914406	16.3473744945668	-59.694079998297	-33.0980099920447	-59.4374215361112	-37.3347346006218	-0.321289968652849	-24.6178090807662	
13976000	-0.175740177020622	13.7334405299047	-58.6537632926151	-86.035224956073	-58.1667490371505	-86.9664516426312	-0.226804659130406	-25.9214135154314	
14225500	-0.266097887294291	10.5975693930718	-55.892296923478	-119.792705346558	-56.4152338042263	-121.455904441157	-0.307925922980402	-28.5891812022587	
14475000	-0.305083027164306	7.02158627549864	-50.7936940765528	-171.098179305787	-50.9487931936502	-173.371141904531	-1.19678960773433	-31.911511769808	
14724500	-0.280676463858628	3.24399056376149	-52.3078031045282	90.4427762924132	-52.6728588238175	90.4590201950767	-0.753028778540073	-23.0181015317869	
14974000	-0.26339024204295	-0.763394069313057	-61.6893896472613	35.565269992949	-61.9134165735883	36.5285618769311	-0.128572354504057	-23.9915524789996	
15223500	-0.344651128077428	-5.36179707246815	-58.2103540046186	-85.0101099518468	-58.3311590602551	-82.8093977455433	-0.0319749530186522	-25.7873573575569	
15473000	-0.685161635280141	-12.1507687157042	-54.1886171242831	-133.929169233238	-54.4855862668667	-132.18681762058	-0.0684045839208343	-26.9603495777975	
15722500	-1.69780082386927	-24.0180082427379	-48.7463174381769	-166.719524668872	-48.8297581407451	-165.930012695616	-0.130362190766563	-28.1852755865607	
15972000	-6.53994925375197	-44.6720492317105	-42.3679924850698	145.111503653009	-42.6157205689689	145.765911819379	-0.162281304317952	-29.5519404452376	
16221500	-8.13729725134588	44.3769355614179	-40.2318803577303	64.6191595095722	-39.7494577344102	72.3002445350463	-0.179030278029385	-30.6463157477663	
16471000	-2.20793124374053	26.3361227157023	-43.6014015592733	38.1199360438195	-43.2543014277744	38.4385341505211	-0.085237055687796	-31.5104652058161	
16720500	-0.980548292194957	14.9850171593737	-44.3245207061234	6.75473095040706	-44.029738084338	7.36799017570994	-0.0886893389830664	-32.3809331321621	
16970000	-0.554502463729018	8.47401866215321	-45.0520134921706	-24.0944831099442	-44.9397211196741	-22.1218865088333	-0.193215073265098	-33.2985512408972	
17219500	-0.424428641154759	3.80187256781984	-47.5874129327882	-55.4025548260208	-47.0144088856178	-50.7324445282105	-0.431088181391631	-34.4237935670165	
17469000	-0.417277845523768	-0.221296244844953	-48.4496236605685	-60.2791741593717	-47.5534552002802	-61.7764548047001	-0.645184077472701	-35.6841395005551	
17718500	-0.403500094947006	-3.99755938376459	-47.9569499303983	-81.4752137852102	-47.204375484874	-84.2942303543854	-1.07718548414361	-36.8514842386079	
17968000	-0.334225236687673	-7.42732717893785	-48.3707044458182	-110.452091856076	-47.5461104233071	-113.996714160038	-1.50114019890308	-34.5191887501158	
18217500	-0.228643976780127	-10.2800935270964	-50.3697344238284	-137.289211363419	-49.6301457415676	-143.486992587445	-1.26108196970892	-30.7707433187941	
18467000	-0.155393629122988	-12.5861889007464	-52.383887331223	-154.273092005985	-51.847479675022	-163.450416972671	-0.898655192410246	-29.7530738761171	
18716500	-0.16218067326771	-14.6745608306001	-53.4622967884881	-165.010657841964	-54.2102604952639	-174.862948006099	-0.738287848976435	-29.9576729612503	
18966000	-0.228826285567386	-16.9259692788692	-54.2334652657005	-177.287649113101	-54.8545581678051	175.225023545529	-0.786893763916618	-30.2831477861937	
19215500	-0.292285725934414	-19.4785383089039	-55.1509807552552	152.89687103533	-56.0309893036755	152.796554637679	-0.65820738049963	-29.8364452502771	
19465000	-0.290151970037714	-22.1569244562865	-57.4974904473893	137.43487729545	-58.5359009703739	130.800497058224	-0.44738341548869	-31.0631043474738	
19714500	-0.220318214556161	-24.6049871228195	-59.6849036863999	119.672956219893	-60.2037835654624	121.254779199638	-0.278174505269736	-32.2401190728271	
19964000	-0.135951756143136	-26.6309706198508	-61.5645524037725	110.268594135939	-61.9283756606546	112.890335724393	-0.147776018256855	-33.0344457464878	
20213500	-0.111231131579679	-28.3441074990132	-62.9938137155139	100.609364020199	-63.3618155135615	100.737913455927	-0.0952091080296706	-33.6485370495347	
20463000	-0.159511540555073	-30.1309184776573	-66.3979000310051	72.0737609564008	-65.4471636787686	77.4827604427147	-0.123985114233417	-34.5316856916386	
20712500	-0.240280093024759	-32.2411205880322	-70.0284703348977	97.417929137249	-70.3348523770216	87.9823200667642	-0.314454130761449	-35.1480712110016	
20962000	-0.282941194781661	-34.6906362188636	-70.4331400978624	78.3497051400485	-69.9562390505231	45.3516124492205	-0.241527405339155	-35.5358095633602	
21211500	-0.256298740148176	-37.1461447072398	-71.3774164046823	57.1817138245345	-76.0891160969797	31.2723630505274	-0.178998106201963	-36.6948432050277	
21461000	-0.17281075714949	-39.3293830142667	-74.705257291301	58.5272439836824	-78.6056204771276	50.4597407648019	-0.0982679490317877	-37.5703355014746	
21710500	-0.115931305967662	-41.1238530544242	-75.8875651954333	64.8374060270378	-75.8665829495529	55.7035628367593	-0.0466355997883649	-37.9982303292029	
21960000	-0.139777495141458	-42.8231450339019	-86.5367384262375	102.15816971544	-84.6167182240921	-127.541364189207	-0.0385093787252736	-38.3005683969134	
22209500	-0.257561830160496	-44.8342456086182	-80.4651488179685	46.0963472532274	-76.692904996101	156.850835670588	-0.0836048683845085	-38.9503225449301	
22459000	-0.49378674335434	-45.9879585830866	-65.8677446761826	-116.353383568602	-70.153840815414	-118.351429337119	-0.145571664190628	-39.9627560097429	
22708500	-0.281400115345966	-48.1391977164523	-66.9008162959472	118.233529814842	-68.8362196657677	118.017270928183	-0.197101094327119	-41.3061185014867	
22958000	-0.203093151133589	-50.7463063148536	-71.4233367446659	32.4704402893524	-73.3233599171844	22.9897421893858	-0.268346642909836	-41.765094214948	
23207500	-0.116827266205245	-52.7915593747476	-77.4903320437574	74.0165866496668	-78.084794669661	82.3287544050006	-0.103627205340362	-42.2329912222677	
23457000	-0.0833710548123778	-54.4592046725154	-73.5633298176469	82.9654954460258	-75.0697368172087	98.068877462287	-0.0488862964508337	-42.9403401350547	
23706500	-0.129285327273195	-56.1631359464308	-70.5561769287901	59.5773201696854	-70.4746891520499	62.5547402801791	-0.0892757996985952	-43.678525498149	
23956000	-0.209247326336247	-58.2203477354561	-66.5571816004198	8.95338375827153	-66.1369996390642	2.48490891582787	-0.201024936599713	-44.8526534909199	
24205500	-0.260167553059129	-60.6169003671762	-61.7440057262367	-66.0332020471334	-61.6942818268381	-61.1047357682326	-0.397706543051831	-46.253544348029	
24455000	-0.244445376608218	-63.098179554656	-66.32529094684	-125.742554628324	-66.6452843034339	-126.469980746493	-0.494965939797759	-47.0845985228319	
24704500	-0.170789880844711	-65.3320711532615	-67.0007302430003	-80.3189771151228	-64.9486016300767	-74.7820736244108	-0.521753065221851	-48.5048292858659	
24954000	-0.116795324572145	-67.1786581421769	-56.8958299998468	-119.631097902628	-56.4283791503979	-119.55244355259	-0.782108165889969	-50.136296983811	
25203500	-0.146865475340313	-68.8913112054381	-51.4018355822585	175.796416446148	-51.3805811472496	176.921347849579	-1.51163167436036	-48.5963975765793	
25453000	-0.261503118945138	-70.7523567632986	-51.4568107841247	106.363849931005	-50.8967181142539	107.209434065295	-1.47095347400555	-41.6403650311988	
25702500	-0.375918295854586	-72.8619478506634	-56.0183638679696	49.0760497058595	-55.266776022259	46.3140817148534	-0.799473145664236	-41.3206413122877	
25952000	-0.442283000941405	-75.1366428548067	-65.644912476332	-10.3388556172394	-63.8594102288891	-8.07357375931545	-0.527854092845277	-44.0176649352985	
26201500	-0.426429387165943	-77.2932893057585	-65.8549076940208	163.666186554195	-65.9166992456167	157.521294023586	-0.448368470683334	-47.3314837067462	
26451000	-0.378075609332339	-78.9166750205	-56.9011239615876	85.0629592677133	-58.0843373314655	84.7325797931441	-0.812011304943631	-51.6346938211899	
26700500	-0.350555432114551	-80.0667705696979	-60.8026652283977	54.8143799452103	-61.170720159054	55.5364135071545	-1.6681631556215	-46.3104026036401	
26950000	-0.362334714100841	-81.239070560536	-57.8451789103486	55.5500050081171	-58.0896512010708	50.147771160831	-1.05285366940695	-42.2303613982554	
27199500	-0.400988197381198	-82.9910980066204	-57.112008474127	24.5859556985778	-57.866022512818	21.8162641547598	-0.682042641091052	-42.6208580716828	
27449000	-0.425780218244341	-85.2791281387406	-57.2782314435834	-0.723405399781027	-57.8702049076209	-0.537911246587873	-0.54994736232682	-43.8805786243494	
27698500	-0.385184986285522	-87.7494494333047	-57.7420776767678	-22.5158765584364	-57.8298377092829	-22.2569771888067	-0.472412458365839	-45.3004699591728	
27948000	-0.298093323812219	-90.034026100509	-58.1256123978039	-44.2625692459506	-58.6467767896236	-44.2418721423285	-0.372456029990863	-46.6522049118568	
28197500	-0.226800955645666	-91.8210508889401	-62.4129061266154	-89.3058549350048	-62.9495574469047	-94.1788081515303	-0.251253690087947	-47.6771818769851	
28447000	-0.20549530714517	-93.4272936939867	-67.1793916432709	-65.2624462592257	-68.1707948178338	-53.1067853762789	-0.157261573113083	-48.3401328011067	
28696500	-0.26860346004174	-95.2945613449059	-65.9162475384477	-67.8810832846169	-67.1321858780132	-63.4754207086405	-0.146379809465363	-48.8405279998832	
28946000	-0.338584303217541	-97.5344209891818	-65.8512249096844	-78.0977678656633	-67.3569040023969	-78.3126850577875	-0.188388240941993	-49.5408550295371	
29195500	-0.362611134046333	-100.072572767903	-65.6709106451759	-81.2597963732172	-67.7207619031945	-83.0134735006567	-0.238647450367934	-50.5447884193109	
29445000	-0.315841444358985	-102.604590962406	-66.8161658224918	-84.9154570824359	-65.7858303881257	-77.6947797461739	-0.243911759198437	-51.7635166774617	
29694500	-0.231465108972711	-104.82523684355	-66.5705589668678	-80.567933123341	-67.1702215727124	-87.2222051798624	-0.194128660104506	-52.917681362808	
29944000	-0.188398511901515	-106.623535280587	-68.8058167928007	-82.9359441457697	-68.2043812346557	-89.2762014069608	-0.12077066625624	-53.7851175200056	
30193500	-0.233236427772524	-108.401860070321	-69.2837624413395	-77.6751287401521	-67.8664266127462	-85.7305034834037	-0.0949098436712235	-54.4027281682441	
30443000	-0.321973031479716	-110.551752335314	-64.5869515257225	-94.1929993553651	-64.7856688113886	-89.3654706450129	-0.13347696986843	-55.0123290216432	
30692500	-0.391806143572563	-113.08397644981	-61.0468343484739	-112.679657842977	-61.9111332015604	-107.507368577436	-0.21670469972681	-56.0182973986302	
30942000	-0.394572443012892	-115.733651289392	-59.1431486401801	-134.047559346849	-59.4078699495679	-134.20093676382	-0.29318886379165	-57.4673088631605	
31191500	-0.325760499614314	-118.215426431876	-58.2101972774782	-166.695288810629	-58.1903256254721	-165.257718807742	-0.337826185874114	-59.2017774949505	
31441000	-0.242493451181617	-120.399998919597	-58.2901282642769	167.991989303772	-57.8805694402045	170.913794543468	-0.360403512111425	-61.0292769151974	
31690500	-0.252720713799061	-122.529403523644	-56.9080316407572	151.960863748796	-56.491652471612	151.487136829061	-0.510377080603181	-62.8064854967372	
31940000	-0.375684297772746	-124.7130752058	-54.3523512958468	123.628379814631	-54.0330631328352	117.912412197374	-0.66546734476241	-63.2997034959679	
32189500	-0.482037763783478	-127.331187640927	-52.7975917815074	93.6217362855542	-52.3843193800325	85.6942552104918	-1.22950300345979	-65.1793018912211	
32439000	-0.544088706269003	-130.594825542989	-52.3504072790424	58.3237324572262	-51.6571315975151	49.6907838350324	-2.20774569651388	-64.1211978147107	
32688500	-0.571251258101685	-134.055320713053	-53.491529109281	23.094891707448	-52.3130181732603	7.18171047560116	-2.58510397405907	-56.9779390413591	
32938000	-0.615402084320607	-137.448312899073	-58.649549540756	28.961737874181	-59.717893399998	-5.58347632293806	-1.66390458035286	-54.1738509011788	
33187500	-0.809542334806583	-140.870124916688	-47.405536024343	12.1136707281619	-47.5850103384811	4.06505266262405	-1.92245047734901	-56.5585512221973	
33437000	-1.35872774820297	-144.429917971525	-50.5000281733088	-19.1869777133065	-50.8161260829512	-37.5176158634528	-1.19297546365694	-54.0951233434739	
