!Keysight Technologies N9923A: A.12.45
!Date: Friday, 08 August 2025 17:58:49
!Timezone: (UTC+08:00) Kuala Lumpur, Singapore
!Model: N9923A
!Serial: MY61181427
!GPS Latitude: 
!GPS Longitude: 
!GPS TimeStamp: 0001-01-01 00:00:00Z
!GPS Seconds Since Last Read: 0
!CHECKSUM:0136428794
!Correction: S11(ON U)S21(ON U)S12(ON U)S22(ON U)
!S2P File: Measurements:S11,S21,S12,S22:
# Hz S DB R 50
2000000	-0.0988581963097532	151.253975218659	-87.1114132947969	-93.7670995526309	-79.0471429367256	176.11488220663	-0.0345520618851582	-3.1873350933532	
2249500	0.0150241903219677	148.186703589456	-69.1125658745642	135.629466174227	-70.5521892800245	139.409893042126	-0.173051052574452	-3.81360795448605	
2499000	0.00362829751292661	145.341253373162	-56.640205452558	37.1931224664081	-56.4396811964611	37.0424963544204	-0.277218659073268	-4.36062708750386	
2748500	-0.120204103793892	142.197491543789	-57.8221384328823	-16.4505430244311	-57.5008673764071	-15.0620819583247	-0.151539454425307	-5.3616874103966	
2998000	-0.270436658465695	138.443929088568	-50.5625497922769	-50.5016351339864	-50.5677514247402	-51.5359365092947	-0.0216964257364692	-6.04222078661403	
3247500	-0.289050183853265	134.814967899889	-52.6794318554006	-176.053379524915	-52.5655911049945	-177.173100321511	0.0694005117425969	-5.94237425070704	
3497000	-0.171318871841805	130.95937586381	-58.8936058717534	167.554588325771	-59.0646406114119	168.709888152695	0.0506197193520137	-6.02809411145521	
3746500	-0.0319682333816945	127.828847743621	-59.1444609352793	164.823720245765	-58.9135553885117	160.952596784611	-0.0718953866968016	-6.37633374607014	
3996000	0.00833767867840877	125.106107305298	-57.8279744169791	144.945837866213	-57.9359426499637	148.546608268289	-0.19443844915629	-7.30573421337263	
4245500	-0.0830921902884132	122.232643665746	-53.9708645301615	135.809387789334	-53.8220730486752	135.13266788843	-0.219542321510505	-8.57811408335677	
4495000	-0.246209339706016	118.741224764105	-44.0101073832434	108.129075535028	-43.8443012597833	107.795247292799	-0.164854017893987	-9.83119779967487	
4744500	-0.313803378332572	115.470099579451	-42.8455160564214	-17.7704858433147	-42.9147307176969	-19.0848624685392	-0.00430898615465277	-9.38979556350026	
4994000	-0.239288959000511	111.612701963398	-46.2976010940187	-50.949372740218	-46.3049560020819	-51.8574414639071	0.0726469364785028	-9.75900768712759	
5243500	-0.108379033728243	108.396845424333	-42.7731895774602	-107.232606040113	-42.7630434874215	-107.859048772128	-0.115404639707092	-9.723239652721	
5493000	-0.00317364297824295	105.84081706348	-48.7642832604621	171.990389300668	-48.7399304682953	170.088301767118	-0.154533254761719	-9.14947704416089	
5742500	-0.0516218936261081	103.189466495026	-54.3575943900585	141.784878075536	-54.2279426189423	141.647626258732	-0.217008945369065	-10.3286894682453	
5992000	-0.229832970874862	99.9089440849064	-52.9269808484403	109.686055748977	-52.915383153535	109.302645886066	-0.201558313057361	-11.6187493974203	
6241500	-0.368209554006937	97.6542170428586	-57.8827687910947	-33.8504931795887	-57.8341246595186	-33.0070543662915	-0.0541682273681138	-12.6837263513525	
6491000	-0.293180197969706	93.5890970531021	-66.1772233629533	-112.026224918243	-67.5363802469066	-116.021971966151	-0.00769404931803707	-13.2764428576651	
6740500	-0.158674518612428	90.2427618729788	-64.7797125034455	167.718329688596	-65.4832202376341	162.464827625662	-0.11316068379708	-12.2100203847124	
6990000	-0.0280278251026068	87.5881754948418	-67.4125310538972	134.240450744965	-68.3434266799635	132.064928164436	-0.0465860789925812	-12.0722991646281	
7239500	-0.0202976100400866	85.3266047113177	-68.7644008904043	101.235113219224	-68.4156918977005	101.8357868083	-0.184699606814118	-12.9417814849871	
7489000	-0.13722023465437	82.7829533677387	-66.9237864240353	105.270211061644	-67.2210100694688	102.388376913718	-0.244182956235857	-14.2161109586465	
7738500	-0.281485796772393	79.6612624077632	-58.107238941035	76.2533893203795	-57.8272551513639	77.0567096521667	-0.26199366108116	-15.7464815273039	
7988000	-0.3249151644063	76.200868926847	-68.2756733821376	16.7783888070337	-68.2187640656674	19.0787509732403	-0.063130697989249	-16.0085378989534	
8237500	-0.241277533888207	72.852844097134	-57.2935771696501	30.6876393044308	-57.0456464537803	30.418184029284	0.000514704259579929	-16.4055643495092	
8487000	-0.0945882237752931	70.1726940145628	-56.0580564798696	-21.7339728367943	-56.2302675365076	-21.2159853752918	-0.0420083515188238	-16.2840791553181	
8736500	-0.0316626858495748	68.0299865741566	-52.4936162337348	-71.5744320822041	-52.5498156428677	-73.2147747284508	-0.25735181055325	-16.1504448570367	
8986000	-0.113528096293652	66.0037683784182	-52.1927358888778	-147.844227162487	-52.0912130466525	-148.39493373541	-0.411790047330522	-15.8766137218984	
9235500	-0.25430184924972	63.4566201239548	-57.8675570377744	140.950936812407	-57.8902278367437	140.747044870525	-0.35600759186902	-16.7015228789283	
9485000	-0.345792779278851	60.2257782342074	-65.0958511109441	95.936439787273	-65.6480639978277	91.4588890072552	-0.211536587094519	-17.9285658955855	
9734500	-0.304941940747889	56.8888779102899	-73.5822330680822	72.8706444991237	-71.3524148406534	69.3709938380851	-0.0427834691583349	-18.6850131408706	
9984000	-0.159383235196192	54.0309013103469	-82.6273924680711	86.9390111838582	-87.6454510381529	49.5964535508956	0.0541156450485616	-18.9046530639981	
10233500	-0.0349948077232672	51.8485072217706	-86.502572047465	-87.5492021546955	-89.9292939526375	-77.3615179784525	0.00421184583374546	-19.0584439482087	
10483000	-0.0366507862840878	49.9598768713202	-74.9170697780667	-117.276911670626	-75.2144889857149	-106.517188047981	-0.166111409448291	-19.6736944377636	
10732500	-0.165839179852138	47.720017283171	-72.2132144243579	-130.388880888697	-71.5080730117052	-131.878256024674	-0.380210228417376	-20.8990781322734	
10982000	-0.314238126260867	44.8342086666966	-65.8778874145272	-165.384382751278	-66.872626511109	-171.804709100789	-0.555232293277513	-21.7269106360653	
11231500	-0.348740999559486	41.534418790927	-60.3846364872343	142.524542551943	-60.4690051293383	141.011804152362	-0.422995849143394	-21.4480492292772	
11481000	-0.245204929183964	38.5149732814745	-59.9137434744301	72.0655647227266	-59.7460580848205	73.5774104537414	-0.137884427187031	-21.7086082395897	
11730500	-0.0902532147068085	36.16745466413	-66.5130729025416	28.2156153155682	-66.1424476521761	29.9898367924419	-0.0921094953915964	-21.9679375670281	
11980000	-0.0189986531593352	34.3294435477674	-74.0076820058893	15.2400831908391	-72.1980370244371	17.7373264760627	-0.219115743008797	-21.3146221797261	
12229500	-0.0977488261583982	32.4556843029168	-76.077042029607	38.7980748571079	-75.2081778920614	33.3220304793616	-0.280144370713718	-21.3856426986684	
12479000	-0.260027038474776	29.9439877730278	-73.7158688645357	55.2517707371252	-76.1462046467229	58.787433667568	-0.334373145219862	-22.6766289131879	
12728500	-0.3690619008777	26.7606961522	-70.8807936536339	51.0643872735097	-70.2659371792172	52.5596147531359	-0.301447638552694	-24.3168632454419	
12978000	-0.324717321196879	23.4356530458943	-65.7616561347489	40.1722775706198	-66.6207006607056	35.1765972846748	-0.193917607589087	-25.4686788039958	
13227500	-0.177886945241449	20.6358398785745	-65.3853738775027	10.418204008891	-65.1088577411884	10.7445048624689	-0.140718338658676	-25.6952360197063	
13477000	-0.0536492682733954	18.502447437773	-64.58089339925	23.121882779301	-64.7722014934805	15.6962645061848	-0.0723775944935996	-25.3185635897551	
13726500	-0.0653712518274223	16.5854006713133	-59.7418386283543	2.67464863960361	-59.9015215917824	0.625241588025309	-0.226779160657935	-25.8588574486175	
13976000	-0.211615472838269	14.1573987526095	-56.0450107556897	-23.0119805844242	-55.7764889159407	-22.4004596747185	-0.527934889221189	-26.4379742015423	
14225500	-0.377614818141017	10.8296176847233	-53.3678333124359	-51.8210684274027	-53.3519614266458	-54.2222369575675	-0.705150656245317	-26.4567819267122	
14475000	-0.428459078441977	6.81850236580378	-51.9089854160459	-79.498316346736	-52.1382826044166	-83.219843205405	-0.552626100254105	-26.5762404212263	
14724500	-0.342486152483157	2.74953702999487	-51.232948848733	-103.622182778004	-51.1384979765722	-105.546337017581	-0.262177338038164	-27.1085018598357	
14974000	-0.243527394539572	-1.12636628394235	-49.5402803570173	-122.462250170162	-49.5108516230232	-123.954480089477	-0.0705812756008255	-27.5304442263265	
15223500	-0.30055724186652	-5.34589771485571	-45.2369854494319	-142.559133561019	-45.1779098479866	-142.216906631465	-0.0917194849700862	-27.7504858756161	
15473000	-0.719184665458629	-11.772190045676	-40.2133857643629	-179.419816075823	-40.2086285914272	179.430286997575	-0.295278377388049	-28.0874493889864	
15722500	-1.81181875592328	-23.6630085925893	-42.0234894067125	124.587981313397	-41.9977371807201	124.084536860612	-0.380874697520172	-28.3224447954551	
15972000	-6.82698914776723	-46.0079876904386	-39.9525610619829	109.409929788917	-39.8869199009354	108.339207089153	-0.404751494499724	-30.2002817729843	
16221500	-8.08326963673713	44.488363579019	-37.6097087112318	58.563073748222	-37.6231216897429	57.3094761462052	-0.365246895717325	-31.8605222274432	
16471000	-2.26347064187144	25.5921679285164	-38.4305244363471	14.9208597809927	-38.3930665856069	13.668321803393	-0.339449192494055	-32.6603937580783	
16720500	-0.953617482366433	14.5386916184286	-39.091835154602	-24.779705404965	-39.0269905825939	-26.0799497333355	-0.431211817834159	-31.9684645995735	
16970000	-0.499865753783808	8.54594957053934	-40.645407177008	-66.7051439117644	-40.6279161413004	-68.2660541710748	-0.508384107720302	-30.246582507646	
17219500	-0.426582383003148	4.23019954663162	-43.7082728971913	-102.854219701747	-43.6407710252676	-104.44708307786	-0.510746583425804	-29.733626483228	
17469000	-0.509502648940803	0.14353660839081	-47.0162005054102	-124.205728267538	-47.02886841083	-125.150447808491	-0.508597957692474	-30.8842118351442	
17718500	-0.537815248220435	-4.04978460621301	-49.4457594726422	-138.912700810585	-49.3276884162295	-140.859484642596	-0.460223879190281	-32.7449921427508	
17968000	-0.42643497695836	-7.86229136856536	-50.6883032529936	-152.610057244738	-50.5715844428656	-155.288797731527	-0.350091373993099	-34.3848809233883	
18217500	-0.23470613561508	-10.7211792512189	-50.8284312380209	-168.74628583875	-50.7704759385352	-170.474675385137	-0.292602607679767	-35.1055623151145	
18467000	-0.109381912227212	-12.6716876466713	-50.7499907661878	169.458264237176	-50.7021171572375	167.707917371775	-0.37902515125221	-34.5038364134078	
18716500	-0.139201134744353	-14.3491771028898	-51.843866661287	144.622151781084	-51.7222826630351	143.079433951373	-0.481263628584853	-33.2460193143655	
18966000	-0.283493977734147	-16.4731089573984	-53.6753132983317	124.835403347905	-53.4116850001771	123.600901404858	-0.536759170348443	-33.1755910891909	
19215500	-0.4168779199894	-19.2971712273856	-55.2571848027328	111.815180427497	-55.2702695198975	110.608801604462	-0.565057569840047	-34.4667617116212	
19465000	-0.411570202478472	-22.4218814989076	-55.6970786973768	97.8204595293497	-55.7322851718953	95.8511302868662	-0.508662705711074	-36.1706085468966	
19714500	-0.268268756016067	-25.085363210743	-55.565953970266	85.2513313201051	-55.5388537087611	85.2960528028126	-0.381578945458387	-37.4645719583564	
19964000	-0.105773519341568	-26.9063406897253	-54.9454979030505	71.6128399423838	-55.0076599363499	69.8797711620924	-0.303250036064192	-37.8676010789508	
20213500	-0.063801162065683	-28.1827633566248	-54.7404937241203	53.58661573011	-54.7333970996471	50.3993659725343	-0.384380340737408	-37.5708244714824	
20463000	-0.170000418730441	-29.6503834696939	-54.6824356953038	31.2663774174438	-54.6652838740846	27.4383071279012	-0.599402628127118	-36.9556156989989	
20712500	-0.337081048901482	-31.8369473091765	-55.1128556268327	6.47723313672121	-55.0278710877241	6.29598982495686	-0.778446464686387	-36.6359312767301	
20962000	-0.41909793617528	-34.7031600318001	-55.923882117779	-11.1283881503707	-55.3552998606918	-12.7969169323037	-0.773626632223166	-37.1846603610933	
21211500	-0.350898598914311	-37.5569905490531	-56.2705092898347	-27.64902922611	-56.4690956490803	-30.5486072326208	-0.605118617653444	-38.3172032175763	
21461000	-0.182660419125349	-39.759555728152	-56.9357198736951	-43.2279947978108	-57.0162717283876	-44.3246248546359	-0.370447374666679	-39.3026716107143	
21710500	-0.0675401933596077	-41.1934880856273	-57.0565995361118	-58.2365944774494	-56.9044750361424	-58.8291334627041	-0.232256649174608	-39.6803015312742	
21960000	-0.110891055066966	-42.4553046612104	-56.4170346003797	-63.6080327585718	-56.378801258229	-64.6276143445035	-0.2679342311013	-39.8106526228834	
22209500	-0.311192188166392	-44.2936358166628	-50.2293580586269	-78.9454327626581	-50.1973498962267	-81.0257280028335	-0.47978813184309	-40.2783467527167	
22459000	-0.621528912069706	-45.6514189115845	-44.6083703729765	-167.073536871727	-44.4643368217973	-168.699336451773	-0.742659477546712	-41.1204787595741	
22708500	-0.408673253369252	-48.3113243666497	-56.3518188432035	101.482319089881	-56.2794317480858	102.500449515823	-0.866486653876206	-41.7629036344476	
22958000	-0.259525534359644	-51.1953484566191	-73.8670260917378	84.8080700686151	-72.474271483496	90.9852242300227	-0.727301380599801	-42.3006681001203	
23207500	-0.0917588160147696	-53.0811543404356	-69.8636851270793	157.590280724003	-70.028978504578	154.380381294323	-0.50288178589377	-42.8502102932822	
23457000	-0.0331332395377905	-54.3125020119519	-74.8981475847488	138.09101776833	-74.0845799407454	137.248123990651	-0.464213236034617	-42.7742612769564	
23706500	-0.13131437632661	-55.669190898888	-72.747280274144	-131.578376610702	-71.0753914652439	-145.130056333762	-0.546208800578684	-41.7145112100089	
23956000	-0.297984794857924	-57.752107086586	-63.8920684572914	-165.882499753397	-64.6345587084673	-165.443779715195	-0.593779060104	-41.6235314591605	
24205500	-0.396848495015504	-60.5580404522153	-63.648896499678	152.361568729008	-63.2614250336496	152.325235245984	-0.671299618699014	-42.9979711392393	
24455000	-0.345582848119763	-63.468777198577	-67.9327503889893	110.771286939558	-66.7678062246009	112.944437871916	-0.693375736008416	-44.7295999061325	
24704500	-0.184314378316001	-65.756438946011	-79.0555820962451	112.755605995233	-83.4590353921717	128.293531906076	-0.607226038224608	-45.8255263311178	
24954000	-0.0690633299243111	-67.263051259025	-64.6673205462294	-175.883854261235	-64.9100256709334	-172.84321791919	-0.52214555920792	-46.0903800827535	
25203500	-0.1115735073983	-68.5155987019208	-58.8404906154945	153.54126790903	-59.0242881335899	150.42761474664	-0.536986826654114	-45.4629534129666	
25453000	-0.305407366154009	-70.1639190160717	-56.3971771558889	112.715126608464	-57.1694180433774	115.201599624054	-0.642503656948704	-44.6630367539563	
25702500	-0.50178646169915	-72.5078324038179	-57.0390092490752	74.7955004184519	-57.5676484408298	75.6222585015804	-0.759478514173359	-44.7287321824152	
25952000	-0.579554447855798	-75.2814790649435	-58.7877882016495	50.0298310771449	-58.8769139233619	45.5593212903171	-0.813466502675951	-45.9011549143046	
26201500	-0.490622372774894	-77.7427433857439	-61.0880524213705	43.4283308005748	-61.5907949217579	43.7499862435153	-0.749934373418007	-47.479518511726	
26451000	-0.349890283570789	-79.2351682294022	-59.6098684274888	52.325114259112	-59.2966771346276	51.2651064552573	-0.601094356170019	-48.5071205089187	
26700500	-0.286587922263388	-79.9585872748409	-55.5084997579619	39.372206798412	-55.1512001140319	36.3745962341455	-0.481517585443097	-48.6605705016219	
26950000	-0.347565934476015	-80.7366517426016	-53.340495869452	9.39076456621626	-53.2978540489233	4.05554418513146	-0.494958060238975	-48.2386176881434	
27199500	-0.478378600565422	-82.4670203444928	-52.355411743792	-22.0879569469827	-52.4491464327063	-26.9155496283397	-0.650508718611531	-47.9273115586809	
27449000	-0.561242099501406	-85.1469323886708	-52.5173320943002	-48.4962282867104	-52.4060943826385	-54.0597009589678	-0.825902720506513	-48.2626770570654	
27698500	-0.494424862474114	-88.0948831949433	-52.6549605320278	-72.3892414940533	-52.7963334044803	-75.480935993371	-0.887583089952916	-49.273148185163	
27948000	-0.319266437947664	-90.5093289708539	-53.4504095123437	-91.576564579777	-53.1418531525191	-92.2484078113175	-0.783166671552914	-50.523912839671	
28197500	-0.178276371242789	-92.0131545973963	-52.7311884052215	-108.324899754194	-52.4066284456827	-110.778903857495	-0.596332490746143	-51.3351844872078	
28447000	-0.161526321272883	-93.1431472084034	-52.8378049000813	-130.532161475382	-52.8081604249079	-134.360621224874	-0.485114359228553	-51.5688324004742	
28696500	-0.298698213381721	-94.7655811204478	-52.3951975907029	-150.667496358343	-52.3182069385967	-151.941988129816	-0.595923403100726	-51.3417106283157	
28946000	-0.453735367842771	-97.1935655511723	-52.0912738377159	-172.397140806902	-51.9947490772181	-174.250156471748	-0.810585444775829	-50.7923614094676	
29195500	-0.497261003910971	-100.232384663858	-53.0916962581398	165.865250605569	-53.0089048510941	165.221122210588	-0.898395902440688	-51.1299005655967	
29445000	-0.385745206970203	-103.098555774488	-53.7708977525029	153.171103111041	-53.6610869075841	149.769186056662	-0.87668510603682	-52.6828820665858	
29694500	-0.211938687324384	-105.205645447675	-54.0622746444968	137.938914417113	-53.7699035717454	133.211152758021	-0.759190934874167	-54.158572454295	
29944000	-0.130611153945177	-106.558775521473	-53.3217786354745	123.129363552838	-53.1043501805596	118.596928000549	-0.620019561364358	-54.729533736889	
30193500	-0.218236050012495	-107.919379815402	-53.0242819517667	109.702126752189	-52.9084416185471	106.748018643356	-0.576985628774024	-54.4323938252825	
30443000	-0.398900945981897	-110.02962635369	-52.7400339045655	96.7297283068567	-52.4638145089984	93.6691588445844	-0.700654570258746	-53.8144971028771	
30692500	-0.533056649854621	-112.959649898941	-51.7813485526467	82.6910661455192	-51.6307607209088	76.6736741329633	-0.898384029320176	-53.6603758723771	
30942000	-0.511092979555493	-116.116298800729	-50.4410157937267	61.9479231399723	-50.264901348964	58.6416172076145	-1.04162550513379	-54.3377642228607	
31191500	-0.353700489700716	-118.746591278237	-49.7770823332572	37.6629303456269	-49.4757005475892	34.901231054472	-1.03034502119318	-55.5166303979219	
31441000	-0.195351130730665	-120.605272299481	-49.6868582800627	16.6490664305027	-49.4945802460093	13.3152145920612	-0.85775198666936	-56.4555985294196	
31690500	-0.202997329072359	-122.227423284749	-50.0816953374646	6.33266480746703	-49.991579598916	2.66806499432021	-0.657302039186685	-56.6581800951971	
31940000	-0.405462905594713	-124.167823348504	-47.8226814973499	-7.03820952213999	-47.9954011524979	-8.47755184968733	-0.581754706476484	-56.3800207757161	
32189500	-0.604716262717867	-126.9878270112	-46.8088385861987	-30.2590235519045	-46.9198064205713	-34.5469176217169	-0.683454021313777	-56.2302587396861	
32439000	-0.691757326388298	-130.78752714885	-46.1252190861905	-50.4416161983088	-45.9207585511733	-53.7564145927188	-0.869768409241487	-56.8325918127234	
32688500	-0.654635667414288	-134.656440052293	-45.015950532392	-68.677788971635	-44.92321362664	-71.4522233988018	-1.01619318230314	-58.0899164685135	
32938000	-0.609199101902062	-137.976036298595	-43.5381738803124	-87.8399691027118	-43.4158196377845	-90.3518156200692	-1.02504947549475	-59.4365768009816	
33187500	-0.777695687617197	-140.925810549933	-41.844937532521	-110.230880712706	-41.6855131553651	-112.785603259884	-0.884661861219556	-60.0381415105	
33437000	-1.41188626932514	-143.958615109942	-39.7313096033762	-136.944001095407	-39.5697345130717	-139.703755527407	-0.744394004452243	-59.7782663545653	
