!Keysight Technologies N9923A: A.12.45
!Date: Friday, 08 August 2025 17:36:26
!Timezone: (UTC+08:00) Kuala Lumpur, Singapore
!Model: N9923A
!Serial: MY61181427
!GPS Latitude: 
!GPS Longitude: 
!GPS TimeStamp: 0001-01-01 00:00:00Z
!GPS Seconds Since Last Read: 0
!CHECKSUM:1578916323
!Correction: S11(ON U)S21(ON U)S12(ON U)S22(ON U)
!S2P File: Measurements:S11,S21,S12,S22:
# Hz S DB R 50
2000000	-0.0771868473412579	151.480975491955	-82.0351687031504	-159.79387970821	-79.8962433189743	146.227877831858	-0.0393606460170399	-3.49686450696229	
2249500	-0.00188147851337519	148.311028145286	-87.0262896323784	141.598438462318	-79.574656085866	155.464332467772	-0.127238905568636	-4.09178522059173	
2499000	-0.0137895116564446	145.258541226688	-74.1309128535603	143.66335015825	-72.1729539429191	163.780638098759	-0.164956294006765	-4.94774134088598	
2748500	-0.102582617341347	141.969753413573	-64.2484840467656	140.438834371742	-64.3176574402018	141.948215575064	-0.118898161037993	-5.7718981848872	
2998000	-0.26216539410451	138.479200592728	-47.7145346525902	62.4804367685765	-47.5729794292759	61.9739621589454	-0.0483093401235994	-6.24768504541065	
3247500	-0.207564492653992	134.8175352718	-57.661352590881	-18.4346993755058	-58.1361816771068	-19.7163994719846	0.0291138001603233	-6.40172003876559	
3497000	-0.128171912038272	131.144173549625	-59.4512759922924	-30.7252876573255	-60.0758052430565	-27.4085666414152	0.0121646466576914	-6.55888515467075	
3746500	-0.0366114815968167	127.983958445183	-59.1137961449561	-35.1904842797727	-58.9135222887856	-35.0025427760015	-0.0700396543665211	-6.89317789573457	
3996000	-0.0135645530390984	125.082422657496	-55.3375566142895	-38.7553189478311	-55.2908500424005	-39.6914217635009	-0.15272657377223	-7.65975298134954	
4245500	-0.0847882201427205	121.98903982926	-47.1663476833549	-53.0108875977255	-47.1827288214582	-52.5607295203013	-0.184209972906378	-8.7925384977568	
4495000	-0.181652407784639	118.949522123395	-47.0178893765415	154.908295031705	-46.508468997021	155.526602872963	-0.101575919603475	-8.78713710572687	
4744500	-0.225750411851049	115.109475050139	-65.2580364591485	149.456586925705	-64.7714914453505	144.934792240942	-0.00184702076274673	-9.5498833308325	
4994000	-0.20597876487447	112.195891853156	-46.8216325561647	156.05342007877	-46.8709704649127	157.632125863755	0.0314845688156374	-9.7021442259797	
5243500	-0.0774137681225388	108.694562576739	-52.105000415066	132.410805472355	-51.9795333418328	132.846650739214	-0.0193987188379058	-10.0618447949173	
5493000	-0.0191251685384909	105.848668320415	-51.7198031101378	117.270814103894	-51.7052136669288	117.447186316721	-0.154253860027582	-10.7956593745716	
5742500	-0.0632940718949256	103.026138171096	-48.3231493896813	80.595208690083	-48.1710094661757	79.897306252592	-0.42605035070192	-11.7664951878901	
5992000	-0.194865313232783	99.7019101093652	-52.3566443007803	6.75528239201996	-52.401776223322	5.46575989835763	-0.361124838254732	-10.2718565766086	
6241500	-0.306631504986507	97.5825074141666	-55.3593398338445	-5.36300332439373	-55.2115704824783	-6.40381624241019	-0.081220670238589	-11.4477646642496	
6491000	-0.225636298061888	93.7167598993363	-62.2235689354997	-24.6238006881729	-62.2829878004725	-23.7572210448372	0.0106453716424059	-12.0971854456069	
6740500	-0.129929146556577	90.4785504112039	-69.1326631930264	-4.63486703799754	-70.0513629781201	-12.3506252677816	0.0331370179767062	-12.5358467570335	
6990000	-0.0410350155997814	87.7405859701185	-54.8768092829488	24.9426292559142	-54.76367744697	24.2896058810529	-0.240669662995095	-12.569241369562	
7239500	-0.0385554291609048	85.2893754845875	-62.3169112163541	-43.3136461312843	-62.1401003306715	-44.1172024769648	-0.124058360142249	-12.8976691027638	
7489000	-0.122524992448836	82.6016683144268	-66.770737297572	-40.5971638936824	-67.2628977927045	-28.0259188444595	-0.183262577049081	-14.2402900035823	
7738500	-0.221708494915795	79.5242024757218	-65.0757766132287	16.2595317763179	-65.3545598764417	7.28569565782369	-0.234887190219228	-15.6532338326723	
7988000	-0.249942027151963	76.2582041978847	-55.8029332816706	-12.6200829274359	-56.592868122293	-11.503631734578	-0.352412656456781	-15.2015053911378	
8237500	-0.19206554580516	73.0829196896543	-54.8255887798604	-59.2375846073967	-54.8165621677347	-59.3441776403189	-0.0881578466056584	-14.5758199671687	
8487000	-0.0919706625568639	70.3616154679718	-55.2115109613206	-80.1147781059892	-55.0629708102451	-80.7681137862174	-0.030290329220784	-14.8423140122476	
8736500	-0.0556220052864247	68.0243644420807	-52.6842639242791	-102.823174717363	-52.6041289637443	-104.618925548099	-0.0864614217987174	-15.2604138797198	
8986000	-0.124483332697964	65.8395774489159	-50.6682198861791	-143.812243082197	-50.768051530625	-145.901675096794	-0.17384538876271	-16.0279624775848	
9235500	-0.211169631445979	63.2693923570664	-52.7156379453749	169.363975006109	-52.9395667961634	169.171817997147	-0.198161276832908	-17.0336922809869	
9485000	-0.266575786701334	60.1669040342418	-55.5331029865681	144.095932422255	-55.7000413665005	145.401528020216	-0.134670194113868	-17.9888480369133	
9734500	-0.236972801358245	57.0324840590967	-56.5818377517939	129.473721062491	-56.8180597197201	129.209905439016	-0.0353476946568596	-18.6079420702471	
9984000	-0.134702963962773	54.2453882629787	-55.8291782893379	116.377697546233	-56.3927285667359	115.924381712672	0.0225329179229676	-18.8846835179971	
10233500	-0.0522741838213102	51.9190218651741	-52.3950820335793	83.0799353100608	-52.5589151564799	83.110013344138	-0.035662278666959	-19.1480142563094	
10483000	-0.0571189177610249	49.8738158567072	-56.0665942824817	-5.26058920964604	-56.8124501932367	-4.19668286059361	-0.130964876863671	-19.2273585792872	
10732500	-0.146332983636529	47.5183038780909	-67.0582804651533	-27.9691417818568	-66.3411230900501	-26.3797394671369	-0.197396341916454	-20.213976197377	
10982000	-0.247578952438004	44.7104002901875	-77.1676203321435	8.55045199249659	-72.6641235747179	16.321801061255	-0.212855763294859	-21.4357400612635	
11231500	-0.270199918087687	41.6417850738867	-68.941675427005	26.8368617797467	-66.7564008054983	30.565199163423	-0.160263776031546	-22.4743423704658	
11481000	-0.197288783270452	38.7599396739586	-60.2049171082383	-2.01731226036416	-59.5956703939292	-6.07195179188839	-0.117662281266383	-23.0857684126885	
11730500	-0.0913538092245535	36.3609010716087	-57.98507778868	-74.5203940964984	-57.4712388605624	-76.0243868236112	-0.110499110241083	-23.2505382807688	
11980000	-0.0425871648608634	34.3248006932188	-58.3314998540433	-133.02311925489	-58.3092133635922	-138.277032714258	-0.244146191906629	-23.663877917095	
12229500	-0.0985595779780879	32.2571391853365	-59.2186238712938	-145.344702835333	-59.1860235975544	-145.395272378933	-0.528908984527694	-24.7783247564976	
12479000	-0.213347793111784	29.7214457917253	-55.3983504541101	156.419343047324	-55.4578514026758	155.291325692123	-0.96871606539007	-22.8304897673765	
12728500	-0.28993729487929	26.7351694319627	-59.5298171087065	100.675990783231	-59.9037344076581	99.176415066411	-0.500877475323734	-22.2574339976626	
12978000	-0.258411650721393	23.6391071591937	-66.2810893715571	103.411750578791	-65.5001283344626	105.968463631349	-0.290487069419411	-23.9589126437881	
13227500	-0.156940836584546	20.9082081655345	-61.7633541928873	130.114016782976	-62.3108869805564	129.987759279641	-0.2052951933019	-24.495715573539	
13477000	-0.0711866420925489	18.6170812633275	-57.8153935960069	112.340845412333	-57.867091735818	110.262303410161	-0.149449878356297	-24.8746929443824	
13726500	-0.0814456159477479	16.45854366044	-55.1890925696636	83.9569651626005	-55.2846893611949	82.4865613671011	-0.350327669072912	-26.0897597657187	
13976000	-0.187143896019223	13.9055134595415	-56.3255185242061	28.1609739965487	-56.170489317999	29.5408198028783	-0.700280566556489	-23.6701692945276	
14225500	-0.307612968369932	10.6837220095893	-62.0929104825069	46.973471645986	-61.9384362123697	42.2677909007296	-0.313093206651779	-24.7254982982455	
14475000	-0.351238809606615	6.92991845081267	-58.5177159929447	68.6513927268553	-58.5675632607457	66.339729953928	-0.229510944300112	-27.0766088728884	
14724500	-0.301452812352785	3.03313671141028	-53.0853619009644	63.8168798042074	-52.9697670941891	63.5358491051072	-0.235024225690215	-28.7063129952582	
14974000	-0.251003831865685	-0.902439936676683	-46.8623642274254	43.0727855289943	-46.9774550029378	41.1609190989513	-0.364750209729748	-28.9123461135023	
15223500	-0.32520199627069	-5.29828291106316	-42.1788162274389	-12.317445061099	-42.2763613126834	-12.1852091284516	-0.605035903081499	-27.1343524196086	
15473000	-0.684584535966911	-11.9270851019657	-43.4374624177163	-50.9190509312024	-43.3760411139892	-50.7713528646653	-0.479132504882637	-25.7837391507221	
15722500	-1.73184368255169	-23.8479324048827	-43.1144371324587	-74.755474684486	-42.9202232750016	-74.9076188185089	-0.406314393112843	-26.5318357234614	
15972000	-6.60259953112552	-45.2016499719713	-41.3341372658358	-110.949963661855	-41.1442222075074	-111.773613240416	-0.353104601881569	-27.8583139951615	
16221500	-8.21073286283465	44.3019457348018	-44.7982541231044	-173.992266839591	-44.6531879386259	-175.880453807123	-0.244500699492643	-29.1465604852499	
16471000	-2.22031840609684	26.1037410566223	-46.7607633501189	-172.470466144321	-46.7994044039939	-172.91823942138	-0.124494777613242	-29.8432922280852	
16720500	-0.964220444160782	14.8321294624548	-48.2999986511592	169.48170333481	-48.377059884875	168.626837046681	-0.0446651565697196	-30.2214515599845	
16970000	-0.528913857022514	8.54320871392093	-48.0568039547924	147.843771231894	-48.272290652896	146.946878804777	-0.0823887616104866	-30.6267763775321	
17219500	-0.422829466823041	3.99563360397577	-52.2193136760568	87.9668938518446	-52.4210189977594	87.1740458793493	-0.23872522201699	-30.853594733809	
17469000	-0.452575349650491	-0.0593718789576932	-60.0865309408378	115.423953540037	-59.8807798325003	115.445112637862	-0.270335051380598	-31.7815946424811	
17718500	-0.455868001672781	-4.01533261885419	-59.745019502794	123.225810409359	-60.2259087163686	122.900035382847	-0.269331864800336	-33.1027732508377	
17968000	-0.369476969232517	-7.6111055135769	-59.6765357452394	120.888745063097	-59.6496278655175	120.629037612201	-0.192963993179144	-34.2525607406827	
18217500	-0.226834988395576	-10.4730884540605	-59.9416177777711	117.876467651408	-59.7166174396914	116.632454833417	-0.107355324763276	-34.9660138311682	
18467000	-0.131687841210897	-12.6400807997483	-59.3249083581181	119.139235152032	-59.6667940329846	114.141750892667	-0.0990585123052167	-35.4127244723894	
18716500	-0.147699027186044	-14.5584924961095	-58.6890975867838	111.160568769122	-59.1589790932182	107.329667942999	-0.209524664624707	-36.0308635029496	
18966000	-0.246028376034547	-16.7521849825302	-58.4702014144629	103.26389154589	-58.2845969548591	103.469134794833	-0.40834871974148	-37.1302768868295	
19215500	-0.337055008542147	-19.4106134618746	-57.4733133703647	87.6452359033618	-57.5612765875751	90.5833562292354	-0.645070510344966	-38.6823958585986	
19465000	-0.335675208008808	-22.2607915447279	-56.1460836521245	75.4835276474645	-55.89410512529	77.2029524426586	-0.915562064649337	-39.9219789755792	
19714500	-0.235548181187443	-24.8014040910562	-54.7546262890311	56.330774622336	-54.4756491704546	56.5298071580403	-1.21686173198011	-39.1222901010766	
19964000	-0.11871991843682	-26.7576407282683	-54.7819890331118	26.3157473261125	-54.6985665172672	26.8862881188823	-1.15451789976779	-35.2651818656773	
20213500	-0.0874227408901292	-28.3037292763772	-57.0813978322136	3.88569185418594	-56.7932237278644	3.09270885500275	-0.70286236582643	-33.4668547335849	
20463000	-0.15908231030018	-29.9691286334857	-59.9672582748473	-12.503475986033	-58.8575026993771	-15.5483830788323	-0.440870157751557	-34.2266981686919	
20712500	-0.274101000360692	-32.1074516326055	-61.4792770952414	11.0717829369786	-61.5575294653599	8.09167721757403	-0.505037605731779	-36.7321775598851	
20962000	-0.333015232337262	-34.7153952841968	-59.4503391307759	-14.7507478091821	-59.1057050061818	-11.7453488476814	-0.68301911967804	-38.954209724115	
21211500	-0.2890565695842	-37.3115240607835	-59.553904396243	-21.9405410590213	-59.5313615943868	-24.6604668648551	-1.20030101276353	-38.9390661513703	
21461000	-0.170481214967458	-39.4972622482624	-59.9027447959335	-39.0963073780098	-59.7378658005645	-41.7492140237927	-0.704115620085602	-35.5154496266286	
21710500	-0.0910034742942621	-41.1428526420118	-62.249155142291	-53.6998338033293	-62.218145410481	-53.8976321241514	-0.276114384120612	-36.4697826354688	
21960000	-0.122009048007286	-42.6661347608187	-62.7369016344881	-50.4202184691171	-62.7508590478887	-54.8501691210149	-0.176858712543536	-37.4198886519758	
22209500	-0.272930743881209	-44.6210785812505	-59.4125844872066	-61.7411845697582	-59.0460171000714	-58.3007119770284	-0.232345389114497	-38.4454503110634	
22459000	-0.541238388930509	-45.8719585258218	-55.0228939175471	-119.05691048696	-54.645397778453	-119.074571716345	-0.331438250282649	-39.8501953651423	
22708500	-0.328703012352934	-48.2225438744363	-67.0131928242219	175.450342189667	-64.9204975073775	177.773621851215	-0.39459524483556	-41.5550345450056	
22958000	-0.221316832567212	-50.9440009070642	-81.6315822026005	-151.045717530177	-80.678762195613	150.601273256139	-0.42186861636344	-43.1229589483913	
23207500	-0.101201930710669	-52.9313139241868	-81.0114405859367	-152.453955231051	-84.91285743704	155.257748183704	-0.506826647906395	-43.6342781921731	
23457000	-0.0574035830366852	-54.4267008559024	-68.1502648717779	102.48851270666	-69.8800927691546	109.865643472092	-0.425615277902277	-42.0859841017263	
23706500	-0.124416605464837	-55.9988978105655	-63.5228636794987	33.9915823422748	-63.4693435169866	34.2568388387791	-0.343607549594788	-43.1309792110225	
23956000	-0.238985844043467	-58.0713151643944	-58.9823933354972	-18.1733744192063	-58.9446251700576	-24.8099970816836	-0.653943415529909	-44.2613094282317	
24205500	-0.309664373579494	-60.621638219934	-57.7980743131357	-78.9026582082634	-58.1235851854355	-78.2725862400659	-0.927795803828509	-43.7845015654336	
24455000	-0.280095864452129	-63.2662693111028	-64.6514650619329	-119.941337602862	-64.4063078122519	-114.067940713826	-0.839257243149689	-44.0701831087282	
24704500	-0.168728390324287	-65.5202985516874	-64.9914598602388	-82.0268772362454	-65.5303922939731	-77.2969765483816	-0.766892188994444	-44.8496939995152	
24954000	-0.0912509108254841	-67.2262261379823	-63.5173970530995	-120.539934685694	-63.8099413737568	-117.395683077474	-0.696564944266876	-44.4154430430843	
25203500	-0.125981802006647	-68.7568924600724	-70.0660226081788	-111.248689418451	-69.3317345636273	-112.23059481058	-0.577081596230626	-43.8130531837592	
25453000	-0.272068526539799	-70.5407919414831	-64.1016412008098	-85.0852040605229	-63.3498345607234	-93.2934303961102	-0.561219397868437	-43.7114191883465	
25702500	-0.41953589648173	-72.7505236236895	-59.6666965798393	-110.422943831954	-59.1698530188834	-117.622657229487	-0.619970391199138	-44.2541225270734	
25952000	-0.492287356519859	-75.2188290396648	-58.049512274325	-146.653660306196	-58.3456022870324	-152.248877009274	-0.659852596277695	-45.3115670607251	
26201500	-0.447286097292939	-77.5040914081533	-58.3130553989149	175.750423988593	-58.6299577068363	173.620057062841	-0.621311666044845	-46.4882468956879	
26451000	-0.361165381595383	-79.0849493268485	-59.9235548214435	136.115732712606	-61.0764041072447	131.480848567304	-0.499511483715291	-47.2869387168232	
26700500	-0.319178237785572	-80.0754355668918	-61.4901239576566	81.3575855438152	-64.0657403212066	81.3532401951904	-0.375228017195968	-47.6934696710009	
26950000	-0.351426410785088	-81.0960773597524	-65.0976215096181	17.5721478240948	-67.2701540890177	13.2733205914371	-0.350279074203371	-47.9025336128569	
27199500	-0.427200976644262	-82.8465985668785	-65.9657804555431	-45.6365845622924	-65.2305004155699	-42.3038325386193	-0.43929946347087	-48.3076516954622	
27449000	-0.474783168995943	-85.2800356724486	-63.6902108133319	-77.9978466460492	-62.8674318300449	-89.7292785925752	-0.559785990086454	-49.2254187032371	
27698500	-0.424966769250297	-87.9442782523213	-61.7652631626737	-86.655106573463	-62.006358385022	-99.6208042693769	-0.639479789710631	-50.5232306342143	
27948000	-0.301269915547046	-90.2879620367306	-59.3796209577103	-102.134117630149	-60.038686616453	-106.034679407187	-0.633285188055736	-51.8270450979739	
28197500	-0.202294258125124	-91.9751351971085	-55.6739783373983	-133.003710793202	-55.5710138435352	-133.6020088277	-0.579135453083204	-52.6472127862036	
28447000	-0.182254896410495	-93.4061417621741	-56.0838424234506	-158.837807903412	-56.004824947993	-161.323433622304	-0.565677220270914	-52.9449935665335	
28696500	-0.275707746914289	-95.1786240536075	-56.309175123863	-171.21229280944	-56.3856951804684	-171.601493907428	-0.680595440648422	-52.9663094431923	
28946000	-0.378798684569092	-97.493558196842	-55.8257275655868	-177.856511880564	-55.2377552657522	179.598350100639	-0.886675970092918	-53.1734860408841	
29195500	-0.409070760580927	-100.208994827213	-54.8929104309754	174.917124278603	-54.6992793432611	172.652078101389	-1.11136067798414	-53.6875419492404	
29445000	-0.336620053459463	-102.845060813503	-53.6616036807363	162.667738996588	-53.7696709478257	162.49842717711	-1.25772631211946	-54.2963467882212	
29694500	-0.216642639285203	-104.999486198863	-52.5245151425135	151.180962233162	-52.6958055738822	149.803627691582	-1.28126722818117	-54.4001983222261	
29944000	-0.158436935516745	-106.62554065065	-51.9561026723275	140.995820831379	-52.0205743579264	138.125750375425	-1.20181945681821	-53.7839620129837	
30193500	-0.221634306467827	-108.240064927839	-50.7798959419677	132.638947203447	-50.9802053163447	131.77717918702	-1.13038344227813	-52.7318626960669	
30443000	-0.3477571053075	-110.39883416183	-48.9891169724306	123.408980785905	-48.9005612803482	124.411558424673	-1.13735373232012	-51.7019101670548	
30692500	-0.444414914525678	-113.101994446989	-46.7381030452832	108.656363474603	-46.8516962418505	108.625513779762	-1.17562647855267	-51.2202827335684	
30942000	-0.435850782076411	-115.945905507298	-45.3637790369893	87.2934775339013	-45.4239931819875	87.1665043416025	-1.16913496529617	-51.4890991033809	
31191500	-0.331789196152891	-118.480111697099	-45.1208367692668	62.9181329081068	-45.3031088830461	62.8345024005322	-1.06155215015213	-52.2660473359314	
31441000	-0.216053845399602	-120.51943909527	-46.0406218631214	44.8675551473283	-46.1023025744191	44.8140966513943	-0.852792554110203	-53.0849389413037	
31690500	-0.225490037449278	-122.448911618048	-47.0693265116275	46.9257128851295	-47.0775030223642	45.2360334044076	-0.641247571649763	-53.5196086517066	
31940000	-0.380466961548911	-124.520894365623	-44.1355306252193	38.1553900622706	-44.04380693633	37.5489522133347	-0.533215753434407	-53.5515153708877	
32189500	-0.520934396143042	-127.218562054051	-43.6174053525831	17.9510942755772	-43.6250008533706	17.6442500702271	-0.53310890571299	-53.8304414568544	
32439000	-0.592591319436002	-130.678847459994	-43.4173985863735	6.93060029941857	-43.3039489924715	6.00659126957625	-0.618078429867251	-54.7444277291389	
32688500	-0.592475505267583	-134.29075433315	-42.516765353192	-5.18605835065344	-42.5504691797866	-6.257221207007	-0.650728487022836	-55.7593764932991	
32938000	-0.598673500855009	-137.660090577801	-41.4919908934838	-15.8499355277815	-41.4099321167905	-16.3364831887255	-0.600027155069483	-57.2631644919939	
33187500	-0.778441284595482	-140.924739351021	-40.0027786151272	-27.8095764038988	-39.8480669112289	-27.7737799283325	-0.479321849304921	-58.3689943118584	
33437000	-1.35704899495102	-144.338429433056	-37.9537420460774	-43.4742930218144	-37.8343148558924	-44.1071508694238	-0.374284900692336	-59.0096630760599	
