!Keysight Technologies N9923A: A.12.45
!Date: Friday, 08 August 2025 17:25:45
!Timezone: (UTC+08:00) Kuala Lumpur, Singapore
!Model: N9923A
!Serial: MY61181427
!GPS Latitude: 
!GPS Longitude: 
!GPS TimeStamp: 0001-01-01 00:00:00Z
!GPS Seconds Since Last Read: 0
!CHECKSUM:0427431856
!Correction: S11(ON U)S21(ON U)S12(ON U)S22(ON U)
!S2P File: Measurements:S11,S21,S12,S22:
# Hz S DB R 50
2000000	-0.0656105437879222	151.566523564715	-87.0539755503314	-156.971271226009	-85.432420091439	-142.965979662846	-0.0295689152599967	-3.33414420046937	
2249500	-0.0130086217041258	148.333841641554	-76.8070680311146	156.859394080052	-79.5541640266498	-149.059136196188	-0.0916633167746404	-3.90264293830674	
2499000	-0.0232292785205403	145.190756273471	-74.1478181276051	164.753131651447	-72.8545991379706	162.728971597577	-0.1174130549533	-4.63063670218436	
2748500	-0.0879410035095919	141.867279719994	-65.8228552591835	140.793720916471	-65.8350908530706	136.488875594208	-0.0833669221803749	-5.34751412955804	
2998000	-0.178714523045265	138.397069365399	-46.8017847181844	12.88902854067	-46.8536129932513	9.48788204572789	-0.0662233159474025	-5.53562113582124	
3247500	-0.167000649920615	134.917671020245	-62.004515443689	-6.39441805242395	-62.1858669420323	-6.19147654350969	0.0177853109675633	-5.96179847199172	
3497000	-0.110637169092792	131.288431940261	-65.670649360176	-14.1721723758046	-65.9850959950962	-26.3393966730448	0.00516298594526887	-6.20977981390298	
3746500	-0.0437959285806894	128.086768675518	-62.6187090108034	-14.2008403186616	-61.8877331490686	-17.6863394620218	-0.0512812550046504	-6.58834797006064	
3996000	-0.0273605695787389	125.086192127291	-62.1780265597985	-30.5772624980227	-62.4094196679436	-32.3293200155708	-0.106614053328453	-7.22890767026464	
4245500	-0.0764096129748761	121.990691079597	-60.377665046999	-34.6396972910009	-60.2216062410195	-34.3679484732325	-0.115098962109125	-7.99811819739316	
4495000	-0.14773192124078	118.609678269978	-56.4272192977155	-39.5002927681	-56.6742725483106	-40.4081368344378	-0.0677972096021755	-8.69718519807457	
4744500	-0.197070175214704	114.842941333942	-47.5477767499945	-55.3184718504919	-47.5814744551186	-55.3112583789967	-0.0102072642573962	-9.18190932192822	
4994000	-0.166539012642872	112.28288099983	-47.0917649477693	159.952031503264	-47.1464663196936	160.142994224054	0.0192036665048821	-9.1507209657856	
5243500	-0.0748803585355912	108.816386135764	-55.1623488135867	148.401722481375	-55.1873400630438	146.672638767493	-0.00792821024464289	-9.46428084721177	
5493000	-0.0330432672586395	105.869114591569	-59.000818569663	141.606478171233	-59.3044001314688	140.930497656121	-0.0716444056972669	-9.93514268037096	
5742500	-0.0669336460827737	102.943856434735	-60.7186718866836	133.175500326849	-60.275457182162	132.19314934757	-0.117936438404378	-10.6698397640667	
5992000	-0.172893898305064	99.5778383258645	-59.5535810361718	114.567269060179	-59.5282611737364	116.692411980626	-0.112216709576553	-11.4622110159769	
6241500	-0.267720058929109	97.5271952044525	-73.8219511629367	39.1059970435058	-73.8697472302864	46.8728905478947	-0.0185977453927883	-12.1818893838285	
6491000	-0.187054296892111	93.7924223178749	-67.4805853391125	142.981619453743	-67.6805498074505	137.529631174296	0.00552287971976791	-12.5607402679	
6740500	-0.116746489991591	90.5865293717166	-61.8331536414417	126.003689276065	-61.3634512791112	123.724073109139	-0.0662459116296123	-13.1331748848679	
6990000	-0.0522587182809977	87.7725780885543	-67.8764373157788	121.889297539573	-67.7187975561921	120.733497931508	-0.0287724337761703	-12.7476115851534	
7239500	-0.054277220344496	85.1891192245746	-66.7719697235046	122.90070000153	-67.0023253300887	119.431624319824	-0.0909179428607536	-13.4247628647855	
7489000	-0.115939982167369	82.4357962102751	-64.3924297123807	120.176797504625	-64.0363641389911	120.952718456112	-0.127266421230243	-14.270569576486	
7738500	-0.18690594601164	79.4063472237299	-61.1482287892126	113.216251861319	-61.4516941589292	113.432695858573	-0.105200893274337	-15.1648133496239	
7988000	-0.205949840551759	76.2722961081328	-58.39200840613	109.848568184486	-58.3343761826865	113.772996874157	-0.0452357690532027	-15.9425241104703	
8237500	-0.166329260416061	73.1808244485532	-53.7642625297549	103.797075285138	-53.8003246481762	102.626422497419	-0.05807928758026	-16.0576511301544	
8487000	-0.0987498627168144	70.4222663035309	-47.4516689659926	86.346287015475	-47.6394125867246	86.110453022317	-0.0683206182297303	-16.710078686608	
8736500	-0.097470860206471	68.085162660555	-39.0208656496024	27.5315791360657	-38.9700153686435	27.2673299829661	-0.351879284596248	-16.902420475515	
8986000	-0.101585643240701	65.8249612135447	-41.2870115104145	-56.4840506589024	-41.3275998233154	-56.7827851548067	-0.270879776150054	-16.1472289299984	
9235500	-0.176220826050998	63.0412680818568	-44.2173022310067	-95.2988704773941	-44.1566366201245	-95.6327507276607	-0.261170405857782	-17.2004345412123	
9485000	-0.231813592651251	60.0886393891013	-46.2136974813758	-139.13686928829	-46.2540831546153	-139.5688282034	-0.217473534605685	-17.6959666501883	
9734500	-0.207718795470619	57.1566420054253	-51.3605402093781	174.620159134551	-51.5692242962078	175.626158063922	-0.0760514195703755	-18.142966856931	
9984000	-0.128290134575833	54.4042222628184	-63.8413927494649	168.552102417447	-65.194879066228	174.550992051015	0.00272667714810972	-18.8548398989641	
10233500	-0.0690357300192382	52.016440452211	-53.1143041056579	158.29669764968	-53.0201963441416	157.073358175132	-0.0625107408946864	-18.8111824193226	
10483000	-0.0689798890049572	49.7848612895114	-58.8329944404127	129.710661414847	-58.9597962363329	130.126554329134	-0.0960790593734647	-19.5450099729239	
10732500	-0.136251412282399	47.3550887328227	-62.735058048721	114.340684518514	-62.619404449763	116.391062223471	-0.159992555317199	-20.5361604693266	
10982000	-0.211317829605379	44.6214357117036	-66.0552000101145	105.940123270276	-65.9396473260869	111.711174474756	-0.185528056963642	-21.7020254773748	
11231500	-0.226895461906269	41.6848709110081	-66.5977534898368	96.8578000459497	-67.0797402325153	100.960576523773	-0.173984249298975	-22.8069272625305	
11481000	-0.174631165551519	38.8872225563518	-64.1906746551817	131.727884281998	-64.4392825122517	134.689716886345	-0.249560856396925	-23.8665155933705	
11730500	-0.0997298090329628	36.4612485888848	-54.945950228289	60.0567623760413	-54.9672120000763	58.9891147575331	-0.525761938705082	-23.2822802849135	
11980000	-0.0614566212046378	34.2919678306695	-57.8121552374562	-47.6202060597325	-58.2162262992599	-48.1388909779322	-0.403099706067191	-21.1016598589249	
12229500	-0.103791413460264	32.107969754369	-63.2462510405341	-118.649431009754	-63.6831546443212	-118.425177337169	-0.451131104914345	-23.2210818539179	
12479000	-0.187313933390507	29.5713540414601	-77.4811884225604	134.664687798642	-76.1607667977707	118.263627899085	-0.484334288214123	-19.6647463210039	
12728500	-0.246640389962334	26.7040024146199	-88.2788312730293	-177.259911546722	-76.5654194113523	4.43926348772285	-0.165380735869506	-22.7993803964124	
12978000	-0.223599399750752	23.7485533559941	-80.9627834478722	-93.0250042407331	-79.0549113366159	-89.9117686939616	-0.154761841490604	-24.7074299039862	
13227500	-0.150702838861544	21.0444585257419	-70.8368230175263	145.585739615582	-72.7600556757297	101.032912782838	-0.220726625606544	-25.3253256968747	
13477000	-0.0885223937212613	18.6524116058237	-66.1325777996652	31.1661179426563	-65.5067227038774	23.9421586772162	-0.343611672469115	-24.9034608216245	
13726500	-0.0976100467736838	16.3552300280128	-61.6672460497815	-47.2334717213837	-60.6539225364253	-46.120235955116	-0.270250935148047	-24.2233442257473	
13976000	-0.177306744017635	13.7455510955321	-58.609355760324	-89.6198658910246	-58.4091741594311	-91.0405690446929	-0.223673121963363	-25.5848562781428	
14225500	-0.269971470006421	10.6005404062507	-55.0787619837575	-118.841650985692	-54.8829470200947	-121.011101702716	-0.30753496805699	-27.8605340294679	
14475000	-0.308842676814954	7.00783007416527	-48.9205812097045	-164.738911897268	-48.9009205036674	-167.637870931175	-0.853360548039672	-30.346728121217	
14724500	-0.282469582068615	3.22071941398231	-49.6278456046664	94.4437675496408	-49.5820225780915	93.3760447579973	-0.715591844565793	-25.1503885658413	
14974000	-0.261599356718944	-0.775453514288123	-55.2412638923652	68.2552702037113	-55.5019210124367	65.6982565824159	-0.303449451303033	-23.7894376917626	
15223500	-0.341684787632116	-5.36063440635777	-58.6977774481369	-41.9668309064078	-58.6799079667394	-40.3254824314062	-0.0761137293647918	-25.366587633821	
15473000	-0.684855241150445	-12.1373372997753	-56.1805058170744	-119.366671428672	-56.268082018741	-120.726938727756	-0.0850383395075381	-26.6342725530874	
15722500	-1.70322844596495	-23.998013260301	-48.6899670185664	-163.407356457951	-48.4634650424531	-164.292750948988	-0.142302099832774	-27.9977031010123	
15972000	-6.53964011011497	-44.570891435502	-39.9885702400198	143.216631673738	-39.8799258674437	141.57352413964	-0.190479780622402	-29.5948605417035	
16221500	-8.27957681543512	44.5235847467811	-35.2972827702097	17.950920519339	-35.928674056029	15.4156380214103	-0.334683703748582	-29.9885266470442	
16471000	-2.21176654595292	26.3183463302001	-44.6787345489477	34.8859353565327	-44.5700008504151	34.7861518290384	-0.0909328927894937	-31.3885951849742	
16720500	-0.9805679844325	15.0000773565499	-42.5055199500841	1.13598103770907	-42.3452220866056	0.421471942565046	-0.154914081457932	-32.6490471026873	
16970000	-0.550319795826088	8.51202723303694	-41.9777635122654	-36.6105924740459	-41.8745357936386	-38.3142564021635	-0.406870263045981	-33.6560548739069	
17219500	-0.421380186167187	3.83123677757273	-43.539744199059	-80.0535275715856	-43.4512539941565	-80.2350315233768	-0.84185160553199	-33.7277227013539	
17469000	-0.418934969335645	-0.205403839888604	-44.3699249474054	-102.895294704613	-44.1919097869463	-105.154095473198	-1.2693299387049	-32.0394192666632	
17718500	-0.408676534055923	-4.00931903133658	-47.2626276972004	-137.842756021419	-47.0743614538887	-140.116586535477	-1.09713885235258	-29.6563584684306	
17968000	-0.338834569564932	-7.46179817518893	-50.4696140698746	-160.118203576739	-50.2804349468784	-161.350460591509	-0.773977803437633	-29.3979625998378	
18217500	-0.22879304627244	-10.3127270489678	-53.2911130957877	-177.29358476668	-52.9648596106709	-178.279525605072	-0.494262736778114	-29.599287063704	
18467000	-0.153017463159239	-12.6049630287639	-55.4446411693084	172.117103452831	-55.2517038010776	167.857251463429	-0.325312197003419	-29.954965187885	
18716500	-0.163059558409888	-14.6754118206884	-57.5236087923982	160.10819206172	-57.580236054203	156.453262497336	-0.275900837420024	-30.4348970153088	
18966000	-0.229609537111867	-16.9198670194725	-58.668544567568	152.456426033881	-59.3743698812917	148.05470915356	-0.296580538073678	-31.1438232250437	
19215500	-0.295878999791102	-19.4759103890965	-60.4966292730634	141.41218253632	-61.1756241479633	140.459750716929	-0.298568675465258	-32.0568562546657	
19465000	-0.295165844785147	-22.1622259604074	-62.2268132698147	130.274348552245	-62.4546097274834	125.343256185155	-0.247557401404356	-33.129492946412	
19714500	-0.221939501009317	-24.6287570740457	-63.6077889425545	118.971304476302	-63.5499050104873	114.560715736145	-0.15536658153341	-34.0406630412927	
19964000	-0.134365320140715	-26.6536870387525	-64.1492379711376	113.961199151836	-64.4462081235291	109.781518951001	-0.071755691435411	-34.5636352308693	
20213500	-0.109241915926507	-28.3511717065263	-64.8780368585941	107.738249357327	-65.1270418172346	99.0210186374061	-0.0502380504045679	-34.9180091267779	
20463000	-0.159213179582926	-30.1232758042839	-67.3217577342193	82.4616697840509	-67.5073605344742	77.542214236259	-0.0921677265466452	-35.4790865041828	
20712500	-0.242906129925278	-32.2427627244644	-69.0551807861697	63.5853408158343	-68.3210193455641	61.4225628269289	-0.297380255856523	-35.8535146420128	
20962000	-0.286273962724203	-34.695481525543	-70.4804212698664	58.4142065704719	-73.1916094825892	45.0349360265399	-0.199442671200342	-36.6333171555687	
21211500	-0.259721229725067	-37.1587097392869	-74.9333512834625	25.4812603204209	-78.705330008526	25.4170288354314	-0.163343845834647	-37.7151109412692	
21461000	-0.17290260686326	-39.3411261802116	-78.6269043327367	28.7852365331953	-79.4822624322556	30.825022019194	-0.0905988188990644	-38.4858992243436	
21710500	-0.113497739254548	-41.1216907856931	-77.7149583768819	39.3681979133932	-77.2602570547454	38.6928119390179	-0.0439301990667147	-38.8125768538287	
21960000	-0.13790973262107	-42.807334416563	-74.2827192329724	-105.795756161072	-75.8528723747453	-89.4902684935899	-0.0383556332668135	-39.0116539626876	
22209500	-0.258676986408114	-44.816721637438	-70.6591008199096	153.402531915935	-71.4582191209755	161.764985992233	-0.0871649767788336	-39.5810474478151	
22459000	-0.497304431742823	-45.9802641763865	-72.1565324032851	4.82930914574717	-73.4120098659228	-1.92860865220196	-0.147158223362553	-40.5235931842225	
22708500	-0.285199570641005	-48.1498861610127	-75.7712381122473	161.415902272687	-79.8054058493203	140.620525920403	-0.176651051456833	-41.7912240159404	
22958000	-0.20432719880913	-50.765023748393	-74.8092254710858	56.5685785027698	-73.7330491970856	70.3759118919162	-0.236140421869429	-42.8543800684618	
23207500	-0.115748794148871	-52.809095388665	-77.726688783942	82.8597591366579	-79.8460095398832	97.865325910898	-0.120154410098216	-42.820283483671	
23457000	-0.0808018598693196	-54.4576173289324	-73.0231575657084	76.049112550987	-75.1179181921891	77.0317357979827	-0.0474476656503266	-43.447573079939	
23706500	-0.128726666001859	-56.1563321786027	-69.1659152302773	33.6454054581146	-71.5893342087145	39.2723802868176	-0.0825843393286766	-44.1154409349575	
23956000	-0.2117253246857	-58.2171812536948	-65.2420902235847	-8.98358170226284	-65.9599121796794	-11.6026093078951	-0.192376230116274	-45.1878926726488	
24205500	-0.264988126669203	-60.6277626846343	-60.1735647533205	-73.7750230390567	-60.7441833068332	-71.5304409382964	-0.372059394068989	-46.3220076787717	
24455000	-0.248535100803815	-63.1175895710309	-64.2348826514265	-133.662913889964	-64.9509483631857	-130.767328145831	-0.39218281440715	-47.0049765451768	
24704500	-0.169124459651573	-65.357918386651	-70.8048469850836	-96.8889527468723	-69.4106862153333	-98.491704875686	-0.313363723124837	-48.3337285198667	
24954000	-0.114790810769051	-67.1863694524497	-59.9241763360291	-107.500617590519	-60.1479072460374	-112.235106892194	-0.337980293227947	-50.1243266233602	
25203500	-0.144404289311971	-68.8806866801928	-54.9910056477352	-158.557395848825	-54.4320300010004	-156.934248656399	-0.646907771277934	-51.716321901723	
25453000	-0.262603886515813	-70.7355290415126	-53.3631804106005	151.46245132902	-52.5292759147366	154.009290627856	-1.28651487998992	-51.6648141589388	
25702500	-0.379527185982295	-72.8583684160561	-55.5423740773099	103.576224947171	-53.3589486197068	104.906688859301	-1.92114616309068	-47.9914629484141	
25952000	-0.446968199193262	-75.1612458098144	-61.5920324895553	81.30711035281	-58.6822438528616	63.8110038557318	-1.5989406446161	-42.893691507832	
26201500	-0.428782054030361	-77.329391156076	-61.6110687883906	102.215414169996	-63.3696914446902	82.5222466070087	-0.80659889236254	-43.5590546073972	
26451000	-0.377361233241997	-78.9446216628326	-58.9909771935364	94.7365055332214	-60.0209861879507	91.9895419833556	-0.371833313077578	-47.4454353599766	
26700500	-0.346254098863481	-80.0808618934838	-57.0990072195219	95.163030798936	-57.11730686208	93.1670092429103	-0.446835826156367	-51.6427969926311	
26950000	-0.360497935130507	-81.2356204288847	-51.5904881126766	79.405218303022	-52.4049090942988	74.9628792480914	-1.24631871430759	-54.6857334940148	
27199500	-0.402332131412939	-82.9886264624447	-49.2396592856057	33.2683179950219	-49.8755750463462	32.01395688838	-2.41900986176319	-48.4378867891157	
27449000	-0.428898949257347	-85.2865977202567	-49.8864882719441	-6.66887555474335	-50.6959997241099	-6.83616327907163	-1.85610556922081	-41.8658910511742	
27698500	-0.38974922106802	-87.7734262491878	-51.4869879627139	-34.7189103905835	-51.9624242789449	-34.796575759805	-1.22982449087119	-42.1624449871347	
27948000	-0.299263939764702	-90.0618262152152	-51.9253008510697	-63.0437764787146	-52.6154722654696	-63.8561949178312	-0.852679144064891	-43.8332471628961	
28197500	-0.225396822500648	-91.8506745526305	-56.0963963058892	-129.736836252751	-56.4736172425451	-126.772041047429	-0.586976220895359	-45.358407282015	
28447000	-0.204567388650599	-93.4468037612918	-69.5121762008453	-80.8303322292746	-67.8658854600345	-92.7127884016073	-0.421139510601287	-46.272492710861	
28696500	-0.269222511706089	-95.3187108089904	-64.2084334311119	-81.8694256055761	-65.0566254675468	-81.9952349170335	-0.359524764204335	-46.9355498049194	
28946000	-0.34148599955886	-97.5585982135004	-63.7441438278468	-85.477545167002	-63.8112972903659	-85.923687163186	-0.373384419331601	-47.7707336754686	
29195500	-0.36520755875451	-100.116362757687	-63.8741409947951	-98.5792773614889	-64.2079311300488	-100.024979755356	-0.407749149753872	-48.8851541436236	
29445000	-0.315920778455791	-102.641751248315	-63.3992916338496	-115.758462013458	-64.2728925321855	-107.109540130209	-0.400399192004953	-50.2119879115608	
29694500	-0.229589561448188	-104.844127814787	-66.4042482472082	-124.353560171293	-65.8433285183517	-126.373659445303	-0.338764221814491	-51.4404339434617	
29944000	-0.185481568834723	-106.630022399201	-66.8748963347869	-138.493694855987	-67.1479710813134	-134.232078187573	-0.255880029672492	-52.3272246985626	
30193500	-0.232492005081399	-108.395635382705	-67.8681155641587	-141.458670795544	-69.5494118423732	-138.047823099552	-0.230571627480268	-52.8257126751805	
30443000	-0.324271141691705	-110.553610505514	-67.15175906681	-126.143252071051	-67.909952897637	-125.11630724478	-0.247802244096161	-53.3144201270595	
30692500	-0.396946837672786	-113.113100791677	-63.995094751662	-133.193888549747	-63.5690048936197	-138.671007705856	-0.323376414596443	-54.1855299462899	
30942000	-0.397821469070081	-115.779232523609	-61.8415963605619	-156.366128272792	-61.5934324413994	-161.306968571685	-0.388715191524935	-55.4590993992359	
31191500	-0.326275263637309	-118.261576501224	-61.6393876997027	176.249206248546	-61.74651169761	179.632932408859	-0.411031417566007	-56.9527827291271	
31441000	-0.239616330318165	-120.425685979175	-62.5542584350491	148.694745879531	-62.0442894728988	158.441142793564	-0.385694030222322	-58.398269558958	
31690500	-0.249519172279386	-122.53409698636	-63.0524881295342	159.77165539217	-61.6121297877616	162.044235353927	-0.399217879544456	-59.6482415817108	
31940000	-0.375741046173599	-124.704688000526	-56.6613988305389	156.567812387711	-56.489673914909	157.481127872736	-0.478264823392651	-59.8111269101867	
32189500	-0.485421735958137	-127.334639897361	-51.9003693025026	125.966446536073	-51.4464279968662	122.858330605617	-0.654084421531529	-61.4694460856832	
32439000	-0.549432387875639	-130.612987529672	-49.1653435380202	97.7836282903926	-48.8231246334604	94.5574665200332	-1.06363895809901	-63.5005065847517	
32688500	-0.573780774144348	-134.073236392613	-45.5041378531887	69.157823596873	-45.1236057257915	66.5503318398823	-1.77242247389247	-64.9345564257244	
32938000	-0.612425541512687	-137.466965893828	-41.5956901775776	23.7287763858948	-41.2693542463827	21.1379263725569	-2.77083186220711	-59.1869316634082	
33187500	-0.805537299532778	-140.891873190723	-44.3879511696185	-30.4118451141185	-43.8258191962687	-33.8239051862511	-1.24739076622459	-53.7920345263612	
33437000	-1.35733465316017	-144.428623027791	-45.8571830415141	4.16081663904311	-46.0986336039658	2.31765667730307	-1.06241340817294	-61.7930614152524	
