!Keysight Technologies N9923A: A.12.45
!Date: Friday, 08 August 2025 17:57:57
!Timezone: (UTC+08:00) Kuala Lumpur, Singapore
!Model: N9923A
!Serial: MY61181427
!GPS Latitude: 
!GPS Longitude: 
!GPS TimeStamp: 0001-01-01 00:00:00Z
!GPS Seconds Since Last Read: 0
!CHECKSUM:0785157387
!Correction: S11(ON U)S21(ON U)S12(ON U)S22(ON U)
!S2P File: Measurements:S11,S21,S12,S22:
# Hz S DB R 50
2000000	-0.0984305305517527	151.258383989474	-83.418825832885	179.186459286795	-81.2733287289209	144.172802459526	-0.0345057469244324	-3.21174469082627	
2249500	0.0144698255563165	148.190113571928	-70.0549967967029	139.689790815543	-70.0881134796718	131.005182170856	-0.169942656681087	-3.82449872201691	
2499000	0.00267764583241115	145.340779363152	-55.2367762472146	54.6325708774665	-55.5083741288989	53.8169853343359	-0.289814171103534	-4.49722469758621	
2748500	-0.118557899809466	142.196105495519	-56.9290968296583	-14.8421432981224	-56.5565251554746	-13.0606657544062	-0.152750271956418	-5.35351902607606	
2998000	-0.266037732323983	138.455911383012	-50.4751239315398	-48.8346654373532	-50.6199323369715	-50.0416437590441	-0.0226892011151813	-6.02714840429765	
3247500	-0.28686074331195	134.819874877939	-51.7362692433433	-172.932002707836	-51.5455212993171	-174.309191627884	0.0642724021155862	-5.90047131160003	
3497000	-0.167668220663892	130.966859278269	-59.060153553567	168.829875151101	-58.4881056081641	168.292697505432	0.049170020190769	-5.99127899498751	
3746500	-0.0322483387228773	127.835526889312	-58.7002333728683	167.35991094828	-58.6301721321566	164.57493633822	-0.0720815892199041	-6.33340248999645	
3996000	0.00857233635131507	125.110022369168	-57.5727252351945	149.154283774689	-57.8777247685451	150.230873721644	-0.189312303523239	-7.26274204620157	
4245500	-0.0827486932168026	122.238937884747	-54.366694352107	139.604870545673	-54.4984408441757	138.675418719667	-0.215426774772554	-8.52155987099481	
4495000	-0.237725794043514	118.754795273299	-45.7345386656039	116.572390110057	-45.5388989674814	115.894902588433	-0.143665174864175	-9.74618716743013	
4744500	-0.320640669770146	115.536415191983	-41.7837493287574	-11.9425462567154	-41.8333291312719	-13.2208941372426	-0.0135113268735441	-9.35998621892917	
4994000	-0.236238281951788	111.646289017842	-47.0502851413021	-46.520752785717	-46.9603587389394	-46.5455533550895	0.0757795605323508	-9.73999029992569	
5243500	-0.0987583763744312	108.377096781723	-44.3660167920955	-84.3534040808135	-44.2900712582455	-85.2078884821329	-0.0681245722895625	-10.0040181770369	
5493000	-0.00720726184354572	105.849939653942	-46.5630124036391	-175.954196506977	-46.6038699073963	-177.36884981133	-0.197517527515963	-9.07818185861587	
5742500	-0.0521480878888146	103.190865350248	-53.1810143286266	146.791744012045	-53.0807325515117	145.427258541242	-0.222679744792767	-10.2617336486755	
5992000	-0.228073948039104	99.905564531243	-53.2805406092256	112.920578716548	-53.2842678258173	112.530084479732	-0.203577920584941	-11.5560043261873	
6241500	-0.377826103072174	97.6670678478683	-59.7136128126532	-36.3101033994058	-59.4323508207166	-34.1059704874645	-0.0507421395057323	-12.5611047372548	
6491000	-0.291643593983292	93.5897557336168	-67.3414723885493	-152.349691204874	-67.5480231577402	-143.158599950865	0.0115986762982	-12.9528988538505	
6740500	-0.15788285672301	90.2460695817524	-67.0856036173602	172.590135560855	-66.7615906716248	169.947320403846	-0.0568018938157959	-13.0415789052167	
6990000	-0.0291977460913466	87.590178069129	-63.5249409812189	143.141052077075	-63.8494561639989	141.243396247413	-0.042077224335913	-12.3400486520764	
7239500	-0.0220265909661059	85.3253100076435	-60.8382114894202	62.2204100976778	-62.4155044816814	51.9069962186878	-0.316087461614048	-12.6906666817757	
7489000	-0.137294116436151	82.7726911374588	-70.5406755465387	30.1030124859451	-70.8357166901804	44.8060600573645	-0.265859769068201	-13.7659188705109	
7738500	-0.279104735481402	79.6622410207597	-74.7967073485718	47.0744696163205	-72.0039216761629	63.2344514855311	-0.194696597374782	-15.1493775973502	
7988000	-0.322771866697942	76.1992292777979	-68.3756261531305	77.047846564337	-68.2042555045146	69.5221503699194	-0.0563947461829053	-16.0447491633209	
8237500	-0.239295723762377	72.8598740174278	-59.0513242394002	46.8887700136375	-59.6425035339992	47.2409398660758	0.026964635113078	-16.3456583567688	
8487000	-0.0948813257192687	70.1742447760715	-58.9815356931656	3.01268219147318	-58.7202822956434	3.40192187829441	-0.00492461175430272	-16.3122288703776	
8736500	-0.0333356285184803	68.038022960527	-54.3889635487187	-41.1876326299794	-54.3420887849861	-41.6842031359031	-0.196084261570702	-16.5378371394095	
8986000	-0.114019189853814	66.002919230521	-51.7199481501372	-112.417653194282	-51.7577204418701	-114.177570112468	-0.456165866570587	-16.7336418621572	
9235500	-0.253476635654902	63.4676101689587	-56.1282791170537	165.319454270163	-56.1571359004809	162.464843841648	-0.456794903131629	-16.7310992186201	
9485000	-0.342908918316646	60.2393870789425	-64.1065550497379	111.916592401605	-64.6620468590385	106.79421503419	-0.261237095853509	-17.6611289289493	
9734500	-0.303230321447105	56.9021318601644	-71.4978324837767	79.7760538119321	-72.5325115538271	76.8276332734321	-0.0643901968082473	-18.3873537734086	
9984000	-0.15872897040801	54.0433216345685	-85.5386117256633	41.9213283637609	-83.0087256958339	66.4252539891805	0.0480756093046714	-18.6018611808803	
10233500	-0.0360405148755491	51.8527545165798	-82.679556941311	-107.691523605183	-83.3905119903909	-108.842980342933	0.0112304989471393	-18.737432580667	
10483000	-0.0376732353643019	49.956937160489	-76.0648018502491	-116.34390633195	-77.2061061345083	-94.3692436444725	-0.13581160605665	-19.3074725765587	
10732500	-0.165946497366765	47.7154049189816	-70.7740653188676	-119.603873234461	-71.8405172294298	-129.214587971395	-0.300026697469361	-20.5644452748469	
10982000	-0.312038568793113	44.8312169851359	-64.9052564316088	-139.06135038527	-64.4236109858914	-142.574422223568	-0.412022554221586	-22.0703401505501	
11231500	-0.347291023633958	41.5392994393902	-58.0026696082782	164.511160194981	-57.7046203464431	164.319473934684	-0.430665740117017	-22.3632944270348	
11481000	-0.243374928291015	38.5280970471168	-57.3109397151299	69.3773439074995	-57.4956564414081	71.1305924377685	-0.189450692518928	-21.9168651224507	
11730500	-0.089625846441221	36.1751293389711	-68.3015178130927	9.87133262335436	-68.011862950282	11.1275770485039	-0.101922720780094	-22.1397407258278	
11980000	-0.02004487076871	34.3263373105602	-83.9772640264482	62.9706130924723	-80.2112526708699	60.3123823426657	-0.277848961694875	-21.7613138925172	
12229500	-0.0986092802497276	32.4468160485107	-73.6342098825327	70.2668622279751	-76.9838301941863	65.0714884705202	-0.364741803734305	-21.2801303119628	
12479000	-0.261986254602794	29.9275166264806	-75.5818256622075	64.7050142212715	-76.8118922846523	66.7237141462646	-0.371153330221057	-22.4148895136923	
12728500	-0.367001738642414	26.7585731407086	-67.6896673754086	103.294700827248	-66.9016155679775	94.800779680931	-0.35595816003682	-24.1702958675856	
12978000	-0.323309927341905	23.4390879065982	-64.8970184540461	41.1345726415987	-65.5978238610856	39.0661091699193	-0.203944427040286	-24.7232675575181	
13227500	-0.177815083502365	20.6421454841342	-66.5313639907334	48.8618547980256	-66.1686681065124	38.4223903452169	-0.047539994242969	-25.1820840206622	
13477000	-0.0545444410858031	18.5068990656093	-63.7197180220247	38.6787042905546	-63.419802693718	36.15787693326	-0.0275019114689778	-25.3431009562709	
13726500	-0.0667806482581556	16.5843940291749	-60.2545263982747	26.8590969474059	-60.3836709678622	21.967336256641	-0.169225965969322	-25.7364729576788	
13976000	-0.211382694004468	14.1517071298549	-56.2407850647704	8.44578058692935	-56.2207400229285	5.91130843167933	-0.41761698336254	-26.6567706419358	
14225500	-0.376420588555718	10.8273878761794	-52.3142147826193	-16.1867962359643	-52.246281878307	-19.9181321534281	-0.656096707922943	-27.488988753452	
14475000	-0.427875031658184	6.83420329175972	-49.7345955659982	-50.554613274694	-49.7686949551984	-53.772050085672	-0.651067621534476	-27.2481590897299	
14724500	-0.341528320123344	2.76749652276393	-48.2787436398026	-83.4881871741442	-48.321935294578	-84.5736846279351	-0.328156170699483	-27.152785842562	
14974000	-0.244066972761692	-1.10793416004828	-46.8786568333118	-107.005678887986	-46.923026191987	-107.547094348007	-0.108100270745418	-27.9353110575391	
15223500	-0.3042441442883	-5.30607706589545	-42.9999837382279	-154.10497833783	-43.0851970258496	-154.945590325848	-0.274595898699351	-27.6931938690509	
15473000	-0.698876457278953	-11.76680026161	-44.9879393718553	179.698045873823	-45.0163311287418	179.001311690916	-0.325857296885515	-26.9804166272823	
15722500	-1.8211710916106	-23.8522863328324	-43.5679057667603	165.536176346407	-43.578443365129	165.454070007909	-0.375401894766641	-27.9192915964209	
15972000	-6.88822968335054	-45.9454465396729	-39.4527556428325	135.303554823321	-39.4013864576254	134.757905212371	-0.386501891951213	-29.6198419824703	
16221500	-8.03910456425926	44.2996962762845	-37.9562183176367	80.0627737042141	-37.8945393811732	79.425827859387	-0.3011332595626	-31.2260002753231	
16471000	-2.26166299298836	25.5201828184022	-39.3351642258509	40.1480558797223	-39.2726030539263	39.2221440770444	-0.203873028817491	-32.2525473371121	
16720500	-0.959993712460833	14.511109801188	-39.6713093519478	6.55468303887304	-39.6548949922954	5.65829259296554	-0.256506359979573	-32.4486279208482	
16970000	-0.505870419509334	8.56019584907869	-40.2969435128392	-34.082206312902	-40.2533327945857	-35.3076102579486	-0.483226241392776	-31.6108801660716	
17219500	-0.429663847895332	4.22590216018112	-42.9764267082059	-74.0812214954162	-42.9783584298664	-75.1771038137387	-0.642599561060031	-30.3781951061763	
17469000	-0.506880016197735	0.141774826447377	-46.2527166969881	-101.639236844566	-46.1015050636617	-102.87769522432	-0.595035448605061	-30.7637388641013	
17718500	-0.535110207171922	-4.04263245734755	-49.2141160601578	-117.523408577636	-49.2838407074399	-119.095286098664	-0.49155837220829	-32.6519987424174	
17968000	-0.424649005915681	-7.84672928433119	-51.0578132339261	-128.087064028303	-51.066624692108	-128.787778269393	-0.384066373603048	-34.4488409032675	
18217500	-0.234591349683062	-10.7060119665058	-51.1994455935554	-142.498359251011	-51.092359133458	-142.213595237742	-0.366026630715642	-35.0226280302546	
18467000	-0.109768624175937	-12.6636309159262	-51.2534169916123	-163.921732806976	-51.4200437666439	-165.713459598639	-0.415881159162913	-33.8774876793717	
18716500	-0.140867683714952	-14.3510350638409	-52.6523113681283	174.308150485511	-52.7056309863268	173.67063212891	-0.422390222915769	-32.8130900206488	
18966000	-0.283327042130403	-16.4794781174499	-54.1667905367432	159.667870203551	-54.0125071327457	159.037750005507	-0.475711699756796	-33.129666121498	
19215500	-0.415169411606609	-19.3008317539008	-55.4590624554335	146.684363052812	-55.382871346293	145.015139868711	-0.524641210767713	-34.5175798912789	
19465000	-0.409777782776908	-22.4104094369972	-55.4172426121538	132.800296466	-55.37402513579	131.942504090405	-0.478907725783651	-36.2150392752036	
19714500	-0.267714853052683	-25.069907830108	-55.3334505729647	119.782697872447	-55.3859317559223	118.578903765288	-0.355185378936524	-37.5105058170205	
19964000	-0.106687313282892	-26.8917767469385	-54.8248575014931	106.061913505997	-54.6813605943369	105.491539162181	-0.277779038657167	-37.9761449591498	
20213500	-0.065148318913706	-28.1709283965064	-54.3028682470612	89.3720186454346	-54.1668263208217	85.5103999092272	-0.363604640767001	-37.8234931545571	
20463000	-0.170601159331868	-29.6477234101762	-54.0002151955855	66.9988408865121	-54.0856905346163	64.9484067781056	-0.605952496479423	-37.3790002544322	
20712500	-0.335123040369464	-31.8375280788834	-53.7992433551079	43.7329025651958	-53.845706955898	41.0481082623635	-0.831746765351218	-37.0121153298459	
20962000	-0.417361784742593	-34.6980418082103	-53.978701849938	20.8139712385844	-53.8710385229029	15.9603632648519	-0.846352473710545	-37.2777164273923	
21211500	-0.349700126108587	-37.5545800720659	-55.2625381494359	-1.683343128933	-55.0989135147322	-3.80112349359217	-0.663161790322439	-38.1467278198101	
21461000	-0.182275301567167	-39.7548576566918	-55.8287971944516	-14.8847050987378	-56.1757588755096	-16.8094887065423	-0.397254774947292	-39.0088512169477	
21710500	-0.0689164124938689	-41.1935937611264	-56.5108490312445	-29.715100790041	-56.1640458954925	-29.7623818972705	-0.23016074952934	-39.4081508524919	
21960000	-0.112634571120721	-42.4622323433788	-55.0355214287851	-33.8411176992508	-54.9551879009306	-34.4566281294796	-0.252338220114709	-39.6327465138021	
22209500	-0.311645056810535	-44.2967627805971	-49.264756378027	-64.2183506033721	-49.2746899943953	-64.9955884137496	-0.461904402863019	-40.1239421174461	
22459000	-0.621401303726112	-45.6569461894827	-45.2120233118162	-158.562209854285	-45.2377733273313	-158.461954890525	-0.713038486905166	-40.8500126074656	
22708500	-0.406143563791046	-48.3113019608665	-61.766421243022	108.143543753119	-62.4761624413069	106.359192602781	-0.772252635270252	-41.5532349629324	
22958000	-0.258906715026199	-51.1858494867502	-73.9494485642257	-131.627600905372	-77.5086297869899	-120.541611896224	-0.640172419757313	-42.8328005372443	
23207500	-0.092689413408504	-53.0699384166786	-74.1080137324433	-143.678479110857	-74.7003056489959	-153.681069442412	-0.545023517865872	-43.5254716208061	
23457000	-0.034430905709822	-54.308536550506	-72.4715942413615	-123.335060882883	-72.1895936338514	-112.669356239055	-0.547948276846085	-42.7600569552992	
23706500	-0.131275665020349	-55.6664736636055	-65.3160700182311	-112.846492120724	-66.5193905018373	-113.6648325788	-0.559220976293109	-41.5265037600988	
23956000	-0.296986569323289	-57.7544819913976	-62.9792010823298	-143.723233163124	-62.0736777747623	-148.804194376991	-0.584962369765049	-41.6827343346939	
24205500	-0.394441520888802	-60.5533983881823	-62.206761549422	174.166139787179	-62.4797136974028	168.073949602564	-0.684028040133634	-43.2549389237047	
24455000	-0.344372847199515	-63.4579302486738	-68.0771888561845	120.936015116806	-67.7734127884072	129.035469732205	-0.745323334602212	-44.8347523698686	
24704500	-0.183495494682117	-65.7474547625651	-78.4498571389116	-105.8466249206	-77.1832016790381	-109.819954020091	-0.657042599428155	-45.6078341644014	
24954000	-0.0707499956105361	-67.2555683543463	-62.646885004403	-145.991863437466	-63.8419697494145	-144.921269112911	-0.533284456204916	-45.6268244007441	
25203500	-0.11296620917806	-68.5107370954218	-57.5814597335488	176.878483685113	-58.093037051743	179.488654096812	-0.484862670610443	-45.0078596768787	
25453000	-0.305934013641757	-70.1744267896015	-55.4553527669508	139.666355638392	-55.5727872181237	141.356602923607	-0.542440846455825	-44.5684773356501	
25702500	-0.499602953912585	-72.5055228357645	-56.2779567211216	95.8122265433257	-55.7495084101574	96.3379316076752	-0.666649660635728	-45.1031628125571	
25952000	-0.577041817379309	-75.2713493794091	-60.0468449024258	40.0936499074525	-59.7663716973956	53.2330064985126	-0.768668860670113	-46.5952808683616	
26201500	-0.489058446075172	-77.7238578049134	-72.5045975187783	-73.3781244786474	-71.1679035844869	-58.8782217336068	-0.786540786387517	-48.3072807304728	
26451000	-0.349879304576253	-79.2260762693987	-56.5399913976812	158.339451669296	-56.8438194597599	154.19044652314	-0.736700847621038	-49.0564522645977	
26700500	-0.289791040768782	-79.9511114737481	-50.4327785737996	98.1447388633611	-50.5680024114083	97.3362415249958	-0.655545744290865	-48.3554112375052	
26950000	-0.348559431063817	-80.7234702255754	-49.3570111130082	47.92816065323	-49.3077200710184	46.4231240137405	-0.572613052276954	-47.2323944936524	
27199500	-0.476225671685948	-82.4683893309692	-50.0640719991251	9.44939773639401	-50.0394492177026	8.08215381518676	-0.593654511851683	-47.0070931603473	
27449000	-0.558752867480413	-85.1513301648028	-51.6039269320664	-20.3016223363398	-51.5187718457465	-21.9017620306737	-0.69526019456104	-47.9511684500937	
27698500	-0.493425222766139	-88.0864730513688	-52.436636251036	-40.7757974544588	-52.4497488120841	-43.2423215912177	-0.763962382224256	-49.6394026471262	
27948000	-0.318705674877353	-90.4985082989274	-54.0931142290167	-56.0715727936307	-53.7905529711647	-58.2473601279581	-0.728841837808071	-51.2861321144066	
28197500	-0.178950523860188	-92.002346593816	-53.2249301506054	-55.108132661281	-53.1004219034725	-57.3324009155563	-0.630636899506049	-52.0668112104237	
28447000	-0.162889228620311	-93.1322260789401	-51.7670395776398	-86.7153177462766	-52.06548913054	-90.40872989235	-0.583021635688271	-51.8314400312856	
28696500	-0.299018419502013	-94.7485370130603	-52.3997803287518	-112.416357616071	-52.3365750249282	-111.755798399533	-0.661361630128233	-51.0326881662251	
28946000	-0.45269403392884	-97.1786403736087	-52.648378564333	-129.905470167812	-52.5541660458015	-131.465927676802	-0.808803700730934	-50.6254934977316	
29195500	-0.496023050556766	-100.213048702747	-53.2931591790143	-145.083146055723	-52.9045730734457	-148.783315115329	-0.933389258494268	-51.1305922806945	
29445000	-0.384919795531924	-103.082920150951	-53.5131193952812	-159.986470581734	-53.5119640762046	-162.189498782263	-0.929860125475847	-52.4097669746703	
29694500	-0.213739992581781	-105.201784225429	-53.8731258013491	-175.24125286244	-53.7548554947944	179.990830524607	-0.786533573080228	-53.6513545154306	
29944000	-0.132037543159291	-106.565793305091	-53.7921614636696	168.854451220979	-53.5076766332343	166.853961766122	-0.601513202441498	-54.2033674264575	
30193500	-0.21974294412595	-107.929202826048	-53.5646112457477	158.303711438264	-53.2638841298316	155.140158746789	-0.515261422378479	-54.0902999568722	
30443000	-0.39770885927837	-110.037118789639	-52.6863517595236	150.052422180339	-52.7533180099996	147.680002949678	-0.614902441792782	-53.8184060012144	
30692500	-0.530487194021161	-112.955558119177	-51.4248821853348	136.333319512434	-51.1412359978529	133.862782167798	-0.819211939963266	-54.0398877856224	
30942000	-0.509363127990234	-116.103553873129	-49.602220323224	116.934226782972	-49.6583408354861	113.934719777155	-1.00422568741648	-54.9689634264993	
31191500	-0.354626835639262	-118.734475187623	-48.5719749376513	91.0835303827757	-48.5532467745107	87.2270425896702	-1.0496019874446	-56.153932968981	
31441000	-0.197857667189882	-120.595753280233	-48.4616583108493	67.379680355267	-48.4389387576531	65.7185757205303	-0.921949839171567	-56.8408399605964	
31690500	-0.205511970198546	-122.22965469627	-48.8492124053615	56.7078951442089	-48.9998080730364	53.3703825570955	-0.737842182525009	-56.7069604754891	
31940000	-0.406458639033365	-124.167824890665	-46.5579248910132	42.8834940784287	-46.5503529241857	41.6383366285468	-0.653218531689489	-56.1090764146492	
32189500	-0.602472019010267	-126.977917959719	-45.785741704989	17.6243642177163	-45.742344362613	15.1688212471211	-0.718920455551552	-55.760826995664	
32439000	-0.688355635508328	-130.769958346538	-45.1132762831316	-2.62953762952233	-45.3054343371997	-4.74699518623918	-0.863213170107584	-56.3319547284708	
32688500	-0.650691610717274	-134.642992406737	-44.3629456919549	-20.9869645874663	-44.2837361132069	-22.7347083763219	-0.974658856128214	-57.7306813688834	
32938000	-0.607515672163652	-137.974212498569	-42.9606736594582	-39.4674426802274	-42.8966032053034	-41.6886863313556	-0.99601650975899	-59.1697969060345	
33187500	-0.778102671890778	-140.949051987536	-41.3736519289933	-59.425668705484	-41.2015756954863	-61.109570984433	-0.807244270692232	-59.9413049135571	
33437000	-1.41698047629014	-143.994712452002	-39.1012275530868	-84.8993588743611	-39.0071127211015	-87.1420918025573	-0.672189740630452	-60.0696771932776	
