!Keysight Technologies N9923A: A.12.45
!Date: Friday, 08 August 2025 17:51:57
!Timezone: (UTC+08:00) Kuala Lumpur, Singapore
!Model: N9923A
!Serial: MY61181427
!GPS Latitude: 
!GPS Longitude: 
!GPS TimeStamp: 0001-01-01 00:00:00Z
!GPS Seconds Since Last Read: 0
!CHECKSUM:0881740323
!Correction: S11(ON U)S21(ON U)S12(ON U)S22(ON U)
!S2P File: Measurements:S11,S21,S12,S22:
# Hz S DB R 50
2000000	-0.0923398573764708	151.327857285102	-85.3400912482098	-161.744953180337	-81.4232631750097	-143.987577502954	-0.040586884140605	-3.38077907300945	
2249500	0.0101071537826226	148.230772883961	-76.423334763726	139.164395455973	-79.3620684311296	146.613986181234	-0.158086492265205	-3.96197802148702	
2499000	0.000120278102512495	145.304256513278	-64.0387113885779	128.235111455129	-64.7260878459315	128.360985187377	-0.211733914992863	-4.94894567070907	
2748500	-0.124277040187341	142.180795373055	-48.5098623453673	32.2056957682425	-48.5025967153243	32.1299037514628	-0.205291802718333	-5.42189149974598	
2998000	-0.239908829487934	138.506495596169	-51.2991856709367	-32.3730303288719	-51.4101935244357	-32.4059218128579	-0.021915113898243	-6.05733517711877	
3247500	-0.29687202838162	134.773071579041	-45.3736865626977	-128.0562587001	-45.3031565815369	-127.528189878091	0.0152064367033632	-5.95550663048956	
3497000	-0.158965204344375	131.035901389891	-57.5971868221713	-178.884864535454	-57.7160544670207	-178.846056543278	0.0397259506575261	-6.01510183118466	
3746500	-0.0363634145125189	127.901965606693	-54.9014593265834	-179.840788209608	-54.8006469935487	179.258676793037	-0.0891596810791585	-6.32715229425723	
3996000	0.00119133744992674	125.139240304724	-60.3449612473967	78.9193610291727	-59.3439100730079	85.0186144251876	-0.283877140110802	-6.83103180895246	
4245500	-0.0801780128523886	122.234839130508	-65.2370496923066	153.34422974189	-64.6034819324101	154.330376543884	-0.210576855460364	-7.81879467161546	
4495000	-0.210078111309672	118.851557072615	-59.6428911278812	147.3938738389	-59.8698953127823	146.531675180269	-0.110652311061343	-8.88141655429122	
4744500	-0.284877794332708	114.941066821724	-52.0813436148308	131.346847285086	-51.9201881514058	131.852351461271	0.0132108100935589	-9.40964209295355	
4994000	-0.247025886967947	112.120436994952	-48.642618870302	-7.92789086102975	-48.6402505490761	-8.4629803280467	0.0671559593676048	-9.39264189395613	
5243500	-0.0841273697467976	108.591668404233	-58.4163312503597	-34.8307888619736	-58.5527952062268	-33.0795610097989	0.0162185348161004	-9.56367487984958	
5493000	-0.00325169390641519	105.837303351583	-62.7659635696283	-43.7047524646191	-62.7436338267689	-43.6635390390655	-0.112048821382515	-10.0729246158348	
5742500	-0.0523372382943296	103.142351874904	-65.7020803805804	-56.8882240857822	-65.1744231615945	-54.8137385977333	-0.214099842026196	-11.1386707183242	
5992000	-0.214720642649067	99.848756039545	-68.9813398470578	53.5956370026729	-69.2612009735693	51.3341878709567	-0.227329157777827	-12.4276313526545	
6241500	-0.356643324665185	97.6033704126762	-48.9169833314455	-65.6124298413627	-49.1877503074159	-64.488100277916	-0.212676029728483	-13.469982841655	
6491000	-0.272498294523123	93.6299081075027	-57.3367152324305	-170.361411005651	-57.4721467484239	-168.187549259956	-0.0494573721135438	-11.9368648102336	
6740500	-0.149571311627487	90.3157861846906	-63.9814798002549	-90.61966503291	-65.434065361688	-93.292934589871	0.0477026548651387	-12.8443170624947	
6990000	-0.0326950242922779	87.6395485313128	-54.6455067604514	-132.346420311389	-54.6081748281796	-127.544763538031	-0.234382560968347	-13.0500880409023	
7239500	-0.0257505217564133	85.3258501624377	-56.2143790796978	170.954777703832	-56.0311317449893	171.574239579621	-0.277726606229312	-12.1635345469337	
7489000	-0.132378187264359	82.731255069798	-59.1812776981892	146.231743661066	-59.4601419080844	147.70476597271	-0.259503058190942	-13.3358245023109	
7738500	-0.263005254547643	79.6271837445822	-60.9145217424804	133.212602338229	-60.6464559311774	132.761940678148	-0.188827003753039	-14.6032641919036	
7988000	-0.301720551226698	76.2238225468915	-60.5186816316701	122.943865946165	-60.461521303448	122.89618564295	-0.052026112691785	-15.4197626124141	
8237500	-0.224413352413086	72.9263033058187	-58.3051756335986	126.109831094021	-58.4453638253129	123.881167279676	0.049651645164705	-15.6761502025247	
8487000	-0.0929346353375085	70.2191171157337	-55.4733512556945	102.577414856681	-55.2651135393425	103.201857126188	0.0487876991225739	-15.7646876733703	
8736500	-0.0421328207535154	68.0101820807396	-51.0540754804758	75.0519787664853	-51.0010968544306	74.3016505834158	-0.072565832821328	-16.1761130151318	
8986000	-0.122504321614349	66.0121927991872	-47.1324035070159	18.0084621548494	-47.1595887355622	18.9544638043792	-0.239119578624846	-17.0337573549099	
9235500	-0.233746842774061	63.4196697905723	-48.5637439021418	-34.8872529020718	-48.3955491630892	-35.3698030296491	-0.301388165284473	-18.235855655089	
9485000	-0.316481373624022	60.1894003809647	-49.5700407851672	-68.9899763562043	-49.5320732819524	-68.3454941609135	-0.272183858889499	-19.509654151746	
9734500	-0.28276335641346	56.9024853570249	-48.7724236709775	-104.196269566349	-48.7023735752664	-104.296105220616	-0.27541991511649	-20.0322851854654	
9984000	-0.15320977799215	54.0820503156891	-48.0475269411241	-157.605183770781	-48.1228836027897	-157.547256950101	-0.291233454892487	-18.5954884325495	
10233500	-0.0410932242129115	51.8768179219603	-50.151656780893	148.593204844719	-50.0048924079605	149.149297356561	-0.147915345991824	-17.8314631638552	
10483000	-0.0436497276072711	49.930143366962	-52.5621985317099	96.3818930963417	-51.649155106421	92.5504347779586	-0.237370083524575	-18.6163496559848	
10732500	-0.161687688208824	47.6699422469681	-59.6518404805289	32.9125992300225	-59.6615793956817	23.1703460055846	-0.332466801400133	-19.0779693440795	
10982000	-0.294419610742682	44.8060531578911	-66.055932425118	41.6950034602796	-65.9637644916862	37.7180074268561	-0.286648038895285	-20.7974031461314	
11231500	-0.323880177249168	41.5744526458451	-60.9748390169963	18.0491133450326	-61.8782773394114	5.00614026631133	-0.365082077664331	-21.6911063850348	
11481000	-0.227195026865059	38.5840912498409	-61.7565634298305	-12.5953553799195	-64.3322837192463	-9.16175120456246	-0.103162026746425	-21.3442728116885	
11730500	-0.0888689550284642	36.2200544339541	-60.4611394180757	-58.0821288649985	-61.3595462348243	-57.1562123777608	-0.001752129776715	-21.557013116813	
11980000	-0.025241285851764	34.3233483675714	-59.987557065765	-98.5197619873619	-60.9756794458022	-98.7652585313255	-0.0688895962484982	-21.8386657615934	
12229500	-0.0983528442965413	32.3936964305902	-59.0071838448272	-134.41093081854	-59.3082896797936	-129.833738672918	-0.244422326245252	-22.5291064606379	
12479000	-0.24810007710256	29.866692249756	-63.7094420023486	166.008891365473	-64.2702071582342	162.267957565461	-0.361685055747449	-23.1129824909989	
12728500	-0.344568754279833	26.7523593755364	-70.6895473981849	-168.946017411405	-70.1419859698944	-169.957402256017	-0.286167892338952	-24.682035936036	
12978000	-0.303552613522572	23.4988299068209	-67.5207879041602	-157.107782415079	-67.9754899645409	-162.663814845582	-0.189670045660484	-25.9927297858963	
13227500	-0.170444867239604	20.7250089164033	-63.854237457996	-167.785775318962	-63.6853105757374	-165.174367671422	-0.158030895760824	-26.6709945266223	
13477000	-0.0578265453622297	18.5459259959921	-58.6297046643649	-174.1935755603	-58.7897053877687	-173.851686049893	-0.307302155805213	-26.5592581846294	
13726500	-0.0699837881335104	16.5547387038235	-55.267365350547	157.980317150874	-55.3651008091766	157.343986136885	-0.575785075271004	-25.4232381394841	
13976000	-0.204123355370922	14.0795846682999	-54.0428569450732	127.933867724208	-54.0106338574885	126.060761378652	-0.659829969376725	-24.3371044864074	
14225500	-0.356390267413753	10.7808242807784	-53.4247494296603	100.972185420379	-53.6736325072494	99.8703488678248	-0.563374264756405	-24.8216328148614	
14475000	-0.403466160640743	6.84161036408387	-52.5397621984942	84.8869587681978	-52.8075724650456	82.0620282075644	-0.388487275810753	-26.0615491782433	
14724500	-0.328093905817204	2.82726173496418	-51.3044374715949	69.0269859824125	-51.2581618086572	67.5825215973204	-0.181543918894407	-27.043015249647	
14974000	-0.245307115504242	-1.05543330827701	-49.4936991552538	46.9549917754614	-49.3713674910389	45.9806255661225	-0.0698446286893236	-27.4379877802136	
15223500	-0.303847572827456	-5.3051829525739	-48.9248150090671	42.2966954932749	-49.0211079772179	40.850549829671	-0.0343850534236351	-27.5173314794545	
15473000	-0.694225662338931	-11.8764455814789	-43.6608439302869	32.2389922712626	-43.8255415311544	31.4198640284993	-0.15963522628122	-28.2106751961459	
15722500	-1.82795160076534	-23.9460856734067	-37.0732289808378	4.98020607313425	-37.3021002676375	4.9001429193721	-0.355250561111921	-29.6426323692571	
15972000	-6.86796654479837	-43.9008125818698	-29.3918531356537	-59.2052485630406	-29.5076197810383	-57.9951017547547	-0.627141137986455	-31.0272011951974	
16221500	-8.41716234178498	44.1634705301733	-31.0050124594625	-166.468898093154	-30.8051564850385	-165.765100610903	-0.527454303613735	-29.9950726011325	
16471000	-2.23935067722802	26.0320907493872	-40.970277430703	146.003367853661	-40.8155210699427	145.405271344132	-0.199463755939564	-30.9531144588522	
16720500	-0.940303407922227	14.6312792289276	-46.6437860529401	152.53360072983	-46.7273809923939	151.889770744507	-0.117042678832634	-31.7335083365754	
16970000	-0.50907961609544	8.52041619970666	-45.7301214497237	154.550954650591	-45.9079481304534	153.549804401618	-0.260777149870264	-32.2746579305913	
17219500	-0.42780623827755	4.19203001797035	-44.2458843709963	130.561652954932	-44.3291855425755	130.968283532793	-0.595810393636514	-32.7677425680251	
17469000	-0.49161989072851	0.10285557873216	-45.208343049071	100.159948793999	-45.2875724545996	100.704576962785	-0.891057122813725	-32.4604358407694	
17718500	-0.511358163226126	-4.03231063972181	-46.4471454988761	71.4887527321599	-46.3373965333668	71.726484335853	-0.876563999850033	-32.1022403276966	
17968000	-0.407505728572492	-7.78929461241761	-48.4403087209624	48.7320516865708	-48.3792726689427	48.4025973922921	-0.604997147860015	-32.247003588957	
18217500	-0.230193001153461	-10.6552971883058	-50.6165609543131	32.8449116997046	-50.6285824910218	31.390296336256	-0.320821129876432	-32.5235716980318	
18467000	-0.113874878467388	-12.670067979971	-52.1989842806875	19.7737857422474	-52.3498894367466	17.9430364662278	-0.17389715074418	-32.6411413894629	
18716500	-0.140246889525554	-14.4252083833368	-53.9912555120086	7.95603951256141	-53.9085071721186	6.58248725190761	-0.19833578194131	-32.925673789475	
18966000	-0.272529776438223	-16.5691768869062	-55.0162776102946	-0.633821697360053	-54.6625080773869	-3.29485737707788	-0.325998238991669	-33.7524916287437	
19215500	-0.392507886986764	-19.347258891774	-54.9962497015808	-11.3368832585872	-55.0823664143003	-10.9894827389148	-0.430747274255683	-35.2077795853276	
19465000	-0.387798850922041	-22.3897143552307	-55.0026205935559	-16.969141884516	-54.7872735349049	-20.2362845212713	-0.433667413703835	-36.8261201098374	
19714500	-0.257162462834565	-25.0076820294724	-54.6470629389826	-30.5205408936979	-54.4405877971523	-31.9438857738924	-0.360869250840408	-38.0731351391956	
19964000	-0.108276783333899	-26.863869005601	-53.7701502382915	-44.9672633010441	-53.692554091232	-47.0769971063376	-0.34293646601411	-38.4909262949429	
20213500	-0.0698822661799015	-28.2142264674991	-53.2800337406549	-65.0463307217831	-53.1173169928611	-65.0731657727447	-0.484081933138416	-38.0512668460731	
20463000	-0.165865805224054	-29.7434876499515	-52.4428862496467	-87.9524098431412	-52.4797618387649	-87.4417775486887	-0.690912107221953	-36.983925895434	
20712500	-0.317058005991458	-31.9210732908321	-52.8021090336007	-115.460629831134	-52.9017761881363	-113.85426220707	-0.774206986468931	-36.5723483371642	
20962000	-0.391737840397825	-34.7067685834236	-55.4083953562402	-134.689850373054	-54.8778671722928	-136.116041247455	-0.719613703111645	-37.930891823656	
21211500	-0.33088642182992	-37.4770032898117	-56.042257077373	-132.674378970077	-56.162033702454	-135.083027794741	-0.793838197808204	-39.7568527097569	
21461000	-0.17704178929785	-39.6663747246281	-54.1993820433507	-153.624185545494	-54.2062891760789	-154.562774914578	-0.711115005875443	-38.6589483300975	
21710500	-0.0727359307846588	-41.1635896990936	-55.1086669383218	-176.097814059066	-54.9105448278975	-175.534233090145	-0.404892323436172	-38.029500483951	
21960000	-0.113813280204344	-42.5073264903042	-54.7605677093014	177.326942549974	-54.6843081728468	177.801014880334	-0.285341683190131	-38.0745104724134	
22209500	-0.300420844047234	-44.3936560311346	-50.9370539449096	158.721778922302	-50.9200234493178	158.507168042092	-0.351239101078365	-38.7635467744311	
22459000	-0.597058657232269	-45.7011424425898	-47.1402920259388	80.7273916583951	-47.0391949532116	80.7730091130069	-0.48082929706868	-40.1009539363736	
22708500	-0.382643370708346	-48.2880644961231	-59.4322566700704	5.80423905996693	-58.9746768717119	5.13758018390064	-0.575703360395827	-41.9082637216864	
22958000	-0.246232626331597	-51.1206714131547	-73.9041436621062	42.9613543133452	-76.1449029261266	34.7351256331889	-0.600583460774092	-42.9899380248163	
23207500	-0.0921848445641719	-53.0272328670585	-73.8978925492074	80.8718793732123	-73.9603614860097	77.895071984849	-0.434066505137253	-43.0153156358841	
23457000	-0.0391178072513328	-54.3404616496253	-72.0728974044905	136.527789964245	-74.0466668057119	151.917617648605	-0.339912392895805	-43.3415454819142	
23706500	-0.128871039725119	-55.7616611515423	-65.195115094985	144.035607922379	-65.9230712818241	146.236901086528	-0.489184811202895	-43.5531620613759	
23956000	-0.27999631759656	-57.8512049046855	-59.9420846964381	116.799524124216	-60.2629644527664	114.818889805292	-0.799337826117279	-43.596406888353	
24205500	-0.369654247256187	-60.5839729454455	-59.411652067219	68.9971935017916	-58.8319589068233	67.6451370010817	-0.979824071767426	-43.4068148926674	
24455000	-0.324037242958773	-63.4124912437445	-62.9639975347784	23.265400790331	-62.5404878853459	25.1118408354996	-0.928519799156381	-44.1336040953009	
24704500	-0.177099624272408	-65.6868493408966	-72.6615770891285	32.536627974711	-74.4911866835529	34.8541727315468	-0.771627941664295	-44.6842105660721	
24954000	-0.0735950124603802	-67.2485228762755	-64.0374446709584	106.738216916941	-63.6130297816021	101.862979073819	-0.582432428254951	-44.7295098562631	
25203500	-0.1150493012689	-68.5828111304683	-57.7269058181516	73.4483991250509	-57.2573975817171	70.0488072646757	-0.496033678273108	-44.4459224140807	
25453000	-0.296156537066601	-70.2895817575475	-56.4225195916046	12.1028432289584	-56.3799506006112	12.6619593814739	-0.568180798746976	-44.00784979649	
25702500	-0.477346881655228	-72.5834852915461	-63.4809801944167	-36.2678597886651	-64.234854998025	-37.5084598422723	-0.619167822851931	-44.2884441011858	
25952000	-0.549856297294956	-75.2728815191013	-67.9435394667041	50.923234019107	-69.4579479886855	54.947761549992	-0.657745315491648	-45.8106254846359	
26201500	-0.474017557684937	-77.683213577388	-61.3883181395453	44.7986608330659	-60.272539240965	45.3049657478956	-0.625248404543949	-47.5445966889305	
26451000	-0.35173139156513	-79.1914588052759	-55.6993749723225	24.6692878891417	-56.471831198699	25.7782294807383	-0.51458646311423	-48.7248789728492	
26700500	-0.296646662871694	-79.9792033510233	-53.6951117344015	-1.02494075419657	-53.0726387317932	-0.375856110180509	-0.43802470280091	-49.1218108745337	
26950000	-0.348073196317257	-80.8334262802827	-52.2430813577478	-27.9169668787647	-52.3307446039797	-29.2622879242836	-0.497568061227994	-48.9862365041444	
27199500	-0.462524413871066	-82.5897603292421	-51.694776321755	-54.1410946077126	-51.6715040697009	-56.1270972399813	-0.705071856187861	-48.8439140128347	
27449000	-0.534095837837578	-85.1934037797102	-51.4748728558829	-78.8652302421029	-51.320574931763	-79.3872676233693	-0.936701861144424	-49.1058239551992	
27698500	-0.471330889374743	-88.0582184976637	-52.3294055889195	-98.9946808299458	-51.8649013807195	-100.637585844217	-1.05476433590484	-49.71089124842	
27948000	-0.311558070678154	-90.4495559038651	-52.4649701322862	-111.971179009914	-52.3713863049891	-110.346020278067	-0.985299453562042	-50.3116533292257	
28197500	-0.183727733075324	-92.0086924262141	-49.6525273167163	-125.63386149583	-49.6943351139228	-127.445506063698	-0.789380735904309	-50.4047103381371	
28447000	-0.167140746026946	-93.2385671620279	-50.6432097457278	-160.540101149145	-50.3115668900331	-161.549100011807	-0.598724114078015	-50.1546498099556	
28696500	-0.292103320864979	-94.9179864335756	-51.8463414932258	-176.045950784351	-51.7047611735347	-175.160419617258	-0.561532675806849	-49.8600323721089	
28946000	-0.430972681781807	-97.3224482707714	-52.2562833801414	173.185346926862	-52.1314040915632	172.496316633003	-0.648181138168399	-50.1204403113628	
29195500	-0.46837584546513	-100.261517168872	-52.6723191340806	161.319873751217	-52.5551009515408	160.956800876205	-0.764697925742983	-51.1634100842827	
29445000	-0.366966195228035	-103.038778606098	-52.6728253092961	152.152991918997	-52.4082713243155	149.514245523179	-0.797990704279852	-52.7179927760843	
29694500	-0.210242133635911	-105.138742610086	-52.677886738677	139.76778792429	-52.1372929891855	137.775127831011	-0.714803054353975	-54.0650121405826	
29944000	-0.137208576344719	-106.563649225412	-51.698723865945	124.929098991817	-51.6379112128612	127.450503432445	-0.594337794812035	-54.6280521960035	
30193500	-0.219776863087281	-108.009076414956	-51.0112643916148	117.881065311892	-51.0674871933386	114.732005319929	-0.556558815691936	-54.4747980162352	
30443000	-0.384804493841052	-110.155227838438	-49.9137607333142	107.685797474307	-50.0234924225569	105.914341977275	-0.680551850807428	-54.1273414176599	
30692500	-0.505385144917912	-113.030068785744	-48.8643103839139	93.312425560255	-48.8074830873356	90.7699639694358	-0.89292609014809	-54.1682357646903	
30942000	-0.486048258857535	-116.087151221271	-47.1575117035748	73.115508523563	-47.0709182835911	72.0631034669428	-1.06914915220614	-54.8018282546942	
31191500	-0.344196415248395	-118.681199668747	-46.3313362286227	50.5224592952282	-46.2234519267012	49.0630303740313	-1.09703620688368	-55.6977381528397	
31441000	-0.199095772382007	-120.578562832628	-46.4252686393695	29.0947419712373	-46.3080141741804	28.3693373049842	-0.954252141754003	-56.2697730013545	
31690500	-0.207973957493016	-122.280846005665	-47.0854312876183	18.4758109058881	-47.1158960511871	17.8021285726228	-0.762774142000392	-56.1878890500188	
31940000	-0.397816944671866	-124.269565111013	-45.2510389443034	9.73580901668168	-45.2184385323269	8.23868081264716	-0.667014278512601	-55.7157485864245	
32189500	-0.578270664775573	-127.065596838605	-44.1328181949132	-12.0227006399952	-44.2179244047907	-12.190085836043	-0.716997613059737	-55.4950166630527	
32439000	-0.660552449023472	-130.778257193012	-43.6069519486762	-28.2459650795625	-43.5933542763166	-29.1679803657665	-0.840267061294796	-56.1067717811048	
32688500	-0.632894114412496	-134.563741240103	-42.6367958913459	-43.4022491885139	-42.5795894376302	-43.8208659399148	-0.931076283922317	-57.4436587689374	
32938000	-0.604737213542612	-137.898000698437	-41.0938507058606	-59.2372725367366	-41.0357246718165	-59.8641709197409	-0.922767430739758	-59.0302015545855	
33187500	-0.782641326004013	-140.931889435742	-39.4503085656582	-77.8767695861672	-39.3333580251934	-78.9160138927281	-0.767305094380906	-59.789375251539	
33437000	-1.40842920596152	-144.060042565474	-37.2447992730396	-100.563735942628	-37.1727159560511	-101.086968739504	-0.649436948008177	-60.0414504216208	
