!Keysight Technologies N9923A: A.12.45
!Date: Friday, 08 August 2025 17:47:23
!Timezone: (UTC+08:00) Kuala Lumpur, Singapore
!Model: N9923A
!Serial: MY61181427
!GPS Latitude: 
!GPS Longitude: 
!GPS TimeStamp: 0001-01-01 00:00:00Z
!GPS Seconds Since Last Read: 0
!CHECKSUM:1923091112
!Correction: S11(ON U)S21(ON U)S12(ON U)S22(ON U)
!S2P File: Measurements:S11,S21,S12,S22:
# Hz S DB R 50
2000000	-0.089641257331037	151.375183023427	-79.3572762302131	172.502759585239	-94.3222627478849	24.0289931706205	-0.0429350104893109	-3.47159500844563	
2249500	0.00581602378855046	148.257083217943	-79.6099088909799	146.53708969098	-78.1002194869884	158.67706655635	-0.151230580118936	-4.06269073329981	
2499000	-0.00532185874247923	145.301464468443	-68.5150819822409	137.140791329735	-68.4084592399447	151.242397984596	-0.197581408587323	-5.00463953832787	
2748500	-0.122815319132904	142.173292614068	-48.5480629894833	30.0138662061025	-48.5380498309928	31.4795549782079	-0.192002742612048	-5.54738049815529	
2998000	-0.241801508590876	138.355211885589	-69.410404536131	-29.8638832031343	-70.6014792943778	-15.8457993918726	-0.0221373746600092	-6.21951440320201	
3247500	-0.245753386552342	134.797124140712	-57.7240767918958	-27.9089816749602	-57.7883573580922	-29.779390611582	0.0512540737482927	-6.35535903983346	
3497000	-0.151849636894541	131.038133906077	-54.3927805596431	-52.4038502916658	-54.7525412981168	-52.3953953026655	0.00898876433834583	-6.49480006752266	
3746500	-0.0418533804224409	127.885568452666	-50.0407866169953	-86.01179743817	-49.8136521531558	-85.5506519673044	-0.153273218641788	-6.67906090641977	
3996000	-0.0107043396753977	125.151566214055	-48.3086450441239	-161.646931546775	-48.4141927171856	-162.091391126415	-0.25078581086667	-6.56235518104139	
4245500	-0.08416779203698	122.223764990813	-51.9858908824269	164.930916389861	-52.0193831612479	164.183215007684	-0.20186064202378	-7.6789860821374	
4495000	-0.204729059715795	118.839823949025	-51.8441509842166	150.428603994598	-51.7630670349016	149.7847807513	-0.105617890310368	-8.67669517519318	
4744500	-0.275399345963346	114.994110820736	-46.269939709867	131.133532826329	-46.4083502430174	130.739933797678	0.00804318143140845	-9.24980887038901	
4994000	-0.245549051708567	112.070736790152	-43.8285494686815	4.70527869567806	-43.8001488562005	4.59921734322907	0.0320609439814191	-8.95585724946645	
5243500	-0.085526736940148	108.615589576048	-54.3771307602848	-27.6642631017527	-54.4232166802964	-26.4726250851583	0.0110456241904938	-9.19656982057853	
5493000	-0.0106127085353854	105.844282786378	-58.7047076941526	-40.0798530893691	-58.9996355428751	-37.7768958844081	-0.103126575110075	-9.7182675092699	
5742500	-0.0579868672702727	103.121895593204	-60.370185154748	-49.9375046292844	-60.0595672193625	-50.9196683121168	-0.192065309744786	-10.7354091525621	
5992000	-0.218579057242692	99.8092605675193	-56.3635596544319	-80.5826515248736	-57.1103703220435	-81.7492540117792	-0.188339619745025	-11.9324238660621	
6241500	-0.342758622557909	97.6109778894867	-52.651513902115	69.9223391184993	-54.4695997030167	67.2711716807168	-0.101778134745838	-12.9535001642347	
6491000	-0.261020277731394	93.6800749256425	-58.6915415387111	-39.9191785162781	-58.3117780672692	-38.2897218698643	0.00861212715508042	-12.434776749818	
6740500	-0.147034617505953	90.3871999689225	-61.2229763522283	-53.26240044188	-61.4319967606748	-55.2846360419689	0.0519303281006482	-12.894398075879	
6990000	-0.0370003046031302	87.6855405254092	-59.9214727588665	-64.9507932893028	-60.186126226586	-65.084749734983	-0.0417246669887723	-13.3056147572755	
7239500	-0.0327818602191418	85.3238494316964	-56.4793562315406	-78.0405943948053	-56.7327067123344	-76.6343115803471	-0.213150522201992	-14.2546236307252	
7489000	-0.134146490065251	82.6998938497713	-51.6456211107352	-111.841690714004	-51.4178886718536	-111.776964795449	-0.484216836570169	-15.3334648720885	
7738500	-0.255655719818035	79.6139614372098	-50.7723302676182	-177.36013529009	-50.7370772201461	-176.799054871222	-0.454396987055268	-14.0121647328685	
7988000	-0.290313762714835	76.2424765951099	-55.1681402831942	142.519845245707	-55.1745073514159	142.664352331486	-0.107837914505217	-14.706515255939	
8237500	-0.219748942855463	72.9665426836363	-55.4434912826601	157.741915546121	-55.3425751268524	157.207082840337	0.00167260718361364	-15.34678237135	
8487000	-0.0964418742720838	70.2545604708622	-54.7511182280543	129.519864493961	-54.4503676846186	128.507745211899	0.0208140206489261	-15.5386665413287	
8736500	-0.0463984376454298	68.0240754749389	-50.8796435290903	109.809680022516	-50.4272409326429	106.423082273074	-0.110523811721679	-15.8553184219879	
8986000	-0.121996818353266	65.9254924364444	-47.2703710944243	48.3690548682748	-47.0370121035156	46.7849806052694	-0.268540905688365	-16.8373449407707	
9235500	-0.234947725072537	63.3827471769919	-51.9184012031111	-26.8303041406613	-50.8689599802435	-32.818659093424	-0.451935008916124	-17.1097546738932	
9485000	-0.306872605271207	60.2275758168012	-56.6618621581956	-22.8103359491474	-58.3221012530383	-31.9475786847166	-0.222151232103425	-17.5090322322719	
9734500	-0.271527625870369	56.9855484492414	-56.8541558530728	-38.8663205909256	-58.4866055116829	-39.7109846250269	-0.0501110513318214	-18.3584194605878	
9984000	-0.1498377962035	54.1498196303257	-55.2252778027579	-65.1212889924993	-56.4733070649293	-61.7829370933932	0.032581277792395	-18.7090679887271	
10233500	-0.0508888526406052	51.8887915300766	-51.8087606226747	-122.010173730893	-52.6545039785045	-116.000749338015	-0.0456796043635096	-18.8966697908271	
10483000	-0.0517128840938196	49.9398392442496	-58.1042286185512	161.073847915224	-58.602267284824	164.150157143878	-0.140847559419127	-19.0465888515769	
10732500	-0.16035882725347	47.6412614487149	-67.3736445264994	133.849900015548	-66.3725172163936	132.425698208617	-0.239396104478127	-20.2149844481937	
10982000	-0.28414058484864	44.8000039006173	-75.3377123276964	108.96095510799	-75.9254079252933	105.022440911098	-0.271789867063947	-21.7002994086934	
11231500	-0.311247978776061	41.6180678096624	-74.4273455964285	135.795546736298	-73.770912170511	140.695970497046	-0.232402359649874	-22.9622773808802	
11481000	-0.22300298161858	38.6539459299341	-62.1140127338471	141.12578811633	-62.1511641301558	138.033212595267	-0.244008968069639	-23.4945551913452	
11730500	-0.0943872378831979	36.2765076105685	-56.1913846421336	56.4886909360552	-56.3388229384175	55.1013568800476	-0.317942732490576	-22.9262167299725	
11980000	-0.0355195268730884	34.3345754999335	-56.055847978085	-21.8366590067419	-56.1543848007474	-23.6608566895167	-0.408207744506594	-21.6676758848966	
12229500	-0.103236964408593	32.3620671220207	-63.0934586431209	-74.8586579518673	-62.3269930199386	-79.9119147273401	-0.546088013870237	-21.986090433604	
12479000	-0.242713704287378	29.8278081800739	-63.4865680293768	-68.594850422886	-63.7722979668556	-68.0252291853608	-0.531364436999459	-21.4406179068762	
12728500	-0.333168302606444	26.7506885934509	-65.0048670108251	-83.3742784589939	-65.4096559296921	-82.6539826936523	-0.34158573913332	-22.8261448367172	
12978000	-0.294324833374298	23.5435664500342	-68.5188010896248	-84.64475116179	-68.0180999110483	-97.3088860549115	-0.176552009750799	-24.0667427147316	
13227500	-0.170941525296258	20.780730359761	-64.8702001941766	-72.5009516708959	-65.1510619330728	-78.1171910175203	-0.0486971210305193	-24.5547422158377	
13477000	-0.0659135188033904	18.5658805765089	-61.5560014748556	-86.526722970518	-61.4713968453087	-84.0861501546113	-0.00997222800196765	-24.7453446056422	
13726500	-0.077327317981256	16.5322247366834	-58.0769901674435	-96.4100452988566	-58.0645393477788	-97.1775823924307	-0.10072224290995	-25.2807262802963	
13976000	-0.203516769395578	14.0402046700175	-54.1552933912479	-114.07793350968	-53.8667255039072	-112.714831798714	-0.319094476552181	-26.5792625107539	
14225500	-0.347522770719048	10.7731502357531	-51.8604768615329	-156.798573325133	-51.3353860651592	-154.281750150501	-0.643665809004098	-26.5249462319049	
14475000	-0.393758208629986	6.89868658467507	-53.0344295409853	-157.721013066073	-52.869443740734	-160.357031165287	-0.367012163898862	-26.9378078044634	
14724500	-0.330189284507638	2.9280792497289	-45.8980453565173	172.050416071539	-45.8986807411146	169.566423145175	-0.382745001214923	-27.8445575524712	
14974000	-0.253961275632942	-0.961174792026205	-48.5927416337115	132.141409292964	-48.5646505705623	131.36353544522	-0.11913551909992	-27.2162793568571	
15223500	-0.314762819166669	-5.25589104622578	-47.4166190696696	111.205794664207	-47.3340358526521	110.657017401788	-0.0751720877379752	-27.6753908536292	
15473000	-0.693634253013288	-11.8307094905077	-47.3689310065766	106.109887016969	-47.201701697999	104.241381969638	-0.187471615341459	-28.4506252640132	
15722500	-1.7799113256821	-23.8483301184799	-43.8445915690644	96.9621174797199	-43.8034734059248	94.7025785604179	-0.355975813261357	-29.8087240129377	
15972000	-6.74574718207592	-45.6962146659027	-38.2559112659109	67.511460226554	-38.3788436094367	64.7281026855245	-0.509069326636607	-31.5608731605594	
16221500	-8.10756467400499	44.5629270868321	-35.4810504463457	7.59692816631419	-35.8616730564067	5.53588033334719	-0.677844738697777	-32.6415117316071	
16471000	-2.24693231199482	25.9802256215789	-37.2277868608136	-45.0430061048601	-37.657435377875	-44.9433470288518	-0.747577032374899	-30.6220366710189	
16720500	-0.94580324668528	14.7801100513684	-39.0731174946419	-72.2698538484065	-39.3972907948792	-69.8983148632823	-0.285600849813178	-29.7913637257607	
16970000	-0.510104305382586	8.47851111759276	-40.288044154848	-123.14086365449	-39.9544779605197	-120.693262487305	-0.340826537172045	-30.0596385807644	
17219500	-0.432396216754057	4.09493703401435	-46.9328761812179	-153.206670438672	-46.7902530871337	-153.624052719531	-0.453418482690232	-31.246901336731	
17469000	-0.485378591939639	0.0414110709407833	-49.0121493450745	-152.594414909444	-48.9818725396759	-153.247082540618	-0.701495970122245	-31.0869272746244	
17718500	-0.500291259877634	-4.01507461524606	-50.6263515615854	-167.241981472705	-50.6481560677376	-168.014925438451	-0.612171482169583	-31.5716408441568	
17968000	-0.400881301708726	-7.70346176883325	-52.738532808884	178.957347471847	-52.7317743894195	177.463827682857	-0.40499189167903	-32.4262162209685	
18217500	-0.234881006628335	-10.5551504997844	-53.9605740299821	169.931040764376	-54.0405886159713	167.042554440337	-0.204114868988368	-32.9711423947966	
18467000	-0.125519548646989	-12.6268223133262	-55.0861480905722	162.783636724702	-55.1369341654678	160.913654841053	-0.113269355801297	-33.2000723995808	
18716500	-0.149579249021125	-14.4402841164969	-55.754796958047	156.518817303789	-56.0855757699681	155.7575674743	-0.168353235205274	-33.5472682696653	
18966000	-0.271399253796058	-16.621745570733	-56.0397022335335	148.293194773075	-56.1836818523827	146.84443461873	-0.307344339304242	-34.3961615842109	
19215500	-0.381960468735207	-19.3696188547195	-56.3808060785137	143.5541539154	-56.8116297818856	140.408478320378	-0.42469043661155	-35.8361620589456	
19465000	-0.377138597488095	-22.3483812292079	-55.421764387597	129.992545759167	-56.029715117173	131.212081527702	-0.452906981189681	-37.4217004165172	
19714500	-0.254667777633878	-24.9270627288484	-54.880983804005	119.855023554358	-55.1359755640189	119.881392474187	-0.422820827290082	-38.6305731671259	
19964000	-0.115238575529966	-26.7950788178573	-53.5834941108556	106.238602069307	-53.7192881205243	104.884035242302	-0.460546748938852	-38.9556040194249	
20213500	-0.079619972128322	-28.1902774488929	-52.6720867025532	83.5999142108092	-52.9227152161129	84.3511314851688	-0.661754999762241	-38.1895451120335	
20463000	-0.169783278835019	-29.7586830706894	-53.0891488222626	56.2203852688862	-52.7228572199875	58.7860798634829	-0.844549215136527	-36.4099775222612	
20712500	-0.310658061464685	-31.9365106466912	-55.667541701993	32.2983440670784	-55.3712161847833	32.718336403163	-0.822564494991413	-35.3980287980146	
20962000	-0.380170601913048	-34.6710632421945	-54.6407434263935	27.3630775318903	-54.4812133919209	27.605921395012	-0.7443295745305	-36.8806044355823	
21211500	-0.324613017035534	-37.4047375977983	-55.3676430080186	8.19115101995221	-54.7069684394687	8.73431458033247	-0.626053053909724	-38.0696552242882	
21461000	-0.181346716147203	-39.6005273593783	-56.5242034175874	-2.98228018795036	-56.1765620363114	-5.91017414890142	-0.461151190609172	-39.0360524840908	
21710500	-0.0840143959909966	-41.1497823403827	-56.2373029458349	-10.1631110078868	-55.8185736183567	-13.6406598114175	-0.406061494677872	-39.0200823542468	
21960000	-0.123206703413638	-42.5456409497912	-55.1416665383136	-42.794214073146	-54.6213674384675	-43.3225908477962	-0.374740230483786	-38.2435914880368	
22209500	-0.299819361002892	-44.4532815875655	-58.8843342893656	-68.7332726935397	-57.9260770606573	-69.6044935601685	-0.402764117402649	-38.469383134443	
22459000	-0.585597920995128	-45.7118174902006	-55.0797168540534	-71.0358714133707	-55.0675078925701	-77.789994060607	-0.480205243836216	-39.556646779407	
22708500	-0.37195892097033	-48.2437505568163	-60.5978292798807	-124.011552332322	-61.0320930995717	-127.606969753025	-0.50044322394475	-41.1085670016164	
22958000	-0.243376335120391	-51.0256782436234	-68.6441649871685	-124.98299791927	-69.7519840624216	-126.898636323783	-0.420870637370979	-42.5291591488697	
23207500	-0.0999107022089401	-52.9423957726422	-73.236723471006	-70.3125598208825	-72.2180964346414	-75.8596919019563	-0.299991886224217	-43.4107697165864	
23457000	-0.049967127216519	-54.2960493769784	-68.7419569564623	-72.5808552706801	-67.505094117685	-74.4361986297133	-0.264436012585779	-43.9318602804367	
23706500	-0.132830437107001	-55.7565583391226	-66.7435583173509	-72.7950881847033	-65.996361163311	-66.8731492510007	-0.441147494320303	-44.3348183367371	
23956000	-0.274250182367035	-57.8348160666948	-63.0927089499583	-76.969362318517	-63.5030874401702	-78.8876652552185	-0.775824028082446	-44.6861713619444	
24205500	-0.358284248068105	-60.5199217407969	-60.6901948763863	-107.031202151494	-60.4720524533983	-104.8753088964	-1.07490790226156	-44.6179936602471	
24455000	-0.317403198606275	-63.300349634124	-64.0753128293417	-135.469327250485	-63.7357821795571	-131.08054878726	-1.11613910977678	-44.5433480262785	
24704500	-0.181639930524493	-65.5820637019588	-66.233707907385	-120.070743475634	-65.7361407049661	-114.624573678393	-0.969099429556527	-44.2237075126378	
24954000	-0.086050485803731	-67.202517738524	-64.0722351718852	-135.277863914008	-63.2461143453212	-135.01250233776	-0.716327928164418	-43.5999812374623	
25203500	-0.126290315585838	-68.6104623062581	-66.1363091754561	-152.035248268353	-63.7417346375591	-147.54041114072	-0.513675426656811	-43.1843315178073	
25453000	-0.296785823728845	-70.337876719266	-63.9982420659561	-149.100683688681	-64.3726198053538	-151.285166487495	-0.47573097148061	-43.3148259093154	
25702500	-0.465153350480692	-72.6048642491125	-65.8202696787353	-150.979856683089	-65.9469144885781	-162.125806773418	-0.547034196904512	-44.1730005425601	
25952000	-0.538740640011655	-75.2114983713038	-67.0885601723471	-137.702213454645	-68.920832109188	-164.09352648569	-0.604005737463826	-45.6529883835417	
26201500	-0.471794241863994	-77.5565393625149	-65.1073084150003	-119.553781645976	-65.6635398417853	-118.843269460948	-0.568137364531259	-47.3267162637239	
26451000	-0.359905169790437	-79.0728317725137	-59.3186954450246	-130.711523100456	-59.0038933544239	-127.64796884477	-0.453203447689936	-48.5229013534108	
26700500	-0.308825924083402	-79.9188546872758	-55.5941877953866	-152.955225795086	-55.5331308282818	-158.27321696118	-0.369435874897307	-49.0785377967317	
26950000	-0.356448709726728	-80.8423440000131	-53.6464685876542	-179.186051701878	-53.2312300540084	-179.558861535877	-0.422402682086934	-49.196684238279	
27199500	-0.460576923422653	-82.6095203979748	-52.265959903834	157.078534703869	-52.5995675073045	154.676464581623	-0.624214543434403	-49.3620727426711	
27449000	-0.524473927670909	-85.1786776708737	-52.0263145756901	133.347101099023	-51.998238797878	135.338693671762	-0.873495476908709	-49.8854722665267	
27698500	-0.46435146598795	-87.9819908858169	-51.8354840952379	117.552035336756	-52.1141754256014	117.751388069214	-1.04300771164031	-50.5438632534435	
27948000	-0.314632682903171	-90.3520312191441	-51.9994252273124	103.08041120268	-51.8066892091614	100.550721053541	-1.03942042582393	-50.9167655946707	
28197500	-0.195101384707879	-91.9306880671466	-49.1607684876185	85.8100216108533	-48.9549113690272	85.857194634978	-0.893024513058224	-50.6106427196101	
28447000	-0.178588464366928	-93.2040055608849	-50.4119647912686	54.8303360973973	-49.9972401889929	53.855706962273	-0.70117649703881	-49.9448874496887	
28696500	-0.293874627077909	-94.9124176973959	-51.5791400562846	41.6498791792523	-51.7225790084721	39.6537434463446	-0.627670354455447	-49.484540230498	
28946000	-0.422757509831092	-97.2931980446258	-52.3144158271408	29.9148155910178	-52.2520072005604	28.0975814161782	-0.668456977992363	-49.7466392323384	
29195500	-0.458866867135779	-100.169917405425	-53.0195970193467	19.2141072730313	-52.9984178592142	16.4747372770541	-0.749650026256438	-50.8947113009788	
29445000	-0.364910518484892	-102.912804696387	-52.5123964393101	12.4194427060104	-52.4624764747129	10.459509455662	-0.776647782966718	-52.6711133549728	
29694500	-0.217900847272453	-105.028210817596	-51.8481687722962	6.44163421086674	-51.6374093572953	3.43769447771742	-0.766581494163123	-54.3701662580213	
29944000	-0.149997650630511	-106.508706028686	-50.1159769031898	-12.2635277344898	-49.999674393805	-13.0850417104948	-0.820310801870613	-53.7194670478309	
30193500	-0.225887717117577	-107.99466556728	-51.0183290817677	-23.858430296493	-50.9306978194693	-27.249691782345	-0.541888037492999	-52.9356029505952	
30443000	-0.378891918624011	-110.13802132922	-50.4467652960933	-31.0467702628797	-50.4124605456997	-33.6648091823923	-0.53830202843199	-53.1823698060132	
30692500	-0.494345709865056	-112.954530639584	-49.3646483753438	-42.6466128137233	-49.3616936481508	-44.2013578595111	-0.66999789300934	-53.9448949089409	
30942000	-0.477909767179859	-115.940345766038	-47.7922301663545	-55.418960071697	-47.7934792599318	-57.1432241724324	-0.823019226518109	-55.3601810670229	
31191500	-0.347226066265271	-118.513120245281	-46.6602758881588	-71.9884705839467	-46.7832290873743	-72.7893305262744	-0.901324330820839	-56.9344690708723	
31441000	-0.212426108242481	-120.454187729783	-46.3511913628699	-89.6948415320447	-46.5093573063185	-90.6284612827119	-0.872542581764519	-57.9267379284797	
31690500	-0.222038288733435	-122.229238965181	-46.6288773231191	-97.4451274368783	-46.6988549605896	-99.3604290780876	-0.821064970166193	-57.894033299835	
31940000	-0.402858697011813	-124.24883232301	-43.9693052168116	-108.700377829886	-44.070861400875	-109.859160238624	-0.854778787511326	-57.1079682250428	
32189500	-0.571156297749672	-127.014778607581	-42.7525465206409	-131.115117584005	-42.6995548852091	-131.388815577088	-0.979725408048598	-56.1838448089208	
32439000	-0.649629975340992	-130.64444945545	-42.0764902846554	-149.127600334281	-41.9596083286922	-149.623503649971	-1.10204444236572	-55.9520237806097	
32688500	-0.628174662993607	-134.3782659787	-41.2569186340058	-165.388908424564	-41.1784372067164	-166.138913198693	-1.12674595865222	-56.5469350226795	
32938000	-0.607911777317796	-137.723157635146	-40.0621216276037	179.221183426216	-39.9515760537616	178.149628255179	-1.08163041234553	-57.8514258338833	
33187500	-0.784781334985273	-140.847355886987	-38.6257883643866	159.881481818504	-38.5076781893386	158.672544686848	-0.857660588032337	-58.2494875036375	
33437000	-1.39984329959555	-144.13050962091	-36.8707013712708	138.745286706397	-36.7083583769982	137.242613900156	-0.655739081234493	-58.4840158474576	
