!Keysight Technologies N9923A: A.12.45
!Date: Friday, 08 August 2025 17:54:22
!Timezone: (UTC+08:00) Kuala Lumpur, Singapore
!Model: N9923A
!Serial: MY61181427
!GPS Latitude: 
!GPS Longitude: 
!GPS TimeStamp: 0001-01-01 00:00:00Z
!GPS Seconds Since Last Read: 0
!CHECKSUM:0571478945
!Correction: S11(ON U)S21(ON U)S12(ON U)S22(ON U)
!S2P File: Measurements:S11,S21,S12,S22:
# Hz S DB R 50
2000000	-0.095411970485923	151.302245867894	-89.4825519278402	-158.30301150537	-78.0004259378394	-172.034722039149	-0.0387295390518527	-3.31925578116965	
2249500	0.0111758600015112	148.221020976033	-74.0653498123506	160.8194547275	-72.4179318914257	157.646067679578	-0.160330407481381	-3.90773531441719	
2499000	0.000761791432572422	145.319218228115	-60.5992521249808	119.547878644325	-60.7841693752212	119.853326470636	-0.228331073237352	-4.93911443644135	
2748500	-0.120107630462166	142.201714468675	-51.6798274807723	7.35226381878855	-51.4867196709618	8.84523062601074	-0.174055866387336	-5.30161683461512	
2998000	-0.249668065404009	138.499009550034	-50.6531971489445	-35.8672854045736	-50.5441162952083	-37.2946012873682	-0.0218032077687332	-6.02158334601998	
3247500	-0.291911569642038	134.833216984918	-46.9157338780822	-147.758894881285	-46.7835538817827	-148.011245434855	0.0306384926592857	-5.81246008629371	
3497000	-0.163512855736492	131.009604789615	-56.6335076661335	176.98398505969	-56.892083735116	174.398165925063	0.0439203705030396	-5.88958738012247	
3746500	-0.0357855345110443	127.872351136334	-56.1172275809853	173.940961787642	-56.5884212138535	172.367340924754	-0.0722122482109018	-6.19217368959312	
3996000	0.00298605863000371	125.119999159232	-56.8350052131391	151.641580917915	-56.6970192272329	152.005805637691	-0.181284173495943	-7.08337684632747	
4245500	-0.0839953984933895	122.224474704636	-53.1969664286455	137.764122178293	-53.5262763090084	137.370466487075	-0.207579057347139	-8.33817673424094	
4495000	-0.24201385309321	118.798325110675	-44.2529252184664	93.2323940211409	-43.5802087418042	92.8581294708881	-0.186745467592297	-9.53584855621557	
4744500	-0.286340773503067	115.224113665032	-50.8165518045044	-24.7653224440645	-50.7576693258462	-25.7598381304794	0.00520734045883754	-9.3354226163453	
4994000	-0.280609247509048	111.387396467421	-50.3168352317839	-62.7168694338289	-50.1939437294758	-67.0393951066329	0.0729434916398785	-9.55081450741945	
5243500	-0.0896900343240818	108.61198848082	-77.9893351225518	-72.8987793861256	-73.2525298452179	-49.212751710964	0.0183984275375485	-9.67665442285239	
5493000	-0.00276100888706541	105.839817218675	-66.7980382147451	-51.1319637495871	-66.8748032359302	-50.4981924812937	-0.120011637635062	-10.2165463014186	
5742500	-0.0528055165034045	103.165742352199	-67.9999063174266	-59.2133415013324	-67.3651838166004	-61.9386596509041	-0.250108584216863	-11.3750023099987	
5992000	-0.21945434837098	99.888817576178	-60.6150820881951	25.7879464051243	-61.1116106613098	22.542817112309	-0.384967093903034	-12.4293117729107	
6241500	-0.363450293186574	97.6598819944691	-49.0823976543792	-144.779947345872	-49.3125194174821	-146.865179662096	-0.185611120292683	-11.7564490061189	
6491000	-0.282329375718791	93.6285984324725	-59.0048898844118	165.363086227678	-59.2412828925196	166.369292229771	0.0227094029384726	-12.1827162028848	
6740500	-0.15494837785463	90.2935406020923	-66.3888853057845	162.807162789365	-66.9139507055348	161.399399072396	0.0721238769374281	-12.5118462231012	
6990000	-0.0320559968507986	87.6263980188448	-62.9486723559246	-154.777188900189	-63.5344686817743	-153.278340180888	-0.135097433579771	-13.0304688514336	
7239500	-0.0255738066237823	85.33801450815	-61.4134406274393	151.024258679476	-62.1237925858011	151.414656893038	-0.219887145312743	-12.3610513276383	
7489000	-0.136047008754999	82.7577257639909	-64.0568902778514	129.057744134487	-63.0305642757316	133.480899926131	-0.238191356999583	-13.6545085096154	
7738500	-0.270798559569073	79.6495048074442	-63.1599313466598	122.888366051651	-63.2242399812876	122.229301158494	-0.18194046865355	-14.951299400558	
7988000	-0.312047544943567	76.211863397479	-61.3617000684002	116.272845935577	-61.5654798284293	111.102421425723	-0.0500562094635102	-15.8063563004891	
8237500	-0.232543465580617	72.8959336003951	-58.6558259312951	110.690259377627	-58.6841177406867	107.836590622334	0.049787624943925	-16.1145575908373	
8487000	-0.0970682633166178	70.1895181349727	-54.6830228694505	85.8901877642661	-54.5599707133801	85.3549345879806	0.0290088951575545	-16.2875853010568	
8736500	-0.0444550590328503	68.0205372581444	-49.0312806973298	51.1891106366074	-48.8855682898838	50.097241398764	-0.139456719904769	-16.7597630912995	
8986000	-0.11746957822424	66.0508983318413	-44.7660859573471	-15.3949588722304	-44.7416115995984	-15.7112004935976	-0.367083046580162	-17.3520441449461	
9235500	-0.240243736689866	63.4202101365497	-45.5625659611335	-78.3379090880581	-45.470193787911	-78.9319737473986	-0.485340643190056	-18.1923382756121	
9485000	-0.33112811292276	60.2079350887286	-47.5615507840437	-132.648846058153	-47.631962715072	-133.102703906016	-0.454339990410177	-18.1982864458472	
9734500	-0.294163277854557	56.9155755140337	-50.9420810255047	-176.018403166008	-50.9501506004773	-177.492220676571	-0.201970794813754	-17.9812366898824	
9984000	-0.156512116039779	54.0685789770901	-53.7605408717979	153.314644492039	-53.720115602826	152.190115045657	-0.017684547822556	-18.0332952326714	
10233500	-0.0399682222381051	51.8590058101942	-54.8838858910468	128.829906170434	-54.6605471788436	128.796334966169	-0.0121895909836171	-18.2154646628122	
10483000	-0.0436195139460107	49.924394212562	-53.6890833691929	92.0212540009593	-53.5618916725207	93.1876243797616	-0.14900685882253	-18.848140874622	
10732500	-0.169071915868185	47.6947584658423	-54.239808453832	15.0179621192009	-53.9464577555146	13.6110687792387	-0.317761370343056	-19.4877286134296	
10982000	-0.30382677606703	44.8397397296936	-62.7895348226052	-31.1713928023813	-62.5784589180439	-34.8094396478162	-0.274466734930501	-20.7338434196884	
11231500	-0.333267605876749	41.5784160338919	-69.6799795631634	-45.598293966705	-68.835767765065	-30.9855605784003	-0.165770240233254	-21.9782697230417	
11481000	-0.234604230901343	38.5639023182063	-65.156861146675	-18.630521465658	-64.7654801431142	-19.1834127399826	-0.0548681087970624	-22.6879260721194	
11730500	-0.0916654676165717	36.205246398533	-59.4010367522381	-77.2649363350576	-59.3263967079454	-75.5581428686493	-0.0416202926609744	-22.8206477399441	
11980000	-0.0258409303667488	34.3312651744576	-57.6788994270916	-125.797740996915	-57.8796605774894	-123.69674074668	-0.197852848704338	-23.0760456079602	
12229500	-0.101313466351249	32.422824681004	-56.6040420289033	-171.892337649724	-56.9497928057903	-173.097817420418	-0.503935631163369	-23.169128891865	
12479000	-0.255824726371097	29.9030588934267	-62.2177256843501	145.736116170125	-62.014452865616	146.871232645014	-0.686030977243941	-23.2540418028998	
12728500	-0.355508416262105	26.7647775059012	-61.736372202341	129.570102337973	-62.0491836519853	128.076322287204	-0.509049664222518	-23.0685433934594	
12978000	-0.313250895490081	23.4860481240178	-63.2349504586281	125.556799661502	-64.8576676095618	120.769406636329	-0.257720728604589	-24.2449593211118	
13227500	-0.175462954147675	20.7029707540121	-60.9501653405836	126.735443052473	-60.9749809081884	126.154323610757	-0.112941663564559	-24.6499001162689	
13477000	-0.0583353958922483	18.540539746652	-58.1374772477424	110.602269339641	-58.2209174005468	110.557765840714	-0.0537931339334272	-24.5900478972114	
13726500	-0.070954967417392	16.5756094211817	-56.3807062693754	93.2991271687261	-56.5105366955185	93.1122537155294	-0.131616232366227	-24.9276913918431	
13976000	-0.209040341980465	14.120976838021	-53.4859151741768	75.2349526980535	-53.6681028874415	76.1089046380784	-0.303534689972763	-25.9651599922546	
14225500	-0.36698328742891	10.8000402785639	-50.1267139458111	47.8744257145487	-50.1209010817753	47.8327094763871	-0.502381055270051	-27.3514822208062	
14475000	-0.417615205184557	6.84151498136006	-48.3683027987381	6.63907181136312	-48.0417934765509	6.0148267670818	-0.568508628916095	-27.3173407480285	
14724500	-0.338880674046564	2.81985207627782	-49.9821254867336	-26.7449932914495	-49.672651800934	-27.0420639094446	-0.262676944568892	-27.2687623488861	
14974000	-0.249232830870626	-1.06629960986533	-51.5048247864766	-29.1205955099148	-51.3309078581282	-31.2894675808571	-0.0670119629848305	-27.919185905859	
15223500	-0.305870234418029	-5.28978650278238	-49.7067164653854	-48.1156601826308	-49.4921289161969	-48.3241485106439	-0.105051120224134	-28.5218782994423	
15473000	-0.69921956545488	-11.79617322899	-45.4446776507227	-41.2830521459827	-45.3105000251944	-42.9535420062954	-0.427389353527752	-29.2474514467712	
15722500	-1.81165391784409	-23.7800168021903	-39.0028963409408	-77.2716596239896	-38.9685328952969	-79.5743454621357	-0.639068228141667	-27.8440836846995	
15972000	-6.78193889837038	-45.4359293397191	-34.794713531277	-117.490951985132	-34.7720136703756	-119.957932608178	-0.491144973531425	-29.6830605144357	
16221500	-8.24872504950948	44.9272073150761	-30.9175062267871	168.104216782448	-30.9900458231589	168.072281658707	-0.542901123484805	-30.8548402244107	
16471000	-2.22315790113176	25.9413459424166	-34.4266243479521	97.5502262115752	-34.2275132086227	96.6135862392899	-0.271187404169132	-30.5235914309502	
16720500	-0.935200890045031	14.5661826240713	-39.2226911502492	55.623646579164	-39.2040959596906	54.8928943392564	-0.156748239254152	-31.3551838325872	
16970000	-0.50510785034348	8.48522457889068	-44.4731165746336	26.3103175326803	-44.1568869498481	25.3001719615307	-0.356736122595392	-31.2456121477936	
17219500	-0.432435792774346	4.18894462525775	-48.880898913951	22.7451445326534	-48.8150481489401	19.852869280942	-0.506534262768222	-30.4254699616286	
17469000	-0.502289067640957	0.116281204154069	-49.0327139212927	15.8107198537836	-49.1149909936105	14.1141660737809	-0.495834759539434	-31.3622179719191	
17718500	-0.525013308292678	-4.01367056215591	-49.2621031265045	-4.13169745179837	-49.0291877127112	-4.54261617182846	-0.520720558528408	-33.3902667723145	
17968000	-0.41796674514891	-7.7747712733639	-50.3860310896407	-28.1498156667745	-50.1413797495588	-29.2772124067323	-0.543278461627491	-34.1155001546267	
18217500	-0.235822643039617	-10.6381013932775	-52.7672590935551	-44.1315633313362	-52.5728247794231	-47.5038373776616	-0.36329516885872	-33.5900244893438	
18467000	-0.116255609785768	-12.6394959907594	-54.5354450418271	-54.5771778281611	-54.4338087003897	-57.2201646874807	-0.222406460510267	-33.3558227809427	
18716500	-0.145319248840878	-14.3810975232662	-55.1912631580592	-63.6739360280079	-55.0220613323617	-65.1665033865528	-0.261574526455849	-33.5596018698078	
18966000	-0.280459242092504	-16.5352863579783	-55.3454785441703	-73.5400530221165	-54.8120944139373	-73.3323247712625	-0.415858995130566	-34.374213602496	
19215500	-0.404601871366286	-19.3345165123429	-54.5874340085566	-85.4269058133673	-54.5450345980395	-84.0406698657955	-0.557098923815948	-35.7874569031146	
19465000	-0.398274685099665	-22.4078832527956	-54.1364282522997	-100.096280897282	-53.9901468593248	-100.983093648553	-0.599051760465672	-37.2169897355233	
19714500	-0.263274180681815	-25.0355250853035	-53.7245126331371	-118.616498310849	-53.8054890363191	-119.849014647561	-0.555645009580197	-37.986005857089	
19964000	-0.10937227017034	-26.8680080424711	-53.4471241409751	-141.688067605098	-53.3324395585818	-141.60385710037	-0.51417488811818	-37.5906053456236	
20213500	-0.0702810889645635	-28.1771285435385	-53.5574644067733	-164.379189671376	-53.5883552316036	-165.196353173642	-0.528544228509936	-36.4531311965421	
20463000	-0.170728596270717	-29.6792813785785	-54.4595218080726	176.747584826207	-54.4960688531516	172.183362926464	-0.581722551443597	-35.6054448600005	
20712500	-0.327833112021073	-31.8623593034086	-55.7698065013951	159.63874268376	-55.4502616050519	159.57324155101	-0.636987478570195	-35.8880707680962	
20962000	-0.405606415362057	-34.6738449271205	-56.2171121584524	144.580337013628	-56.045084738801	142.867469952359	-0.628647146087386	-37.1569982315767	
21211500	-0.341968463465313	-37.486056653716	-57.1319191997527	128.722960735416	-56.8429266089044	127.035308800308	-0.527030469382376	-38.5766430119237	
21461000	-0.181754668449868	-39.6834505812638	-56.8619606003835	115.759038041397	-57.3352521640624	116.410802789798	-0.343775537408868	-39.5074318225065	
21710500	-0.0747380058789646	-41.1577622491279	-56.5008110550634	105.831390897998	-56.6105370007716	105.473936698613	-0.224059178507678	-39.8856248463361	
21960000	-0.116260869230265	-42.4746191536375	-56.1474021542564	90.2471746617293	-56.3974855377294	88.1083088522502	-0.273090505001611	-40.0599849775015	
22209500	-0.307386390411647	-44.3291787408262	-55.0629632446371	87.2183971035744	-54.8179512921409	83.1857340715098	-0.475443010277741	-40.5331626200012	
22459000	-0.611481406304119	-45.6719198425647	-47.6789022812238	30.8362492386313	-47.5949207974876	29.1490926510547	-0.722973125428603	-41.4192484559734	
22708500	-0.395125154437065	-48.2802897435642	-55.5840848258517	-45.2244701405816	-55.4257565663471	-47.7522054609424	-0.870721865606858	-42.3865968112706	
22958000	-0.25386619170533	-51.1248039934255	-66.6701791325059	-50.5578333525182	-67.2951021883261	-56.8261981622294	-0.859346265627568	-42.8435605807678	
23207500	-0.0950291607301911	-53.0163576599121	-67.3257841209162	-9.34649615051473	-67.9278070396621	-8.84642840083949	-0.702185519412568	-42.2857325829027	
23457000	-0.0401662614340896	-54.289528601223	-64.5272683108885	-16.5714456951768	-64.8053085000441	-13.8533225820417	-0.509971260630961	-41.4026324313558	
23706500	-0.132431596146199	-55.6836931637258	-65.6760234066188	-42.468113385264	-65.1680454621335	-41.9947758314508	-0.435659611563917	-41.089496358918	
23956000	-0.289508305443912	-57.7692178550716	-69.0561753167623	-66.7368879191363	-67.1445764250576	-69.031589980532	-0.50164666761127	-41.7883908862417	
24205500	-0.382609369745043	-60.5237483488059	-77.1915576506554	-18.876847915249	-79.8707859310404	-21.6657799570303	-0.625271011508713	-43.345161637346	
24455000	-0.335772450034163	-63.3908689502268	-65.0703913679228	-14.1495404097634	-65.5995629980289	-19.0967169972986	-0.69250961470967	-45.0161496851614	
24704500	-0.183869514842494	-65.6878437717799	-64.9154588479965	-53.6362314081237	-63.8953260832246	-59.7796273067523	-0.647889289244852	-45.7937295999742	
24954000	-0.0770537369642096	-67.2307400009877	-76.1172799998807	-121.12047024083	-73.6974825257379	-114.849279560726	-0.530606981427921	-45.6473535968499	
25203500	-0.116976095308738	-68.5435997455647	-63.7706362071486	47.4093144259131	-66.3604898426321	54.6242859525718	-0.454448820169199	-45.250104354526	
25453000	-0.304548462424346	-70.2265282275789	-56.4342966836093	2.39908015227498	-57.0701369406491	0.569243485743867	-0.552765270022974	-45.3035883479189	
25702500	-0.489287439076927	-72.5399350626981	-52.5434666723593	-54.3892578359854	-53.0211930801503	-55.0768041302561	-0.802407059895468	-45.7645410381295	
25952000	-0.563689836784876	-75.2502659607084	-53.2101698549393	-104.91862351189	-53.8043162452304	-104.813242493785	-0.959979369528895	-46.06437833653	
26201500	-0.482010783678203	-77.6720412258438	-58.2119951675617	-121.225484397692	-57.3121874749771	-119.072988421956	-0.837538281905458	-46.8124327199789	
26451000	-0.354301242532206	-79.1610168606187	-57.1402839623525	-114.562536169506	-56.2673981175343	-114.402716294235	-0.608912313267995	-47.7604095309956	
26700500	-0.295433466665369	-79.9198257586677	-54.5348301613215	-132.984554241181	-54.057333028287	-137.028649865327	-0.443229020707999	-48.2297390414574	
26950000	-0.351445220035806	-80.7512810279025	-52.6535265329006	-156.428095072282	-52.1544427369067	-158.181497050778	-0.444237200152378	-48.2627805439288	
27199500	-0.472035498551604	-82.4983014203999	-52.121423138809	-179.650662602864	-51.9838650863129	176.464907564092	-0.612985831846596	-48.3653974637727	
27449000	-0.547692758119988	-85.1438703683728	-52.075048807036	158.266085360305	-51.8822628223027	157.742021099146	-0.828971585064545	-48.9603692752561	
27698500	-0.482842001113713	-88.0422126675368	-52.4636194311656	137.805674044722	-52.0697396229697	133.474198874162	-0.955588415074206	-49.9073712407953	
27948000	-0.318886992434276	-90.4417601807131	-52.8022089352162	117.71247802566	-52.6117189749231	117.867911853809	-0.91022514187164	-50.7495468833817	
28197500	-0.186056198047322	-91.967736499615	-50.7817319118195	108.77974638342	-50.7657882555157	106.996088979644	-0.747420383662108	-50.972809818926	
28447000	-0.16925292197423	-93.1480441120754	-50.8980089642811	78.2584350958933	-51.0067289293446	76.7151995022992	-0.596792700237712	-50.605232691138	
28696500	-0.298399091823762	-94.8099297452719	-51.4403255104266	60.9609161977324	-51.7968692791889	60.8119925582165	-0.582719231714615	-50.1504179159519	
28946000	-0.443518771680507	-97.2284472596181	-52.211807530246	46.3678530563542	-52.4101235325967	43.6135544155036	-0.686186216642917	-50.2903345035833	
29195500	-0.483205731119269	-100.214230892987	-52.5157486710177	31.143093690533	-52.7144116599192	27.8642064542799	-0.816386530307054	-51.2362133644543	
29445000	-0.377568434878698	-103.032414610278	-52.3214026551411	17.9256507257487	-52.493656214049	15.8730175333362	-0.852435255696497	-52.7547318695143	
29694500	-0.214700671775641	-105.143934367875	-52.1361445682921	7.94203361992001	-52.0102156917665	4.51696553545516	-0.764611865173894	-54.0435880213786	
29944000	-0.138301898997504	-106.534709883108	-51.9311606714317	-7.04788256705988	-51.6954204007581	-7.70753382588027	-0.634274051632511	-54.5290755298097	
30193500	-0.222201666157953	-107.934563675121	-51.3269989004452	-17.5254345276323	-51.4613231344803	-21.2767703607225	-0.585225757899605	-54.271690350648	
30443000	-0.392653795474626	-110.062407534377	-50.5032929303249	-29.2128248613783	-50.7052002905574	-31.8962686656977	-0.695176466986701	-53.7989599151693	
30692500	-0.518571924856837	-112.948252425542	-48.9539890375703	-45.0102708691809	-48.817589931427	-47.5051993315168	-0.88482706324578	-53.8058661569395	
30942000	-0.498708508406861	-116.040863399376	-47.3587127068759	-64.7851774215109	-47.5248586569793	-67.3175906197095	-1.0383199246989	-54.5269341032098	
31191500	-0.352748754658513	-118.644770674645	-46.7513188926886	-89.1295717289777	-46.7098688019127	-90.0835251565248	-1.04916151226033	-55.5714591634746	
31441000	-0.203220500730235	-120.532471446005	-47.1344592797077	-109.482035874546	-46.9117295731545	-110.939905978371	-0.896863481899325	-56.285686486687	
31690500	-0.212366069133538	-122.207284802803	-47.5616690578907	-119.146727545131	-47.3659469859841	-120.803721807771	-0.700352665451172	-56.2970724022058	
31940000	-0.406965109286986	-124.180094622562	-45.236591797216	-132.80139187944	-45.1150206817284	-135.446778354025	-0.613406898207462	-55.8894259139015	
32189500	-0.592125914738588	-126.988209512389	-44.4537238680306	-156.735195662008	-44.3732609904553	-157.758002184883	-0.679193794100493	-55.6916269813998	
32439000	-0.674061849375803	-130.73093833481	-44.0210873038363	-173.847680881816	-44.0093361888904	-176.148696472891	-0.821792958170886	-56.3347712320601	
32688500	-0.642118933283885	-134.546454210661	-43.180859338915	170.175380415758	-43.0980804602961	168.262258941473	-0.931069872396177	-57.6827155717471	
32938000	-0.60648687079644	-137.877529972082	-41.9082905189189	153.637995581506	-41.780636364416	151.431372760413	-0.928017681082101	-59.2772378311158	
33187500	-0.78173883563208	-140.903231431311	-39.9326224227489	133.364111511087	-39.8674808612735	131.603777307153	-0.796796244391995	-60.0334416953553	
33437000	-1.41505341312505	-144.038562014633	-37.8366762116427	109.149618623226	-37.6781424155085	107.359172164256	-0.68604536409521	-60.1826818312172	
